! Matrix data file written by TouchstoneData, EPCOS AG
! FILENAME: "B1647_WBx.s3p"
! COMMENT: "(B1647_WB.s3p) (B1647_WB.s3p)"
! INFO: nport=3, nfreq=1601
! DATE: "Thu Nov 13 10:09:01 2008"
! USER: "LeeChing Then"
!
! port | pin | signal
! -----|-----|--------
!  1   |  2  | in
!  2   |  4  | out1
!  3   |  6  | out2
! -------------------
!
!
# MHZ S RI R 50
! freq  reS11 imS11  reS12 imS12  reS13 imS13  ...
250  0.931107726633034 -0.340797300642535  0.000132032252142964 0.000575907414217865  0.000135379211280286 0.000521252817323285
 0.00022710956600981 0.000628751642655  0.956656922032033 -0.264087374278653  0.000325262866799963 0.00110014118555515
 0.000174106514979389 0.000467470253647204  0.000409893757311343 0.00115999578533527  0.960629131047437 -0.263076957098706
253.59375  0.928771594905697 -0.343170548443055  0.000165544579640348 0.000646191381391067  0.000298133923264128 0.00052333349342817
 0.000147118955820787 0.000581512425074696  0.956295044148558 -0.26827668157804  0.00031914397430445 0.00124508525379973
 0.000211458576527764 0.000490343058730136  0.00024763448812603 0.00134753159371099  0.9582448491717 -0.269263474872833
257.1875  0.927302696977924 -0.34875343006115  0.000229942302572541 0.000656684008650242  0.000222832486082064 0.000545337514135841
 0.00019618752486426 0.000588329717317962  0.957747452746172 -0.271753340309396  0.000260133921930458 0.00118062912914149
 0.000229513238072532 0.00047392942084403  0.000283688249476094 0.00129144434751808  0.954060879756113 -0.275626181384746
260.78125  0.923416255154757 -0.355902840312556  0.000229697383228281 0.000609249264033852  0.00014097256758661 0.000505394394708163
 0.000261861143408949 0.000584409493239907  0.956639276447639 -0.27454057494222  0.000222445697744483 0.00116959966539233
 0.000229201843365274 0.000397319058858836  0.000276003445785491 0.00113171641574966  0.955220102382389 -0.276751300283122
264.375  0.922138980283881 -0.359035891864602  0.00022863798461062 0.000609611262015992  0.000159593102996509 0.000455850378440607
 0.000202827708408393 0.000580947707826059  0.952608994687622 -0.278053958556549  0.000298844379579193 0.00111096869801876
 0.000166585770555092 0.00042482401991474  0.000220100147994355 0.00120205487379505  0.952501124119939 -0.277291047880893
267.96875  0.920479055861001 -0.362342928598334  0.000227966242290992 0.000517356142439635  0.000100913449165363 0.000517592430079104
 0.000214744759648101 0.000548320615690045  0.95326912556026 -0.280125991856217  0.000347967560411184 0.0010727853139021
 8.35451000379436e-05 0.000456928398680996  0.000334820868115542 0.00130040774298925  0.950455667603367 -0.280848196544994
271.5625  0.917272065075658 -0.367382192029212  0.000273245547663828 0.000487404792206967  0.000236470705423846 0.000629402241256851
 0.000216735275824173 0.000503943175273595  0.953282391904993 -0.284123885736388  0.00032057006357183 0.00131837048156796
 2.91701961611064e-05 0.000475349442271316  0.000372191079844587 0.00136041454817431  0.952211198021556 -0.286354121245716
275.15625  0.919416470510873 -0.372699926975522  0.000217643839215253 0.000535891645778183  0.000213873868447935 0.00051332658159332
 0.000212639061684231 0.000552568764184514  0.948851970291138 -0.290401876381132  0.000381951781748764 0.00137013065426817
 0.000150201154437119 0.000482060239038975  0.000508324034157492 0.00135294320917237  0.949844524730743 -0.289590855906433
278.75  0.917637222592635 -0.376264004163125  0.00012167504870159 0.000566844647121224  0.00020635234033726 0.00030691859673074
 0.000242518055920747 0.000543909037522321  0.94773295475508 -0.291232099406887  0.000543778667439316 0.00143396989365523
 0.000191688174290732 0.000453918714091695  0.000612383148597744 0.00128976919586485  0.948394852260505 -0.29421045485308
282.34375  0.913641868037043 -0.382373882891364  0.000104972133430356 0.000569801317744312  0.000224071429231805 0.000519966604096921
 0.000217654493919648 0.000585911510466442  0.946894397072281 -0.295047702580268  0.000654768366943017 0.00121645009100362
 0.000138323691255826 0.000585838078329718  0.000566766883292287 0.00122939747703344  0.94636712434008 -0.296960283211148
285.9375  0.911678823244796 -0.387740403594023  0.000176214622870879 0.000600510419668471  0.000214617767211973 0.000476049247434236
 0.000266275919154802 0.000656331328381335  0.946681213623369 -0.304756190378035  0.000585514449374041 0.000885700203644248
 0.000180579996657258 0.000492009973491934  0.000534688794538571 0.000967317572386139  0.947162756662186 -0.300749328230139
289.53125  0.909630692578101 -0.3921122556911  0.000228920438830527 0.000593063467588452  0.000183606947351379 0.000397327181065533
 0.000196831054660158 0.000612594239514852  0.947566480843088 -0.303642478767394  0.000409236276555908 0.00100081263167048
 0.000367155586340525 0.000443052414352462  0.00051428203045872 0.0009451734152149  0.946540453124602 -0.303153411062549
293.125  0.904999753911524 -0.395461461851347  0.000364538857735748 0.000582984499919523  0.000124003837048977 0.000431503067019342
 0.000191280577345126 0.00038424178249532  0.945453105735344 -0.305639331862565  0.000170434206160961 0.000830798474971389
 0.000357613708722657 0.000512261953574363  0.000286633265020873 0.000935107975587727  0.947960514183031 -0.310220283680051
296.71875  0.902807488601264 -0.40076767331647  0.000256746918295326 0.000614351163821343  0.000174894459151483 0.000448584306889149
 0.000132193149385869 0.000538093325247573  0.94254627706531 -0.310562956870779  0.0003582131943439 0.001169990522204
 0.000294350185781889 0.000411018738526476  0.00014512535282133 0.00123289262689211  0.941056633931357 -0.315940977783949
300.3125  0.903337706316265 -0.406156700922778  0.000192884463696562 0.000690704879299127  0.000369431118336786 0.000446878272044581
 0.000194202027888978 0.000733894272644967  0.942017317973461 -0.312997340672413  0.000223490436438719 0.00153759727639748
 5.36032464333461e-05 0.000386157466110675  0.000250106574396002 0.00152646888966172  0.940670654613961 -0.313719525014922
303.90625  0.89989484301705 -0.410615003762936  0.000288756992364087 0.000507052537991064  0.000242471398407585 0.000444139906819032
 0.000304324320911298 0.000570866829508159  0.941312082774658 -0.317775815435249  0.000214070834972421 0.00153734073547312
 0.00010136362207173 0.000371928726879759  0.00018267692915823 0.00162699370784287  0.938281449592288 -0.321132012813173
307.5  0.89927208783074 -0.414856778710808  0.000235382964196428 0.000558797963261305  0.000189640210055112 0.000528109273638018
 0.000294400753720587 0.000564821379084708  0.940205023584522 -0.320248422144502  0.000630894047298217 0.00160406811019949
 0.000251852883815197 0.00036298923679361  0.000478016626468588 0.00165745879211282  0.939294280878699 -0.324551769221813
311.09375  0.898270788910728 -0.420161685816964  0.000192365791705327 0.000519439305299267  0.000170712618618012 0.000555946457143199
 0.000198447429592446 0.00053051950770216  0.935891801652868 -0.32554177957416  0.000637988348439164 0.00159895143864885
 0.000219192140062378 0.000480152715972026  0.000590962314984469 0.00145357402287656  0.940275033098527 -0.327318063157938
314.6875  0.893211109851533 -0.421711173620491  0.000221471481068406 0.000521700227809753  4.54153325182252e-05 0.000328941178780202
 0.000241591476961917 0.000464097578559998  0.937305635391974 -0.326801831141104  0.000716695059854134 0.00129272579024162
 0.000152305065321979 0.000464558068845966  0.000695480848862239 0.00123618432019619  0.933653188702683 -0.33037013610864
318.28125  0.890107592083507 -0.427436531098353  0.00027807122900879 0.000570466658793772  7.46578122259793e-05 0.000537280274953313
 0.000290596398506377 0.000410686940216954  0.936855626602387 -0.332333027479843  0.000569139623809891 0.00111268247685923
 0.00014774355168866 0.000426403899984186  0.000482860566020412 0.00114604802237928  0.93381369231231 -0.331877416335423
321.875  0.887276580068521 -0.4312950669606  9.85424793490676e-05 0.000626658319822414  0.000172587088475396 0.000495539110950886
 0.000179072124254352 0.000532135289530778  0.93252946945911 -0.33654409530248  0.000561425121951975 0.00118543186660856
 0.000167833232140769 0.000428998439900081  0.000535182798789209 0.00119925399670278  0.933207838142215 -0.336399400042552
325.46875  0.885260119446706 -0.435534283737704  0.000298278164943933 0.000488875314309653  0.00017639952509817 0.000312615843692846
 0.000201504871334407 0.00035525745968826  0.931132829056782 -0.33876140472211  0.00029619957156449 0.00128014070273734
 0.000100506127305999 0.000529663622580341  0.000334094895328587 0.00119094269035948  0.933521943619021 -0.341932658850961
329.0625  0.884994596388767 -0.438796984305783  0.000154851684511408 0.000500618598465574  0.000239175021845617 0.000362819634467055
 4.87824720216347e-05 0.000360256629894094  0.931946738095932 -0.343508396600762  0.000354821439771687 0.00110870993405962
 0.000204366096839001 0.000455592804667547  0.000365044902625978 0.00124645129302242  0.931840501011953 -0.345129003649512
332.65625  0.880856993825042 -0.442418249790884  0.00029983373217232 0.000581202437264858  0.000164552662578059 0.000495529584108201
 0.000165575141275435 0.00048895247960443  0.929206847323146 -0.34739609690918  0.000401889813588343 0.00119002248783141
 0.000228993718404972 0.0005428658274413  0.000341106670560288 0.00122738090084517  0.929576111080894 -0.350329386803064
336.25  0.878189600026885 -0.447049824628077  0.000233527393717267 0.000363668586748878  0.000135954240897736 0.000432940005460045
 0.000281891288378713 0.000580527148628383  0.928887100117401 -0.350356172172706  0.000444700990777952 0.00136358323065922
 0.000173574504226791 0.000540618197148869  0.000367530447547613 0.00131607775278832  0.92866589757075 -0.353283952410479
339.84375  0.878313706222298 -0.453082664097847  9.98855451745314e-05 0.00040038116470483  0.000171377706308031 0.000342618581609294
 0.000315259323324922 0.000597277204846212  0.923660910872978 -0.353822609277595  0.000526960955962973 0.00120171929942537
 1.17238715258629e-05 0.000484152234931909  0.000580518538040411 0.0013667655495548  0.925519271833553 -0.356574287621775
343.4375  0.875832864217935 -0.454961781804811  0.000207323352589287 0.00051021442966722  0.000142570024152345 0.000388925283010089
 0.000167578214864906 0.000421628671238028  0.921226936801075 -0.356854423698648  0.000486179021152212 0.0012290529223745
 -3.7503616321819e-05 0.000405058588752235  0.000677848910929657 0.00129072246071338  0.924190462840838 -0.360741115272346
347.03125  0.872236793037164 -0.459015154601653  0.000162356396251579 0.000529864768423509  7.34844872844518e-05 0.000466218104299933
 8.29245978477827e-05 0.000466384858389257  0.924060965276129 -0.361356422629571  0.000545527793700332 0.00141851010181031
 0.000108208918888591 0.000389593346767295  0.000519621772086021 0.00130629639076984  0.92362421021486 -0.36413700330965
350.625  0.868910232020281 -0.467064850202509  6.54234543692491e-05 0.000495390591971023  5.92116321288454e-05 0.000406184253927726
 0.000136909912274972 0.000482635477634457  0.920449911739958 -0.365383026425687  0.000593023010887549 0.00147654841145351
 0.000138689453728911 0.000388421896209568  0.000567868789542831 0.00142287775232246  0.92224600177757 -0.369494887375475
354.21875  0.867368750651014 -0.468840776221793  8.56522082363516e-05 0.000392109305543697  0.000147297627786417 0.000411565863576848
 0.000173434616085058 0.00045296384534931  0.920316036835193 -0.368418726653707  0.000565936811455701 0.00135107934262774
 0.000101748742344948 0.000376618483724812  0.000615840790260072 0.00122735817030782  0.921943803995133 -0.373606225647892
357.8125  0.867332269311219 -0.471595423895178  0.000179802903716936 0.000566677529997212  0.00015329460624887 0.000491565223763461
 0.000177881405729649 0.000523935817491949  0.919694884362825 -0.371879162059772  0.000550753584046428 0.00118992768142338
 6.65667024626621e-05 0.000433888053419946  0.000400971032945699 0.00112403170163344  0.91926138920067 -0.375018155382257
361.40625  0.86426814911419 -0.477684934309036  0.000274682389365829 0.000632406368069491  0.000133923782904106 0.000450853314968007
 4.93044171293944e-06 0.000358421747044916  0.916753052317278 -0.374970407743482  0.000389983454890465 0.00125353172831581
 4.75667731546268e-05 0.000494131964429448  0.000393369863343266 0.00128442699241721  0.916559924659887 -0.378583486634448
365  0.859434732761638 -0.480513463296141  0.000290879906948968 0.000461331793123452  0.000217923686274421 0.000389736765724235
 3.31623815676563e-05 0.000369072960291374  0.918611079284792 -0.379158474172835  0.000319484880633265 0.00133971372132278
 0.00014996924235192 0.000512013755884108  0.000349604915104588 0.00125090705981104  0.916810392198549 -0.384565423802552
368.59375  0.856406236940165 -0.485483024851478  0.000234687098137155 0.000409545494870194  0.000247863420379178 0.000279833686088695
 0.000151419427019112 0.0004069696790014  0.911874201254099 -0.383155143574617  0.000419150905571534 0.0016719489490716
 0.00023154427868173 0.000225160527357149  0.000334417995865809 0.0016010677670856  0.915133565199663 -0.387570202628288
372.1875  0.85542228222225 -0.488371571716996  0.000223237496690533 0.000270198999972641  0.000257169195205748 0.000311666892532599
 8.12641472568089e-05 0.000354843405892729  0.912997571744657 -0.386903665105071  0.000500717733062919 0.00192592162628156
 0.000266222134121608 0.00013705427333212  0.000565298882105381 0.00174156882297784  0.9115188885142 -0.388343141624361
375.78125  0.852190618568966 -0.490982521261661  0.000223213379180309 0.000329174733502601  0.000200494974082337 0.000321485248466187
 0.000170706336496322 0.00029820796380079  0.911295988408345 -0.389314044802761  0.000776435141697511 0.00163187919858099
 0.00024482949464422 0.000277267940719226  0.000835751472700398 0.00166408556420018  0.909176791300739 -0.394136455366907
379.375  0.84910578915366 -0.495975129407563  0.000121733669704262 0.000177711986224564  0.000246160511349306 0.000384966881339889
 0.000182126188778533 0.000197219508681945  0.908904411122332 -0.39375823638823  0.000981837321846803 0.00164009469755311
 0.000279586063270222 0.000321941325749759  0.000982638498051451 0.00143281500890069  0.907304426222461 -0.39728945876773
382.96875  0.847479285395417 -0.501604515019803  0.000218871115692572 0.000290455986976098  5.71590194517789e-05 0.00030900051348627
 -1.10096199202171e-05 0.000279047614968  0.907518318105847 -0.396837513229466  0.000907788777896413 0.00129063570237461
 0.000107340944682711 0.00042742214411314  0.000965696930342777 0.00109720580177087  0.905925350381826 -0.399686990562103
386.5625  0.840850573789308 -0.50404202864999  0.000123131698951153 0.000253438406817656  6.24860741070138e-05 0.000416081197060053
 0.000200654412610245 0.000399659897765968  0.904346827599387 -0.398374152548817  0.000801667182011681 0.000918236469516955
 0.000167286621239008 0.000452918848622464  0.000858789491331962 0.000886777396905189  0.903154448532144 -0.403679232960155
390.15625  0.840416765954514 -0.506618942385763  -3.11141133487861e-05 0.000274741743836999  0.000171712984141313 0.000411917466365703
 0.000220249561347266 0.000505602850705772  0.905388017614529 -0.40178895057002  0.000639639267201851 0.000785871808072413
 9.51664913946825e-05 0.000273173695953016  0.000754715346805758 0.000816230666896729  0.904338993878442 -0.407016841332072
393.75  0.840044957146033 -0.512833257211088  0.000272263125797062 0.0002120811570695  0.00026492974148636 0.000261429813690883
 0.000193557426175284 0.000346575128628306  0.903337236418845 -0.404791578289411  0.000237786514957914 0.00108757354902444
 3.51404727532841e-05 0.000237525260490137  0.000268940171859382 0.00105480606076905  0.897884267391281 -0.409840474965213
397.34375  0.839043784796012 -0.516438452561734  0.000229190084686371 0.000292066079870238  2.94312682935707e-05 0.000250404032728721
 0.000177587451827974 0.000102297278379225  0.902024168688599 -0.40900959329423  0.000437353508192312 0.00130255263689956
 0.000176457664908432 0.000215343943039617  0.000273712257201321 0.00127939921316829  0.898361810671559 -0.413030163677592
400.9375  0.833892309558827 -0.521710904990512  4.40873059799325e-05 0.000282092609161678  0.000123894882903087 0.000277111335807991
 8.17557316918996e-05 0.000149145127107213  0.900737466011219 -0.414524895339203  0.000361349794204424 0.00157431135721829
 0.000120544805527986 0.000229255875169888  0.000406044824517474 0.00152623966408115  0.899541684255568 -0.417835558371463
404.53125  0.82885211681216 -0.527088569320579  4.98785938165719e-05 0.000100316680135358  7.17058799539942e-05 0.000293737862549158
 -2.83594461504209e-05 0.000302466505201783  0.8963774687957 -0.41723780591906  0.000427164448404003 0.00149827269393729
 0.000103314388728638 0.000250090766465288  0.00039745469144969 0.00151159786403568  0.89502996345489 -0.421882959037601
408.125  0.827479128312966 -0.530643489297398  -6.57537541965484e-06 0.000319613725427158  0.000117524365825158 0.000186210151328422
 -7.84524305308385e-05 0.000223981965697497  0.895530062418029 -0.418220127798389  0.000659743367131524 0.00149003628275436
 0.00013619205925365 0.000257311697749114  0.000703546340318656 0.00156865530064521  0.892870608280306 -0.425287240150966
411.71875  0.822371818301652 -0.533099633012215  2.02546480002039e-05 0.000212588275445783  0.000110365690398094 0.000168433978788736
 -3.7675608827885e-05 0.000215875154429268  0.894194092790405 -0.421287529993835  0.00085848306605621 0.0014927980021166
 0.000110099454618198 0.000168954678625173  0.000835857013689746 0.00145201647963674  0.892298626597464 -0.429481339507189
415.3125  0.819516635057484 -0.537704522026673  0.000126048749325476 0.000132966172513497  1.45304732470565e-05 0.00024256668543118
 9.29549432916955e-06 0.000148407391623219  0.892114488500059 -0.42546452616739  0.000860946774243461 0.00127730603511605
 0.000142393132612954 0.00024857417783334  0.000835792510010723 0.0012795095047241  0.890971154533882 -0.432292862782276
418.90625  0.819552841519684 -0.542917306370086  7.39060523431014e-05 0.000262082442528785  6.70070553268397e-05 0.000141789944177386
 3.38038897729234e-05 0.000181977601996379  0.889457896828366 -0.431370358188223  0.000583229271859061 0.00127241593724442
 0.000112281720434021 0.000182556272258861  0.000670658768835611 0.00131902264702906  0.887904782553907 -0.436739405593823
422.5  0.814519313489139 -0.545167607830335  -3.98783842458688e-05 0.000173782074802214  0.000135104336969128 0.000162843544481331
 0.000127568956448309 0.000251845884071761  0.887314324721479 -0.434572125415826  0.000627705898983279 0.00139522446368109
 7.24784444212189e-05 0.000200369506564645  0.000609422811375837 0.00143544486932631  0.885875897123345 -0.440360623128835
426.09375  0.810936975213672 -0.549290635225462  -8.41416271900406e-05 0.000119164833571472  9.29599037912229e-05 0.00018000771153555
 -5.38640697651797e-05 0.000103394832740798  0.887779038870594 -0.437277895352764  0.000684172293827415 0.00139915280471582
 0.000114234447259549 0.000225102376920317  0.000661773276508599 0.00131434140351615  0.884111260886067 -0.443263260010672
429.6875  0.810727142561384 -0.554578266550603  -7.02221450530067e-05 0.000188080042901814  0.000137020505706642 0.000195348524964478
 -0.000109980560431275 3.50571539868812e-05  0.886657557921663 -0.439610586511797  0.000635111110294224 0.00144176768418193
 0.00012008533058946 0.000170888406099733  0.000628711706064077 0.00132258710831851  0.882754198105201 -0.446821434532767
433.28125  0.805719867075515 -0.558868822081769  -5.95591164066672e-05 0.000143228499447882  9.29416032176009e-05 0.000185709526405624
 -0.000199603608930565 0.000125146517460711  0.883542509488159 -0.444730849055078  0.00071582237182615 0.00140117375825209
