! Matrix data file written by TouchstoneData, EPCOS AG
! FILENAME: "B1647_NB.s3p"
! COMMENT: "(B1647_NB.s3p)"
! INFO: nport=3, nfreq=1601
! DATE: "Thurs Nov 13 2008"
! USER: "Then Lee Ching"
!
! port | pin | signal
! -----|-----|--------
!  1   |  2  | in
!  2   |  4  | out1
!  3   |  6  | out2
! -------------------
!
#  HZ   S   RI   R     50.0000
! Rohde & Schwarz ZVA/B
!
!
!

 1.272000000000000E9    -2.959060692290628E-1  -8.224637811982675E-1  -2.786251555972027E-2   8.231681161951792E-3  -1.652676791838208E-2   5.425188648092605E-3
                        -2.789810257468228E-2   8.065382698764355E-3  -1.225818326904260E-2  -9.467815859801911E-1  -1.282405430624490E-2   1.173895471286044E-3
                        -1.658095276627185E-2   5.193006535671629E-3  -1.221085336864909E-2   1.153318894191184E-3  -6.645862461495600E-2  -9.395823393413302E-1

 1.272250000000000E9    -2.959472597583379E-1  -8.218617778656281E-1  -2.772401532542870E-2   7.980303200454402E-3  -1.656973724211821E-2   5.227292710877500E-3
                        -2.775800177803795E-2   8.215166650478965E-3  -1.097162672335894E-2  -9.456403321333053E-1  -1.278377870011032E-2   1.132605616253198E-3
                        -1.681750690591659E-2   5.291672176938196E-3  -1.230169567946445E-2   1.175898506146152E-3  -6.876440241012549E-2  -9.376833320121394E-1

 1.272500000000000E9    -2.983134795531629E-1  -8.220070988789107E-1  -2.768087161340729E-2   8.283330818786764E-3  -1.676149034615548E-2   5.188915394524407E-3
                        -2.812089884303880E-2   8.195944203655530E-3  -1.615641808212182E-2  -9.444342027897489E-1  -1.215650530481421E-2   1.299906824105346E-3
                        -1.695186256948008E-2   5.384783082894229E-3  -1.234974146296937E-2   1.176163084682095E-3  -7.003699022568538E-2  -9.387138469794607E-1

 1.272750000000000E9    -2.962620380753336E-1  -8.200188629245325E-1  -2.779273910276335E-2   8.376242106359164E-3  -1.662886873445602E-2   5.284964004608149E-3
                        -2.780416549323357E-2   8.170805396982195E-3  -1.767605000423761E-2  -9.459962123300242E-1  -1.216281671209177E-2   9.589594564002315E-4
                        -1.698853477231488E-2   5.557881954160692E-3  -1.228312593368433E-2   1.241892348293802E-3  -7.173103160684857E-2  -9.393975009549357E-1

 1.273000000000000E9    -2.979004069664790E-1  -8.178125082007103E-1  -2.768023633971574E-2   8.326615103344245E-3  -1.647771749352898E-2   5.464080525808168E-3
                        -2.788414232394364E-2   8.347002798086109E-3  -1.763336369812929E-2  -9.462364834581694E-1  -1.262332297154271E-2   1.101163072612801E-3
                        -1.687538115749229E-2   5.522039006224230E-3  -1.218559673250263E-2   1.132584957212454E-3  -7.177174237441886E-2  -9.358799096158551E-1

 1.273250000000000E9    -2.988225413296036E-1  -8.199717604194031E-1  -2.786434949297999E-2   8.240670188967746E-3  -1.663660268335350E-2   5.492389482529532E-3
                        -2.799090880246399E-2   8.104198517631790E-3  -1.755891290210732E-2  -9.449030182519478E-1  -1.243308562957709E-2   1.048571951324135E-3
                        -1.691222553287015E-2   5.656065168315034E-3  -1.209236045181899E-2   9.748486331140872E-4  -7.262981727590101E-2  -9.363759902713013E-1

 1.273500000000000E9    -2.969302924929438E-1  -8.173510704153423E-1  -2.776978955094473E-2   8.241077921877322E-3  -1.667845489646867E-2   5.696895879729057E-3
                        -2.775685688686764E-2   7.913802010284394E-3  -1.511770570461701E-2  -9.429488580299101E-1  -1.232554242538677E-2   8.938959459450059E-4
                        -1.696774565115861E-2   5.644203177037895E-3  -1.203664450035905E-2   7.313148732621642E-4  -7.307794194115636E-2  -9.378203790770832E-1

 1.273750000000000E9    -2.988518621569868E-1  -8.190375945621408E-1  -2.775414662320636E-2   8.061759490101935E-3  -1.663029370553074E-2   5.655054809695689E-3
                        -2.768584673909710E-2   8.300038693894205E-3  -1.802988789919446E-2  -9.427132449284509E-1  -1.191598092495126E-2   6.130794620167112E-4
                        -1.686232300181353E-2   5.772636721943367E-3  -1.194684468199833E-2   6.044501021311758E-4  -7.343538591277410E-2  -9.355846553983929E-1

 1.274000000000000E9    -2.994776147036187E-1  -8.167793443709439E-1  -2.786491617642967E-2   8.172514686168978E-3  -1.657841715403531E-2   5.796119571442644E-3
                        -2.808599218453823E-2   8.422886353472887E-3  -1.855295136551072E-2  -9.444092533345204E-1  -1.190711461385595E-2   3.986011683383890E-4
                        -1.692830606346476E-2   5.805841662999399E-3  -1.217409404431382E-2   4.378729952177638E-4  -7.537941353538508E-2  -9.358459464757947E-1

 1.274250000000000E9    -3.018584316095528E-1  -8.163832327278076E-1  -2.779223444830837E-2   8.437740190012626E-3  -1.642085747251214E-2   5.968108014233315E-3
                        -2.782369159671619E-2   8.243862354807957E-3  -1.951556050180647E-2  -9.455423199609380E-1  -1.206768280923792E-2   1.913231173525181E-4
                        -1.678893049214942E-2   6.017317625177060E-3  -1.221008819269439E-2   1.501482129870422E-4  -7.561203477374218E-2  -9.368086750234667E-1

 1.274500000000000E9    -2.999777594692183E-1  -8.174177841087824E-1  -2.797231397776610E-2   8.220556582658994E-3  -1.632147327685196E-2   6.070328115803077E-3
                        -2.799730022820216E-2   8.083697508104360E-3  -1.916355943845199E-2  -9.401645187151578E-1  -1.214726184435733E-2   7.072401938509193E-5
                        -1.667076585865936E-2   5.885524735606333E-3  -1.229732304810252E-2  -1.240724994707662E-4  -7.529598296783188E-2  -9.341991059907095E-1

 1.274750000000000E9    -3.015853216608723E-1  -8.167355492381394E-1  -2.811049709754350E-2   8.222894901792188E-3  -1.614533888389316E-2   6.049197614122697E-3
                        -2.793583462572896E-2   8.374496869246195E-3  -2.101574481396862E-2  -9.411634797919720E-1  -1.277265362583185E-2  -1.616264015795697E-4
                        -1.652481715885894E-2   5.852697775395102E-3  -1.258416413355419E-2  -1.383138525388235E-4  -7.536375165888901E-2  -9.341098048556391E-1

 1.275000000000000E9    -3.007010730735721E-1  -8.144601842751243E-1  -2.796886458516013E-2   8.231292585454608E-3  -1.612864259403010E-2   5.909606110544688E-3
                        -2.826636253687337E-2   8.165381718866884E-3  -2.018271167573893E-2  -9.412272673394843E-1  -1.322611233070963E-2  -1.961681493533709E-4
                        -1.624514264327030E-2   5.968776878351689E-3  -1.289842688257104E-2  -1.801765995486006E-4  -7.615483972221135E-2  -9.341860112818992E-1

 1.275250000000000E9    -3.013638728594088E-1  -8.163039561210846E-1  -2.820263804014213E-2   8.403867381589998E-3  -1.598848358539991E-2   5.909097423589487E-3
                        -2.842806250491045E-2   8.304149839650592E-3  -1.921715982497990E-2  -9.433792943362260E-1  -1.281558301823051E-2   9.169021797144229E-5
                        -1.633634654510738E-2   6.036072483891055E-3  -1.314574135082547E-2  -1.786191886808093E-4  -7.771297797430882E-2  -9.354968400603791E-1

 1.275500000000000E9    -3.002377249433245E-1  -8.167125979026779E-1  -2.811375707009278E-2   8.542650259144616E-3  -1.605431911891419E-2   5.648169137152191E-3
                        -2.834384112303898E-2   8.294084370493119E-3  -2.301347611910215E-2  -9.424531218700365E-1  -1.355748484419442E-2   7.282779637652129E-6
                        -1.623599517153094E-2   5.824269802719311E-3  -1.324804011590134E-2  -6.688309877546286E-5  -7.645135713828688E-2  -9.362763746235033E-1

 1.275750000000000E9    -3.029469299507817E-1  -8.142870894953896E-1  -2.829080569257924E-2   8.794308829608808E-3  -1.590969907166167E-2   5.726078750542622E-3
                        -2.839268421188504E-2   8.462189733325135E-3  -2.209184655284158E-2  -9.430649701797373E-1  -1.358417467656104E-2   1.449672380206607E-4
                        -1.626563189546459E-2   5.703135665989206E-3  -1.314698237646403E-2   1.888919382444848E-4  -7.855937504391231E-2  -9.355314940989915E-1

 1.276000000000000E9    -3.026095232933131E-1  -8.138891475285617E-1  -2.814211507038489E-2   8.525402980440092E-3  -1.581110217826448E-2   5.695709435878386E-3
                        -2.825130127867068E-2   8.543369675630252E-3  -2.162898927224705E-2  -9.425397888946662E-1  -1.305009822236072E-2   1.777401723395116E-4
                        -1.621327446920108E-2   5.783164197074272E-3  -1.327797324428379E-2   1.719839462751413E-4  -7.727802398473524E-2  -9.350589039384472E-1

 1.276250000000000E9    -3.019288468418357E-1  -8.138353956915798E-1  -2.814525989761134E-2   8.717886454071986E-3  -1.591837898220361E-2   5.682758590202824E-3
                        -2.821393486651952E-2   8.518563015264139E-3  -2.278608531926074E-2  -9.409202263425535E-1  -1.348151852769689E-2   2.603728015431054E-4
                        -1.610407321552172E-2   5.676518060093667E-3  -1.313084826506906E-2   1.327451604510805E-4  -7.984199943455653E-2  -9.343310312802780E-1

 1.276500000000000E9    -3.011287371100359E-1  -8.132725647131771E-1  -2.786864127978414E-2   8.444783260935437E-3  -1.596041075714557E-2   5.476417867537542E-3
                        -2.838249553050368E-2   8.878161555612206E-3  -2.174467366554106E-2  -9.420355938088992E-1  -1.311072191334656E-2   3.096867150922597E-4
                        -1.622017488699857E-2   5.532872310127801E-3  -1.305523593774984E-2   2.101809209510497E-4  -8.060178403046650E-2  -9.353761345350058E-1

 1.276750000000000E9    -3.024508553427707E-1  -8.164138580566390E-1  -2.830931346493282E-2   8.736791990191190E-3  -1.587843697527684E-2   5.475697679484465E-3
                        -2.838720745050527E-2   8.674523012818167E-3  -2.488242588058648E-2  -9.421089549534116E-1  -1.286102156167359E-2   1.489387390075994E-4
                        -1.616197627183136E-2   5.579094696287753E-3  -1.305419440954503E-2   2.232970196110098E-5  -7.982065270280539E-2  -9.345564888906428E-1

 1.277000000000000E9    -3.044200386301765E-1  -8.142888437480638E-1  -2.843264274559692E-2   8.695936291545510E-3  -1.591938859503234E-2   5.613993860468461E-3
                        -2.846504424529889E-2   8.803714662079869E-3  -2.296652754098572E-2  -9.427383330989296E-1  -1.352404471772109E-2  -4.370244818690302E-5
                        -1.628599534656912E-2   5.668854866452903E-3  -1.314273429082994E-2  -1.511174746593770E-4  -8.198609638286983E-2  -9.348462398518725E-1

 1.277250000000000E9    -3.040836615604375E-1  -8.139511002863439E-1  -2.791515980392125E-2   8.851220182464049E-3  -1.583619522424804E-2   5.422223251861614E-3
                        -2.816101101802469E-2   8.807144271253772E-3  -2.705931468558220E-2  -9.415483910053168E-1  -1.357334926865719E-2  -1.910957082775448E-4
                        -1.625447278372956E-2   5.613686092935915E-3  -1.317513534788089E-2  -1.479215005550441E-4  -8.189912816753756E-2  -9.351350540459514E-1

 1.277500000000000E9    -3.047608315836303E-1  -8.162926441721250E-1  -2.841422191124080E-2   8.766359748089588E-3  -1.579949514960594E-2   5.473996597895506E-3
                        -2.844560130754247E-2   8.754944000394739E-3  -2.670631665504764E-2  -9.426191919011004E-1  -1.298017440200933E-2  -1.791699737729840E-4
                        -1.616995306651925E-2   5.598091548300942E-3  -1.324889138932789E-2  -3.044235094861372E-4  -8.362494746471449E-2  -9.329000521646809E-1

 1.277750000000000E9    -3.019937636319960E-1  -8.136350770837825E-1  -2.834595935452908E-2   8.804480711816264E-3  -1.574959831570803E-2   5.505057384285226E-3
                        -2.838111599371909E-2   8.737361855365920E-3  -2.782605206713157E-2  -9.423509989924411E-1  -1.309329142081145E-2  -3.275849409550783E-4
                        -1.622461813746838E-2   5.494373217729481E-3  -1.335287167464617E-2  -4.338297014247310E-4  -8.456029116482675E-2  -9.338110576283308E-1

 1.278000000000000E9    -3.036896445250866E-1  -8.151394278595011E-1  -2.827946795133961E-2   8.882634570418702E-3  -1.597214449949689E-2   5.481344619125285E-3
                        -2.812235995113255E-2   8.532146521212746E-3  -2.735260142954632E-2  -9.397468856585978E-1  -1.332107710336330E-2  -4.140691277739082E-4
                        -1.630898246041547E-2   5.357302974522062E-3  -1.351493572934404E-2  -6.103840622533607E-4  -8.474501476015647E-2  -9.331923404790382E-1

 1.278250000000000E9    -3.056151377948149E-1  -8.145053456224783E-1  -2.833339630659288E-2   8.840080572728159E-3  -1.605265526528149E-2   5.401095514831362E-3
                        -2.836530479537837E-2   8.851304627224195E-3  -2.828608388420167E-2  -9.400154885348264E-1  -1.328452745399624E-2  -5.625093942132325E-4
                        -1.624187259579363E-2   5.508164112064088E-3  -1.371104627798184E-2  -7.189080085325626E-4  -8.633600764337812E-2  -9.344813047580947E-1

 1.278500000000000E9    -3.041838844611940E-1  -8.138437591537635E-1  -2.836248407882369E-2   8.736203968885447E-3  -1.604946236268054E-2   5.297131031326435E-3
                        -2.864655468613362E-2   8.808148372640615E-3  -2.820802243524356E-2  -9.424790956897707E-1  -1.353485823167321E-2  -9.626246317578314E-4
                        -1.616063652863294E-2   5.410691028351160E-3  -1.398989059009336E-2  -7.966111787699034E-4  -8.534594737881582E-2  -9.327864804808208E-1

 1.278750000000000E9    -3.050596486845610E-1  -8.123413466789335E-1  -2.818390550265046E-2   8.699381916157675E-3  -1.594163479378158E-2   5.341320816798073E-3
                        -2.839343503230732E-2   8.881010293247834E-3  -3.101615608802466E-2  -9.417048997229515E-1  -1.387204055686897E-2  -9.853387422186100E-4
                        -1.632590884403576E-2   5.382806505557440E-3  -1.414130366700550E-2  -9.165732036814861E-4  -8.598461491487691E-2  -9.336671453402938E-1

 1.279000000000000E9    -3.063252137404438E-1  -8.138729126865257E-1  -2.861592418502996E-2   8.879825109589030E-3  -1.579673558451112E-2   5.311930865461365E-3
                        -2.865520572256223E-2   9.079812487748239E-3  -2.981068023266792E-2  -9.414886947837288E-1  -1.468066086604629E-2  -9.319011426853858E-4
                        -1.610890446826600E-2   5.252713680904350E-3  -1.429627875772275E-2  -8.659709565667743E-4  -8.740145169689551E-2  -9.310933133963213E-1

 1.279250000000000E9    -3.063195717289396E-1  -8.147953902285350E-1  -2.858315115063654E-2   8.933917219906658E-3  -1.596212003224741E-2   5.249326590134603E-3
                        -2.852891659341377E-2   8.838253722814146E-3  -3.064653753077035E-2  -9.403159233577434E-1  -1.430123279964683E-2  -8.596842004069865E-4
                        -1.638516389733831E-2   5.395197772912476E-3  -1.448997099625037E-2  -9.807728215411446E-4  -8.805023009301372E-2  -9.329694249255838E-1

 1.279500000000000E9    -3.072197084691652E-1  -8.120764430093374E-1  -2.834837595471404E-2   9.071307721291382E-3  -1.588416332475682E-2   5.183269277116528E-3
                        -2.851873322885013E-2   9.194387403361724E-3  -3.300603465776647E-2  -9.400514037879773E-1  -1.451895967443777E-2  -9.110953687175068E-4
                        -1.631621874579670E-2   5.391230892835765E-3  -1.470158506697037E-2  -9.350234206088846E-4  -8.957516188090145E-2  -9.317754597842374E-1

 1.279750000000000E9    -3.085576974931700E-1  -8.125534382257188E-1  -2.849237269526499E-2   9.023516581333296E-3  -1.613912541675922E-2   5.305831927880658E-3
                        -2.858180922152807E-2   8.989722450949162E-3  -3.314191529995747E-2  -9.393804508397099E-1  -1.469465604849906E-2  -8.770069692520897E-4
                        -1.622193427789341E-2   5.374169698627798E-3  -1.484754039972603E-2  -8.991005956425465E-4  -8.722338086131520E-2  -9.322133470526683E-1

 1.280000000000000E9    -3.083207681260180E-1  -8.127623240508390E-1  -2.836619147729964E-2   9.074088755297419E-3  -1.611512432957326E-2   5.202196636850461E-3
                        -2.877320952329540E-2   9.356677642880741E-3  -3.456410233648949E-2  -9.408673499604792E-1  -1.510979793335278E-2  -8.567886834284187E-4
                        -1.628991155682229E-2   5.260511756317655E-3  -1.510623468975858E-2  -8.950233703048935E-4  -8.848601758328653E-2  -9.332408208223625E-1

 1.280250000000000E9    -3.070129586350296E-1  -8.122980219019945E-1  -2.831248044674403E-2   9.029965187882443E-3  -1.589605273666882E-2   5.311682950403267E-3
                        -2.866185140869441E-2   9.251288854755404E-3  -3.263982556966488E-2  -9.388407729717775E-1  -1.498129215471716E-2  -8.023195335682895E-4
                        -1.646345956787848E-2   5.236518556605035E-3  -1.538281317240425E-2  -9.335038209200590E-4  -9.119794468215367E-2  -9.314985333191295E-1

 1.280500000000000E9    -3.091005470421760E-1  -8.128977243299885E-1  -2.859240752602303E-2   9.216118570717073E-3  -1.607806623640943E-2   5.008243461128859E-3
                        -2.865234562858046E-2   9.336050014663078E-3  -3.384406878124102E-2  -9.404651393562664E-1  -1.534036584226148E-2  -8.480697405721408E-4
                        -1.637691922043669E-2   5.278948284706922E-3  -1.555351789889577E-2  -8.272807895834860E-4  -9.011358788076890E-2  -9.306259431212596E-1

 1.280750000000000E9    -3.119888813053274E-1  -8.130212640444177E-1  -2.855275275004229E-2   9.420777428844169E-3  -1.609372458929554E-2   5.174951652810421E-3
                        -2.888963068683973E-2   9.200479085468720E-3  -3.395494867704496E-2  -9.403660761115888E-1  -1.565375809371200E-2  -7.012017636307821E-4
                        -1.653269556348244E-2   5.350495211433557E-3  -1.593572821110239E-2  -6.705979721741634E-4  -9.119273697773783E-2  -9.313019762674357E-1

 1.281000000000000E9    -3.094679980394710E-1  -8.125457751806221E-1  -2.848297811742049E-2   9.313671890971587E-3  -1.607498324318619E-2   5.249867537258099E-3
                        -2.845796266667282E-2   9.221923189941056E-3  -3.538723980763214E-2  -9.392530843509690E-1  -1.581834933067839E-2  -6.730685915846057E-4
                        -1.655195851366060E-2   5.263639501744709E-3  -1.609418004544794E-2  -6.641765285442768E-4  -9.257528549484353E-2  -9.307803762455519E-1

 1.281250000000000E9    -3.143686757290860E-1  -8.095335434887429E-1  -2.838556982619961E-2   9.420808232327740E-3  -1.612064006629735E-2   5.020580003135516E-3
                        -2.850638319922087E-2   9.377513866209700E-3  -3.738116740317321E-2  -9.386062379933527E-1  -1.618845983654945E-2  -5.645415358710498E-4
                        -1.646236756004642E-2   5.279267398947486E-3  -1.637823535755281E-2  -6.568913010027632E-4  -9.144283366602771E-2  -9.318014914073550E-1

 1.281500000000000E9    -3.121226652661202E-1  -8.129885497147227E-1  -2.849476544880454E-2   9.560295028098954E-3  -1.608682410655264E-2   5.070635003436632E-3
                        -2.861341526960813E-2   9.279049612049695E-3  -3.529764519890555E-2  -9.387825627172100E-1  -1.642418441392093E-2  -6.166001222710433E-4
                        -1.651294833851387E-2   5.227702350253357E-3  -1.680658191850989E-2  -6.047011435456294E-4  -9.148354687355861E-2  -9.299023129233861E-1

 1.281750000000000E9    -3.132926247367399E-1  -8.127252217061891E-1  -2.843926583277327E-2   9.351946182285409E-3  -1.641909474183010E-2   5.240214333809456E-3
                        -2.853937239437033E-2   9.327528587961730E-3  -3.658873575375948E-2  -9.409045997402236E-1  -1.676302951480933E-2  -2.695830860875957E-4
                        -1.665966418696995E-2   5.297773278454180E-3  -1.698383499041265E-2  -3.569009706336735E-4  -9.426405108186936E-2  -9.320668333491426E-1

