! Matrix data file written by TouchstoneData, EPCOS AG
! FILENAME: "LR91B.NB.1.snp"
! COMMENT: "(LR91B.NB.1.s3p)"
! INFO: nport=3, nfreq=801
! DATE: "Mon Dec 15 10:15:43 2008"
! USER: "Adrian Ma"
!
! port | pin | signal
! -----|-----|--------
!   1  |  2  |  IN
!   2  |  4  |  OUT
!   3  |  6  |  OUT
! --------------------
!
# MHZ S RI R 50
! freq  reS11 imS11  reS12 imS12  reS13 imS13  ...
2000  -0.703855621266142 -0.610185051939217  -0.0678153263752968 0.0654608996955272  -0.066589106312291 0.072622866314265
 -0.0680843489716006 0.0650965226763701  -0.217214861373368 -0.864849621644904  -0.0429430497049378 0.0518893370992823
 -0.0672131527934237 0.0721697137961816  -0.0431529031090273 0.0518412346847509  -0.333980895295218 -0.826532663986417
2000.875  -0.704437143355554 -0.608372914820826  -0.0679516595129332 0.0654839774694203  -0.0663016101696447 0.072966246458479
 -0.0682163669913733 0.0650635622577762  -0.218516643600621 -0.864540081075578  -0.0429832425469714 0.0521786639759223
 -0.0670081622901574 0.0725527739012297  -0.0432396983493057 0.0522072112115319  -0.334625269736693 -0.824661678369962
2001.75  -0.704938622535724 -0.606485209509778  -0.0681201358261367 0.0655648247127866  -0.0659397200836045 0.0732491577503919
 -0.0683714385736351 0.0650813490811848  -0.219838686975118 -0.864123630868857  -0.0429818674494448 0.0525053856691241
 -0.066725516391478 0.0728853374147569  -0.0433046152371748 0.0526165091628769  -0.335172903417642 -0.822896483554253
2002.625  -0.706022343122751 -0.605348118635275  -0.0683607123406712 0.0656624458474015  -0.0657785686599308 0.0736305771243432
 -0.0686158215058272 0.0652249179634459  -0.221004591078812 -0.863777714805269  -0.0430154635456021 0.0529800555671152
 -0.0665161080222398 0.073237698201697  -0.0433087533443563 0.0530341587302649  -0.336787661574671 -0.823273985393305
2003.5  -0.707359483992961 -0.604478736678346  -0.0685704353754308 0.0658296114173834  -0.0657159819963824 0.0739945057484534
 -0.0688371030126112 0.0654606409077539  -0.222186795968341 -0.863426401743815  -0.043030426625332 0.0534581435490837
 -0.066362573952838 0.0735602864575344  -0.0432510645769276 0.0534276370294299  -0.338752551938475 -0.824491537494944
2004.375  -0.708565656631546 -0.603603405515917  -0.0687718559712964 0.0659974891674953  -0.0656964309694057 0.0743426902257893
 -0.0690501773314468 0.0657079000475629  -0.223282040716717 -0.863088845025405  -0.0430043848661858 0.0538706097972245
 -0.0662370203006231 0.0738708152068864  -0.0431514374785205 0.0537404650150161  -0.340629151240968 -0.825738167691453
2005.25  -0.709378424466864 -0.602275141616845  -0.0689450621224105 0.066271111587095  -0.0655956244929931 0.0746404675260267
 -0.0692299709529298 0.0660134075340413  -0.224480249506968 -0.862765266955041  -0.0428798147439706 0.0541550610338214
 -0.0661197047048054 0.0741417736703693  -0.0430257746220529 0.0539904258028013  -0.342258144507285 -0.825766406878925
2006.125  -0.709981935131425 -0.600706326439122  -0.069001881827712 0.0665753037405503  -0.0654437253690814 0.0748961680517842
 -0.0692824282257324 0.0663212750913335  -0.225732271930302 -0.862427732735212  -0.0427535760223288 0.0543390445105714
 -0.0659906272246184 0.0744091329684477  -0.0429119938215408 0.054172657219477  -0.34362917225151 -0.825109123995736
2007  -0.710524888879952 -0.599107834650969  -0.0690217529156581 0.0668466369292771  -0.0653178158018852 0.075169924896239
 -0.069300630939587 0.0666055773761042  -0.227047949859207 -0.862048706984269  -0.0426897603926736 0.0544664808503616
 -0.0658708340070976 0.0746806295073553  -0.0428557465545345 0.0543002401952351  -0.344979576346219 -0.82440905183635
2007.875  -0.710871018761842 -0.597429676538415  -0.0689555898367746 0.0671055116034857  -0.0651338124072843 0.075461374887272
 -0.0692316755904934 0.0668698636945759  -0.228430038960242 -0.861623200168166  -0.0426984981468249 0.0545670590867308
 -0.0656887380648656 0.0749776228985063  -0.0428731240959412 0.0543872270396746  -0.346356787297084 -0.82372684745468
2008.75  -0.710984418245091 -0.595813986294359  -0.0688533235380396 0.0673043816665299  -0.0649196920804251 0.0757409338073323
 -0.0691237379725101 0.0670626812666056  -0.229764043036499 -0.861216303553148  -0.0427657591938318 0.0546911757254371
 -0.0654828448276863 0.0752507798749715  -0.0429308728022167 0.0545211330505338  -0.34762227933808 -0.823000456097289
2009.625  -0.710896490978255 -0.594314160671275  -0.0687397672925916 0.0674225293338579  -0.0646879429598553 0.0759718421026479
 -0.0690303724921832 0.0671902832516925  -0.23112691041852 -0.860760442234059  -0.0428655568128211 0.0548976891159783
 -0.0652440483123301 0.0754971281590596  -0.0430268338122615 0.0547218329984338  -0.348845448440428 -0.822312140491746
2010.5  -0.710519201956811 -0.593107408169204  -0.0687055607730448 0.0674722496125994  -0.0644701748363678 0.0761263571799116
 -0.0689872834361344 0.0672312190726988  -0.232420079642744 -0.860221825634714  -0.0429562082101594 0.0551538613781391
 -0.0650286946955088 0.0756632348610629  -0.0431154442607017 0.054986338570274  -0.350028697553938 -0.821628948284316
2011.375  -0.710131291805503 -0.592223587565144  -0.068688143604032 0.0675132848077662  -0.0642616026935404 0.0762576893295313
 -0.0689699486499522 0.0672817769510199  -0.233813513107145 -0.859595682099441  -0.0429830546134183 0.0554344788108917
 -0.0648180936738056 0.0757851922488738  -0.0431506209681888 0.0552610824753712  -0.351241213344769 -0.820831222594797
2012.25  -0.710025297728494 -0.591662994848623  -0.0686960670045911 0.0675557183412915  -0.064115292205857 0.0763606130630746
 -0.0689779198478924 0.0673333123427219  -0.235062148773268 -0.859010406098554  -0.0429389362169495 0.0557209825788501
 -0.0646768183756588 0.0758999355137191  -0.0431273971435437 0.0555463334007243  -0.352430401002057 -0.820078420324603
2013.125  -0.710061184404197 -0.591300220773386  -0.0687607985392902 0.0676006818157864  -0.0640410624654511 0.0764805181654094
 -0.0690325217901581 0.067384741089415  -0.236312454658316 -0.858491103670935  -0.0428552900511679 0.0559678460887066
 -0.0646153044784093 0.0760041051509466  -0.0430427614137372 0.0557835172171884  -0.353572413285454 -0.819328986224083
2014  -0.710531566394255 -0.590976053755511  -0.0688225631006891 0.0676820493641266  -0.064028231297218 0.0766462180140802
 -0.0690911592760738 0.0674692983849099  -0.237560399303295 -0.858002429343286  -0.04275966423691 0.0561866314841724
 -0.0645974786352861 0.0761794197692599  -0.0429508700795237 0.0559991035712125  -0.354794391762695 -0.818706119678344
2014.875  -0.711109782060904 -0.590572374476061  -0.0688629881292536 0.0677262082112646  -0.0640210567414782 0.076909496377258
 -0.0691461447085146 0.0675201533184967  -0.238891381793915 -0.857597512229288  -0.0426309867868102 0.056376089880362
 -0.0645981332524536 0.0764358984299892  -0.0428291165401312 0.0561907772396174  -0.356071462426843 -0.81803110868935
2015.75  -0.711830882862087 -0.590012893186558  -0.0689020372804323 0.067755844158976  -0.0639382514446215 0.0772238701958793
 -0.0691751380417483 0.0675392835104938  -0.240363946602104 -0.857117492864601  -0.0425041872692028 0.0564781068828662
 -0.0645131286485083 0.0767487353725705  -0.0426890939153615 0.056294166089335  -0.357363526081041 -0.817334313263192
2016.625  -0.712459085453395 -0.589363419361311  -0.0689754401929423 0.0677216446893154  -0.0638185591403454 0.0775246796931508
 -0.0692669660995531 0.0675088733354606  -0.241771902015634 -0.856535701779584  -0.0423929176683386 0.0565225625485413
 -0.0643885737081532 0.0770567935571152  -0.0425754926944053 0.0563492960343034  -0.358669470816078 -0.816563848149722
2017.5  -0.7134856836063 -0.589109034213316  -0.0691143259194976 0.0676958004422081  -0.0637278081042247 0.077990759086246
 -0.0694916175162958 0.0674402105934983  -0.243220979391535 -0.855922712428683  -0.04235335051868 0.0565740294668306
 -0.0642717096757243 0.0774610638154456  -0.0424445157166835 0.0563742614461505  -0.360387562129259 -0.816807518170668
2018.375  -0.714245923947744 -0.588498310612906  -0.0693647141148999 0.0676258848257556  -0.06354196115016 0.0783999124435589
 -0.0697867458738633 0.0673500446166667  -0.244652551607196 -0.855110273144368  -0.042308294277953 0.0565177215210463
 -0.0640927306627352 0.0778374898842786  -0.0423632117075712 0.0563165448970711  -0.361876000112135 -0.816420362807142
2019.25  -0.71442692765629 -0.587633463905619  -0.06974719155436 0.0675253271103179  -0.0631563240426004 0.0786746384639231
 -0.0701335428892234 0.067270304727064  -0.246086771771239 -0.854097799442143  -0.0423048188263539 0.0563918716356115
 -0.0637195021999536 0.0781267720097433  -0.0423825895153568 0.0561703941405718  -0.362994545701478 -0.815104084694682
2020.125  -0.714635638134824 -0.587008932019785  -0.0702880357869023 0.0675829078619738  -0.0627342662734275 0.0788697229090675
 -0.0706393272520198 0.0673394523819191  -0.247405063517965 -0.853074917960151  -0.0423553175935965 0.0562078295307942
 -0.0633154376351467 0.078340593593726  -0.0424767055348134 0.0559930225246804  -0.364081098621908 -0.813716811463884
2021  -0.714896639624229 -0.586604389931465  -0.0708952339544588 0.0677817695129106  -0.0622679097217299 0.0789993108208003
 -0.0712154205423698 0.0675563123931316  -0.248540241977849 -0.851981661866645  -0.0425392564670271 0.0560258766205285
 -0.0628643330345254 0.078493729620314  -0.0426828550767113 0.055830265217264  -0.365081174639698 -0.81232461348547
2021.875  -0.715443923167579 -0.586337361378698  -0.0714715216950442 0.0681948499763929  -0.0617834322349826 0.0789705606872818
 -0.071762757017642 0.0679706497255952  -0.249556230867471 -0.850973594341631  -0.0428144171387921 0.055879935202442
 -0.0623732104021505 0.0784892791106292  -0.0430011634845196 0.05568158935806  -0.365952284368371 -0.810981571027717
2022.75  -0.716318861434218 -0.586110575843037  -0.0719058665132719 0.0687679509407439  -0.0614253559357339 0.0787907080819392
 -0.0721755756053522 0.0685538511917283  -0.250473971004082 -0.850149736036217  -0.0431754298285046 0.0558401492499332
 -0.0620342015604355 0.0783363936933855  -0.0433688602792152 0.0556509513830714  -0.36684193117247 -0.80976998314973
2023.625  -0.71767517130813 -0.58576881305298  -0.0722007387580993 0.0694276980789635  -0.0611542728211871 0.0787291413757025
 -0.0724697484176398 0.069222810741435  -0.251524966959127 -0.849189725940982  -0.0435646472374798 0.0558247699991358
 -0.0617672298744137 0.0782706100639248  -0.0437702268332839 0.0556240290676802  -0.367915348703282 -0.808733684028951
2024.5  -0.719086996330162 -0.585305058716764  -0.0723620161346921 0.0701266412876708  -0.0609478105918264 0.0785762485645818
 -0.0726183104191968 0.0699286942959699  -0.252548634326945 -0.848340502573355  -0.044031633262789 0.0558753880654773
 -0.0615624143084431 0.0781124586907013  -0.0442485272123596 0.0556584989695456  -0.36885535602024 -0.807767737980002
2025.375  -0.720496312367567 -0.584589562919413  -0.0723871738126653 0.0707288417875255  -0.0608158913520096 0.0784574466759177
 -0.0726489823246415 0.070529726888821  -0.253595451295951 -0.847417670755605  -0.0445383497237146 0.0559851811380501
 -0.0614296735620056 0.0779818316748227  -0.0447679262582343 0.0557702824431997  -0.369842195570143 -0.806761582335181
2026.25  -0.721922146304161 -0.583697647435835  -0.0723881135704814 0.071312189462573  -0.0607100471208312 0.0783370299491889
 -0.0726459995258859 0.0711143077391932  -0.254527035747661 -0.846436632207389  -0.0451169727677865 0.0561947446505314
 -0.0613108939510154 0.0778669018153547  -0.0453256104095512 0.0559759860420558  -0.370790259972936 -0.805760275694962
2027.125  -0.723296996573713 -0.582773100622812  -0.0723269095442908 0.071882003222236  -0.0606395502998868 0.0782275303997671
 -0.0725925701729605 0.07169227672502  -0.255358212162348 -0.845512209994599  -0.0457237617604638 0.056508823235187
 -0.0612458928995523 0.0777566479829774  -0.0459386682102442 0.0562915482886577  -0.371684280979096 -0.804727895536079
2028  -0.724604145997404 -0.581705873707652  -0.0722238105131182 0.072399739505647  -0.0605840397330634 0.0781020053847246
 -0.0725001102368072 0.0722094570187131  -0.256140025027862 -0.844547426892234  -0.0463120828400872 0.0569615153333433
 -0.0611774976815791 0.0776510230705162  -0.0465151249329157 0.0567556439048844  -0.372473701419621 -0.803702503951668
2028.875  -0.725835857109524 -0.580609205632398  -0.0721097034867689 0.0729016625055988  -0.0605496767645899 0.0779367660280351
 -0.0723863530238833 0.0727018207305517  -0.256741430634234 -0.843726021541023  -0.0468664344951233 0.0575075833790064
 -0.0611411935625537 0.0774726454675541  -0.0470823511879673 0.057300361629158  -0.373099144706003 -0.802754939475266
2029.75  -0.727210324381895 -0.579317488268457  -0.0719217339063759 0.0734183151250274  -0.0605861271015775 0.0777660921478903
 -0.0721906741195108 0.0732384305848039  -0.257329504266522 -0.842908254055687  -0.0473583756095666 0.0581704903395138
 -0.0611589951979718 0.0772967866273208  -0.0475663853571064 0.0579483674209253  -0.373676256817521 -0.801825235378253
2030.625  -0.728472214846191 -0.578020586561305  -0.0716824603319424 0.0738981450881517  -0.0606919492441394 0.0775651882759388
 -0.0719545437266825 0.0737181418385263  -0.257847853968917 -0.842315243579075  -0.0478616127538764 0.0589453249648119
 -0.0612711021027659 0.0770908520322425  -0.048083807188226 0.058714514624859  -0.37400285887807 -0.80105987264117
2031.5  -0.729662051218508 -0.576661277556129  -0.0714104693720166 0.0743049378539924  -0.0609412630652155 0.0773954686384579
 -0.0716877252985236 0.0741281621942171  -0.258448210566951 -0.841833082277217  -0.0482000237773839 0.0599544282237853
 -0.0615302740417199 0.0769263694469662  -0.0484190730865375 0.059718093758379  -0.374464979915213 -0.800734290907473
2032.375  -0.730747176166642 -0.57527083947616  -0.0711060556243466 0.0746291611620457  -0.0612569505921906 0.0773306612376792
 -0.0713835187797699 0.0744441775063976  -0.259111269782623 -0.841469490378852  -0.0483246890567385 0.0609866998805696
 -0.0618380683666604 0.0768444153202261  -0.0485486501948968 0.0607276141894961  -0.375174476793711 -0.800608572658475
2033.25  -0.731726225692292 -0.573852829343248  -0.0707780491597326 0.0748404263962146  -0.0616050348436903 0.0773265408425884
 -0.0710745002048362 0.0746715361263474  -0.259764120105289 -0.841223095405802  -0.0482853710697177 0.0620933733544784
 -0.0621925432661624 0.0768507665222694  -0.0484965309668811 0.061851036175894  -0.376153555989419 -0.800379550073442
2034.125  -0.732566007203128 -0.572397832465905  -0.0705163301545177 0.0749926281839032  -0.0619818972031489 0.0774468318842696
 -0.0708100804078683 0.0748197751243497  -0.260726021342661 -0.840842852375296  -0.0479276225791989 0.0631994137413889
 -0.0625548383053533 0.0769785773488359  -0.0481373299849787 0.0629605660202489  -0.377167909057014 -0.800124017334273
2035  -0.733359206359762 -0.570922901071051  -0.0702762056470937 0.0751094705844936  -0.0623060736980134 0.0776723736841929
 -0.070560564596393 0.0749301317292765  -0.261485468332628 -0.840304321808639  -0.0473500331622567 0.064090103676005
 -0.0628851849477918 0.0771919247043205  -0.0475848699272968 0.063842953509865  -0.378258903925798 -0.799736843952895
2035.875  -0.734223654096834 -0.569455696765019  -0.0701894490189816 0.0751494673504868  -0.0626531840197723 0.0779256606513663
 -0.0704591924725643 0.0749878054234517  -0.262210333817672 -0.839961408020934  -0.0466103965732063 0.0648111260374562
 -0.0632268161872266 0.0774402472309561  -0.0468576993111625 0.0645624776175091  -0.379518463520422 -0.799238739484738
2036.75  -0.735012175613713 -0.568095268036869  -0.0701433482820896 0.0752789537924012  -0.0629440828649932 0.0782965968773787
 -0.0704181538097897 0.0751096530138738  -0.263005188179763 -0.839739053949985  -0.0457606957398738 0.0652408813359865
 -0.0635262854356828 0.0778056258038399  -0.0460131602207768 0.0649978327182801  -0.380582878863868 -0.798716085497203
2037.625  -0.735716841083899 -0.566698478975385  -0.0700891452299749 0.0754103159055518  -0.0631409226545667 0.0786829243181449
 -0.0703520585954867 0.0752388727866444  -0.263838911038747 -0.839504135115303  -0.0449657355281442 0.065404868561834
 -0.0637058281922627 0.0781983931301724  -0.0452136906178846 0.0651691573867294  -0.381790482316216 -0.79820938794288
2038.5  -0.7363347199895 -0.565360310314642  -0.0700756450992675 0.0755187447682746  -0.0633009003335299 0.0790984324126171
 -0.0703468857765383 0.0753590894477574  -0.264739050475828 -0.83953939720615  -0.0443195466669846 0.0653892509356076
 -0.0638686155420304 0.0786262295505854  -0.044566357103263 0.0651636301742736  -0.38307967020601 -0.797686129683808
2039.375  -0.736835864761443 -0.564093347147616  -0.0701203442062876 0.0757148239840335  -0.0634373542592185 0.0795320058575317
 -0.0703960169518622 0.0755521719169022  -0.26596210956548 -0.839562605574089  -0.0438328089716757 0.0651783008344581
 -0.0640113263141905 0.079053692058326  -0.0440774663882951 0.0649482689439261  -0.384376052244503 -0.797096416221671
2040.25  -0.737312334934665 -0.562873956920261  -0.0701036902509017 0.0758644325432066  -0.0635123476968119 0.0799794408076956
 -0.0703689124673744 0.0756978895980354  -0.267146944635555 -0.839383531096767  -0.0435631439402846 0.0649805451135884
 -0.064086708998345 0.0795070054127234  -0.0437892928987959 0.0647422749824572  -0.385654379897817 -0.79648716327548
2041.125  -0.737879127651026 -0.56182709855595  -0.0701527051679375 0.0760539891558801  -0.0634959442278294 0.0804531181222203
 -0.0704176332958616 0.0758889074816071  -0.268330498100126 -0.839240684696688  -0.0433252437703087 0.0647629693347369
 -0.064064444347076 0.0799911982877259  -0.0435534958681908 0.0645367253028211  -0.386995312086562 -0.795845057510551
2042  -0.738659749456507 -0.560755922538103  -0.0701769719563365 0.0763039764730459  -0.0634463064145298 0.0809190816699794
 -0.0704512238652007 0.076133618663228  -0.269740319011149 -0.839044403946393  -0.0432655242711256 0.0645401342120378
 -0.0640077699055627 0.0804562133970421  -0.0434883224836237 0.0643267104601495  -0.388373147411469 -0.795156859704895
2042.875  -0.739383408552488 -0.559759829309124  -0.0702271171397548 0.0765937260275408  -0.0633434432600535 0.0814042034378884
 -0.0704934428744737 0.0764287035202778  -0.271127653869328 -0.838830806531842  -0.0432741021430865 0.064388118453198
 -0.063905412999179 0.080952195312755  -0.0434818016416735 0.064170411905403  -0.389737374664813 -0.794393654777473
2043.75  -0.740262685927298 -0.558719049685233  -0.0702050140120644 0.0769153641226932  -0.0631220731839749 0.0818449114904946
 -0.0704747992835373 0.0767519040326225  -0.272587589223029 -0.838583562173484  -0.0433633746439737 0.064208905655072
 -0.0636797677567017 0.0813803489869226  -0.0435684608770177 0.0639996857969981  -0.391138409721314 -0.793577924379877
2044.625  -0.741055363836585 -0.557614574669341  -0.0701507040544589 0.0771457527908103  -0.0628939690259367 0.0821631294565725
 -0.0704296180710546 0.0769920930172024  -0.2740632121947 -0.838174705191028  -0.0436222618130189 0.0641090180236438
 -0.0634511483542315 0.0817127529041259  -0.0438299101121602 0.0639013015398929  -0.392546857079004 -0.792760052870335
2045.5  -0.741880544730293 -0.556557718953301  -0.0701289589152545 0.0774317549892279  -0.0626477352803625 0.0824593561017012
 -0.0704092708356991 0.0772819864638963  -0.275652176504082 -0.837685505598335  -0.0438975324658796 0.0641290910453051
 -0.0632153729419792 0.0820165229067354  -0.0441066860437762 0.0639162446437521  -0.394033791333035 -0.791780514665056
2046.375  -0.742679989556225 -0.555436576451616  -0.0700720120019275 0.077687580829161  -0.0623794870216555 0.082698958414303
 -0.0703371309885668 0.0775452802865991  -0.277242506018286 -0.837043780406238  -0.0442280186145472 0.0642680270705763
