! Matrix data file written by TouchstoneData, EPCOS AG
! FILENAME: "B1646.NB.1.snp"
! COMMENT: "(B1646.NB.1.s2p)"
! INFO: nport=2, nfreq=801
! DATE: "Thu Mar 11 13:18:21 2010"
! USER: "Adrian Ma"
!
! port | pin | signal
! -----|-----|--------
!   1  |  2  |  IN/OUT
!   2  |  5  |  OUT/IN
! --------------------
!
# MHZ S RI R 50
! freq  reS11 imS11  reS21 imS21  reS12 imS12  reS22 imS22
2000  -0.37149861790008 -0.883790625197079  0.000349890205798446 0.0017296801617715  0.000348884956869205 0.00172812194180876  -0.0388100656091216 -0.955537861186644
2000.875  -0.372553060854036 -0.883553639557221  0.000146206658565762 0.00162411172677182  0.000147461018128056 0.00162129921340225  -0.0405163497470108 -0.955017110391515
2001.75  -0.373893434237307 -0.883314228625293  -0.000107448359482872 0.00154301440155411  -0.00010726332682593 0.00154017535762485  -0.0423929509350137 -0.954460981499688
2002.625  -0.375425267541426 -0.883143305803112  -0.000388437940806928 0.00154533233630656  -0.000388405582614635 0.00154355167577191  -0.0441568294223923 -0.954592023429473
2003.5  -0.377177597425516 -0.882980133484978  -0.000636315476833911 0.00159684026766393  -0.000634902291028346 0.00159835500238417  -0.0458813771442404 -0.955017453899696
2004.375  -0.378983204392295 -0.882690163163634  -0.000855644965665147 0.00168841109789609  -0.000859655660392969 0.00168716775673469  -0.047776241602691 -0.95548584535368
2005.25  -0.380455566017907 -0.882143097085334  -0.00105368719573048 0.00181771416248545  -0.00105684299244286 0.00181680868030031  -0.0493551507414896 -0.954967075365911
2006.125  -0.381797442916335 -0.881488529311089  -0.00119319612287551 0.00197684948019471  -0.00119810612974244 0.00197696086041165  -0.0507764831343146 -0.954035198817106
2007  -0.383172535102888 -0.880730405547361  -0.0012971617704181 0.00211490359374885  -0.0013025483448253 0.00211744329359424  -0.0521960460313584 -0.953171399530043
2007.875  -0.384389806445035 -0.880071259865174  -0.00139148782770387 0.00227878743917235  -0.00139885793786393 0.00228205325577192  -0.0534374204667535 -0.952474463809092
2008.75  -0.385675126235008 -0.879704756969826  -0.0014361420079403 0.00244381616501335  -0.00144225107219056 0.00244522445562506  -0.0547231528133921 -0.952116273026796
2009.625  -0.387219358424202 -0.879332292857955  -0.00142512989015316 0.00259329233618489  -0.00142861736149867 0.00259337814078003  -0.0561206461756788 -0.951859381345583
2010.5  -0.38885421417811 -0.878911008771308  -0.00141508029751734 0.00272266760984935  -0.00142038118191043 0.00272196737516162  -0.0577236468867069 -0.951805636043842
2011.375  -0.390253414774932 -0.878169253179502  -0.00137969182329259 0.00284925184758684  -0.00138748798145415 0.00285334655670853  -0.0588527579278925 -0.950988563958619
2012.25  -0.391586978376256 -0.877398140971694  -0.00133926873715809 0.00296176320990526  -0.00134523392995798 0.00296146447832017  -0.0599843702855138 -0.950224340172285
2013.125  -0.392908360597838 -0.876667117451223  -0.00123187371495164 0.00304500414514456  -0.00123625701750971 0.00304532884403276  -0.0610920260100257 -0.949681138448751
2014  -0.394240795817345 -0.875961393386253  -0.00113231608247528 0.00305427965103621  -0.00113477558755109 0.00305312692281924  -0.062276434126251 -0.949497136814798
2014.875  -0.395632736962672 -0.875227371918095  -0.0010826276919241 0.00308822663869262  -0.00108782498729991 0.00309246514291038  -0.0637042430174103 -0.949402473326234
2015.75  -0.397001663561196 -0.874552734542924  -0.000978009432377595 0.00308583573090592  -0.000981743737608057 0.00308839640821711  -0.0650676556791916 -0.949369670584253
2016.625  -0.398278631644354 -0.874003159984598  -0.000912085841075226 0.00303936893403088  -0.000917062601179547 0.0030408788914443  -0.0664332291522367 -0.94970263278206
2017.5  -0.399169341604698 -0.873533125134466  -0.000849543777219299 0.00298375308512667  -0.000851085674307099 0.00298703524426004  -0.0675536177813112 -0.949556442309971
2018.375  -0.400254041408691 -0.873010120201057  -0.000827379319220422 0.00293171851306183  -0.000830400390662183 0.00293427886593253  -0.0688474597505153 -0.949437677805202
2019.25  -0.401546664197125 -0.872299074390199  -0.000800874269337484 0.0028623430623806  -0.000800724252997931 0.0028627308860853  -0.0702677120098923 -0.949027921112602
2020.125  -0.402931690816289 -0.871617863761214  -0.000789072157658923 0.00281085285618623  -0.000792351683257166 0.00281263057722421  -0.0717824819066141 -0.94882997037204
2021  -0.404304026785359 -0.870985261582228  -0.000766305305767139 0.00270650666329068  -0.000767418930950064 0.00270900614050035  -0.0733085543130846 -0.948681124843091
2021.875  -0.405811344529034 -0.870400620341487  -0.000812808241312732 0.00263060899037229  -0.00081770379670844 0.00263505302965886  -0.074855529405518 -0.948774721957869
2022.75  -0.407278303016739 -0.869799460205315  -0.000832873552244532 0.00259036472604252  -0.000833714354022762 0.00259150485362723  -0.0764938970863925 -0.948901389152147
2023.625  -0.408313508633505 -0.868902646455154  -0.000850024951560458 0.00249300608697516  -0.000852376289855298 0.00249492636774239  -0.0783473715749187 -0.948290316027267
2024.5  -0.40932871516878 -0.868062713546749  -0.000916993406661396 0.00241275682291112  -0.000920914656410857 0.00241181831977564  -0.080035889190329 -0.947670302493037
2025.375  -0.410329026054692 -0.867329881552325  -0.00097784561181006 0.00235272554217818  -0.000981127883204404 0.00235408183597703  -0.0815065254308786 -0.947233019937539
2026.25  -0.411427434552098 -0.866933808431636  -0.00105685467299787 0.00227799910305411  -0.00106032187917143 0.00227786712924994  -0.0828602540878479 -0.947116978549506
2027.125  -0.412714346854598 -0.866644705205028  -0.00115470323102713 0.00223587559763053  -0.00115816117910529 0.00223612031300157  -0.0841787802566218 -0.947175448958685
2028  -0.414235812099826 -0.866449001081539  -0.00124745072911205 0.0021997411937468  -0.00124908085271413 0.00220160912260607  -0.0856118185697471 -0.947363635177219
2028.875  -0.415706342473992 -0.86607028253736  -0.00134693030614863 0.00217873548962013  -0.00134963086236944 0.00217950889218562  -0.0870714423164016 -0.947466940419581
2029.75  -0.416937230986268 -0.865182221829846  -0.00144937329024178 0.00219138282033707  -0.00145360953348151 0.0021893750191208  -0.0889130591055561 -0.947082568008697
2030.625  -0.418206692043766 -0.864305788470031  -0.00151270192142546 0.00221124640692501  -0.00151544424106933 0.00220924494722112  -0.0906940198797258 -0.946730799593372
2031.5  -0.419468410220045 -0.863559778622879  -0.00159513297939973 0.00222533802267097  -0.00159268310735265 0.0022262847844258  -0.0924198939936193 -0.946480107447541
2032.375  -0.420771928881376 -0.862954611863865  -0.00163517659929892 0.00225900836746054  -0.00163893177661211 0.00225851170279139  -0.0940380137724907 -0.946255994495433
2033.25  -0.422089122140841 -0.86235136316611  -0.00167921271480707 0.00227040268856838  -0.00167936215333734 0.00227039870922569  -0.0956158897637299 -0.946118832489047
2034.125  -0.423244342840716 -0.861827827705371  -0.001703232857516 0.00227432279978726  -0.00170586456648503 0.00227510839172339  -0.0969631663116272 -0.946036112747353
2035  -0.424358217157092 -0.86120001295403  -0.00171521506079157 0.00225839166024673  -0.00172013738618129 0.00226181212382607  -0.0985067762714272 -0.945890051420957
2035.875  -0.425517176962347 -0.860403952050116  -0.00175327246537739 0.00223829489080657  -0.00175729360264414 0.00223861791789354  -0.100289087621706 -0.945575940047151
2036.75  -0.426676924696058 -0.85972235945484  -0.00178575985106618 0.00221306248530522  -0.00179008869700248 0.00221411069704002  -0.102065075979325 -0.945309184406006
2037.625  -0.427929968573224 -0.859067307450058  -0.00183447869935943 0.00218851654346332  -0.00183562380726882 0.00218937994997047  -0.103860162332233 -0.945012380197372
2038.5  -0.429173018767296 -0.858484947042427  -0.00186082606476896 0.00215545411218796  -0.00186431006093652 0.00215456604283627  -0.105558075091677 -0.944724080563385
2039.375  -0.430332367023493 -0.857928297485515  -0.00191555908113203 0.00209820519193559  -0.00192102179837456 0.00210100669634437  -0.107336745728609 -0.94451539496174
2040.25  -0.431593300089224 -0.857553529206047  -0.00197354518547913 0.00207457752676411  -0.00198310653169649 0.00207286890475337  -0.108962740202417 -0.944180732891467
2041.125  -0.432767590413119 -0.856773458609694  -0.00203237431065502 0.00202482768830244  -0.00203764210381257 0.00202377113088022  -0.11071378780033 -0.943650797060093
2042  -0.433902796222452 -0.855778451706991  -0.00208718772157979 0.00197811113560727  -0.00209117804963163 0.00197747257497624  -0.112505309495948 -0.94288788823243
2042.875  -0.43483149921929 -0.854913948980001  -0.0021418775197185 0.00190529199009036  -0.00214366253542344 0.00190512380409388  -0.114045692123013 -0.942176067076239
2043.75  -0.435805592536048 -0.854323993577636  -0.00221499663876696 0.00181569946081865  -0.00221526800642539 0.00181537220995846  -0.115503772154415 -0.941570348315158
2044.625  -0.436739061688344 -0.853857832195067  -0.00231170271411233 0.00168135881952622  -0.00231528007752688 0.00168469060654983  -0.116914708579138 -0.941124896523552
2045.5  -0.437731030521269 -0.853580281686669  -0.00253277094423718 0.00155522106639313  -0.0025364011862046 0.00155734966889182  -0.118295491663879 -0.940529682802962
2046.375  -0.438748602091819 -0.853224007858817  -0.00278090292778644 0.00148540842868402  -0.00278288357247246 0.00148402821120827  -0.119556889828535 -0.940029645439822
2047.25  -0.439938815785138 -0.852665269792529  -0.00307185502702967 0.00149631864330129  -0.00307266894380231 0.00149632283614758  -0.120947379099441 -0.939452157829855
2048.125  -0.441250525562668 -0.851912970849446  -0.0033213587042119 0.00161463561524971  -0.00332977596183345 0.00161560991835162  -0.122310761650332 -0.938707162095386
2049  -0.442477025725853 -0.85125804029428  -0.00350143121098137 0.00172716713311896  -0.00350493694290758 0.00172300123805099  -0.123538520846306 -0.938067875633295
2049.875  -0.443750446450965 -0.85055525701206  -0.00369542935005913 0.00185705421721772  -0.00370484413125078 0.00185028394806254  -0.124687565602176 -0.937364023343841
2050.75  -0.444682773723212 -0.84995465754126  -0.00383256304795395 0.00200176303870801  -0.00383670976436112 0.00200050544517197  -0.125541587507802 -0.936567140533071
2051.625  -0.445541862233015 -0.849402928096359  -0.00400526540740191 0.00213251251172875  -0.00400992572073741 0.00213041088196032  -0.126048949590537 -0.935860144554277
2052.5  -0.446194765706807 -0.849122334317437  -0.00417572560513026 0.00236093228147637  -0.00418237188851443 0.00236282542830118  -0.126275545278281 -0.935679726086047
2053.375  -0.447216451739909 -0.848600306666986  -0.00425708547601289 0.0026367950797583  -0.00425956759870901 0.00263956013112585  -0.126797953728058 -0.935692521192494
2054.25  -0.448336345913172 -0.848072388030434  -0.00421584124293738 0.00285681282257962  -0.00421946701028206 0.00285595597491257  -0.127641560660614 -0.935833263380505
2055.125  -0.449630741464068 -0.847514248302308  -0.00422155015920411 0.00306701599548219  -0.00422643612859667 0.00307002272675546  -0.128999556167392 -0.936270839943697
2056  -0.450905551712098 -0.846902942574614  -0.00413009671230549 0.00324453167979901  -0.00413807438075844 0.00324962492780318  -0.130259466574371 -0.936363823841954
2056.875  -0.452179296081496 -0.846198063201726  -0.00410186431516375 0.00341689572062637  -0.00410622866717983 0.00341914458948852  -0.131595974778788 -0.936329883623408
2057.75  -0.45337250147249 -0.845314314358392  -0.00395022383444287 0.00364763753061984  -0.0039525519665462 0.00364874117076475  -0.132756369447335 -0.936167041167144
2058.625  -0.454324839297636 -0.844465375660639  -0.00371912624977792 0.00376889506611268  -0.00372131786177118 0.0037760450466543  -0.133900306025466 -0.936299924304574
2059.5  -0.455226978223644 -0.843359923367886  -0.0034362000715699 0.00381240815248199  -0.00344073327020354 0.00381811932370916  -0.134846651907852 -0.936017072913101
2060.375  -0.456011259637968 -0.842528705563555  -0.00319816710401286 0.00365396800681384  -0.00320589537729259 0.00365924684654078  -0.135898114961076 -0.93601657128991
2061.25  -0.456840581169921 -0.841976168384013  -0.00310738855320282 0.00349997552408558  -0.00311304715687565 0.00349900016588716  -0.13731675493115 -0.936407870884757
2062.125  -0.457862843149512 -0.841502324684327  -0.00307950714061894 0.00334859628143864  -0.00308436086702059 0.00334943071186472  -0.138679809216424 -0.936503893285608
2063  -0.459148117596555 -0.840939612665534  -0.00309172094761003 0.00328652979257077  -0.00309439626845039 0.00329102950876192  -0.140302455199483 -0.936614971843812
2063.875  -0.460475249341496 -0.840270324690978  -0.00301731247523934 0.00321276994146363  -0.00302308256111778 0.00321499205145629  -0.141836175057257 -0.936585171194241
2064.75  -0.461911960799245 -0.839396178093326  -0.00299012922380974 0.0031282348309834  -0.00299387615458627 0.00312784882001854  -0.143461515005108 -0.936428789844134
2065.625  -0.463483905728262 -0.837945081522746  -0.00286212731994726 0.00302145783324069  -0.00286762797148637 0.00302078301578303  -0.145244455186424 -0.935937032944004
2066.5  -0.464726292299153 -0.83626965362777  -0.00275300858296712 0.00281213319251349  -0.00275820195225814 0.00281476345163035  -0.146638440885993 -0.935522973543301
2067.375  -0.465433980582392 -0.834447813736324  -0.00263914238192966 0.00250552934707471  -0.00264105416423183 0.00250801706339722  -0.147793010191899 -0.93515764316465
2068.25  -0.465814527477014 -0.832599840099601  -0.00266669897245204 0.00199774138310515  -0.00266624075144367 0.00199830572833877  -0.148911486338587 -0.934763278154527
2069.125  -0.465570533976778 -0.830623039349519  -0.00292617410852903 0.0014711351487079  -0.002928529724874 0.00147074455758263  -0.149834791289582 -0.934364129592967
2070  -0.464370311287026 -0.829078664838421  -0.00347194193856653 0.000951779626428188  -0.00347216401986981 0.000953223123965517  -0.150701078039619 -0.934115459147806
2070.875  -0.462364894049145 -0.828946180224893  -0.00443990829255528 0.000790660990743182  -0.00444429500484841 0.00078900979503622  -0.151441746493444 -0.934112897686653
2071.75  -0.461766438649797 -0.830496253122566  -0.00515467984593352 0.00129575229670514  -0.00515850448417976 0.00129709633626248  -0.152375415639195 -0.934191501419605
2072.625  -0.462607505986486 -0.831860118710773  -0.0054262232318364 0.00184505211418998  -0.0054325299688488 0.00184561370006167  -0.153439823952765 -0.934318086614223
2073.5  -0.464327436762102 -0.832546369294825  -0.00544160702948426 0.00226453106710979  -0.00544941295041843 0.00226468555395018  -0.154796155858719 -0.934460113613729
2074.375  -0.466160486157701 -0.832477257738174  -0.00534129927368438 0.0025102188744291  -0.0053451585412528 0.00251325450351427  -0.156162359728358 -0.934428309358768
2075.25  -0.467863706990638 -0.832046610231466  -0.00521215738042928 0.00260739770388447  -0.00522100389044442 0.00260927498967722  -0.157643532805396 -0.934454560092593
2076.125  -0.469519881389405 -0.831205606112704  -0.00514280457109929 0.00253752116363044  -0.00515101841856019 0.00254192284499338  -0.159319314512329 -0.934198105444915
2077  -0.470894159632675 -0.83005124608026  -0.0051762686764485 0.00247084149113005  -0.00518146972736343 0.00247170732343914  -0.160654524445767 -0.933921821574391
2077.875  -0.471961957881906 -0.828602668853531  -0.00525076630872838 0.00225877662283309  -0.00525953963409978 0.00226025493491008  -0.161901213599661 -0.933446329535463
2078.75  -0.472518590487539 -0.827048475363219  -0.00554312076256915 0.00207192498109832  -0.00555045465375179 0.00206886657228133  -0.162840284932239 -0.933149928974237
2079.625  -0.472417986083972 -0.825664954366698  -0.00601251198661353 0.00193778168367725  -0.00601799211484248 0.0019367863551767  -0.163971974861268 -0.932981334321328
2080.5  -0.472276997882395 -0.824920968253051  -0.0065925408078792 0.0020776638540428  -0.00660034434088688 0.00207769941219789  -0.165090316606764 -0.9328749506763
2081.375  -0.471849794523077 -0.824405934193541  -0.00709490762615531 0.00242055129654551  -0.0071068033231717 0.00241609378043343  -0.166535800649702 -0.932667751310951
2082.25  -0.471702529114784 -0.824801643243526  -0.00747342672879097 0.00300514485250482  -0.00748400483343848 0.0030043688506565  -0.168078739988707 -0.932458781767309
2083.125  -0.472189635785629 -0.825321119578511  -0.00753756857289771 0.00360778123020203  -0.00754956103791014 0.00361230353273251  -0.169539006421027 -0.932131547737849
2084  -0.473232008972388 -0.825760789925916  -0.00748342365235193 0.00412324024881609  -0.00749520281096253 0.00413016580743687  -0.17081728963778 -0.931490823034993
2084.875  -0.474320706254779 -0.82573969780948  -0.00726123390970725 0.00456325473673324  -0.00727168274355834 0.00456506117527082  -0.172105332585364 -0.930984015280379
2085.75  -0.475403790909519 -0.825652803146084  -0.00706716045641145 0.00482497044953298  -0.00707646695394452 0.00482819676717473  -0.173389342614134 -0.930148620495175
2086.625  -0.476496850338773 -0.825629370954937  -0.00685653760015832 0.00510570905384458  -0.00686378320175631 0.00510953962564794  -0.17447266184097 -0.929336299543494
2087.5  -0.477813186254999 -0.82567439499285  -0.00653315624303464 0.00529333347803573  -0.00654018693763761 0.00529974937636234  -0.175372774188133 -0.928206700516436
2088.375  -0.479408290197948 -0.825440764855585  -0.00627484069627559 0.00535096039755725  -0.00627988330171762 0.00535594208151704  -0.176513058215547 -0.928018213936914
2089.25  -0.480825233254602 -0.825099654120608  -0.00605760126242818 0.0054277622210138  -0.00606177783258355 0.00543154295876549  -0.17749375726962 -0.927539475820698
2090.125  -0.482338180964282 -0.824621591916238  -0.00583024301901613 0.0053693688205191  -0.00583789294175435 0.00537045421159774  -0.178258221228651 -0.926955289020997
2091  -0.483681019712483 -0.824003527418638  -0.00573583106174335 0.00539827715190563  -0.00574246477877861 0.00540158614639347  -0.179271104613291 -0.926500511053702
2091.875  -0.485045144461684 -0.823318797186704  -0.00543669201228426 0.00540347041057077  -0.0054457432340451 0.00540665417030509  -0.180107980447953 -0.925863865736726
2092.75  -0.486327157964984 -0.822669586667095  -0.00516567220903826 0.00523771926503837  -0.00517124232326995 0.00523994340058874  -0.181025967131552 -0.92527429378037
2093.625  -0.487622221432325 -0.822109454541067  -0.00498373336379187 0.00492998020068845  -0.00499131267463323 0.00493312208540974  -0.181882926898166 -0.924653544374485
2094.5  -0.489176481899589 -0.821534861428996  -0.00495860423964563 0.00460383886935153  -0.00496331053217088 0.00460719578861574  -0.182820278994367 -0.924109742860852
2095.375  -0.490589773738337 -0.820749158083129  -0.00505171778158346 0.00425881806750503  -0.00505791557553505 0.00426350023264641  -0.183278209349807 -0.923622063679838
2096.25  -0.491666942391871 -0.819996481160362  -0.00532272443842633 0.00399147104078509  -0.00532993867956416 0.00398981880274762  -0.183725236785555 -0.92341012620395
2097.125  -0.492911796041728 -0.819425946406966  -0.00565542732069491 0.0038725279125951  -0.00566280735169862 0.00387083855470555  -0.184406631710565 -0.923158366316584
2098  -0.494272286942716 -0.81878386627306  -0.00598677812417784 0.00386455568805523  -0.00599280760359036 0.00386500207231172  -0.185153017071043 -0.923034998849649
2098.875  -0.495707583794924 -0.818026227907863  -0.00626397304054793 0.00398285025849339  -0.00627230566556136 0.00398079888752872  -0.186135549462836 -0.923216673821219
2099.75  -0.497338582276845 -0.817138232990648  -0.00646486751607999 0.00409182909895605  -0.00647015651476642 0.0040931944120695  -0.187358893110175 -0.923266688795568
