! Matrix data file written by TouchstoneData, EPCOS AG
! FILENAME: "B1664.NB.3.snp"
! COMMENT: "(B1664.NB.3.s2p)"
! INFO: nport=2, nfreq=801
! DATE: "Thu Sep  9 14:29:31 2010"
! USER: "Allen Hu"
!
! port | pin | signal
! -----|-----|--------
!   1  |  2  |  input
!   2  |  5  |  output
! --------------------
! 
# MHZ S RI R 50
! freq  reS11 imS11  reS21 imS21  reS12 imS12  reS22 imS22
1200  -0.448901204250513 -0.842794601144884  0.00579330077232641 0.00125258613732065  0.00577912859330051 0.00128994685498409  -0.224464266249481 -0.934156373101191 
1200.625  -0.449589267469809 -0.842971708680275  0.00593259779548481 0.00100742291925355  0.00590488193116913 0.00106270543470516  -0.22479070652595 -0.934251990908907 
1201.25  -0.450322312666861 -0.843347642211754  0.00602073653211501 0.000820098867720617  0.00600055556450675 0.000862406005605698  -0.22520705994792 -0.93484575613037 
1201.875  -0.450914624006947 -0.84380748364124  0.00613016254765324 0.000529746477916149  0.00611505504183142 0.000592357094765522  -0.225467404465234 -0.935499634964756 
1202.5  -0.452040045491725 -0.84370851996557  0.00620669947955902 0.000184032602777052  0.00620790498629417 0.000244078492015611  -0.226639717450698 -0.935872097284114 
1203.125  -0.453485352043646 -0.843552475689874  0.00610323972218993 -0.000218540874292567  0.00609543614414455 -0.000159991200585518  -0.227959329799903 -0.936169831356602 
1203.75  -0.454909875664142 -0.843211811388545  0.0059244538095745 -0.000480601779584233  0.0059078658931859 -0.000434254740111267  -0.229427935050988 -0.936156152037087 
1204.375  -0.456364551991331 -0.842794033761516  0.00566305817863393 -0.000661684290351269  0.0056640971994514 -0.000608810065507226  -0.230827089630466 -0.93617415090672 
1205  -0.457817650958126 -0.842394761531522  0.00546049858827077 -0.000768448869142619  0.00546279031698088 -0.000722865259066959  -0.232149366677768 -0.936130847309993 
1205.625  -0.458974376953441 -0.841918657259039  0.00528439912907739 -0.000812053802183351  0.00528276799835372 -0.000763955685048963  -0.233456898679218 -0.936085200966589 
1206.25  -0.460164574912113 -0.841435756519317  0.00516382271846172 -0.000845758607175534  0.00516181889880211 -0.000797898589070455  -0.23458415906133 -0.936026668382399 
1206.875  -0.461381447493323 -0.841000991915954  0.00505033293178111 -0.000887947546081026  0.0050435572537866 -0.000842763905807712  -0.235785547242721 -0.936033733200236 
1207.5  -0.462724719358457 -0.84027059892715  0.00494315320948179 -0.00094532516620356  0.00494650637494343 -0.000910305734593992  -0.237065908452799 -0.935906657977533 
1208.125  -0.463887566455109 -0.839466402036085  0.00480070125896099 -0.00100032293710493  0.00481258566265567 -0.000952554387841512  -0.238376878696292 -0.935944365314173 
1208.75  -0.465197798963402 -0.838781277850651  0.00468215496642855 -0.00102320140181594  0.00467858422952856 -0.00098107204210762  -0.239700078035059 -0.935809963605978 
1209.375  -0.466165804691749 -0.838069256036114  0.004550825682656 -0.00104006420600841  0.00454795787412944 -0.000994397345183563  -0.241011781582726 -0.935728777097211 
1210  -0.467042096342681 -0.837394335324209  0.00442173727854097 -0.00103910858517079  0.00442607734360078 -0.000991118551368099  -0.242188578566435 -0.935651346837338 
1210.625  -0.467882741509408 -0.83679960403177  0.00429333093874327 -0.00102159340886433  0.00430174090873716 -0.000993549512449235  -0.243384615514288 -0.935504279256529 
1211.25  -0.468568501136933 -0.836154070182136  0.00418114256542309 -0.000987325436772947  0.00417791682065493 -0.000942850782097797  -0.244622666963702 -0.935551627709131 
1211.875  -0.469341569073351 -0.835654868841965  0.00408364463758511 -0.000933779986897131  0.00408022646988697 -0.000884946721609279  -0.245803386635441 -0.93535929126629 
1212.5  -0.470013384340706 -0.835333949365415  0.00400954760424797 -0.000873055721877624  0.00400758636924263 -0.000836029255772183  -0.247076855043122 -0.935298277600317 
1213.125  -0.470640753492883 -0.834856856702995  0.00397200052061627 -0.000815328217185363  0.00396558416304536 -0.000779709645129261  -0.248399024396914 -0.935069554550397 
1213.75  -0.471515811301455 -0.834297640002311  0.00391201387830608 -0.000777326314006702  0.00391620824607966 -0.000740444507787784  -0.249619842384134 -0.934688021091689 
1214.375  -0.472385642459705 -0.833778514424924  0.0038946306824503 -0.000727472653954938  0.00389882236821927 -0.000695752085008725  -0.250828856181545 -0.934421663569946 
1215  -0.473082282837952 -0.833323213327572  0.00385672723270087 -0.000725929661635294  0.00385360298488565 -0.000703931838248111  -0.252001814729939 -0.934206628014485 
1215.625  -0.473927036812211 -0.832910233156569  0.00380527599075857 -0.000699996543111165  0.00380171432247573 -0.000664684805204175  -0.253163682173717 -0.933885715447211 
1216.25  -0.474635129181605 -0.832530054078779  0.00377567785475332 -0.000671053378153767  0.00377775054056808 -0.000631955943287712  -0.254298456149782 -0.933656379132089 
1216.875  -0.475487874088419 -0.832126561769056  0.00373724071126044 -0.00065985205701286  0.00373793332229801 -0.000626484609736579  -0.255442434734982 -0.933351260806002 
1217.5  -0.476171868271578 -0.831704121327331  0.00371697075909078 -0.000638427728588949  0.00370083185687699 -0.000617395222949233  -0.256566386843839 -0.933026044992026 
1218.125  -0.476783501204379 -0.831416261564394  0.00367392996300575 -0.000636698150021541  0.00365252007326904 -0.000604036685501231  -0.257689945713021 -0.932665577599208 
1218.75  -0.477766884048388 -0.830883141391744  0.00359901420911149 -0.000629796410917229  0.00360398595270882 -0.000592100119591316  -0.259257001295794 -0.93220233861896 
1219.375  -0.478640056507355 -0.830466577000785  0.00356833626916011 -0.000589383732913863  0.00357103457270713 -0.000550431225621012  -0.260421490037617 -0.931804119958159 
1220  -0.479405150027692 -0.830101606641449  0.00351692360281381 -0.000579612497015046  0.00351337503407475 -0.000549902156267942  -0.261504826716627 -0.931681402319481 
1220.625  -0.480251521065803 -0.829557733878445  0.00347259557481449 -0.000552285148752569  0.00347409057177176 -0.000517624047922359  -0.262721128742536 -0.931393431528482 
1221.25  -0.481136386673036 -0.829363179793381  0.00341463371025773 -0.000521433535284814  0.00340763010923793 -0.000492111580395238  -0.263971719645832 -0.931156083869687 
1221.875  -0.481965537971489 -0.828971315787781  0.00337575948249103 -0.000462055070499085  0.00337472258298857 -0.000440843952245085  -0.265269140850511 -0.930813938147154 
1222.5  -0.482875849725397 -0.828562014556099  0.00332549338415589 -0.000427216941997681  0.00331918665717327 -0.000393364612148947  -0.266547796108914 -0.930452397734563 
1223.125  -0.483873581550496 -0.828180167845699  0.00329471082209186 -0.000364628980043723  0.00330584741039069 -0.000340786363483392  -0.26775874300383 -0.930029365259212 
1223.75  -0.484772931978795 -0.827756196064696  0.00328405357189625 -0.00030272987920575  0.00327730828948029 -0.000277616261320864  -0.268925960845696 -0.929653343510285 
1224.375  -0.485789773465969 -0.827221187771655  0.00326183402667235 -0.000252918967530194  0.00325055319655522 -0.000218183458297035  -0.2701670397427 -0.929151210353459 
1225  -0.486489026566545 -0.826802376749563  0.00324392513198513 -0.000196871362270365  0.00324006277749557 -0.000161255289983641  -0.271470216730786 -0.928754923904695 
1225.625  -0.487387284942214 -0.826317636008736  0.00324808836847616 -0.000118807803923035  0.00324641452824566 -9.94158707980526e-05  -0.272479722389953 -0.928265653369134 
1226.25  -0.48818429846259 -0.82584201260209  0.00327898359892899 -5.53451021815276e-05  0.00327189438705531 -2.82268263516434e-05  -0.273702844604734 -0.927867535581004 
1226.875  -0.489006380316177 -0.825415107680304  0.00331969826369388 -3.4383095378255e-05  0.00330876700227722 -1.66173943929127e-05  -0.274884977382508 -0.927398284230463 
1227.5  -0.48986101565807 -0.824810475752527  0.00334599860210464 -1.59218680620324e-05  0.00335140619088844 1.83019937087254e-05  -0.276039940878462 -0.926917006158988 
1228.125  -0.49051510784205 -0.824348935742728  0.00335657212856984 8.74361658864968e-06  0.00335904853518397 3.63110340964349e-05  -0.277148181900232 -0.926324064635813 
1228.75  -0.491347274604876 -0.824066437833859  0.00338783072008583 4.79936438085999e-05  0.00338852883125494 6.62857813765339e-05  -0.278242319807779 -0.92590225140028 
1229.375  -0.492267695784849 -0.823801173424295  0.00341525527401894 6.17840966195054e-05  0.00340723071738476 8.22405684194458e-05  -0.279466116128622 -0.925517784499903 
1230  -0.493242313955141 -0.823514111318869  0.00346822070129822 9.73292699170381e-05  0.00345242012257263 0.000122716519079922  -0.280582931526165 -0.924945753264149 
1230.625  -0.494204000237996 -0.823025918379424  0.00352914515563972 0.000110322712084518  0.00352197625057441 0.000134877277442719  -0.281733171212292 -0.924380575704289 
1231.25  -0.495411518561829 -0.822559184067321  0.00356914105808845 0.000101152081961445  0.00357135722363114 0.000123329792044263  -0.28283441657952 -0.923797489790679 
1231.875  -0.496578835056181 -0.821870390678586  0.00365805768217548 6.47731599468521e-05  0.00364851193659689 0.000100177885476609  -0.284027778646334 -0.92313130272296 
1232.5  -0.497815715299718 -0.821322617650498  0.00369740581917501 3.91267542759182e-05  0.00369826204119674 5.80104526479518e-05  -0.285252996458032 -0.92251149267431 
1233.125  -0.499144182095225 -0.820699595821955  0.00377761561914488 -2.99207342957291e-05  0.00375892037204516 1.62654775562321e-06  -0.286351732286803 -0.921855639704373 
1233.75  -0.500394038592939 -0.819906965971962  0.00381295918015858 -7.46081701421695e-05  0.00380886728370425 -5.04950309588379e-05  -0.287456134660245 -0.921093234807724 
1234.375  -0.501551359755924 -0.819555115031012  0.00387451401331623 -0.000153205075966841  0.00386165412671668 -0.000121446436161924  -0.288292590779305 -0.920321018039286 
1235  -0.502529975220235 -0.819183411586596  0.00395362180523868 -0.000257656165401395  0.00395859439809979 -0.000216888454354435  -0.288912906782215 -0.919754353861764 
1235.625  -0.503542589592555 -0.818729583487799  0.00398067981707479 -0.000411361963936508  0.00398284180672342 -0.000373715318208656  -0.289406966786547 -0.919226488675135 
1236.25  -0.504429524683023 -0.818361564215514  0.00398830333553778 -0.000619892072903799  0.0039799000511645 -0.000579106801089179  -0.290040056658002 -0.918815719116067 
1236.875  -0.505489575534933 -0.81776609008386  0.00392182899467693 -0.000799820307596228  0.00390886977458108 -0.000766184089096573  -0.290507325055572 -0.918419170489446 
1237.5  -0.506488310526296 -0.817163430800145  0.00379446830698227 -0.000972468657039327  0.00379369735751072 -0.000936666712714997  -0.291212993334133 -0.918153170711816 
1238.125  -0.507489691931998 -0.816414178596105  0.00360912560799301 -0.0011029757743839  0.00361530090106703 -0.00106706822849524  -0.29164072291087 -0.917834797285497 
1238.75  -0.508528426447639 -0.815551365355347  0.00343952777988881 -0.00118134353378256  0.00345033453058822 -0.00115273371394369  -0.292387830553322 -0.917686886161667 
1239.375  -0.50952058800545 -0.814615891170694  0.00326508132206809 -0.00122513119096661  0.00326637101793065 -0.00120233707996683  -0.293188284323539 -0.917610556954222 
1240  -0.510609367384085 -0.813692641376607  0.00309036537638469 -0.00124137829751544  0.00309689207534011 -0.00120793472551545  -0.293992896333431 -0.917581130455017 
1240.625  -0.511502005825008 -0.812721630007941  0.00292715152787079 -0.00123199563037725  0.00292647087682635 -0.0012115633653856  -0.295099842275371 -0.917364375492426 
1241.25  -0.512491060128433 -0.811779951345227  0.00278376445945154 -0.00119892790281799  0.00278489691065596 -0.00117226838425047  -0.296224995161398 -0.917240363019309 
1241.875  -0.513466100324914 -0.810729335581215  0.00268217582722571 -0.00119206438786835  0.0026859686820362 -0.00117218396427341  -0.297403914332027 -0.916934267914471 
1242.5  -0.514385372166219 -0.809755369647572  0.00250350123024061 -0.00114293241917343  0.00251584535507973 -0.00111710601413244  -0.298501554804649 -0.916690825804039 
1243.125  -0.515217265891978 -0.80864941082855  0.00239036695208876 -0.00112123418919497  0.00240709598256671 -0.00110256022983025  -0.299460353417413 -0.916423269716391 
1243.75  -0.515909004073874 -0.807767438356272  0.00223626806861278 -0.00104423329671252  0.00223557915675194 -0.00102814862397348  -0.300349846269428 -0.916193181088192 
1244.375  -0.516566319917581 -0.806881962259499  0.00210728498570601 -0.000967115202359731  0.00210908973989593 -0.000949630847385351  -0.301355504831612 -0.915930811532591 
1245  -0.517260402471806 -0.805920164887919  0.0019879785240303 -0.000847904941648769  0.00199062092142566 -0.000822663133336997  -0.302442379522367 -0.91571058626205 
1245.625  -0.517811017276646 -0.805031782018364  0.00191907334348264 -0.000724067928693722  0.00191825417751432 -0.00070904274772093  -0.303477184704116 -0.915334625395624 
1246.25  -0.518544855012419 -0.804193051405243  0.00185476860188846 -0.000635662996136898  0.00184250334342848 -0.000616662465214866  -0.3046132980627 -0.914993062036493 
1246.875  -0.519239757346839 -0.803470036224085  0.00182004562056523 -0.000498538172135576  0.00181388563127487 -0.000477572302275135  -0.305699017200168 -0.914821416368223 
1247.5  -0.520092223512797 -0.802765222261042  0.00176678990612856 -0.000398183790051718  0.00176574373834354 -0.000389140730280567  -0.306929716804072 -0.914601281882593 
1248.125  -0.520991879850974 -0.802006962144053  0.00175753613798511 -0.000292417489171062  0.00175638582394785 -0.000263603408010023  -0.308205685595739 -0.914531264472336 
1248.75  -0.521915187971594 -0.801336217537198  0.00176157299034006 -0.000168761590202503  0.00176053470517107 -0.000162575025721123  -0.309583169686213 -0.914267852876401 
1249.375  -0.522921225381464 -0.80033073691716  0.00179257595759925 -8.12501462980491e-05  0.00178853366439568 -5.77652353990123e-05  -0.31118427346224 -0.913798429392381 
1250  -0.52380138292333 -0.799435462513203  0.00185814615655639 -1.25261035926852e-05  0.00184910316760698 -4.0096202665461e-06  -0.312737899236509 -0.91320852944126 
1250.625  -0.524328499649322 -0.798491477954879  0.0018854784190546 3.12493540988423e-05  0.00187940333153405 5.03283165012798e-05  -0.313966567735514 -0.912826855700206 
1251.25  -0.524997900318526 -0.797694123018491  0.00192810025840942 3.37268078030698e-05  0.00192781476739152 5.09233774889411e-05  -0.315109529358198 -0.912313978034724 
1251.875  -0.525769022210567 -0.796907683891807  0.00197176979475873 4.06705617425195e-05  0.00196698580727918 5.6984266119936e-05  -0.316408798243774 -0.911793995985368 
1252.5  -0.526480656685653 -0.796124666408068  0.0019965792239533 2.19150967723308e-05  0.00198918047381163 3.77443955326603e-05  -0.317615621322518 -0.911310971025856 
1253.125  -0.527195376666113 -0.795125282441619  0.00200104638876027 3.56069442772149e-06  0.00199958885543966 1.77158280701957e-05  -0.318876647147357 -0.910694578275785 
1253.75  -0.527906332026778 -0.794332513673726  0.00200777961786571 -2.57945052788169e-05  0.00200550154608745 -1.61987370287978e-05  -0.320215981561192 -0.910066972766027 
1254.375  -0.528679825047812 -0.793573439377682  0.00199662297471432 -7.72347472711541e-05  0.001993126676644 -6.35786430194939e-05  -0.321433210312644 -0.90951086538077 
1255  -0.52937791367531 -0.792691179905071  0.0019668858763581 -0.000122877251800462  0.00197542844012313 -0.000100559373940229  -0.322562220040307 -0.90875589817972 
1255.625  -0.529803775395062 -0.791715698087  0.00191445076335262 -0.000202297848511832  0.0019045508226144 -0.000177830687223054  -0.323481667180504 -0.90785654173896 
1256.25  -0.530399891888429 -0.790813300332351  0.00185570462527517 -0.000259597545864856  0.00184999816138124 -0.000240918121779545  -0.324573898525568 -0.907050218681561 
1256.875  -0.530889931528826 -0.789998115065775  0.00173224028470788 -0.000318156888339679  0.00172732007379077 -0.000294162984957092  -0.325586983973924 -0.906194436308472 
1257.5  -0.531492171231469 -0.78937297668238  0.00161949593604352 -0.000345828147080619  0.00161854787865036 -0.000320870289818281  -0.326736218842034 -0.905444312814813 
1258.125  -0.532057911566583 -0.788670715258586  0.00145127236752144 -0.000407322927643864  0.0014579708582996 -0.000392086187329265  -0.32783030367158 -0.904574788291771 
1258.75  -0.532901810419313 -0.78819495616022  0.00126732632940774 -0.000376463619603653  0.00126398517407984 -0.000358245435653613  -0.328821555096338 -0.903719256725251 
1259.375  -0.533696479339271 -0.78770702417727  0.0010509511850367 -0.000344505029697584  0.0010470578272557 -0.000333606665524622  -0.329718786822526 -0.902840134980679 
1260  -0.534602849594799 -0.787245749161277  0.000791648164383203 -0.000205536306295317  0.000784031571639834 -0.000192141563501921  -0.330394892592339 -0.902162651895039 
1260.625  -0.535581052261213 -0.786777519326804  0.000642875834811229 -4.09290640841638e-06  0.000647453853756807 5.95888865494171e-06  -0.331315025139821 -0.901560722128138 
1261.25  -0.536545669982424 -0.786067225730475  0.000495540124605287 0.000226524917928304  0.000495417371419172 0.000234317053872758  -0.3319393460947 -0.900864217233654 
1261.875  -0.537451183907809 -0.785076802698177  0.000448367520605754 0.000433492293637083  0.000433657220766091 0.000436295759841984  -0.332765427722961 -0.900087675659056 
1262.5  -0.538520103317904 -0.784221598564325  0.000409189394353462 0.000665864132988699  0.000401103995887081 0.000672569304524819  -0.3334449908132 -0.899372851208953 
1263.125  -0.539694633854425 -0.783407505606018  0.000402062439445172 0.000866373882243399  0.000399702846943831 0.000879700279692534  -0.334081279653346 -0.89876676146778 
1263.75  -0.540752006543705 -0.782430910191138  0.000434970104968304 0.00111490595447691  0.000425427938233481 0.00112298267911899  -0.334635154975067 -0.89822760753813 
1264.375  -0.541780044138296 -0.781499289241274  0.000529674749734532 0.00127140697292088  0.000515245389680032 0.00126715000265132  -0.335357290245446 -0.898006125319232 
1265  -0.542797085736161 -0.780598750791617  0.000618016309465173 0.00143421414984537  0.000591869368189454 0.00143740851531273  -0.336007068105059 -0.897508600672908 
1265.625  -0.543835105766293 -0.779930093435499  0.000657437404614645 0.00156099172939892  0.000637867771627182 0.00157183609101783  -0.336729240500649 -0.897144059637277 
1266.25  -0.54500606782445 -0.778848858559732  0.000734573098727853 0.0017301579717216  0.000714853607829499 0.00172289765006483  -0.337539160590278 -0.896749562107159 
1266.875  -0.546436600363434 -0.777801512444985  0.00082583777560445 0.00186084527362756  0.000807078405136397 0.00187904732618872  -0.338497648025052 -0.89625153837194 
1267.5  -0.547461103296924 -0.776581037202463  0.000985072284693777 0.00202144645600427  0.000957657681272624 0.00201864048687793  -0.339370068601324 -0.896045797862319 
1268.125  -0.548407782370942 -0.775308473128793  0.00106848901575832 0.00209725506301365  0.00104420519924638 0.00209869355669101  -0.340444668026204 -0.895763378305213 
1268.75  -0.549336706407363 -0.774284784626093  0.00115981507348972 0.00218956084491494  0.00114904875700299 0.00219179985628429  -0.341449386120659 -0.895483097597009 
1269.375  -0.550099058828461 -0.773118231396751  0.00132462771613388 0.0023082726104378  0.00130320870466363 0.00232118736987077  -0.34236309135581 -0.895163095878373 
1270  -0.550753617388986 -0.77224604129385  0.00137031722828769 0.00246015081900322  0.00134041673991515 0.00246800126472826  -0.34348305240009 -0.894780907008078 
1270.625  -0.551336213377753 -0.771069209728794  0.0016013079601403 0.00272995736624161  0.00158447873103296 0.0027374407330847  -0.344196583610282 -0.894446269483798 
