! Matrix data file written by TouchstoneData, EPCOS AG
! FILENAME: "B1664.WB.1.snp"
! COMMENT: "(B1664.WB.1.s2p)"
! INFO: nport=2, nfreq=1601
! DATE: "Tue Apr  9 11:16:39 2013"
! USER: "Adrian Ma"
!
! port | pin | signal
! -----|-----|--------
!   1  |  2  |  IN
!   2  |  5  |  OUT
! --------------------
! 
# MHZ S RI R 50
! freq  reS11 imS11  reS21 imS21  reS12 imS12  reS22 imS22
50  0.987712038597098 -0.106322865028689  0.00019670793329744 0.001134407914116  0.000206307213981535 0.00113172719794076  0.992066712735521 -0.0815447404200758 
53.71875  0.987240870016502 -0.116293777203027  0.000246967686857281 0.00127159099145863  0.000247743936808696 0.00126606680647563  0.991975824974014 -0.0900824988840284 
57.4375  0.986053916748382 -0.124396274158739  0.000302306754472571 0.00162235048128381  0.000299198807978861 0.00162807269034432  0.991430623475819 -0.0967526936372537 
61.15625  0.984884268898071 -0.131903795809563  0.00026620508044194 0.0016402101253186  0.000255012719263162 0.0016228273529847  0.9909902926289 -0.102178695273471 
64.875  0.983441709080262 -0.138464905968188  7.81587200819744e-05 0.00170215001932996  7.01971713278543e-05 0.00170846471010689  0.990347605608548 -0.107615797310906 
68.59375  0.981606316908654 -0.147234427096469  0.00019396066505961 0.0017648053585589  0.000181848136836649 0.00177164727301898  0.989241241900653 -0.113966539328429 
72.3125  0.980702792144286 -0.155050464907697  0.000354115290388602 0.00192451893883756  0.000345359400710746 0.00193533478467035  0.988819002038339 -0.120570655611154 
76.03125  0.979851006478863 -0.162027227303354  0.000268228255700913 0.00203930572619134  0.000268863654474927 0.00204329288290906  0.987538093838971 -0.125635429256555 
79.75  0.978939598224734 -0.169027008174385  0.000345509034079007 0.00202690825563631  0.000352570199438018 0.00203429003420318  0.987291147701914 -0.131139835971796 
83.46875  0.977180265821715 -0.175781361273208  0.000468799443247655 0.00208841206929581  0.000459668216256208 0.00210456566205268  0.985778330542926 -0.135886719532668 
87.1875  0.976230656114163 -0.184184863753117  0.000360796934553636 0.00225816852364821  0.000354292228350121 0.0022591007823777  0.986084932529316 -0.143627859773092 
90.90625  0.974993394738349 -0.191163113223425  0.000570944956099923 0.00229691409624649  0.000581603002474529 0.00232398663641192  0.984199031640201 -0.14932843030206 
94.625  0.973864525110704 -0.197986814667278  0.000465452271254984 0.00242156546710034  0.000451715096687446 0.00241918516934661  0.982358351112284 -0.155922800048359 
98.34375  0.974488298358826 -0.204888388866559  0.000542393456129781 0.00263219744041778  0.000538185979952412 0.00263298974718422  0.983439576921965 -0.160956692469259 
102.0625  0.972796824201606 -0.211885146523049  0.000486927955360823 0.0027640043273852  0.000485491927067187 0.00276127053807173  0.981532715244616 -0.166735511004058 
105.78125  0.971468116023558 -0.22010480366591  0.000664918471970533 0.00292680788908603  0.000663563370430294 0.00290310046664293  0.98076347082722 -0.172917355883092 
109.5  0.96982582866463 -0.226857260278596  0.000770946176528823 0.00298830949065737  0.000781185756669268 0.00299057054898138  0.978687534399539 -0.179043426325959 
113.21875  0.968982926191229 -0.234116844190201  0.000787419098573997 0.00318767298763309  0.000778506436347926 0.00319386880965449  0.978476737120107 -0.184611554981377 
116.9375  0.967042718980502 -0.241613623944499  0.000788546088671133 0.00310126276408156  0.000801077309202256 0.00311265366822848  0.977335031251212 -0.190503696025942 
120.65625  0.965577842424282 -0.247950863734278  0.000786747612702176 0.00289013814641637  0.00078397478482621 0.00289906549836773  0.976130952647757 -0.195319973721832 
124.375  0.963151378479167 -0.255786619691367  0.000890477203581398 0.00289476214031923  0.000882591238250901 0.00290067235342548  0.97453873885729 -0.201947373012055 
128.09375  0.961198104454272 -0.262807648701398  0.000868701407459575 0.00320442993936464  0.000858916869206642 0.00322161882482971  0.973526129750756 -0.207512476904964 
131.8125  0.959823826734782 -0.269605008817091  0.000934701830675539 0.00335974588232256  0.000928659438718296 0.00336122921520047  0.972892431983252 -0.212792056706013 
135.53125  0.956730833828772 -0.278268934422746  0.00101696404249414 0.00344606765085376  0.00101937749803526 0.00346191272130927  0.970358102762517 -0.220454781369514 
139.25  0.954307862631688 -0.284074657218419  0.00122045225047684 0.00346818052606632  0.0012242458408178 0.00349097051540504  0.968905009596046 -0.224518101707624 
142.96875  0.952263604116095 -0.291039157408518  0.00103918038338117 0.00358174521079999  0.00103537278249968 0.00358985484811918  0.967663408162137 -0.230538516165254 
146.6875  0.948980100226517 -0.297696032655655  0.00101097314627277 0.00359963437716704  0.00100554077984053 0.00361567974218402  0.966026427261274 -0.235159135007092 
150.40625  0.946429590865439 -0.305393177872497  0.0011883787637857 0.00374547909150203  0.00117485167029749 0.00376047951754187  0.964562821911107 -0.241373739951081 
154.125  0.942849620949787 -0.312077382874757  0.0012239794516191 0.00371669808575731  0.00121636573329649 0.00372261301345454  0.962245412655056 -0.247241709449952 
157.84375  0.940785731532531 -0.319187725781069  0.00126333792586761 0.00396753969146039  0.00125676010135999 0.00397468162782671  0.961383485087349 -0.252462812280304 
161.5625  0.938661223397396 -0.32617118889817  0.00125129129964554 0.00398463404786476  0.00123746667456296 0.00399670163055108  0.960278298844058 -0.258286922685651 
165.28125  0.934068704014219 -0.333177568513725  0.00131347954577582 0.00412829195905108  0.0013192540738237 0.00414427382120982  0.957124653780562 -0.26301649206159 
169  0.93143206369532 -0.34001076575359  0.00153820643390364 0.00413411692495006  0.00153974929870238 0.00414065278480607  0.956040327294715 -0.269105979659626 
172.71875  0.927187996401368 -0.34648971710156  0.00150825843090369 0.00431114492736231  0.00149756996418397 0.00431754387132811  0.952531370376748 -0.274362725297505 
176.4375  0.924964959602611 -0.354938563924364  0.00169868535711702 0.00420692024645214  0.00169964442008707 0.00420167902304881  0.95224843928892 -0.281034229707062 
180.15625  0.922220721322594 -0.362359358929521  0.00161252001852558 0.00441237188273532  0.00160113085128939 0.00442052754222596  0.950446552388123 -0.28646456168554 
183.875  0.919810821587058 -0.367556273214706  0.00185550478524766 0.00451085850604541  0.00184978196800604 0.0045180724017195  0.94952457286979 -0.290550256493009 
187.59375  0.916238850939932 -0.375781829342773  0.00186559804473382 0.00438429009094315  0.00185650597520807 0.00439402645631862  0.947513965479162 -0.29594304462811 
191.3125  0.913167564940848 -0.382888279023643  0.00196198161132123 0.00454072205743605  0.00195862876775834 0.00455177760952319  0.945861373314275 -0.301166472273922 
195.03125  0.908480688259977 -0.389536126969262  0.00192924908751154 0.0044902447372647  0.00190617187439584 0.00450495799825942  0.942873333497443 -0.30725328407913 
198.75  0.905333127143519 -0.398118310397898  0.00189305201934386 0.00463287647631384  0.0018909155814726 0.00463945525127347  0.941994790598584 -0.314452873812788 
202.46875  0.900841252583504 -0.40481568908277  0.00197929333440883 0.00470243025246511  0.00197395439659222 0.00470900766092974  0.939921021708316 -0.319494261058064 
206.1875  0.8987390672083 -0.410809134829831  0.00199905372070557 0.00485234142850095  0.00199956490696977 0.00486125595472247  0.938259577835129 -0.324871242886924 
209.90625  0.895635073102965 -0.417811168733719  0.00225830187965395 0.0050484032197203  0.00224834480652838 0.00505475549714153  0.936118025737781 -0.329193556840653 
213.625  0.893226984734849 -0.425161222465432  0.00233854734460944 0.00487223286673131  0.00233453925434394 0.0048926884077568  0.933294789477289 -0.336912394291503 
217.34375  0.887312504523278 -0.432874960234371  0.00227552287265446 0.00491677296295945  0.00226642258300092 0.00492399365464607  0.929829158320583 -0.342957853889412 
221.0625  0.884306618318034 -0.440491847496555  0.00246520235059454 0.00485547360246634  0.00245576066445496 0.0048570687166469  0.927340362040531 -0.347603020393983 
224.78125  0.881880455235181 -0.445996487228489  0.00233838271736528 0.00505752694046649  0.00233902840209286 0.00505090839179024  0.927581494967539 -0.353896335013078 
228.5  0.878185831957192 -0.452907792999885  0.00247565650434919 0.0051904709653451  0.00245013103117433 0.00519738212296323  0.924435046783978 -0.359133724481242 
232.21875  0.874870832918159 -0.459985948573154  0.0025492492712762 0.00525060597403009  0.00254252723457905 0.00524851031811631  0.922407644138716 -0.365232737756688 
235.9375  0.870216748747494 -0.466359962769164  0.00258637484554755 0.00533799586750981  0.0025971569529094 0.00532996813971809  0.918214759582346 -0.370254695844912 
239.65625  0.867574589336109 -0.473109679635568  0.00264679601903049 0.00531621206219571  0.002648194308123 0.00532288216982513  0.916744563690416 -0.376008802817751 
243.375  0.863534566021322 -0.480566895786701  0.00278837840082538 0.00556199253450172  0.00278054126358036 0.00556220301540837  0.913887514146952 -0.382417075979846 
247.09375  0.860004720649518 -0.486123140058131  0.00299217838340748 0.00555403731447177  0.00298563589089995 0.00554825527762773  0.910626127143206 -0.387413117700307 
250.8125  0.856509719051755 -0.49283008127726  0.00306218297280988 0.00560082120630565  0.00305505699153544 0.00561356900021707  0.9077066291445 -0.393884359634865 
254.53125  0.8521423319711 -0.498368067706709  0.00324853262549233 0.00544942708388554  0.00324306953752427 0.00546582118043929  0.904666973698728 -0.397689109772733 
258.25  0.848660547246891 -0.505265575006021  0.00321315517563866 0.00544058994872105  0.00321622920009646 0.00544700104771593  0.902084546367687 -0.403146710861637 
261.96875  0.844184440535265 -0.512506817696716  0.00321103263148238 0.00543739080354967  0.0032055110726193 0.00544958096677428  0.899081622404773 -0.409518366255285 
265.6875  0.840981304574491 -0.517584495026492  0.00323922380174037 0.00557703639937768  0.00323748863669847 0.00558681966476626  0.89694649778933 -0.413893537589576 
269.40625  0.836940073324456 -0.524439930693617  0.00324587190966006 0.00566384083162017  0.0032340337130585 0.00567543398349413  0.894733373270745 -0.420003161541374 
273.125  0.832523200855254 -0.529811982317587  0.00329077920827184 0.00570146462521666  0.00328770753339052 0.00571311652893478  0.891348138779942 -0.425272896247481 
276.84375  0.828679926713158 -0.536852697963363  0.00338720665843249 0.00575901616114859  0.00336675801394729 0.00577645601610518  0.889011777404352 -0.431150517530889 
280.5625  0.822918295071415 -0.54272754796581  0.00340098275680927 0.0059326825181664  0.00339074475665689 0.00594645648168945  0.884100250998119 -0.437136307863249 
284.28125  0.819782605223835 -0.548659567558731  0.00365333083161202 0.00590023681195485  0.00364196841427279 0.00590384278935754  0.882610029692853 -0.441304339618191 
288  0.815079035681653 -0.555175039563383  0.00380841206086512 0.00599063277026574  0.00380741310764737 0.00600538386942215  0.879762317191023 -0.447332373782331 
291.71875  0.810086080356959 -0.560306174774398  0.00396827679922169 0.00597334327236461  0.00395586822076271 0.00598168827089261  0.87614747600944 -0.451590415225038 
295.4375  0.805714548577675 -0.566794076454098  0.00396716313423127 0.00587468642928962  0.00395847623675675 0.00589214447156838  0.874284265209103 -0.457469512358677 
299.15625  0.800440692429559 -0.571755470328961  0.00384366194051934 0.0059604918024922  0.00384449518436901 0.00597680414733126  0.87067464364395 -0.46231161332657 
302.875  0.796877542978413 -0.577462489988894  0.00387745569434731 0.00585876751199644  0.00385842348434503 0.00588248614169151  0.868463457637116 -0.468272869728355 
306.59375  0.791675358968047 -0.584049403479919  0.00399182299340865 0.00609604564471686  0.0039897790499594 0.00610479805028223  0.865313948855933 -0.473931133531045 
310.3125  0.786973904480512 -0.589002699213522  0.00420021592425872 0.00605909449513857  0.00418880975290188 0.00605610040073556  0.862394193713675 -0.477305899405486 
314.03125  0.782453156142986 -0.595031206808403  0.00415201167877115 0.00617469677441197  0.00414377477156504 0.00617639896192025  0.859636939654381 -0.483253828406878 
317.75  0.776985467547269 -0.599585841299307  0.00434648368524719 0.00637144941118006  0.00435538702298569 0.00638127606299305  0.855754358360826 -0.487775640675773 
321.46875  0.772625742295533 -0.606511530567692  0.00443764507818255 0.00630984215654193  0.0044238775702467 0.00632129243995938  0.853544964864487 -0.494631204308219 
325.1875  0.766696436717591 -0.61185466715475  0.00475157489350933 0.00627535168545198  0.0047378336720076 0.00628984321167641  0.849744161046924 -0.499235054665362 
328.90625  0.762476727251788 -0.616102919425868  0.0047480272568966 0.00619363759783553  0.00473856851890992 0.00619888691502133  0.847081540781338 -0.502689039895609 
332.625  0.757941718375692 -0.621612169367116  0.00494577743705972 0.00587080864076057  0.0049262896605757 0.00588001561908277  0.843974180641436 -0.50759940711763 
336.34375  0.75359125040101 -0.62607618461861  0.00481458196349246 0.00601797721062027  0.00481855523706516 0.00602884966621897  0.840722395548423 -0.510732885898523 
340.0625  0.749420081656922 -0.631837063858087  0.00466933397178446 0.00609326705356336  0.00465557891742746 0.00610516125185867  0.838994461365394 -0.515850827145886 
343.78125  0.742618016848495 -0.637482260270569  0.00475882752200544 0.00624303004388451  0.0047480295996466 0.00625114126847303  0.834581248330651 -0.521784095657748 
347.5  0.739156128306492 -0.642806361992171  0.00479320554951682 0.00631153798450588  0.00479309709008708 0.00632388870235679  0.833435624372391 -0.526098449944196 
351.21875  0.734419652950387 -0.648139755020357  0.00499635834529153 0.00631587644552125  0.005002364220882 0.00633620399254501  0.830136702708167 -0.531187676242294 
354.9375  0.729722044354266 -0.652742065927327  0.00513986183443566 0.00634949592524655  0.00513532784643086 0.00635913933289132  0.826411565551217 -0.534878401682238 
358.65625  0.725096387683562 -0.658525111180178  0.00517401418730516 0.00643787306617068  0.00517026947525651 0.0064487483709277  0.82325882215734 -0.539909082112717 
362.375  0.719706715212328 -0.662632100121327  0.00523379209210564 0.00637853010327783  0.00523587407393037 0.00639603118391052  0.819060249369721 -0.542952942262734 
366.09375  0.715512568902733 -0.668751771422383  0.00538372031813698 0.00643946419677984  0.0053823624423771 0.00645799897118007  0.81750461166043 -0.54814942684134 
369.8125  0.708789131385533 -0.673990510346015  0.00535980717441551 0.00634009656874007  0.00536514674392996 0.00636028847359876  0.812993571279129 -0.553039157543266 
373.53125  0.705061408752132 -0.678530212253842  0.00553072061405129 0.00609439075408016  0.00551706217752535 0.00612535313007944  0.811104175914381 -0.55690220790845 
377.25  0.700095884028918 -0.684298462522445  0.00548689716861862 0.00631709960152828  0.00548703255016622 0.00632545426659071  0.808057237425835 -0.562782752178252 
380.96875  0.695217159578265 -0.688314073167357  0.00564299162136603 0.00645653643441059  0.00563236850262029 0.0064706396763251  0.803728035735386 -0.567093722549315 
384.6875  0.690041636850757 -0.694534669242341  0.00568686870158921 0.00645223996224356  0.00569407146791998 0.00647680453782255  0.800603886819206 -0.572409333121422 
388.40625  0.683695757143783 -0.700351797057072  0.00581041773482967 0.00654505385987007  0.00581748570343724 0.00654134809146843  0.796492562036044 -0.578608059842041 
392.125  0.679154203613751 -0.704367318250357  0.00585319128449632 0.00647973161589482  0.00585346847212444 0.0064812560746503  0.793224471179449 -0.580952278784531 
395.84375  0.673221264347403 -0.710247633172647  0.00592780338390666 0.0066024595083342  0.00592564290589289 0.00660179153635951  0.789090897475077 -0.586565822085789 
399.5625  0.668888368266978 -0.714659016562077  0.00625908601525905 0.00657917913171269  0.00625125063547213 0.00660158383719301  0.785002334635289 -0.591152508603416 
403.28125  0.662272940450233 -0.720080769690964  0.00646321353412308 0.00644619217257757  0.00645973699686761 0.00646156940326121  0.780982732317239 -0.595760981280814 
407  0.656119199135495 -0.723997854509382  0.00652001247248705 0.00649334867118519  0.00651350114148951 0.00651616492378897  0.775761090029217 -0.599995123906845 
410.71875  0.649261637166982 -0.731335040144211  0.00631724487081515 0.00611955986873697  0.0063685481590777 0.00609516445278236  0.774652725274504 -0.601841415870717 
414.4375  0.644557424306712 -0.735575551689254  0.00632847324634758 0.00621213787259321  0.00633374052912114 0.00620618059147228  0.770465026704427 -0.608333682310721 
418.15625  0.638113804670802 -0.738612907713952  0.00636458031263103 0.00624842095250057  0.00637062174650589 0.00624885425561415  0.766004929533682 -0.611195793402478 
421.875  0.633297441522422 -0.744561630701869  0.00642965765613409 0.00647864444915355  0.00644696878385479 0.00646160313963017  0.762816530512333 -0.618242411805724 
425.59375  0.626780312360017 -0.74799797510288  0.00677593777192385 0.00651955354067186  0.00677477167786938 0.00652197843245857  0.7571683356201 -0.62217264157675 
429.3125  0.621226469345084 -0.753983396771244  0.00680144337387333 0.00634693887394579  0.00680254397675019 0.00633952349057755  0.753638863384963 -0.62771851602563 
433.03125  0.61485336980689 -0.758661862534952  0.00697241764638416 0.00620014532822954  0.00699654483799019 0.00619396831910623  0.748189966198422 -0.632631183609726 
436.75  0.609374332840698 -0.761422530826186  0.0068264004522862 0.00615113666287569  0.00684037079617486 0.00614319158294829  0.745093224042762 -0.634695091870285 
440.46875  0.606250107385774 -0.763145095384122  0.00678700304047274 0.00616014251086832  0.00674581010657266 0.00621129269056694  0.739111425057153 -0.639928488511878 
444.1875  0.596567437939387 -0.767547000338908  0.00698888505742343 0.00609484241480298  0.00698749429273727 0.00610383060069439  0.734653044208963 -0.642274642631997 
447.90625  0.591878768204243 -0.771973228401495  0.00697464243996209 0.00622018632029821  0.00696724724334084 0.00621691239365971  0.733318783404694 -0.647549692132424 
451.625  0.58589267143607 -0.7757102121839  0.00705064754566668 0.00616433241789164  0.007052195865494 0.00617483510732912  0.729483464550007 -0.652438227737232 
455.34375  0.581269568101682 -0.778654570974533  0.00701080866888013 0.006202574151406  0.00700123592328834 0.00622620836513037  0.726648720327753 -0.655743908927231 
459.0625  0.575414243061229 -0.782930181990659  0.00716402980244143 0.00627068973158848  0.00715189989484318 0.0062865772249143  0.722279610233842 -0.660991044462394 
462.78125  0.570501158544081 -0.786197847071913  0.00730672616831928 0.00612587001421888  0.00730565975365718 0.00612890434286226  0.718324398739953 -0.664277182400903 
466.5  0.564584517778692 -0.790949190243087  0.00731177332702826 0.00624726906917649  0.00730697854622742 0.00627993955843524  0.714173055602387 -0.669866872102881 
470.21875  0.55872894948744 -0.793817438945008  0.00738802308549321 0.00629435070035103  0.00739647190743572 0.00629464533838162  0.709207894416532 -0.673702330343312 
473.9375  0.554350536058135 -0.798064445307853  0.00748696717661684 0.00628889011176655  0.00749401640720795 0.00629918467588463  0.706466684798156 -0.677686350255264 
477.65625  0.548061212497088 -0.801668565628627  0.00769765897006477 0.00627880006681087  0.00769599499739537 0.00629458120524955  0.701748176010416 -0.682128436098448 
481.375  0.542856031021872 -0.804472168184172  0.00781392172234282 0.00602789271207279  0.00781954546908184 0.00603898711353807  0.697641331952203 -0.684735867882766 
