! Matrix data file written by TouchstoneData, EPCOS AG
! FILENAME: "LW96C.NB.2.snp"
! COMMENT: "(LW96C.NB.2.s2p)"
! INFO: nport=2, nfreq=801
! DATE: "Thu Dec 16 09:29:09 2010"
! USER: "TengKee Lok"
!
! port | pin | signal
! -----|-----|--------
!   1  |  2  |  input
!   2  |  5  |  output
! --------------------
! 
# MHZ S RI R 50
! freq  reS11 imS11  reS21 imS21  reS12 imS12  reS22 imS22
2000  -0.804664148171435 -0.53245706772008  -0.000563035790445341 0.000643543530231989  -0.00055979748418696 0.00063768641192586  -0.550094746314303 -0.789277570704086 
2000.875  -0.805836362838216 -0.530533394284067  -0.000597006230103817 0.000656130058320439  -0.000595571617874772 0.000650648011509171  -0.551056752039402 -0.788143398946772 
2001.75  -0.806260320034025 -0.529024221013121  -0.000627777774480793 0.000677867363198287  -0.000626377192246799 0.000673297310940718  -0.551852474868815 -0.786908189541237 
2002.625  -0.806386825347484 -0.528188558408964  -0.00064590011473336 0.000714214888929798  -0.00065035245259183 0.000715650283045717  -0.552897671838569 -0.786465373452398 
2003.5  -0.806417745227548 -0.527928745132231  -0.00065655016334981 0.000750981266128568  -0.000656426679297279 0.000747603214815041  -0.55401765394125 -0.786288417726148 
2004.375  -0.805972484378296 -0.528110978687175  -0.000655106183375397 0.000779384349099965  -0.000654345650898793 0.000776760476289825  -0.555058515065385 -0.786093971622054 
2005.25  -0.807885913408162 -0.527859560510152  -0.000653426231262902 0.000797749657569564  -0.000656638259111421 0.000797513206947002  -0.55626579795922 -0.785534873251702 
2006.125  -0.810408613619068 -0.526867844997241  -0.000655671510293811 0.000823227130016643  -0.000654630604110128 0.000821161435161362  -0.557537904492388 -0.784790384296597 
2007  -0.81236414184936 -0.525569991798358  -0.000650075518587441 0.000847726350750434  -0.000648954526881471 0.000844335005794226  -0.558711514059345 -0.783984615909592 
2007.875  -0.813555554917998 -0.52399647650632  -0.000636850018492317 0.000873206029967181  -0.000637118938786965 0.000869019962696503  -0.559768360372574 -0.783205802126276 
2008.75  -0.813839208844544 -0.522510706739309  -0.000621004374615282 0.00088615618248619  -0.000622880027936664 0.000876594413514357  -0.560678952118671 -0.782381519613175 
2009.625  -0.81319382469174 -0.521422496283998  -0.000602850829895359 0.000880212179428941  -0.000607900206434239 0.000874749309454558  -0.56149820088702 -0.781663290606189 
2010.5  -0.811961318028303 -0.52082471067213  -0.000598149054823795 0.000867071656118668  -0.000599874114237828 0.000867777327160493  -0.562169613902139 -0.780937427625863 
2011.375  -0.813208410176111 -0.519638361508433  -0.000592805115521416 0.000870113309642341  -0.000595893380557223 0.000868675346634831  -0.563371662127251 -0.780120487096849 
2012.25  -0.814810505790952 -0.518233637714014  -0.00059389040677622 0.000859224860400916  -0.000595797993665556 0.000854831296155876  -0.564599950845731 -0.779316609121929 
2013.125  -0.815971597253651 -0.516790011616073  -0.000599228323325901 0.0008402408762486  -0.000600921105738725 0.000838843479997533  -0.565803484254193 -0.77845123658442 
2014  -0.816805786025421 -0.515392114049352  -0.00062297844864742 0.00082215052164951  -0.000628165131330724 0.000821774170501824  -0.566837208923154 -0.777556867004872 
2014.875  -0.817332418312918 -0.514176228106222  -0.00065676434256678 0.000818209433085765  -0.000661776304793867 0.000812020069566197  -0.567796611001885 -0.776686680203199 
2015.75  -0.817552573735479 -0.51303106091283  -0.000699714033788499 0.000824279813590285  -0.000702278173518214 0.000823173571602132  -0.568622009234159 -0.775763259204773 
2016.625  -0.81741689854881 -0.512056233077072  -0.000733079078480746 0.000848626168907562  -0.000738507851885401 0.000845240553496061  -0.569355829313545 -0.774829880428122 
2017.5  -0.818840642067504 -0.510832655641791  -0.00075877133720758 0.000865921720571233  -0.000763867870305138 0.000864427583523133  -0.570850075276217 -0.774213833874827 
2018.375  -0.819986813577353 -0.509378623684589  -0.000806489426978828 0.000885170330461238  -0.000810772817081283 0.000881010917949032  -0.572155090197396 -0.773234821296199 
2019.25  -0.820907188581415 -0.508082635023882  -0.000858063670608532 0.000933934867883006  -0.00086092725606147 0.000932547235611302  -0.573129302601402 -0.771986652533827 
2020.125  -0.821656438400415 -0.506717385879583  -0.000883857404688911 0.000998442298505407  -0.000888873667268721 0.000994005622641184  -0.573966140562997 -0.770703265031187 
2021  -0.822335786340675 -0.505420656659609  -0.000898670336394021 0.00106904784861228  -0.00090814109579551 0.0010656810248339  -0.574653679186835 -0.769280377651521 
2021.875  -0.82282812626078 -0.504081401881127  -0.000902533680560583 0.00115037147548102  -0.000910922707445566 0.0011440063781831  -0.574967964861439 -0.767909882270231 
2022.75  -0.823308097905641 -0.502700385639801  -0.000872782074552081 0.00124689628030392  -0.000879624657379559 0.00124111275323223  -0.575094669269811 -0.766765458052751 
2023.625  -0.824438658933273 -0.501279925648555  -0.000802169166293133 0.0013216262268619  -0.000812856226328963 0.00131780662461775  -0.575619889958811 -0.766102466779407 
2024.5  -0.825525899040187 -0.499825761599812  -0.000701127235643341 0.00135175005272458  -0.000711824889474773 0.00134891664539784  -0.575913877007019 -0.765655797629504 
2025.375  -0.826508293904205 -0.498371185440179  -0.000638830800693929 0.00131527665037315  -0.000648266892430492 0.00131211826228801  -0.57650978666661 -0.765572705285538 
2026.25  -0.827311352529533 -0.496866691807271  -0.000632387226098584 0.00130287895978924  -0.00064039625885142 0.00129586141674223  -0.577468792905933 -0.76512803216887 
2027.125  -0.828018699718519 -0.495244449303669  -0.000617744796212067 0.00130921234944827  -0.000625997225753872 0.00130481168800094  -0.578462442664038 -0.764388475265106 
2028  -0.82868982941925 -0.493739298581548  -0.000601811518567416 0.00131011292262794  -0.000611987271707895 0.00130621212605808  -0.57923710578814 -0.763363569392845 
2028.875  -0.829402854114822 -0.492201758644696  -0.000598984854950808 0.00131714982199264  -0.000608693853515583 0.00131063349386246  -0.579692883541507 -0.762358351877973 
2029.75  -0.830517862095085 -0.490588316341474  -0.000596772038133649 0.00133502920347494  -0.0006074413950186 0.00133178396598011  -0.579276700192816 -0.761943653843374 
2030.625  -0.831482837150066 -0.488887253688175  -0.000595090576411371 0.0013788840199396  -0.000607776226310671 0.00137424837853581  -0.579372113992559 -0.761607975186956 
2031.5  -0.832322502214283 -0.487153630992651  -0.000562098095097434 0.00143138095583454  -0.000575304005877673 0.00142770070250295  -0.580077226147345 -0.761145266318295 
2032.375  -0.833029578381056 -0.485353473491996  -0.000531482976178425 0.0014624133154839  -0.000542991749540134 0.0014600564267715  -0.581367828262881 -0.760173522014193 
2033.25  -0.8336404992612 -0.483500493933103  -0.000493024153119759 0.0015224669741822  -0.000507989542933867 0.00151807306130748  -0.582960199610946 -0.758408585275427 
2034.125  -0.833988210285177 -0.481637330239012  -0.000433529153444276 0.00159790407506593  -0.000448919803865083 0.00159622283439914  -0.584606153982248 -0.755579637922848 
2035  -0.83434290808203 -0.479763369772242  -0.000294928583658494 0.00169950167767026  -0.000309908109101459 0.00169914906308767  -0.585292705871482 -0.75229128981708 
2035.875  -0.834917109967062 -0.477977824856838  -5.87188246058952e-05 0.00170590846986216  -7.64328489906588e-05 0.00170578078444413  -0.584254124357282 -0.750675069243671 
2036.75  -0.835399708774335 -0.476220171858992  0.000154166519091915 0.00154604654722444  0.00014041392810843 0.00154637339332631  -0.582818219941418 -0.750644357838287 
2037.625  -0.835765916568419 -0.474534705294502  0.000244114007185138 0.00135265204416124  0.000231171668647757 0.00135373559263325  -0.582422533625195 -0.7513892840538 
2038.5  -0.836140104529183 -0.472984621611342  0.000277252207740938 0.00116439505798361  0.000262154041602748 0.0011662075382119  -0.5827406124114 -0.752223562334398 
2039.375  -0.836408871525675 -0.471334190811457  0.000245771300847651 0.000989372947779529  0.000235453851295745 0.000990377607451299  -0.583551887525436 -0.752629499403316 
2040.25  -0.836591056340833 -0.469683112746531  0.000183395912194732 0.000836131250496114  0.000174608441489996 0.000839896866914244  -0.584260766274888 -0.752883792818125 
2041.125  -0.837049003534892 -0.468189905529424  8.49663729310449e-05 0.000719226366256382  7.86181670224862e-05 0.00072084130360447  -0.585208657999841 -0.753046164923808 
2042  -0.837601271343106 -0.46664109252594  -3.57219017821162e-05 0.000634645795269941  -3.98495925250173e-05 0.000633614942337792  -0.586565781067328 -0.753270709182239 
2042.875  -0.838142309537035 -0.465113909646984  -0.000161724579220787 0.000598171080543402  -0.000172101701619376 0.000594168108211731  -0.588246673535597 -0.753119604295828 
2043.75  -0.838683419058654 -0.463514523004702  -0.000270254942561756 0.000590496381518814  -0.000278136249285572 0.000588469457648862  -0.58986287896268 -0.752734423774106 
2044.625  -0.838983103273169 -0.461893749110721  -0.000358698068132376 0.00061295507593287  -0.000369975396538309 0.000612725037121598  -0.591326127185077 -0.752181409531424 
2045.5  -0.839275680313062 -0.460317364584306  -0.000424822195238039 0.000636326348696197  -0.000431970408035007 0.000632440368084458  -0.592644742195265 -0.751518404386778 
2046.375  -0.839622690008875 -0.458754358836821  -0.000491421128934891 0.000649697038730311  -0.000499735598239298 0.000646563621310565  -0.593902101514069 -0.750849274229358 
2047.25  -0.839901567717567 -0.45705614089658  -0.000553463414241384 0.000673532693764643  -0.000561092051691065 0.000667415876203839  -0.595205311268709 -0.750105148837685 
2048.125  -0.840254165385252 -0.455520750104096  -0.000623929792142402 0.000702207159727825  -0.000636540861925952 0.000697139384987836  -0.596594164976897 -0.749364258826647 
2049  -0.840659112889265 -0.454026836758411  -0.000689658145759238 0.00076969804704913  -0.000698099935487207 0.000761448569110909  -0.598017337095451 -0.748578686905627 
2049.875  -0.841021027692763 -0.452549084549795  -0.000717652902931329 0.000849597476841743  -0.000726444471755456 0.000844569505958571  -0.599388113563554 -0.747754979836759 
2050.75  -0.841199505454052 -0.451078084869581  -0.000718159642412211 0.000927283765310712  -0.000729042758583327 0.000918116426363332  -0.600690631862735 -0.746781512787182 
2051.625  -0.841275535929551 -0.449744620119941  -0.000700708349457561 0.000980765712015056  -0.000713287044658568 0.000972597853668686  -0.601927049991008 -0.745773591088289 
2052.5  -0.841298619158774 -0.448517946401714  -0.000677012112100349 0.0010339125858296  -0.000684348379722766 0.00102728485276482  -0.603017533488188 -0.744767041342284 
2053.375  -0.841689399356015 -0.447319974070952  -0.000631217276529317 0.00107240996198024  -0.000643202420512172 0.00106391363757935  -0.604259877105257 -0.743562263350183 
2054.25  -0.84190885383204 -0.445999892390535  -0.000584815630462943 0.00108937557803177  -0.000594827325262639 0.0010828072319372  -0.605420179017816 -0.742290453258284 
2055.125  -0.842257149746219 -0.444991805978294  -0.000528694599547241 0.00108533794185938  -0.000542935612805707 0.00107798217890434  -0.606373328065794 -0.741124893448622 
2056  -0.842775876360451 -0.444095158715825  -0.000477964101610679 0.00105510481999048  -0.000487261614670876 0.00104944028280766  -0.607251139500465 -0.740020135161945 
2056.875  -0.843373453910685 -0.442987419540286  -0.000451023898242135 0.00100692708394783  -0.000461935665869734 0.0010067885843304  -0.608181123987969 -0.739086171956318 
2057.75  -0.844021821000116 -0.442351463172328  -0.000454727087813719 0.000955001500727163  -0.000464141131063201 0.000949952340484408  -0.609084763696748 -0.738186891190055 
2058.625  -0.844963308161503 -0.441637024027314  -0.000474265048294154 0.000901259767104381  -0.000482332446901202 0.000894822430349209  -0.609987486491623 -0.73736661499188 
2059.5  -0.845965988803936 -0.440496521303011  -0.000517575988865286 0.000868581987945677  -0.000524142219553459 0.000863652763839649  -0.611061886496397 -0.736267804736479 
2060.375  -0.847065645340376 -0.439408529138843  -0.000560677938884094 0.000853715950354913  -0.000569766973773584 0.00084724933270164  -0.612137207962392 -0.735119754744058 
2061.25  -0.848335460592667 -0.438197369920096  -0.000589622761719534 0.00084256798579758  -0.000601370377282254 0.000835899586414703  -0.613121181244049 -0.734018065021555 
2062.125  -0.8496781360459 -0.437100774712414  -0.000630690896563118 0.00083372729947873  -0.000641468591602823 0.000829294661548536  -0.614057544616479 -0.732912857830205 
2063  -0.851149328117646 -0.436003793117797  -0.000680596755502676 0.000840174270772785  -0.000689313206462453 0.00083063890418883  -0.614775556444093 -0.731846011935733 
2063.875  -0.852597332682445 -0.43467922789042  -0.000720881898719624 0.000849087040349336  -0.000728761942662479 0.000838337559202335  -0.615527675803295 -0.731066841112676 
2064.75  -0.854118968587109 -0.433379269987289  -0.000764014298222393 0.000864344206209168  -0.000774383210435034 0.000858839079319117  -0.616396146592584 -0.730241034253846 
2065.625  -0.855674454241192 -0.431579192777838  -0.00080075625356517 0.000893476303683246  -0.000813524382455776 0.00088296876010322  -0.617444115385723 -0.728986818786912 
2066.5  -0.857179886072862 -0.42971792219681  -0.000842525147218027 0.000930762450540911  -0.000852324612017386 0.00092156138699397  -0.618296383258198 -0.728103724894854 
2067.375  -0.85857848678368 -0.427892918757839  -0.000862247913567586 0.000973991110678576  -0.000868617904329168 0.000963561429431874  -0.619328407880214 -0.7272293223055 
2068.25  -0.860038352657836 -0.4260067416831  -0.000877118982357765 0.00101412672658866  -0.000885613739267008 0.00100488807036079  -0.620213829894172 -0.726343326154013 
2069.125  -0.861388301584229 -0.42407140803326  -0.000890239426178606 0.00106438376868205  -0.000902069572443889 0.00105395612189696  -0.62109339403971 -0.725450119360251 
2070  -0.862740696510994 -0.422173709350741  -0.000887142411468746 0.00111436112725562  -0.000898080618072206 0.00110604088335555  -0.621811200795888 -0.72474542874231 
2070.875  -0.86403915446731 -0.420036074747421  -0.000876145156719559 0.00116141545161811  -0.000885434775515804 0.00115390238139577  -0.622707992648066 -0.724078731215669 
2071.75  -0.865339521327939 -0.417719444597826  -0.000852470079756329 0.00121396847950228  -0.000861629739066749 0.00120640626364728  -0.623787809953494 -0.723093615830197 
2072.625  -0.866491387856192 -0.415384212555828  -0.00081285117245686 0.00124445657671318  -0.000821073182452706 0.001239235240407  -0.624737594284452 -0.722295114227979 
2073.5  -0.867660255400166 -0.41299182130941  -0.000773574832165957 0.00126851359116374  -0.000783686144562326 0.00126048479544374  -0.625946227324484 -0.721730282162385 
2074.375  -0.868720883190592 -0.410706053974092  -0.000722990288065112 0.00128100179364615  -0.000732400256129373 0.0012711641636901  -0.62724174862636 -0.721049020247732 
2075.25  -0.869778914337607 -0.408466103373446  -0.00068304090784114 0.001269441348646  -0.000688182586968663 0.00126933504880885  -0.628509380122458 -0.720362954053042 
2076.125  -0.870922460844405 -0.406293036768966  -0.000642868788348018 0.00126060890507336  -0.000646995258434581 0.00125732512673952  -0.62977435018837 -0.719670876273851 
2077  -0.87190957590283 -0.403980278399805  -0.000614580405394564 0.00122827030195548  -0.000622394183601631 0.00122505714229792  -0.631157293344847 -0.718782846950599 
2077.875  -0.872833566666436 -0.401454403658209  -0.000609289198999458 0.00121705043791045  -0.000615199369961828 0.00121564623731774  -0.632721988815012 -0.717701940566865 
2078.75  -0.873712370317529 -0.398870525671902  -0.000574318925157749 0.00120653176322474  -0.000581235975848597 0.00120455197169112  -0.634182976187117 -0.716454711197538 
2079.625  -0.87444868135239 -0.396371120638574  -0.000548378197684331 0.00117401923439237  -0.000556104049363604 0.00116581359024363  -0.635446669673541 -0.715370075852255 
2080.5  -0.875221464149801 -0.393940433306475  -0.000541528674704281 0.00113811549639825  -0.000546763257168168 0.0011356509086284  -0.636712835219942 -0.714344077409751 
2081.375  -0.87582307546119 -0.391473689675233  -0.000532326589911818 0.00110296055143673  -0.00053922166738644 0.00110372900533339  -0.637977687520213 -0.713413230350346 
2082.25  -0.876304289812486 -0.389233156647432  -0.000532571681843265 0.00106344848175316  -0.000535539647186179 0.00105841435773433  -0.63918574087326 -0.712529698091594 
2083.125  -0.876675400892429 -0.386819537857265  -0.000543255537031613 0.00102218273792913  -0.000548291732634815 0.00101866427261704  -0.640559809625223 -0.711353220352954 
2084  -0.876988293967386 -0.384253980289589  -0.000563600156666869 0.000985622178913432  -0.000568693593974239 0.000984484293918735  -0.64201761025331 -0.710076549750943 
2084.875  -0.877115113765215 -0.381765435549172  -0.000601800313961935 0.00097015570442352  -0.000599584915479159 0.000970516881130489  -0.643435642522006 -0.708851037291447 
2085.75  -0.877060780152775 -0.379496684870251  -0.000620222818711589 0.000965365145665872  -0.000620782344454564 0.000963074424206568  -0.644847652498858 -0.707682032246717 
2086.625  -0.877013523541121 -0.377574773844217  -0.00063251362245862 0.000949961384778183  -0.000633608646071884 0.000949561844137538  -0.646216959311416 -0.706513121794183 
2087.5  -0.876987917037588 -0.375730742283715  -0.000640563845492002 0.000940976774884732  -0.000642416790702365 0.000940956259012517  -0.647499141330553 -0.705395906961852 
2088.375  -0.876953622823859 -0.374104965027234  -0.000644887733981578 0.000934094467090945  -0.000645271717680115 0.000929866931217772  -0.648748816623548 -0.704285387150174 
2089.25  -0.877073677424399 -0.372531737087401  -0.000640555603584901 0.000936797285614313  -0.000640220229281507 0.000931931718567058  -0.650152016200532 -0.702949443362929 
2090.125  -0.87718742454699 -0.370905880453161  -0.000619889791862484 0.000906904347612557  -0.000622083598902332 0.000905953199170164  -0.651592705377837 -0.70150139118224 
2091  -0.877597335987038 -0.369436674692189  -0.000614211412432365 0.000868884991649013  -0.000616204074861922 0.000864582310732535  -0.652996350011976 -0.700099638252101 
2091.875  -0.877742888251285 -0.367953148319161  -0.000594453396489974 0.000825058896614535  -0.000594695338116827 0.000828087463027007  -0.654372954951176 -0.698784630435495 
2092.75  -0.878306814410567 -0.366891131781807  -0.0005885317519648 0.000758226125464943  -0.000588322248734038 0.000756428022056917  -0.655659458194023 -0.697427127366984 
2093.625  -0.879041998082953 -0.365883051901096  -0.000605408408658931 0.000684999652136519  -0.000602636508288746 0.00068648426525492  -0.656953871663782 -0.696114663265492 
2094.5  -0.87996094963355 -0.364559842310532  -0.00061845921206834 0.000595218820954084  -0.000622454854893869 0.000598800943230594  -0.658182636268191 -0.694896714066135 
2095.375  -0.880906464639385 -0.363111095835109  -0.000671295897589686 0.000497970175738621  -0.000667664825313727 0.000496681108424882  -0.659638495222983 -0.693321741510087 
2096.25  -0.881935749035062 -0.361572464783019  -0.000733610639446405 0.000414519351533523  -0.000733047232910929 0.000414994969514891  -0.661090001637085 -0.691631023544801 
2097.125  -0.883004733502939 -0.359978073743641  -0.000802171972216624 0.000320162194472985  -0.000804657899586785 0.000318605768918935  -0.662381862720915 -0.689925887339667 
2098  -0.883986551971105 -0.358254318832426  -0.000906716468053288 0.00021675987624762  -0.000906494023293668 0.000214089077993147  -0.663712037307399 -0.688286823376078 
