! Matrix data file written by TouchstoneData, EPCOS AG
! FILENAME: "B1669_WB.snp"
! COMMENT: "(B1669_WB.s2p)"
! INFO: nport=2, nfreq=1601
! DATE: "Tue Jan 10 16:47:26 2012"
! USER: "Adrian Ma"
!
! port | pin | signal
! -----|-----|--------
!   1  |  2  |  Input
!   2  |  5  |  Output
! --------------------
! 
# MHZ S RI R 50
! freq  reS11 imS11  reS21 imS21  reS12 imS12  reS22 imS22
50  0.995813248896502 -0.066639870982569  8.78644971039521e-05 0.000438730286314824  0.000100921152670075 0.000435112471172998  0.996347863128392 -0.0600497125478034 
53.71875  0.995922744819966 -0.0742359320374024  -7.08700871400029e-05 0.000246250620279896  -6.91273989318737e-05 0.000247406549767276  0.996338505002947 -0.0678152821884134 
57.4375  0.995995781239363 -0.0792275208074717  6.73052278106979e-05 0.000441361455983681  6.59882150340812e-05 0.000442081937357809  0.996907847860769 -0.0724987663235151 
61.15625  0.995955964595856 -0.0847644804234346  5.63359563361225e-05 0.000484350484505316  5.80241583737729e-05 0.000483927977753699  0.997327489647017 -0.0770685635805187 
64.875  0.995543642269249 -0.0886500769962542  9.81389940018625e-05 0.000445049620757667  9.53680759936553e-05 0.000441077229690217  0.997387875421458 -0.081702497479319 
68.59375  0.994389370568647 -0.0947261193049671  4.79625641311514e-05 0.000472803819349819  4.46556282568844e-05 0.000471553844357702  0.995686490493151 -0.0859185438902611 
72.3125  0.993913674745286 -0.0996356928068128  4.46297922946976e-05 0.000489746251702432  4.5427952945683e-05 0.000487553535544105  0.995297330317815 -0.0912822286041228 
76.03125  0.993859577321227 -0.104299293304804  9.79247610076342e-05 0.000484685116718106  0.000101215917152853 0.000487101936408567  0.995137905190722 -0.0946490652013536 
79.75  0.993272714010438 -0.109827076719413  7.13732833639317e-05 0.000481983943645711  6.90717652439831e-05 0.000483011513433465  0.994673111804532 -0.0999025047217233 
83.46875  0.992312727732771 -0.113796500113976  0.000118505189872158 0.00053593523796493  0.00011808779352387 0.000529802124828898  0.99403085143285 -0.102783666662181 
87.1875  0.991740486905691 -0.120381886557376  8.24279740968191e-05 0.000526259238626894  7.67403460727658e-05 0.000528325385757647  0.99521013156424 -0.10942806055799 
90.90625  0.990628083866557 -0.123574289564913  0.000237621175272582 0.000608517135322843  0.000242177495355008 0.000605614592461179  0.992638458333592 -0.111802228427111 
94.625  0.989030663178371 -0.129528324376534  1.48729326805332e-05 0.000643857591557255  1.84800973388705e-05 0.000644898457043536  0.991454338184993 -0.11828771483436 
98.34375  0.988514001286811 -0.132861096096061  8.73350129609487e-05 0.00054815752847873  8.80889437593652e-05 0.00054408660024095  0.991177569944281 -0.120531500152179 
102.0625  0.98794233565723 -0.137214095060368  0.000115339279092819 0.000717051110641179  0.000116089983994565 0.000720915945690639  0.991166662245119 -0.124381002065756 
105.78125  0.986809997356621 -0.142316137095006  8.98564245953458e-05 0.000705102939480741  8.94249663323123e-05 0.000706236810516315  0.99004250753092 -0.130902554768126 
109.5  0.985912815191773 -0.146430477549418  0.000115670608559409 0.000700704295239267  0.000117267820245447 0.000702078820871774  0.989319668785479 -0.133447964717663 
113.21875  0.985828901134365 -0.151121405250892  0.000110760880012167 0.000751444114473942  0.000107267550180926 0.000747279913459512  0.989328308024627 -0.13810525064276 
116.9375  0.984120122685171 -0.155176753728815  0.000115184340845796 0.00069047334134223  0.000118569681620392 0.000693008483497867  0.987385105861542 -0.14131830662498 
120.65625  0.983886794770227 -0.159914420608139  0.00012006578348351 0.000776749834379412  0.000116026900362799 0.000780473827973592  0.987874474111546 -0.145757792282174 
124.375  0.982955299766377 -0.165078566017154  0.000125632637153145 0.000846305798041863  0.000125452453963161 0.000846429037280472  0.986429311393735 -0.151809817544146 
128.09375  0.982904179636967 -0.168751689042803  0.00015507120859978 0.000884977417120597  0.000152974401023644 0.000885617469636556  0.986292201003738 -0.154588525775683 
131.8125  0.982741383990694 -0.173001751741717  0.0001473493090946 0.000853530346391698  0.000144255240381189 0.000853606589096299  0.985961706989903 -0.15978889632089 
135.53125  0.981952737613113 -0.177965033061799  0.000168790868287838 0.000853142853043601  0.000169346124615692 0.000850280569052749  0.986063773188779 -0.161210150671967 
139.25  0.981333535851957 -0.182611103268603  0.000182094710424753 0.000945203431360093  0.000179322344342774 0.000945688475769407  0.98515288282794 -0.167236444196267 
142.96875  0.980463452607734 -0.186818342343883  0.000161015318817082 0.000946215832445067  0.000159914649108416 0.000947865462632495  0.983328678395924 -0.170851504916932 
146.6875  0.98025073212375 -0.192489820183003  0.000143719646839912 0.00095966536122544  0.000143166326345991 0.000956814817976493  0.98355116798024 -0.175924473085878 
150.40625  0.979463347846211 -0.198062596566275  0.000210733628247857 0.00104928442468643  0.000209817062156362 0.00104766261087999  0.982946736172956 -0.181443511018264 
154.125  0.978516381006432 -0.203417530932103  0.000191139768921754 0.000983188578335201  0.000193570123322704 0.000984772099244335  0.981967543106023 -0.186033104711468 
157.84375  0.977758249673041 -0.20835919742339  0.000246616320418006 0.00101072769816126  0.000243738183916496 0.00100582725976963  0.981488266765058 -0.190542222344701 
161.5625  0.97706556612657 -0.212920879136745  0.000253758843077091 0.00101970417559903  0.000256283090962863 0.00101825730996602  0.980717237745014 -0.194014911919612 
165.28125  0.975009422040334 -0.21885383848987  0.000281939621100808 0.000981423260295347  0.000283232095469776 0.000979673106926622  0.97830020238065 -0.200309986404733 
169  0.972978305601621 -0.224677715400232  0.000260306729035144 0.00103247612046256  0.000258752492566226 0.00102938721849891  0.976368741215891 -0.205918325702348 
172.71875  0.971337188029375 -0.229289986101361  0.000359892046049438 0.00109764125544826  0.000353784205391017 0.00109520437317122  0.97551126828447 -0.208049302881879 
176.4375  0.970792292671312 -0.235483028336481  0.000270512818280815 0.00111089801497608  0.000267970163802685 0.00111161621453955  0.975398324034805 -0.21556268205247 
180.15625  0.969302104504358 -0.239326032491286  0.000300183181802567 0.00122262090926546  0.000298082309924179 0.00121906507331855  0.974319499094237 -0.218056483962922 
183.875  0.968088756839856 -0.242537779430173  0.000268860807374155 0.00119300646810039  0.000266423833517826 0.00119234094454928  0.974501135589858 -0.220885821933974 
187.59375  0.966370671352331 -0.247784986207914  0.000224691874114612 0.00119632433327564  0.000224687020287718 0.00119178201586625  0.972029029423714 -0.227154957307483 
191.3125  0.966386495565301 -0.25245422905842  0.000316560263544174 0.0012540381676712  0.000321418598773399 0.00125545973929102  0.973443002668028 -0.231908507756824 
195.03125  0.962163317558171 -0.25835243986517  0.000340825456025106 0.00124389770142769  0.000340490510062767 0.00124797822824646  0.968043645923332 -0.236698952481323 
198.75  0.961740236175404 -0.262275278313033  0.000338700094776231 0.00125468309898595  0.000332303099940423 0.00125163440024574  0.968181690120657 -0.240328951338396 
202.46875  0.959618912441742 -0.267706217544403  0.000379158297655495 0.00131274612255604  0.000374401162452862 0.00130691580895048  0.965181079478659 -0.245852068443023 
206.1875  0.959001206199354 -0.269654269369643  0.000340434167562046 0.00131291198188431  0.000340961943927083 0.00131031626846575  0.965587983540173 -0.246826069982701 
209.90625  0.958868672906054 -0.272114071341033  0.000358708398944711 0.00131177431875156  0.00035537233919069 0.00130564372753921  0.966477322374378 -0.25013910178913 
213.625  0.954946999420524 -0.278918406217057  0.0004259005062856 0.00126301333039557  0.000423746207624474 0.0012590265451043  0.962014628722593 -0.256775368565388 
217.34375  0.955527294175527 -0.282133176111602  0.0004047815911957 0.00138661217094178  0.000401007369891459 0.00138720507581137  0.962590289401506 -0.259789243307201 
221.0625  0.954006666285223 -0.286776717241097  0.000412707359050187 0.00138378701967304  0.000412872015406774 0.00138285535863941  0.960813338164963 -0.264714693564949 
224.78125  0.954837065968805 -0.290504237575323  0.000450727314924543 0.00144569391854041  0.000446613101327413 0.00143907634425438  0.961785835196848 -0.266987709281031 
228.5  0.953337052746175 -0.29503809060502  0.000460249660657776 0.00143473340814259  0.000458238805457063 0.00143547433635964  0.960805229238746 -0.271749540460604 
232.21875  0.951151772747525 -0.298986591691167  0.000373619393317986 0.00147621348530915  0.000376824272100869 0.00147153554635822  0.95727762266314 -0.276994921598865 
235.9375  0.951136357611228 -0.304083752411602  0.000480878853222364 0.00152899004887757  0.000481407585544656 0.00152708667217411  0.958386890478164 -0.280444349698995 
239.65625  0.949556330551389 -0.309320387215504  0.00054269787751492 0.00151525021674508  0.000541360247925309 0.00151568457131396  0.956905045642729 -0.28637816350877 
243.375  0.948416680798516 -0.313033810062724  0.000564402144958545 0.00155197954091513  0.000561870394252738 0.0015515704635075  0.956068216849288 -0.288142336026276 
247.09375  0.947568033214486 -0.317530765926492  0.000565298096672238 0.0015415863750511  0.000562176290392006 0.00154136275066714  0.955633640160552 -0.293256295765397 
250.8125  0.946260986837453 -0.321797478037496  0.000571815142268705 0.00147914200304391  0.000567045653367819 0.00147388399700046  0.953860316345717 -0.296529637706361 
254.53125  0.944955544906948 -0.327258376194112  0.000627839697593124 0.00151426337479681  0.000629609545236804 0.00151193844106563  0.952975023990668 -0.302282612364901 
258.25  0.942430445830643 -0.331217952069814  0.000566013054741594 0.00151820582211115  0.00056492272706412 0.0015207402904103  0.949470009332591 -0.306294493366901 
261.96875  0.942254046167386 -0.336205888775571  0.000576293827178977 0.00157571161576023  0.000574900844073961 0.00157246659614898  0.950788836837306 -0.310028990173273 
265.6875  0.940164153944195 -0.341722500926066  0.000599260552229037 0.00163343796842147  0.000598165672859482 0.00163353558715123  0.949074778721165 -0.315863104744753 
269.40625  0.938388281336339 -0.345995464690062  0.000603490765585605 0.00165252289688596  0.00060266639058588 0.00164898652920486  0.947009316147914 -0.318845110212637 
273.125  0.936463308345262 -0.35074346747631  0.000650844805755285 0.00163031187409664  0.000648343469193355 0.00162891184927144  0.945412359565537 -0.324215088245006 
276.84375  0.933971987580438 -0.355085395404322  0.000623874559691645 0.00166909648312898  0.000622779356424156 0.00166595929569152  0.942641391739338 -0.327637999395745 
280.5625  0.931747549565711 -0.360766155475626  0.000649300661972611 0.00167948541207015  0.000644040471271127 0.00167604324600932  0.94147787488845 -0.333252929699476 
284.28125  0.929090952874446 -0.365152578508751  0.000663646771782544 0.00167621343216197  0.000663461269503099 0.00167703679332173  0.938885531187475 -0.338798119660201 
288  0.927512203381974 -0.369048176677817  0.000648621221922057 0.00170159817538701  0.000647098365989705 0.00170232834599995  0.937943721859567 -0.341008922031137 
291.71875  0.925142458623406 -0.373658348293359  0.000685708576161593 0.00170523277419829  0.000685550433240548 0.00170337448068304  0.936201658404715 -0.345525170744832 
295.4375  0.92298340121999 -0.377772605525289  0.000704075517646969 0.00176112538327945  0.000700381905214649 0.00175764684086503  0.933946789409408 -0.349385780857747 
299.15625  0.920959476997245 -0.382258216318862  0.000709169255513666 0.001757175481768  0.000704749862856684 0.00175394249973218  0.932744545440617 -0.353775131817189 
302.875  0.91830051311621 -0.38597006581235  0.000746136452547055 0.00176322874236396  0.000740848354859792 0.00175984876697859  0.92891513456521 -0.356753034246534 
306.59375  0.916527907127414 -0.39085067929943  0.00076646133449409 0.0018246893252093  0.000766061367701321 0.0018183730068356  0.928840617480768 -0.36152935443466 
310.3125  0.914287387955337 -0.395582880747004  0.000775854585746904 0.00182615753085205  0.000772477315507978 0.00182398606582425  0.926564049719259 -0.367993956522038 
314.03125  0.912672685185536 -0.398236244388945  0.000794235136213835 0.00185691680267876  0.000791289127017416 0.00185533279811017  0.925385507392879 -0.369079239974027 
317.75  0.910791701946658 -0.402465280901621  0.000795092322890019 0.00185577778064833  0.000794717984115347 0.00185262127618372  0.924311809947949 -0.373394465058147 
321.46875  0.908831552941034 -0.407107389300467  0.000806516687019294 0.00189471268082375  0.000803399604139398 0.00189524251007591  0.922011289381949 -0.377305884682335 
325.1875  0.906989834205256 -0.411148928387715  0.000860327251546527 0.00188662512321648  0.000860504826760701 0.00188119837663647  0.920828491488285 -0.381581478815485 
328.90625  0.904400901682828 -0.415805400680806  0.000883669102065698 0.00191031502996365  0.000880275076618567 0.00190976432632338  0.917032633473966 -0.386914468709345 
332.625  0.90374337927539 -0.419679901109253  0.000924557179811638 0.00194580934297679  0.000922643553831043 0.00194493787381961  0.91783843531622 -0.389117227399531 
336.34375  0.902049069678876 -0.42425622233439  0.00095985856183904 0.00192823891900458  0.000961801574830179 0.00192958716145049  0.916623575178889 -0.39408438489239 
340.0625  0.900516277977514 -0.427531065179757  0.000935467771309843 0.00194098812500129  0.00093208048789147 0.00193983515831217  0.915351961173215 -0.396032748724973 
343.78125  0.898079839952421 -0.433173525778268  0.000941821645689055 0.00193534616019722  0.000938071756613117 0.00193158166377567  0.913947413075336 -0.401855657505015 
347.5  0.895574627817241 -0.437096082101811  0.000936136131222557 0.00195398897951082  0.000935045300032069 0.00195394164408177  0.910869842242187 -0.405157872715473 
351.21875  0.89418676353227 -0.441067094361852  0.000965176265177009 0.00199175134050655  0.000963590252680303 0.00198981576221704  0.9104982095301 -0.409579059725172 
354.9375  0.891869270740246 -0.445721942901941  0.0010063140067949 0.0020438296164126  0.00100278943098954 0.00204539470629585  0.907978433595976 -0.414934173410597 
358.65625  0.890658945831456 -0.448566837045496  0.00106876563157715 0.00206549947005394  0.00106333820881082 0.00206458803754573  0.907761877897527 -0.416035318695284 
362.375  0.888859713364402 -0.452839115362258  0.00108866661506022 0.00203023444266709  0.00108553079252133 0.00202774279023576  0.905672855817123 -0.420697654089862 
366.09375  0.886538559939901 -0.456468011222301  0.00112865463173006 0.00201653905204569  0.00112599321226779 0.00201307739340626  0.902950727834023 -0.423617050570228 
369.8125  0.883656236159844 -0.460923220483743  0.00111577765419052 0.00197416791942905  0.00111872969029395 0.00197290293383423  0.901656141931829 -0.428130382487574 
373.53125  0.882021959448491 -0.465375180419908  0.00107900370519512 0.00197884062689644  0.00107817927995735 0.00197681383972631  0.89821919552812 -0.431802476009343 
377.25  0.880706214891304 -0.469494130602235  0.0010741470992938 0.00200551146316283  0.0010668550305329 0.00200582039278997  0.898779999234547 -0.434779079599336 
380.96875  0.878184885642658 -0.473850629276685  0.00108500263049656 0.00203907564890413  0.00108102158831326 0.00203843901639542  0.895977230951532 -0.439100359427909 
384.6875  0.875877806559329 -0.477160871303883  0.00110096305187827 0.002082513668531  0.00109914908049007 0.00208078434471013  0.894608152241228 -0.441617379825151 
388.40625  0.87393479992115 -0.482326266779625  0.00111515249479693 0.00210333601549422  0.00111408398930935 0.00209745482619818  0.893329936917181 -0.447796315203193 
392.125  0.870571177334411 -0.485121246940234  0.001134643954687 0.00210664341899848  0.00112940242506952 0.00210178722780556  0.889035034337074 -0.450727790861126 
395.84375  0.868819283057814 -0.48921486165772  0.00115074247137493 0.00210318282083365  0.00114715270443393 0.00209949447794608  0.888068779529016 -0.455495007981939 
399.5625  0.866122886969698 -0.493740990138262  0.00117010251767262 0.00213838659033649  0.00116340156409648 0.00213614834256277  0.884613722468038 -0.458755822657244 
403.28125  0.863641493351968 -0.4970600965149  0.00121674528895221 0.0021484771125077  0.00121346525897706 0.00214583565706246  0.883685735369737 -0.460783604184246 
407  0.861645340060457 -0.501068413535325  0.00121006988704744 0.00215945923518053  0.00120333233765075 0.00215895796625553  0.881992254201953 -0.464436788602753 
410.71875  0.859055923771733 -0.504341883322731  0.00124980908229729 0.00221434595328402  0.00124797055597103 0.00221497652976689  0.878739262269658 -0.467319752107178 
414.4375  0.856687341146957 -0.508402508546735  0.00126126147263467 0.0021715584655808  0.00125826716087813 0.00217326804597982  0.877066242920831 -0.471999641255262 
418.15625  0.852591480131463 -0.51157434487642  0.00126584412925962 0.00217809415663616  0.00126153447601938 0.00217385050421379  0.871900118186974 -0.475265235796232 
421.875  0.85215019381439 -0.515728380094293  0.00130123119787088 0.00220784218847182  0.00129637474223027 0.00220858278308546  0.873060545403994 -0.478334435535441 
425.59375  0.849750042095829 -0.519796635358669  0.00130815677425711 0.00226019897729424  0.00130321927229145 0.00225786110052454  0.870518555465792 -0.482842590146907 
429.3125  0.847295754502662 -0.523346011360421  0.00135703753052286 0.00226101976665101  0.00135160740005959 0.00226357394588135  0.868735962223813 -0.484963755262874 
433.03125  0.845022597710171 -0.527562432001951  0.00134747678481828 0.00225934314185154  0.0013459314386541 0.00225790293211928  0.866670229677351 -0.489738333412838 
436.75  0.842297924918615 -0.530897795472876  0.00136014638267868 0.0023198874607956  0.00135912354934226 0.00231880877365828  0.863752455736331 -0.491828862065697 
440.46875  0.840400711175445 -0.535339331450384  0.00141623428759781 0.00231601883589881  0.00141277340977165 0.00231368934802818  0.862710318945666 -0.49632478990279 
444.1875  0.837656135129953 -0.539722998029204  0.00146632126231687 0.00233252030255841  0.00146040940751821 0.00233041207296933  0.859335828830379 -0.500672824907739 
447.90625  0.835748306620568 -0.543249909771621  0.00153641466540769 0.0023152141810301  0.00153003035585838 0.00231351275039386  0.858746863789285 -0.502626820835551 
451.625  0.833307211190401 -0.547827376047223  0.00157269021233359 0.00229907937574035  0.00156614929934097 0.00229525394828185  0.856398976258989 -0.507509062073706 
455.34375  0.830786653162323 -0.551585113641966  0.00159950308800055 0.00226664977311776  0.00159456100471741 0.00226150017861928  0.854280754444141 -0.509854867260942 
459.0625  0.828246111825315 -0.555779167325974  0.00156379964887785 0.00222054151871346  0.00155702920195725 0.00221993135024  0.852954977228166 -0.514635403633442 
462.78125  0.824903216536512 -0.559450406445706  0.00151797877293698 0.00221279999278678  0.00151479515786636 0.00220997161171486  0.849627833189779 -0.517600746261115 
466.5  0.822558654795657 -0.563697653536208  0.00152257294289158 0.00225650293422377  0.00151446955336014 0.00225855013081129  0.84896741448183 -0.521155736190441 
470.21875  0.815319833540177 -0.572340954518824  0.00151862723403126 0.00227894324545291  0.00152364926000902 0.00227045182561097  0.841869741716418 -0.531024518702172 
473.9375  0.815902611999226 -0.572995574272428  0.00158184347033451 0.00231602236886928  0.0015758294197541 0.00231092214224674  0.842621147901113 -0.531030924773634 
477.65625  0.814106242029651 -0.576276415771345  0.00160214888565653 0.00233147637485629  0.00159594733439103 0.00232933963046642  0.841119670590935 -0.534898166349433 
