! Matrix data file, written by TouchstoneData, EPCOS AG
! FILENAME: "B495A.s4p"
! COMMENT: "Nodal admittance matrix                     "
! DATE: "Mon Jun 14 17:08:07 2004"
! CREATOR: "Matthias Jungkunz, EPCOS AG"
!
# MHZ S RI R 50
230  0.0763340925577391 -0.376496515756881  0.869035815838437 0.127804259272574  0.000130982839058591 0.00109453927951445  0.00040288662118503 0.0014190882289361 
 0.869035815838437 0.127804259272574  0.107805234901311 -0.369663985409938  7.93726353990393e-05 0.00138375605123656  0.000662755868562829 0.0012760931911975 
 0.000130982839058591 0.00109453927951445  7.93726353990393e-05 0.00138375605123656  0.064462433048567 -0.318665539618637  0.892873352383826 0.0543625341819274 
 0.00040288662118503 0.0014190882289361  0.000662755868562829 0.0012760931911975  0.892873352383826 0.0543625341819274  0.0573482107596692 -0.322738978789044 
230.15  0.0758372604996444 -0.376057874708702  0.869060641073251 0.127587362847625  0.000130160524956302 0.00105828963431118  0.000411622200047939 0.00145982527845856 
 0.869060641073251 0.127587362847625  0.106899167527693 -0.369624958281339  0.000139240504924318 0.00141240408287045  0.000698353844933819 0.0012734448502405 
 0.000130160524956302 0.00105828963431118  0.000139240504924318 0.00141240408287045  0.0636922497188888 -0.318389691877393  0.892694842534508 0.0540413696379614 
 0.000411622200047939 0.00145982527845856  0.000698353844933819 0.0012734448502405  0.892694842534508 0.0540413696379614  0.0569315089960838 -0.322444700306214 
230.3  0.0755121162035868 -0.376530509095893  0.868993719343467 0.126595603704794  0.000138567003559284 0.00106460184181036  0.000405704356207779 0.0014389909541605 
 0.868993719343467 0.126595603704794  0.106979186305952 -0.369771149008639  0.000144156838328585 0.00140083433714814  0.000670405645075496 0.0012518035340907 
 0.000138567003559284 0.00106460184181036  0.000144156838328585 0.00140083433714814  0.0641091133167646 -0.31815775062101  0.892962170279225 0.053329487216815 
 0.000405704356207779 0.0014389909541605  0.000670405645075496 0.0012518035340907  0.892962170279225 0.053329487216815  0.0571323922421477 -0.322688318752575 
230.45  0.0762424455178367 -0.375439425354769  0.8698788726178 0.127074818189193  0.000142257101045786 0.00107160237323681  0.000398989707038569 0.001464513894806 
 0.8698788726178 0.127074818189193  0.107628104322083 -0.369205175780086  0.000106287682897201 0.00142131153691372  0.000632601152200709 0.00129356523279567 
 0.000142257101045786 0.00107160237323681  0.000106287682897201 0.00142131153691372  0.0647644083174603 -0.317494671561854  0.894058013783582 0.0538388904077682 
 0.000398989707038569 0.001464513894806  0.000632601152200709 0.00129356523279567  0.894058013783582 0.0538388904077682  0.0577563382081603 -0.321728275359663 
230.6  0.0751838903453323 -0.375088388008004  0.869387628746971 0.126968100759203  0.000181318677581164 0.00104373156642413  0.000415484399166526 0.00149131009218785 
 0.869387628746971 0.126968100759203  0.106532100400832 -0.368645786376917  0.000145563641089718 0.0014108188093148  0.000669607845122494 0.00125064103138779 
 0.000181318677581164 0.00104373156642413  0.000145563641089718 0.0014108188093148  0.0639254755258802 -0.317128870407735  0.893274101530542 0.0534704795163884 
 0.000415484399166526 0.00149131009218785  0.000669607845122494 0.00125064103138779  0.893274101530542 0.0534704795163884  0.0567851665656868 -0.321524907523568 
230.75  0.0748752386916897 -0.375862071037433  0.869168153071047 0.125830248298342  0.000154227245888413 0.00107185819908182  0.000412997365077966 0.00148109259397569 
 0.869168153071047 0.125830248298342  0.106294211733527 -0.369150976918151  0.000100853233548787 0.00142643010533954  0.000638770902975202 0.00123626281563487 
 0.000154227245888413 0.00107185819908182  0.000100853233548787 0.00142643010533954  0.0629603985397076 -0.317855910954868  0.892396909262365 0.0526721693094569 
 0.000412997365077966 0.00148109259397569  0.000638770902975202 0.00123626281563487  0.892396909262365 0.0526721693094569  0.0560026827007394 -0.321940104799014 
230.9  0.074837805633328 -0.375420472785236  0.869337281321693 0.125609570988928  0.000124347636608584 0.00104958442959749  0.000444233486156344 0.00142160042171307 
 0.869337281321693 0.125609570988928  0.106163314584325 -0.368870708365193  0.000119059393821616 0.0014037331082873  0.000614634121090976 0.00125247287710851 
 0.000124347636608584 0.00104958442959749  0.000119059393821616 0.0014037331082873  0.0642596146470243 -0.318206154993766  0.893838999781307 0.0515756412846029 
 0.000444233486156344 0.00142160042171307  0.000614634121090976 0.00125247287710851  0.893838999781307 0.0515756412846029  0.0570318074115815 -0.322461838091843 
231.05  0.0750799105946818 -0.375402857294253  0.869790404628823 0.125295083054032  0.000183141502875049 0.00104953229069032  0.000458632449660997 0.00146716539377008 
 0.869790404628823 0.125295083054032  0.106155113541152 -0.369004240079117  0.000123689895483852 0.00142150563527782  0.000669114420373643 0.00128594992473175 
 0.000183141502875049 0.00104953229069032  0.000123689895483852 0.00142150563527782  0.0629895980394326 -0.317553760867209  0.892817125263741 0.0519024440429014 
 0.000458632449660997 0.00146716539377008  0.000669114420373643 0.00128594992473175  0.892817125263741 0.0519024440429014  0.0556659265912428 -0.321683871957586 
231.2  0.074629735149889 -0.375020780170151  0.870215725532235 0.124721529678507  0.000158943800330958 0.00106474829683559  0.000427547125538338 0.0014464263266362 
 0.870215725532235 0.124721529678507  0.106268697902191 -0.368802492102353  0.000107794666580578 0.00145185288263739  0.000659731119016809 0.00127134281761551 
 0.000158943800330958 0.00106474829683559  0.000107794666580578 0.00145185288263739  0.0638709444921893 -0.317837850929317  0.893719664630711 0.0507386834642695 
 0.000427547125538338 0.0014464263266362  0.000659731119016809 0.00127134281761551  0.893719664630711 0.0507386834642695  0.0564474824008146 -0.322290960452219 
231.35  0.074352854696379 -0.375353008325984  0.869611992607546 0.124881318658656  0.000180594231061801 0.00104473156745844  0.000406026665244655 0.0014294287485821 
 0.869611992607546 0.124881318658656  0.105757326692666 -0.368446172412149  0.00013801321877139 0.00143106120144327  0.00063505863779798 0.00123882732496617 
 0.000180594231061801 0.00104473156745844  0.00013801321877139 0.00143106120144327  0.0629948503460959 -0.317348184305784  0.892847233144023 0.0516185580921053 
 0.000406026665244655 0.0014294287485821  0.00063505863779798 0.00123882732496617  0.892847233144023 0.0516185580921053  0.0556996462665143 -0.321570716047602 
231.5  0.073967856181032 -0.374907088067567  0.869522385072093 0.124026116809481  0.000148673619645589 0.00104154106359257  0.000470107668838062 0.00145481133203025 
 0.869522385072093 0.124026116809481  0.105429726028961 -0.368271447770162  0.000125425457763369 0.00140476320570531  0.000623514227635742 0.00127504468960403 
 0.000148673619645589 0.00104154106359257  0.000125425457763369 0.00140476320570531  0.0622128952815106 -0.317137139359358  0.892618613537078 0.050785116104738 
 0.000470107668838062 0.00145481133203025  0.000623514227635742 0.00127504468960403  0.892618613537078 0.050785116104738  0.0553157558322502 -0.32129695923728 
231.65  0.0744942699444587 -0.37450324200141  0.870565688720542 0.123966817175236  0.000154580297202274 0.00104921916594294  0.00044362628291185 0.001483636608108 
 0.870565688720542 0.123966817175236  0.105582597335943 -0.367901780765253  0.000149641208547735 0.00143080059940679  0.000627903230149614 0.00127518517088586 
 0.000154580297202274 0.00104921916594294  0.000149641208547735 0.00143080059940679  0.0632148799489156 -0.317539254533841  0.893373187597597 0.0499339956520541 
 0.00044362628291185 0.001483636608108  0.000627903230149614 0.00127518517088586  0.893373187597597 0.0499339956520541  0.0563713189624383 -0.321686604521321 
231.8  0.074579296720832 -0.374202579716594  0.871119792173369 0.123711284551365  0.000127839565062955 0.00109238238294687  0.000458072753343883 0.00145930165561222 
 0.871119792173369 0.123711284551365  0.106013885762452 -0.36794131651038  0.000134272240633029 0.00141977764847323  0.00065683750017114 0.00124500560672646 
 0.000127839565062955 0.00109238238294687  0.000134272240633029 0.00141977764847323  0.0631761380616454 -0.316819977522457  0.893934019458437 0.050407130647836 
 0.000458072753343883 0.00145930165561222  0.00065683750017114 0.00124500560672646  0.893934019458437 0.050407130647836  0.0561975805185357 -0.320833478712372 
231.95  0.0736856859727712 -0.374251234116166  0.870464471588563 0.123493132944444  0.000137882484100487 0.00109588888565014  0.000447978460530225 0.00145073695227778 
 0.870464471588563 0.123493132944444  0.105071019226263 -0.367760775327053  0.000164870206251169 0.00137958813986311  0.000652574409535643 0.00126185073380157 
 0.000137882484100487 0.00109588888565014  0.000164870206251169 0.00137958813986311  0.0627743303899629 -0.316830502955189  0.893536921520165 0.0497281276650623 
 0.000447978460530225 0.00145073695227778  0.000652574409535643 0.00126185073380157  0.893536921520165 0.0497281276650623  0.0555381638088602 -0.320840247548151 
232.1  0.0743128532758435 -0.373828147623934  0.871197077879599 0.123217152893365  0.000146114297788848 0.00105503048159383  0.000460401902652919 0.00145396563306851 
 0.871197077879599 0.123217152893365  0.105760825801873 -0.367444051179557  0.000163058898932895 0.00141788850309296  0.000672618832036492 0.00128236983422325 
 0.000146114297788848 0.00105503048159383  0.000163058898932895 0.00141788850309296  0.0627397209299918 -0.316347793267115  0.893727914696292 0.0499188876867999 
 0.000460401902652919 0.00145396563306851  0.000672618832036492 0.00128236983422325  0.893727914696292 0.0499188876867999  0.0560232491514131 -0.320528112659583 
232.25  0.0739664047528759 -0.373544237138543  0.871088411493761 0.123084080448349  0.000141248389828868 0.00110228092716422  0.000463823878798859 0.00140171347782593 
 0.871088411493761 0.123084080448349  0.10542247086863 -0.36720784072892  0.000138080152835419 0.0013946007257583  0.000662381121269722 0.00128000536744349 
 0.000141248389828868 0.00110228092716422  0.000138080152835419 0.0013946007257583  0.0628109435440213 -0.315946197199447  0.893840860507256 0.0498467276186783 
 0.000463823878798859 0.00140171347782593  0.000662381121269722 0.00128000536744349  0.893840860507256 0.0498467276186783  0.0561252276667651 -0.319992095815491 
232.4  0.0734191917768259 -0.373770812398303  0.870737318583641 0.122374629556981  0.00017565533837004 0.00110006364124341  0.000439469110630705 0.00141181265614623 
 0.870737318583641 0.122374629556981  0.104703136473549 -0.367128442203641  0.000135913303533951 0.00144397176792394  0.00065133123522712 0.00130049225395746 
 0.00017565533837004 0.00110006364124341  0.000135913303533951 0.00144397176792394  0.0626528419363803 -0.316238465808582  0.893719599138864 0.0490169398915708 
 0.000439469110630705 0.00141181265614623  0.00065133123522712 0.00130049225395746  0.893719599138864 0.0490169398915708  0.0556609433787838 -0.320281961803318 
232.55  0.0737538861988193 -0.373971442971709  0.871302626878134 0.121713257948276  0.000148353843681081 0.00109846285853922  0.000429132281109361 0.00142937977071187 
 0.871302626878134 0.121713257948276  0.105358897122727 -0.367448354659  0.000105376282945545 0.00143082839878146  0.00063375925180249 0.0012824817605304 
 0.000148353843681081 0.00109846285853922  0.000105376282945545 0.00143082839878146  0.0633153937967927 -0.316188771580745  0.894524490677667 0.0485022899463111 
 0.000429132281109361 0.00142937977071187  0.00063375925180249 0.0012824817605304  0.894524490677667 0.0485022899463111  0.0563790314615794 -0.320524580895146 
232.7  0.0734921915590637 -0.372904312389923  0.871233255514258 0.121930024168078  0.000194656955407455 0.00106832462430472  0.000430824294508865 0.00145105509383982 
 0.871233255514258 0.121930024168078  0.104900014525215 -0.366613694084323  0.000119744625291966 0.00144435666035914  0.000679386211970553 0.00127111398073442 
 0.000194656955407455 0.00106832462430472  0.000119744625291966 0.00144435666035914  0.0627969588418425 -0.316141490511408  0.894563601556462 0.0481366651647946 
 0.000430824294508865 0.00145105509383982  0.000679386211970553 0.00127111398073442  0.894563601556462 0.0481366651647946  0.0558173468365871 -0.320246549061726 
232.85  0.0732464180836788 -0.373601944830561  0.871443655217342 0.121292425046615  0.00018887536184259 0.00108562805437847  0.000408861137469397 0.00144485501985888 
 0.871443655217342 0.121292425046615  0.104599532939784 -0.367036886492108  0.000109042510261925 0.00142264713423453  0.000676768347288786 0.00127435102202625 
 0.00018887536184259 0.00108562805437847  0.000109042510261925 0.00142264713423453  0.0618936017927218 -0.315912896528816  0.893648211739673 0.0480122591770965 
 0.000408861137469397 0.00144485501985888  0.000676768347288786 0.00127435102202625  0.893648211739673 0.0480122591770965  0.0552833552254874 -0.319847313932811 
233  0.0724960167079398 -0.373440011776344  0.871520523728799 0.121099674186881  0.00016891386326559 0.00108621313813941  0.000415189117374139 0.00144668123510504 
 0.871520523728799 0.121099674186881  0.103972399848392 -0.366846831465794  0.000142796898244674 0.00146240588003932  0.000664012969850421 0.00130417394407017 
 0.00016891386326559 0.00108621313813941  0.000142796898244674 0.00146240588003932  0.0621503439700188 -0.315407571604118  0.894077939178985 0.0483163945678002 
 0.000415189117374139 0.00144668123510504  0.000664012969850421 0.00130417394407017  0.894077939178985 0.0483163945678002  0.055327784995088 -0.319390907104229 
233.15  0.073566950653032 -0.372875571176154  0.8724480553382 0.120910485152612  0.000163854140840973 0.00106575889794772  0.000466410376328783 0.00145053501012483 
 0.8724480553382 0.120910485152612  0.104775950714889 -0.366168676591816  0.000174142255150121 0.0014505458052944  0.000650342940572691 0.00129045575818291 
 0.000163854140840973 0.00106575889794772  0.000174142255150121 0.0014505458052944  0.0627045998056004 -0.315670014669538  0.894902817307921 0.0471999686606848 
 0.000466410376328783 0.00145053501012483  0.000650342940572691 0.00129045575818291  0.894902817307921 0.0471999686606848  0.0557834953880965 -0.319928658379448 
233.3  0.0729445820510475 -0.372598955629531  0.872154897229201 0.120675419406115  0.000140522325332984 0.00105593073212476  0.000442972941788028 0.00148704407574762 
 0.872154897229201 0.120675419406115  0.104265810902194 -0.366295381297799  0.000154884878466362 0.00146129543817728  0.000650568212642019 0.00125228958294727 
 0.000140522325332984 0.00105593073212476  0.000154884878466362 0.00146129543817728  0.0615305670301249 -0.315798992129857  0.894183067662761 0.0468752592460762 
 0.000442972941788028 0.00148704407574762  0.000650568212642019 0.00125228958294727  0.894183067662761 0.0468752592460762  0.054751706075941 -0.319701311583618 
233.45  0.0730301368384632 -0.372369370651318  0.872578517869333 0.120594508182468  0.000145608554841797 0.00108473797755086  0.000437727996975123 0.00147408379371534 
 0.872578517869333 0.120594508182468  0.104448776644766 -0.365831719882476  0.000165827472565281 0.00143346530710907  0.000654521411414754 0.00126896152547616 
 0.000145608554841797 0.00108473797755086  0.000165827472565281 0.00143346530710907  0.0626253400654811 -0.314812207920035  0.895198028789196 0.0472617852398146 
 0.000437727996975123 0.00147408379371534  0.000654521411414754 0.00126896152547616  0.895198028789196 0.0472617852398146  0.0555237181049736 -0.318861166427444 
233.6  0.0723514586330183 -0.372395076200713  0.871766780805219 0.120060013944413  0.000113666595489053 0.00109386231233953  0.000456014646986373 0.00143676890356117 
 0.871766780805219 0.120060013944413  0.103772199184459 -0.365993153439646  0.000168442504323433 0.00143112934770521  0.000641049223425084 0.00128448598055273 
 0.000113666595489053 0.00109386231233953  0.000168442504323433 0.00143112934770521  0.0620670321284374 -0.314977590796102  0.89448159912124 0.0468519518025508 
 0.000456014646986373 0.00143676890356117  0.000641049223425084 0.00128448598055273  0.89448159912124 0.0468519518025508  0.0548920726049514 -0.318703253759627 
233.75  0.0722511922812143 -0.37247596212999  0.872133149544039 0.11930290793277  0.000164086968947489 0.00108071165429201  0.000466903859255556 0.0014596396860238 
 0.872133149544039 0.11930290793277  0.103741896321579 -0.366165848666018  0.000166128894226792 0.00145458655004309  0.000631762177413111 0.00127638444488189 
 0.000164086968947489 0.00108071165429201  0.000166128894226792 0.00145458655004309  0.062078023064838 -0.315273393717923  0.894645427456685 0.0458455257456005 
 0.000466903859255556 0.0014596396860238  0.000631762177413111 0.00127638444488189  0.894645427456685 0.0458455257456005  0.0550520410635944 -0.319210703970095 
233.9  0.0718206628369325 -0.372100569521877  0.871906056288704 0.118860636590402  0.000174014799504337 0.00110235890404636  0.000437989239061708 0.00142980033123328 
 0.871906056288704 0.118860636590402  0.103410054754583 -0.365809949711361  0.000132145105754659 0.00141532744718226  0.000672082387352893 0.00130284360686258 
 0.000174014799504337 0.00110235890404636  0.000132145105754659 0.00141532744718226  0.062367648716762 -0.314355212171345  0.895215309519118 0.0462528528852541 
 0.000437989239061708 0.00142980033123328  0.000672082387352893 0.00130284360686258  0.895215309519118 0.0462528528852541  0.055526578781674 -0.31840431840706 
234.05  0.072144656222111 -0.372087301031773  0.873002992481528 0.118576797596802  0.000191786079586312 0.00106711604784551  0.000451641613318278 0.00144615958430876 
 0.873002992481528 0.118576797596802  0.103505368415515 -0.365747180635889  0.0001368113761754 0.00142773448279469  0.000661659856677811 0.00126706307923356 
 0.000191786079586312 0.00106711604784551  0.0001368113761754 0.00142773448279469  0.0618089763100764 -0.315164814630486  0.894841339228884 0.0452162263725228 
 0.000451641613318278 0.00144615958430876  0.000661659856677811 0.00126706307923356  0.894841339228884 0.0452162263725228  0.0545389698734347 -0.31899318489314 
234.2  0.0718252241513826 -0.371592442995211  0.872910955059606 0.118565513101196  0.00016418219901189 0.0010896841331134  0.000447008170267684 0.00145960137222686 
 0.872910955059606 0.118565513101196  0.102823039654003 -0.365370178705335  0.000151185026247302 0.00146506011848441  0.000631749130771459 0.00126068201036711 
 0.00016418219901189 0.0010896841331134  0.000151185026247302 0.00146506011848441  0.0616034276902729 -0.315458902457635  0.895327797073379 0.0444963209949754 
 0.000447008170267684 0.00145960137222686  0.000631749130771459 0.00126068201036711  0.895327797073379 0.0444963209949754  0.0544676464481885 -0.319452573519877 
234.35  0.071862418574092 -0.371936198221519  0.873351100777238 0.11822635347483  0.00015707835566582 0.00107950858543498  0.000415913232310612 0.00144450609594821 
 0.873351100777238 0.11822635347483  0.103240194402439 -0.36571955578042  0.000120883028504347 0.00148526998885788  0.000622868227528766 0.00124733127308569 
 0.00015707835566582 0.00107950858543498  0.000120883028504347 0.00148526998885788  0.061586131086378 -0.314714583103144  0.895269130152481 0.0448072633292406 
 0.000415913232310612 0.00144450609594821  0.000622868227528766 0.00124733127308569  0.895269130152481 0.0448072633292406  0.054620944643016 -0.318332594389947 
234.5  0.0705598114706288 -0.371032299108776  0.872637062587325 0.118137979622557  0.000171502692196394 0.00110645139540596  0.000445827007572126 0.00146731896618 
