#  HZ   S   RI   R     50.0000 
! Rohde & Schwarz ZVA/B 
! 
! 
! 

5.000000000000000E+007   9.560744497611264E-001  -2.455200233752602E-001   1.849318541651134E-005  -5.410875059585192E-005   4.942444896647717E-002   1.346196679904684E-001   1.267001074084240E-005  -1.269225246128830E-004  
                         1.673052459736552E-004   3.564039670865631E-004   8.392364848532663E-001  -4.037206118184255E-001   1.415577730448157E-004   3.618877089513566E-004   1.766562485464928E-001   3.055142519667950E-001  
                         4.421818400217459E-002   1.423990314390622E-001   1.182353165437023E-004   3.425934073440947E-004   9.588698320141249E-001  -2.407967758821669E-001   1.090412213881969E-005  -2.915193511957648E-004  
                        -1.129391561392363E-004  -6.069904673468633E-005   1.762276050570532E-001   3.156617917367317E-001  -8.590021993664027E-005   2.523032259819247E-005   8.470011693400523E-001  -4.017628794409981E-001  
                        
5.012500000000000E+007   9.562319751213985E-001  -2.467214421509662E-001   3.066210652997335E-004   1.886480936125404E-004   4.905160441199911E-002   1.354615815396966E-001   1.099200881484143E-004   5.723726679722258E-005  
                         1.153610903863589E-004   1.619515518467362E-004   8.383234385852318E-001  -4.045649484513407E-001   1.922372661354920E-004   2.469646696957421E-004   1.772804357804685E-001   3.055453765170340E-001  
                         4.461827266598414E-002   1.429491708973891E-001   1.942182658361819E-004   1.683675792198143E-004   9.592934839686715E-001  -2.404535910429475E-001   1.310651517021162E-005   1.123657905224704E-004  
                         1.733623963743935E-005   1.792098512235202E-004   1.769635179209238E-001   3.162358648726807E-001   1.794917817599409E-005   5.667941758909983E-005   8.458578470302507E-001  -4.032053414485085E-001  
                        
5.025000000000000E+007   9.555853306889276E-001  -2.477055054802562E-001   8.871801949171818E-005   7.706170733650286E-005   4.960462995096021E-002   1.355578867153619E-001   1.976847391158500E-004   1.467123149010490E-004  
                         8.936763716701459E-005   1.926057691148995E-004   8.370951642070380E-001  -4.057429696247332E-001   1.380889134815032E-004   2.094093186083255E-004   1.776251003407444E-001   3.061933728062890E-001  
                         4.496569694096092E-002   1.433274905383250E-001   2.249795087315179E-004   2.702939074461795E-004   9.592644460474947E-001  -2.419159049823087E-001   8.315567900638480E-005   2.284233659828910E-004  
                         6.319584814687365E-005   9.499960066472249E-005   1.777794613091120E-001   3.164286976087019E-001   8.614745692857423E-005   1.046626208775016E-004   8.451524893249730E-001  -4.029447566811751E-001  
                        
5.037500000000000E+007   9.538554361508101E-001  -2.474043789222614E-001   1.793722504567233E-004   1.255569351863817E-004   5.051437416525795E-002   1.356190081472873E-001  -6.732329438827387E-005  -1.839237416719151E-005  
                         2.094522550920491E-004   5.950650698164095E-005   8.366699875821505E-001  -4.060663615564181E-001   6.155020287979903E-005   1.162520187021197E-004   1.784086319345377E-001   3.071862145306004E-001  
                         4.548777045428120E-002   1.434319356023633E-001   2.357157359443763E-004   1.203862293861462E-004   9.578898295596513E-001  -2.434811192659298E-001   7.167165542098315E-005   9.767196607798011E-005  
                         1.413059259378923E-004   6.738624120205942E-005   1.783655237837823E-001   3.169910532450979E-001   2.650500107208022E-006   2.962357343519212E-005   8.447052998419175E-001  -4.041189465453391E-001  
                        
5.050000000000000E+007   9.532428605349467E-001  -2.488127334393778E-001   1.973244974614008E-004  -1.876354265393003E-005   5.046637916847453E-002   1.359710545428812E-001  -6.028922158554514E-005   1.309256201160336E-004  
                         1.424059597483037E-004   8.832080184080569E-005   8.355226435425519E-001  -4.067499896612781E-001   1.286009761379689E-005   5.613992725197786E-005   1.787306928512612E-001   3.071437105838851E-001  
                         4.599456735314596E-002   1.433444738586112E-001   1.666385774831123E-004   6.150812574875323E-005   9.579801835877086E-001  -2.436141303799264E-001  -4.611289276756175E-005   1.207408288875793E-004  
                         1.339062913575399E-004   5.989596035530133E-005   1.790671734829297E-001   3.171343140269710E-001   9.274391014545945E-005  -1.971653801416189E-004   8.435088612375663E-001  -4.041106920154823E-001  
                        
5.062500000000000E+007   9.541675617963747E-001  -2.480979611932048E-001  -6.659519461868054E-006   8.423129140516137E-005   5.085335609493571E-002   1.359492044391063E-001   1.646928519816929E-004   1.309435851364818E-004  
                         5.266613782752284E-005  -4.673531947629610E-005   8.349707727465797E-001  -4.076931549806279E-001   5.388155225857941E-005   4.973854397953885E-005   1.799217460131190E-001   3.071726418253662E-001  
                         4.577261912059498E-002   1.438683624731811E-001   1.422134486487063E-004   1.721609822984236E-004   9.568455136532764E-001  -2.446171775034070E-001  -3.238176828120333E-005   3.694863356962308E-005  
                         7.859512123430282E-005  -8.801976782758015E-005   1.802829297365337E-001   3.176695364325637E-001  -2.969758568894462E-005   1.234303908335754E-004   8.420928636345411E-001  -4.058999900985030E-001  
                        
5.075000000000000E+007   9.533526380452839E-001  -2.496972270866916E-001   8.348502940190969E-005   8.050082104300834E-005   5.107778998537208E-002   1.366748443984568E-001  -5.952529279731420E-005  -3.012388279722356E-005  
                         1.053757350382951E-004   3.664034363599489E-005   8.340664331588840E-001  -4.085712185308905E-001   6.139825648889170E-005   5.294811805733375E-005   1.799647542441499E-001   3.080730531342747E-001  
                         4.627017386174297E-002   1.444270044909452E-001  -1.104218285517237E-004   4.467384965918824E-005   9.567249605498218E-001  -2.440626551200981E-001   7.375570379780472E-005  -9.606054233098887E-005  
                         1.788208971558178E-005   1.993304994551348E-004   1.808856770606090E-001   3.177218912264235E-001   4.979974259765506E-005   6.099357709671416E-005   8.418589964190804E-001  -4.062121055525938E-001  
                        
5.087500000000000E+007   9.526969441280210E-001  -2.501067743550205E-001   9.105325239480293E-005   1.057840509678108E-005   5.118444572320819E-002   1.367315834653071E-001  -1.292630361348967E-004   1.692989316868781E-004  
                         2.665376143660567E-005   2.264042009373474E-004   8.327183024032786E-001  -4.092990265407813E-001  -3.030537465072518E-004   8.160625306255757E-005   1.808719134965426E-001   3.083108387432839E-001  
                         4.652273895719022E-002   1.447520185641449E-001  -1.207965513644496E-004  -1.311254012184560E-006   9.561524202446083E-001  -2.450524089304333E-001  -1.256518148875750E-005   9.975651821470967E-005  
                        -1.652441917772232E-004   1.722661679967489E-004   1.816197775849003E-001   3.179115820169094E-001  -1.363758094716793E-004   1.148044877949009E-004   8.408897848065584E-001  -4.067251981980756E-001  
                        
5.100000000000000E+007   9.528654972229149E-001  -2.517184375088771E-001   1.825416824062986E-004   7.639303152751945E-005   5.185197179460515E-002   1.373243512836465E-001  -1.615809346789642E-004   1.542726651148511E-004  
                         1.251321770170309E-004   4.993825163761435E-005   8.327373673480341E-001  -4.101138347348148E-001  -1.073863441626062E-004   3.364922280441669E-004   1.815358342683046E-001   3.085665484296467E-001  
                         4.685701154022951E-002   1.451703080994133E-001  -1.003161688978766E-004   2.294098695918545E-004   9.569921150787953E-001  -2.459012688849219E-001   2.108039298573512E-005   9.765282929006292E-005  
                         2.791191300810008E-005   1.029517597277390E-004   1.824621131017873E-001   3.186982569526086E-001   1.118955354470676E-004   9.510744605162270E-005   8.403452389123715E-001  -4.078013382095158E-001  
                        
5.112500000000000E+007   9.527429839538084E-001  -2.521443962598502E-001   7.649982934180046E-005   1.271136738076239E-005   5.200690070286091E-002   1.375987677420868E-001  -1.783941501000380E-004   9.325494385863887E-005  
                         1.141493095162537E-004   1.827528111622021E-004   8.320063762083516E-001  -4.110081832517550E-001  -3.585708302752991E-006   4.027462708541289E-004   1.825427938348674E-001   3.096647274739615E-001  
                         4.770954686552321E-002   1.454193473292834E-001   1.393326929685094E-005   3.422477748261376E-004   9.554558633011347E-001  -2.467599971115269E-001   1.219546697067511E-004   1.130994130817491E-004  
                        -1.700040016970109E-005   1.119815151549843E-004   1.832763680178481E-001   3.190876233060181E-001  -1.110796745776049E-005   1.672855928241865E-004   8.402297131810900E-001  -4.089244371127504E-001  
                        
5.125000000000000E+007   9.516614630388975E-001  -2.521082906774143E-001   7.472091554757458E-005  -2.912501175068608E-005   5.241441103431865E-002   1.372950889353175E-001   2.812572662548762E-006   1.087492136576635E-004  
                         5.045910849663886E-005  -5.939795463348931E-005   8.309916731394877E-001  -4.117381013313730E-001   2.512157769446495E-004   2.364426421461615E-004   1.830701562106636E-001   3.095854197343001E-001  
                         4.751762779184478E-002   1.457565872663174E-001   3.434426575579656E-005   4.266036267958955E-004   9.546636224730858E-001  -2.476029860243409E-001   3.561015214382048E-005  -1.828809633275169E-005  
                        -6.456220312124759E-005   9.892143889741360E-005   1.843053834030378E-001   3.194233701966340E-001   6.483824784401344E-005  -1.581772726540108E-004   8.383256477232070E-001  -4.093448305566780E-001  
                        
5.137500000000000E+007   9.514104961548944E-001  -2.533402131149493E-001   7.691361775643520E-005  -7.933007171794483E-005   5.282806398347298E-002   1.375090380531686E-001  -8.849910871459193E-005   1.818057469017393E-004  
                         1.940714290971590E-004  -1.570806623877619E-004   8.303647893137350E-001  -4.118961872169739E-001   3.800180361700527E-005   3.494954140112115E-004   1.838993006244457E-001   3.099034287518259E-001  
                         4.790951433908627E-002   1.458818251007264E-001  -2.860742516603267E-005   3.117040998994904E-004   9.545348838695859E-001  -2.470298742270043E-001  -2.499809317728747E-005  -1.519824366524840E-004  
                        -2.974722321432535E-006   2.178262772653343E-004   1.845948025500820E-001   3.197319822282462E-001  -4.096495723217556E-005  -3.915092043313617E-005   8.376829698605579E-001  -4.096911587484715E-001  
                        
5.150000000000000E+007   9.512053409168160E-001  -2.533610423988826E-001   1.849517375861872E-004  -5.547137775929098E-005   5.329038583769138E-002   1.374537762120379E-001  -1.507469595910761E-004   2.356400236560703E-004  
                         1.350348392239056E-004  -1.767395242151061E-004   8.291194603670680E-001  -4.134328535960961E-001   3.563231891502901E-005   2.613351364304430E-004   1.844984015572365E-001   3.103688341628562E-001  
                         4.829837424062807E-002   1.458998842662201E-001   1.179912052097734E-004   3.613474653695422E-004   9.540603435259796E-001  -2.485279406479896E-001  -9.650750782082814E-005  -3.027288600855108E-005  
                         3.242708049026635E-005   3.184831734294733E-004   1.863203943129937E-001   3.195935607589555E-001   7.219332224106005E-005  -1.390363001751853E-004   8.378176748519937E-001  -4.105302625315435E-001  
                        
5.162500000000000E+007   9.517220379674972E-001  -2.530585738163924E-001  -3.425149663083186E-005  -1.038473616770077E-004   5.326906011024984E-002   1.371316143371412E-001   8.491662920220699E-005   3.414443241085651E-004  
                         1.207069519394955E-004  -1.259356081908846E-004   8.298175570997362E-001  -4.138571922381061E-001   1.020536722405842E-004   3.392116656722897E-004   1.852873077888996E-001   3.108532044145935E-001  
                         4.831527738882409E-002   1.456943595674826E-001   1.612137573983985E-004   4.118907823310053E-004   9.543674671019544E-001  -2.488913978965079E-001  -1.237511396081087E-004  -1.365754806891228E-005  
                        -1.765774149151686E-004   1.239857000562393E-004   1.867428790793100E-001   3.206829960197972E-001   8.640127880820876E-006  -9.355030378969222E-005   8.378996635572040E-001  -4.115142046280972E-001  
                        
5.175000000000000E+007   9.519883765972910E-001  -2.530409276404945E-001  -5.500493879334395E-006  -1.596962884618186E-004   5.305593481416047E-002   1.376075787049110E-001   3.379271694974805E-004   2.247804400270886E-004  
                        -9.045578099528751E-005  -7.155764211591218E-005   8.285970496944494E-001  -4.141439468694385E-001   3.446542759001971E-004   3.036459562512605E-004   1.862748537892251E-001   3.110021754845156E-001  
                         4.833061602069858E-002   1.462062534381853E-001   4.347308053385413E-004   2.436510546285156E-004   9.538813497390317E-001  -2.487561883031852E-001  -7.979418845828175E-005  -5.546287710063654E-005  
                         1.624479212265112E-004   2.655358864847490E-004   1.870551693245273E-001   3.209448767415368E-001  -1.837989691643613E-004  -5.000643280631130E-005   8.360536084889747E-001  -4.130043397740886E-001  
                        
5.187500000000000E+007   9.518014756036383E-001  -2.533820380012355E-001  -1.397338155034200E-004   1.209470636698913E-004   5.292049957115549E-002   1.378575739451207E-001   2.814061362893217E-004   1.938569612491809E-004  
                        -1.559606448500495E-004  -5.576946136276289E-005   8.276162042760716E-001  -4.155195697131598E-001   2.350244375487366E-004  -2.009680705471462E-006   1.863063778610493E-001   3.115477305337380E-001  
                         4.815597336589594E-002   1.461664964520759E-001   2.554209090221141E-004   2.526435712797846E-004   9.531098415320064E-001  -2.487935809990690E-001  -1.018762583319645E-004  -1.567595054871185E-005  
                         2.052569843356262E-004   1.765246109485796E-004   1.874827023421713E-001   3.205870529109370E-001  -1.969110672319646E-004  -2.181651676353579E-005   8.360837042926230E-001  -4.126888387021811E-001  
                        
5.200000000000000E+007   9.529516034947942E-001  -2.547797148658496E-001  -3.085860145738175E-004   1.377268705956902E-005   5.345425013280775E-002   1.380363372982597E-001   2.687349074702934E-004   1.006117801172818E-004  
                        -1.148550260536373E-004   7.875274107385224E-005   8.270305199945005E-001  -4.157885481278821E-001   3.006484314066015E-004   1.695489818308773E-005   1.868905653584994E-001   3.122018846507899E-001  
                         4.823241838870530E-002   1.470111532339970E-001   2.269584944099234E-004   6.622493176631614E-005   9.543906466531503E-001  -2.491336217098814E-001  -1.127572565684303E-004   1.984623556664624E-004  
                         1.884331480827275E-004   8.988356865455572E-005   1.885181172029586E-001   3.211486853729629E-001  -1.853654545793129E-004   1.407061874146454E-004   8.357633800381534E-001  -4.140279916857058E-001  
                        
5.212500000000000E+007   9.517197054806221E-001  -2.554928480296341E-001   2.392886880660940E-005   1.740125401324563E-004   5.355825537219597E-002   1.386891604578915E-001   9.224997386408056E-005   3.553848071646856E-005  
                        -1.374167674151027E-004   1.761233034274969E-004   8.274444839353596E-001  -4.173350358557448E-001   1.250482279112285E-004   1.094070480148491E-005   1.876740166391620E-001   3.121687661939253E-001  
                         4.826868883965758E-002   1.469572436336405E-001   2.341114035837374E-004   1.459514528514133E-005   9.541147699211697E-001  -2.504979982664816E-001  -1.592263678741710E-004   4.018213946866790E-004  
                         4.087226475624807E-005   1.173849399306529E-004   1.898340001623929E-001   3.221538568623488E-001  -3.847708683371972E-004   2.221379961985887E-004   8.345722711567852E-001  -4.145026900087181E-001  
                        
5.225000000000000E+007   9.518156408716587E-001  -2.549079125677312E-001   1.686894973620560E-005   1.455684541751364E-004   5.375573034832643E-002   1.389113792717214E-001   3.173284702650403E-005   1.654303093718303E-004  
                         2.942965907908580E-005   1.763578603318230E-004   8.264264638540251E-001  -4.171181271201184E-001   1.512894954923429E-004   1.226276287167172E-004   1.883291992446828E-001   3.130364105559808E-001  
                         4.846467862733331E-002   1.477776330479616E-001   1.078545468349536E-004  -5.913220245407991E-005   9.543739086971944E-001  -2.508347809618747E-001   8.431963908937608E-005   2.113321289546445E-004  
                         1.096668165745498E-005  -3.003710025700854E-005   1.899465678824424E-001   3.223547711301028E-001  -1.054664096234468E-004   2.628131585617296E-004   8.347213027395346E-001  -4.150891509636822E-001  
                        
5.237500000000000E+007   9.522552257030080E-001  -2.565328059754988E-001   1.957158686407659E-004   8.888363899886587E-005   5.373886424883011E-002   1.391652494764325E-001  -1.114828392054632E-004   7.064844186014386E-005  
                         3.209226570117295E-005   1.178860533808248E-004   8.260267817174797E-001  -4.166672144283982E-001  -1.080801514661499E-004   1.249969729687510E-004   1.888061571908855E-001   3.133889717145493E-001  
                         4.891014709043217E-002   1.477886867005885E-001  -3.601867144181126E-006   5.996491321167610E-005   9.544562413934083E-001  -2.512638507766576E-001  -8.820079538371487E-005   1.437432613002966E-004  
                        -1.004016292097207E-004  -8.384525485348517E-005   1.905752528006558E-001   3.229556130255785E-001  -9.467794744797664E-006   3.675028236409495E-004   8.342689221139468E-001  -4.149620656078353E-001  
                        
5.250000000000000E+007   9.526938834418287E-001  -2.576466546896935E-001   4.578050339792272E-005   1.351596739436154E-004   5.427418119490976E-002   1.396791750244725E-001  -1.351576787548590E-004   1.699539370149798E-004  
                         3.267163067129694E-005   7.520950529445060E-005   8.254289394587215E-001  -4.179341984155980E-001  -1.176925953826459E-004   1.656446533458184E-004   1.893138595085602E-001   3.137149120160182E-001  
                         4.891562103219215E-002   1.482549443017602E-001  -6.831423648132188E-005   6.028977985496818E-005   9.536250381928224E-001  -2.514754699601083E-001   5.201914944813154E-005   2.306860735290176E-004  
                        -5.133026512828961E-005   2.333219032421333E-004   1.912362157674087E-001   3.233634811811182E-001   3.068052972585380E-005   2.321507864430296E-004   8.331896447628656E-001  -4.152524102530554E-001  
                        
5.262500000000000E+007   9.524799432084226E-001  -2.568688410873705E-001  -1.395437718176719E-005  -1.186203574761090E-004   5.450880435602602E-002   1.398155678512666E-001  -1.144053811634924E-004   2.614630105533299E-004  
