#  HZ   S   RI   R     50.0000 
! Rohde & Schwarz ZVA/B 
! 
! 
! 

5.500000000000000E+007   5.592129638717259E-001  -5.266159320518331E-001  -7.518567218283243E-005   3.096084605403927E-004   4.431530973635652E-001   4.049107391955679E-001  -3.636699322806441E-004   1.107112343165053E-004  
                         1.678407832487676E-004   2.612172922833244E-004   8.285246023866183E-001  -4.369922891832245E-001  -1.056819524532776E-004   3.553590124438950E-004   1.736180863633536E-001   2.728321934986323E-001  
                         4.597247295454783E-001   4.327799212721976E-001  -2.123049921730395E-006   3.188900433024964E-004   5.668299842943353E-001  -5.552443974717023E-001  -8.767644175075748E-005   8.775897480909286E-005  
                        -1.380631197020677E-004   1.045545104346408E-004   1.719087459189012E-001   2.801420658271444E-001   3.983753820634429E-006   2.046624382078648E-004   8.263813546336809E-001  -4.440771070401275E-001  
                        
5.512500000000000E+007   5.584595818693978E-001  -5.265948891437466E-001   6.648301380985885E-005   1.468183798970605E-004   4.447634128044063E-001   4.041505833080345E-001  -4.982362082236571E-005   3.597017881274780E-004  
                         1.368030450950182E-004   1.753012671828399E-004   8.259953084107867E-001  -4.380867269159797E-001   7.625721071374857E-005   3.176768001635475E-004   1.740895940822473E-001   2.724094889502993E-001  
                         4.603000406964731E-001   4.331015576751026E-001  -2.950094867565291E-005   3.514028454324995E-004   5.647428759181696E-001  -5.562721527135027E-001  -8.188501989593248E-005   3.254146217240192E-004  
                        -9.716934539498616E-005   3.971033635654822E-004   1.722046135262282E-001   2.801560017541282E-001   1.006554205728025E-004   2.212193967006462E-004   8.232633961887450E-001  -4.449034253149563E-001  
                        
5.525000000000000E+007   5.567342683385672E-001  -5.258022689366000E-001  -2.392305404801442E-006   5.195563630325986E-005   4.454501982599394E-001   4.048088939319792E-001  -1.512985456791715E-004   4.162853295464081E-004  
                         5.282259041488363E-005   7.206255015808179E-005   8.232130063998375E-001  -4.362938837126623E-001   3.133752388204089E-004   2.105277393932586E-004   1.739165391999480E-001   2.731139223867909E-001  
                         4.596823363442221E-001   4.331679590008791E-001   1.331193588771630E-004   3.524597539771558E-004   5.637716045151499E-001  -5.561293410338417E-001   1.624515838189195E-005   2.863509764508998E-004  
                        -1.948350414105787E-004   3.602694875676151E-004   1.718319786712580E-001   2.800293953452115E-001   1.659962318849893E-004   1.282274367859182E-004   8.210325938518092E-001  -4.439123687896424E-001  
                        
5.537500000000000E+007   5.555519114470638E-001  -5.259890047171260E-001  -4.503906656745833E-005   2.497277630181499E-006   4.456187926664756E-001   4.057290559129890E-001  -9.416313082133272E-005   2.803507811349875E-004  
                        -9.998395433912006E-007   5.410790544448470E-005   8.217624048504081E-001  -4.333250380755868E-001   2.284244902116115E-004   1.621358828313863E-004   1.734712371398834E-001   2.744889907002522E-001  
                         4.618452241753411E-001   4.338635433654653E-001   1.120622911490163E-004   2.438354770549643E-004   5.630118414584744E-001  -5.551706392367691E-001  -1.662168473908851E-004   1.103324828334683E-004  
                         8.742735284934103E-005   3.284971999147165E-004   1.719149942966536E-001   2.812270492793935E-001  -1.653458232701170E-004   2.497219673190944E-004   8.198695388071104E-001  -4.407550784635702E-001  
                        
5.550000000000000E+007   5.551817933572059E-001  -5.263085741988930E-001  -1.897477500086271E-004   2.623827147820785E-004   4.478393534475306E-001   4.063028829491515E-001   1.717193342461085E-004   2.485064694687499E-004  
                        -1.647707457213373E-004   1.667484274645248E-004   8.244535332128274E-001  -4.335888094561152E-001   2.162356849734490E-004   8.758237625107937E-005   1.749849878729324E-001   2.755111934274313E-001  
                         4.637678782631711E-001   4.346955994208133E-001   1.173857622609274E-004   4.039778697878287E-005   5.638022957757021E-001  -5.553388419823598E-001  -9.351531789085293E-005   2.242340726092531E-004  
                         6.235668413365547E-005   3.884475785630577E-004   1.736968874393459E-001   2.829228391944365E-001  -1.810707821659136E-004   3.027526695257004E-004   8.212391599290001E-001  -4.399370635179118E-001  
                        
5.562500000000000E+007   5.539500581419242E-001  -5.262759642490636E-001  -1.234989135959647E-004   1.400999489415786E-004   4.485819482098749E-001   4.067398261677218E-001   1.250866582493630E-004   1.497873451228828E-004  
                        -1.459155733991790E-004   2.276707601358410E-004   8.251794977488215E-001  -4.339110880769527E-001   7.018612042108460E-005  -1.217801127594664E-004   1.761142093822706E-001   2.768106845686412E-001  
                         4.649781744471409E-001   4.338178903487150E-001   6.509136119669716E-005   6.995370162530497E-005   5.629424718380471E-001  -5.564379121599234E-001  -4.019405179055667E-005   4.584848055531815E-004  
                         1.758931209010165E-004   3.423434102540321E-004   1.744743707963531E-001   2.832065385975462E-001  -1.098108579655699E-004   4.308004163067655E-004   8.235353835171956E-001  -4.403037311831033E-001  
                        
5.575000000000000E+007   5.530735811006806E-001  -5.269494570420032E-001  -9.189169900920308E-005   2.819780198090080E-004   4.497752275101011E-001   4.059626308459615E-001  -1.078532116295455E-004  -1.425930450482102E-005  
                        -4.387514144449936E-006   3.398628309994106E-004   8.262850898984075E-001  -4.350808914188941E-001  -1.477031032238396E-004   3.513949069207630E-005   1.773690970979097E-001   2.763198068644254E-001  
                         4.659312101964235E-001   4.345718733364989E-001  -1.158907820664855E-004   1.029257909615380E-004   5.613071832837460E-001  -5.565716378820084E-001   5.421602064753495E-006   2.422131061277552E-004  
                         4.490729241503899E-005  -4.837720607135587E-006   1.753681790826688E-001   2.834477248600073E-001   1.505210050443473E-004   3.960523998861182E-004   8.239997985035391E-001  -4.420136209469195E-001  
                        
5.587500000000000E+007   5.521850227863875E-001  -5.274381180598839E-001  -1.749709939973658E-005   3.988486436382875E-004   4.511590181690340E-001   4.057698105671967E-001  -9.612626798815296E-005  -4.814463636620071E-005  
                         4.482255768001546E-005   3.477426444159540E-004   8.263036202747658E-001  -4.365683201527539E-001  -3.547696339347815E-004   1.532828475560608E-004   1.780253821178351E-001   2.769112948151691E-001  
                         4.678183827914663E-001   4.342432579295834E-001  -1.848369539676152E-004   2.769404233538230E-004   5.606155564768167E-001  -5.574604101068694E-001   1.751217647179585E-004   2.423707885364162E-004  
                        -5.155572377045977E-005   2.086336349034945E-004   1.763639856587547E-001   2.837117405691804E-001   8.092269523867278E-005   1.775378739093656E-004   8.243257652653940E-001  -4.436269975548792E-001  
                        
5.600000000000000E+007   5.513647647808019E-001  -5.267568280808331E-001   6.497600177709505E-006   2.279536906339625E-004   4.517523345276133E-001   4.060657655378955E-001   3.729186313537583E-005   2.674865612092109E-004  
                         1.157446910982696E-004   7.987763813302907E-005   8.258980423768735E-001  -4.376159394872660E-001  -1.608229766907128E-004   2.624500413289491E-004   1.785614567667149E-001   2.773323560889690E-001  
                         4.683067452432044E-001   4.343554478605027E-001  -9.540050534612615E-005   3.605453165152668E-004   5.594468745921841E-001  -5.579387518405741E-001   1.035941170157114E-004   1.427628812981817E-004  
                        -1.425328530745382E-004   3.787307931386220E-004   1.768120199383807E-001   2.840664424327060E-001   1.475669734003191E-004   8.025394146696768E-005   8.240955699450088E-001  -4.448106226173709E-001  
                        
5.612500000000000E+007   5.496052429852334E-001  -5.276068150230099E-001   6.665712221942045E-005   9.703637065304156E-005   4.527199031339748E-001   4.059072681691286E-001  -1.118251490583477E-004   2.793116957558928E-004  
                        -2.675637906030195E-005   2.357474821025589E-004   8.259102888153763E-001  -4.391672993886657E-001  -8.759642243763958E-006   4.928029476392456E-004   1.798141663700503E-001   2.770059514342935E-001  
                         4.690577432318219E-001   4.340404121082708E-001   4.044432727026944E-005   2.949208894828185E-004   5.579468277756751E-001  -5.581914824874692E-001   3.982165188790960E-005   5.365432508400370E-005  
                        -6.865477470885684E-005   3.899465353807415E-004   1.778521404084057E-001   2.843288331208512E-001   3.908923925740570E-005   6.876797060350309E-005   8.232415490720472E-001  -4.467443075973260E-001  
                        
5.625000000000000E+007   5.485426094302141E-001  -5.272701677191143E-001   1.087282557572279E-004   1.441166246382077E-004   4.543220922427627E-001   4.055734809344566E-001   2.904297973029332E-005   4.554609669885046E-004  
                         2.993559192281618E-005   1.308203068771103E-004   8.257540332534918E-001  -4.403766940847838E-001   8.928268152452035E-005   2.761194913840826E-004   1.801744914786871E-001   2.775588063139914E-001  
                         4.701911371830680E-001   4.334901122975301E-001   7.634009002470779E-005   2.223838116339479E-004   5.568614267262040E-001  -5.590191458398075E-001  -1.944997997494536E-004   1.049292425215656E-004  
                         2.717231419011331E-005   4.173927843647837E-004   1.787576932168350E-001   2.850096033349895E-001  -2.021282888054853E-005   2.534160981523999E-004   8.221003188431660E-001  -4.478030575254077E-001  
                        
5.637500000000000E+007   5.473748713523877E-001  -5.273499715034354E-001  -9.725070885541292E-005   8.975921412097955E-005   4.547224776692579E-001   4.063215751112548E-001   3.823729785417528E-005   2.346946705017820E-004  
                        -4.195722234254088E-005   1.759197905096300E-005   8.240590635266372E-001  -4.414710417049423E-001   4.730528491898100E-005   1.838228284540691E-004   1.806523084036435E-001   2.787673452257605E-001  
                         4.715325008706549E-001   4.333013988985315E-001   7.196099607514563E-005   2.394359305562391E-004   5.566388631799485E-001  -5.591899293567930E-001   5.531605928564845E-005   2.837546766294262E-004  
                         9.575529067239492E-005   3.423694261244551E-004   1.791564016973418E-001   2.851810389035865E-001  -1.554145558409604E-004   3.104939112001409E-004   8.222885880769448E-001  -4.492157810069287E-001  
                        
5.650000000000000E+007   5.466886004078375E-001  -5.278725691671080E-001  -2.599197018754138E-005   1.950524824978440E-004   4.550670402205270E-001   4.061731263678348E-001  -1.621872264266625E-005   3.067780966515417E-004  
                        -1.077489604379979E-004   2.037663316751904E-004   8.230978039046911E-001  -4.422797249448371E-001  -3.287268472638171E-005   2.384126084991593E-004   1.822554053143324E-001   2.787447446303282E-001  
                         4.720122742386371E-001   4.337893395182461E-001  -5.250851778283586E-005   2.139129966240290E-004   5.551188354960888E-001  -5.584346244987677E-001  -6.136815298057551E-005   4.844587585434297E-004  
                        -8.719977226241370E-005   2.427963316727181E-004   1.802618192637812E-001   2.853690701493468E-001  -1.135682103049104E-004   3.057268067338965E-004   8.217113672081287E-001  -4.504237190707223E-001  
                        
5.662500000000000E+007   5.451926914276630E-001  -5.279241729274807E-001  -1.074844771923357E-004   3.462026558235675E-004   4.568172121570270E-001   4.057551209136345E-001   5.680094786219814E-006   3.972817383539706E-004  
                        -1.763235843139205E-004   2.208390650320022E-004   8.230046985497066E-001  -4.424973798169695E-001  -1.609560890545141E-004   3.610990395996383E-004   1.826600891828332E-001   2.791107003534217E-001  
                         4.735229558205424E-001   4.329777256890583E-001  -8.293339963212308E-005   3.394254530001752E-004   5.538991656117609E-001  -5.592595319787612E-001   1.479076843150067E-004   6.215600479308459E-004  
                         4.292192526549187E-005   4.189736557901686E-004   1.809295307826267E-001   2.856039541221671E-001  -9.639355848716199E-005   4.978623947694496E-004   8.214538532688668E-001  -4.507967643785129E-001  
                        
5.675000000000000E+007   5.445967458040932E-001  -5.280436368794135E-001  -3.290780528296134E-005   3.084587346920028E-004   4.571527979860255E-001   4.057402731881278E-001   7.071226254822114E-005   2.899871594444240E-004  
                        -1.531962359586860E-004   2.768384385369995E-004   8.217296989207364E-001  -4.441887960345410E-001  -1.790357964856650E-004   3.952349143978072E-004   1.827143703130606E-001   2.794292919151737E-001  
                         4.744995227630975E-001   4.331713753477200E-001  -2.719649495158162E-004   4.564550109597251E-004   5.525201040328551E-001  -5.591556261840683E-001   3.970318239639653E-004   3.024845150605815E-004  
                        -7.549010598746472E-005   3.041328356220882E-004   1.817023424572606E-001   2.856607232526380E-001   1.082842152213176E-004   3.380498552285597E-004   8.196053001514155E-001  -4.510986980188166E-001  
                        
5.687500000000000E+007   5.422812261719742E-001  -5.286397186977935E-001  -8.670316122690332E-005   2.724688312015516E-004   4.586280832395762E-001   4.060582564884133E-001   6.513370220846682E-005   4.092701733569955E-004  
                         1.821813284307487E-004   2.918966407853282E-004   8.210387317060276E-001  -4.445073877858302E-001  -1.119908360156113E-004   6.742328282323977E-004   1.838548899935475E-001   2.797539030922265E-001  
                         4.749804105830385E-001   4.332770400632513E-001  -1.493152304024248E-004   5.453608134466723E-004   5.514803874360108E-001  -5.603697970916274E-001   1.386434345522213E-004   1.456742650613913E-004  
                         5.333254665947429E-005   4.189021993895835E-004   1.817982698271146E-001   2.861840163639956E-001   2.355058131622742E-004   2.658903823901568E-004   8.193477215000408E-001  -4.529530137580588E-001  
                        
5.700000000000000E+007   5.415145222643900E-001  -5.290903704817104E-001   1.133181416946088E-004   1.562662079717840E-004   4.595598562633734E-001   4.049014670729279E-001  -2.681325821644735E-005   3.684496852221075E-004  
                         1.967495099176049E-006   2.592836466618537E-004   8.200459404516942E-001  -4.453206988086147E-001   1.972284445634187E-004   5.750832578229666E-004   1.849981345926186E-001   2.801516792488987E-001  
                         4.774220909390299E-001   4.330915057346175E-001   1.774189453524856E-004   6.581202388297176E-004   5.505628412216173E-001  -5.604830686464367E-001   3.730668484226425E-005   1.802841036174521E-004  
                         1.967675149894988E-004   2.831202124417818E-004   1.833142198318647E-001   2.865314604975334E-001   7.147020735668248E-005   5.711414482017791E-005   8.184305593448122E-001  -4.538149686290409E-001  
                        
5.712500000000000E+007   5.410146227538678E-001  -5.283711709258253E-001  -1.571469323493911E-004   1.487513319843430E-004   4.605873725098783E-001   4.058753644617730E-001   8.404091456850140E-005   2.826726487219250E-004  
                        -5.378034230355471E-005   3.255501134151933E-004   8.190632262875570E-001  -4.461968210518068E-001   4.450815999753717E-004   5.608938461649312E-004   1.854857330703288E-001   2.805738610887908E-001  
                         4.774550288786007E-001   4.336398005199374E-001   2.246236557633957E-004   7.141673980127689E-004   5.496894673876679E-001  -5.608498376853676E-001  -1.755183358524466E-004   2.520295670788683E-004  
                         1.172088444038953E-004   3.249988581969152E-004   1.841279777154228E-001   2.867949681248145E-001  -1.124859467020982E-004   2.562788222024982E-004   8.176594659122236E-001  -4.541292829208253E-001  
                        
5.725000000000000E+007   5.401982303803269E-001  -5.291629813951225E-001   1.262616016918574E-005   3.642467009266339E-004   4.613426860237945E-001   4.049006596667071E-001   9.691746643867666E-005   1.402601380971186E-004  
                         3.696129971654709E-005   2.432892692243846E-004   8.184549482867469E-001  -4.463846308667981E-001   4.548603836866983E-004   3.828587156117594E-004   1.867326268378965E-001   2.807437859513483E-001  
                         4.786981321479245E-001   4.336564825985572E-001   6.248171333123890E-004   3.491951610884132E-004   5.483059012664441E-001  -5.606458391476695E-001  -1.581581009646024E-004   3.422358391581115E-004  
                         6.317446017083296E-005   2.738271316105478E-004   1.854938801117164E-001   2.867970917295363E-001  -1.177591565613725E-004   4.334940244050193E-004   8.166374495858855E-001  -4.560550992035126E-001  
                        
5.737500000000000E+007   5.388597935025152E-001  -5.292325414100464E-001  -2.879573148102684E-005   3.794560207865028E-004   4.620011133377215E-001   4.060732580320267E-001   1.104111383997428E-004   1.966360147840493E-004  
                         4.032123357360419E-005   5.280289776702668E-004   8.178491784008064E-001  -4.474594357027412E-001   4.607706795371697E-004   1.274172124292369E-004   1.871433594665258E-001   2.812593985172884E-001  
                         4.795163561839653E-001   4.332603636639734E-001   2.600634749459372E-004   3.307139866364921E-004   5.476507987403251E-001  -5.608723120407999E-001  -2.030812094033843E-004   6.798356913376261E-004  
                         3.842423851442716E-004   3.481230383610580E-004   1.854591944713807E-001   2.870298613714137E-001   2.134212703909614E-005   5.061913061310503E-004   8.165592212155853E-001  -4.562103739132263E-001  
                        
5.750000000000000E+007   5.383039977202914E-001  -5.296354308908133E-001   4.845767840839572E-005   2.431820913674189E-004   4.631814554737810E-001   4.057770532614780E-001   4.077862154357520E-005   1.863167673781835E-004  
                         4.826931712245852E-005   3.298844202889056E-004   8.171287314897702E-001  -4.478389421905611E-001   2.499588148941099E-004  -1.246927380217921E-004   1.878202492061301E-001   2.804043024350062E-001  
                         4.803852724099564E-001   4.344258375733547E-001   2.909391992093653E-004   3.851903611537846E-005   5.471409888332213E-001  -5.617747557609933E-001   2.107256592687401E-004   7.241338635612205E-004  
                         1.628723939573234E-004   1.328110319959043E-006   1.868184710148738E-001   2.869636173468073E-001   1.119422145648708E-004   4.633050921734785E-004   8.146850483704000E-001  -4.563112544662548E-001  
                        
5.762500000000000E+007   5.366530385324935E-001  -5.290026562435212E-001   5.929990671003444E-005   3.635397214160069E-004   4.646431008636933E-001   4.051938182193537E-001   5.394463485937483E-005   2.803899210844264E-004  
