#  HZ   S   RI   R     50.0000 
! Rohde & Schwarz ZVA/B 
! 
! 
! 

 9.000000000000000E7     4.408803577339676E-1  -5.762911549954561E-1   1.096171816053176E-4   4.491866233504159E-4   5.296174648611871E-1   4.012663572593684E-1  -7.574052453759148E-5   1.801132773220099E-4  
                         1.095644248274328E-4   5.256001743579504E-4   5.300681103048528E-1  -5.728491598342409E-1   2.570165058221208E-4   5.443255226382141E-4   4.422120300211951E-1   4.133664366732917E-1  
                         5.320337461986012E-1   4.016728893371147E-1   2.882387965039328E-4   4.911936009227972E-4   4.405889275033055E-1  -5.759368584949343E-1   1.425394383992394E-4   3.984811517791925E-4  
                        -1.746364742502593E-4   1.757499108872092E-4   4.405257143042332E-1   4.121607966467152E-1   1.013872154444573E-4   3.827655699647613E-4   5.342453381452260E-1  -5.690728593365279E-1  
                        
 9.006250000000000E7     4.411273085159163E-1  -5.757173597688122E-1   2.282703336897905E-4   3.870901754517926E-4   5.291795443012817E-1   4.015306026743254E-1  -8.197505678266941E-5   2.860348335843128E-4  
                         9.696227921278503E-5   3.751359722236810E-4   5.295174930749723E-1  -5.729483452057876E-1   2.237066720166086E-4   3.992848541556717E-4   4.413247762384652E-1   4.120582495113079E-1  
                         5.317685876699309E-1   4.015415932320083E-1   2.656500394695185E-4   5.759549622822629E-4   4.382855348934664E-1  -5.757324182114846E-1   3.412485268712241E-5   3.971985439411677E-4  
                        -2.284286851098030E-4   2.267405754199423E-4   4.408483929700109E-1   4.123225501491895E-1   2.196483103404235E-4   3.068385925377040E-4   5.348552305340985E-1  -5.697729565059965E-1  
                        
 9.012500000000000E7     4.398048317594367E-1  -5.766530724812000E-1   1.359349563438597E-4   4.239454632549805E-4   5.313564363623921E-1   4.010720734321648E-1  -4.978059074306880E-5   1.575103406313453E-4  
                         1.976009652510740E-4   4.869117731554442E-4   5.293745823123817E-1  -5.720463619524546E-1   1.507383263753138E-4   4.124499594288857E-4   4.418453004395100E-1   4.108675169231233E-1  
                         5.317499506238752E-1   4.025132314887869E-1   2.028203288462565E-4   5.892052832185635E-4   4.392039794222936E-1  -5.762663024855746E-1   9.961264551371459E-6   3.220417770662504E-4  
                        -1.461839533647848E-4   1.870877534155683E-4   4.418802198689723E-1   4.104853993435508E-1   4.024144455389222E-5   3.359918800817329E-4   5.331287227393479E-1  -5.702600729813856E-1  
                        
 9.018750000000000E7     4.401366369822231E-1  -5.754088649166125E-1   4.707075842193959E-5   2.897422641790972E-4   5.315267373542236E-1   4.007731799723498E-1  -7.722680779420259E-5   2.585776916773463E-4  
                         1.291769997582035E-5   3.463017239494696E-4   5.289192304140470E-1  -5.729698086046147E-1   1.525968316117655E-4   3.406725907089879E-4   4.422406218566532E-1   4.123552049011763E-1  
                         5.336518365783246E-1   4.010322815892687E-1   1.411641768231112E-4   5.521222890032319E-4   4.393293847567990E-1  -5.761598463240200E-1   2.227665647424149E-4   4.024139575552077E-4  
                        -1.863326497263110E-4   2.635745216422654E-4   4.418133881847681E-1   4.116357005557929E-1   9.858717712197427E-5   2.480026163959940E-4   5.332772322048683E-1  -5.685221161904897E-1  
                        
 9.025000000000000E7     4.392033857871092E-1  -5.749998006818683E-1   1.295101470605111E-4   2.484712099780927E-4   5.299127817206484E-1   4.014270948117224E-1  -1.976033459546116E-4   1.845200502922089E-4  
                         2.294869810156117E-5   4.131588128499989E-4   5.273439964045306E-1  -5.726638447573093E-1  -3.366118197413940E-5   6.319695162222558E-4   4.434188067722634E-1   4.120468997469061E-1  
                         5.336487601343531E-1   4.032557293176317E-1   1.200802701981615E-4   5.998213267635546E-4   4.376575359015784E-1  -5.772147155565659E-1   1.468983702398598E-4   3.363008670187536E-4  
                        -1.348112499695858E-4   2.916420774524348E-4   4.410549228042121E-1   4.123218558558528E-1   1.089593243462409E-5   2.911433119236579E-4   5.326286955994686E-1  -5.707682837306030E-1  
                        
 9.031250000000000E7     4.391069513085262E-1  -5.763983290036029E-1   6.995689059112704E-5   3.003373955182038E-4   5.304546159455394E-1   4.023405346873365E-1  -2.311736385419750E-4   2.791927492902468E-4  
                        -1.696908155806171E-5   2.774087429049381E-4   5.278081938575867E-1  -5.735507212141682E-1   2.649990760574939E-4   5.911410415549178E-4   4.429472098200079E-1   4.111008444283435E-1  
                         5.345536250464478E-1   4.015374299210669E-1   2.263498068791341E-4   5.012709590662967E-4   4.359949564309592E-1  -5.764777441872966E-1  -5.928342497827447E-6   2.934272468546628E-4  
                        -1.036055390357894E-4   1.630728490224990E-4   4.403408999488099E-1   4.102507142495285E-1   1.173857668347082E-4   2.674083015896484E-4   5.325050795710596E-1  -5.698056083956541E-1  
                        
 9.037500000000000E7     4.380388878513830E-1  -5.756867066593405E-1  -1.206579039029329E-4   3.231502699717401E-4   5.301571133060180E-1   4.004215510578948E-1  -8.825707846589703E-5   2.160009327741017E-4  
                         4.810907259347124E-5   2.824889145894329E-4   5.268468638824253E-1  -5.727618115836078E-1   4.099820285229123E-4   4.701237364192827E-4   4.428251029193436E-1   4.103426799487772E-1  
                         5.326273923048278E-1   4.015975314123071E-1   2.362478419928875E-4   5.183352748472356E-4   4.375845428157804E-1  -5.769075458584022E-1   5.358577773131993E-5   2.424082191355487E-4  
                        -1.560864736311467E-4   3.114408491567383E-4   4.428497821926659E-1   4.114816608516476E-1  -8.648452970598811E-5   2.271321785274486E-4   5.333329394319235E-1  -5.693466073484521E-1  
                        
 9.043750000000000E7     4.377963743038520E-1  -5.760693204274050E-1   1.618560638093950E-6   3.315319830001711E-4   5.325961809271814E-1   4.008717757057366E-1  -1.230606594193315E-4   3.916905577223170E-4  
                         1.208806619872132E-4   3.260336845836040E-4   5.259693943350677E-1  -5.718478275651664E-1   2.000946057738972E-4   4.854425771316688E-4   4.449255501813855E-1   4.101942950008339E-1  
                         5.344180349480423E-1   4.022160613003276E-1   3.817830084135438E-4   5.332563042635407E-4   4.371132236486383E-1  -5.754386209796533E-1  -3.198551204995071E-5   4.316035376611366E-4  
                        -1.082505381040167E-4   3.118524058521739E-4   4.439416008066506E-1   4.109779010281738E-1   1.700303557976519E-6   3.792161314425189E-4   5.315943099447213E-1  -5.693321865735863E-1  
                        
 9.050000000000000E7     4.360726493132106E-1  -5.755142226518938E-1   3.749128399363245E-6   3.835076447873999E-4   5.324975551591140E-1   4.018356729267184E-1  -1.589571261236309E-5   1.008260019485227E-4  
                         3.075889758578167E-5   4.232661801898380E-4   5.260050843311164E-1  -5.725976567525236E-1   4.063775547860366E-4   6.007443240963067E-4   4.421490983216429E-1   4.120885781763187E-1  
                         5.338175523571191E-1   4.016945860044285E-1   1.749428676349141E-4   5.522029186143849E-4   4.362523943689040E-1  -5.761054675342232E-1  -3.629462912804217E-5   3.213782479344286E-4  
                        -1.476635436056508E-4   2.099594930065579E-4   4.423495512865214E-1   4.120505966277587E-1   6.524709480498859E-5   3.473493551765762E-4   5.325166826099939E-1  -5.696464412428358E-1  
                        
 9.056250000000000E7     4.377552760250536E-1  -5.761666775384448E-1  -6.131705886426459E-5   4.186568726343925E-4   5.318391134553262E-1   4.023663010754332E-1  -4.549299628165068E-5   2.850252204375202E-4  
                         9.261072082621330E-6   3.485261882325753E-4   5.252962117163814E-1  -5.727400756126365E-1   3.077424290736096E-4   5.486487800187966E-4   4.455369950935583E-1   4.108460383896931E-1  
                         5.340510690056605E-1   4.020381857473421E-1   1.941258701965119E-4   6.541884245992544E-4   4.366104204714104E-1  -5.769398289790428E-1   2.779779762540062E-5   2.855909718748001E-4  
                        -1.686615846786628E-4   3.371315833446158E-4   4.437708221998682E-1   4.127185957089011E-1   9.555957641281651E-5   2.423553347545448E-4   5.312777425126382E-1  -5.682477630181134E-1  
                        
 9.062500000000000E7     4.361785335448825E-1  -5.755676743281906E-1   1.769361941497935E-4   3.286628638769979E-4   5.336860153857668E-1   4.003122656550501E-1  -5.170548904890032E-5   1.751748594487036E-4  
                        -2.792151313853797E-6   4.161713108662260E-4   5.258514265353849E-1  -5.725713257056087E-1   2.108502642177890E-4   6.484936918258526E-4   4.436793805250718E-1   4.121543089643809E-1  
                         5.344326738241472E-1   4.012517084701766E-1   2.244867147646782E-4   5.706395604809383E-4   4.354904602023374E-1  -5.746694800821823E-1   6.457995577717031E-5   4.072695121723918E-4  
                        -1.929855877975797E-5   2.980700654073016E-4   4.441127381813370E-1   4.124682516370795E-1   4.498459765430178E-6   3.895732361466977E-4   5.302161953766946E-1  -5.704521718973628E-1  
                        
 9.068750000000000E7     4.356030067227500E-1  -5.744778351529466E-1   5.761522681925886E-6   5.535401932581422E-4   5.317381939189323E-1   4.013397271939163E-1  -1.672499798124217E-4   3.448870679920602E-4  
                        -4.451096097425393E-5   5.015098936305364E-4   5.252070307971585E-1  -5.731644561718513E-1   3.658393497863987E-4   4.129177443446548E-4   4.456109320479473E-1   4.113001580466346E-1  
                         5.352880558138977E-1   4.014966838925068E-1   2.398681638044634E-4   5.802222496493965E-4   4.354568526694312E-1  -5.759698539658963E-1  -9.068428440037280E-5   3.080909861318324E-4  
                        -1.369275238302442E-4   3.014041883131703E-4   4.442528016602152E-1   4.128704550040017E-1   7.286934783763506E-5   3.738969368262199E-4   5.302407744736328E-1  -5.688357872457148E-1  
                        
 9.075000000000000E7     4.363772474321593E-1  -5.756994873885014E-1   1.131611556198866E-4   4.652510864797789E-4   5.339907394520966E-1   4.034600496979254E-1  -1.000449047774239E-4   2.492253095820975E-4  
                        -5.011564951308137E-5   2.743471460598809E-4   5.254138256985544E-1  -5.719419552759180E-1   3.307332671067747E-4   5.784126765401203E-4   4.453825553371908E-1   4.113737156914886E-1  
                         5.351329594250153E-1   4.018562375725917E-1   2.889925238039657E-4   4.559677850402558E-4   4.346426002952762E-1  -5.750327124676227E-1  -3.744571735638951E-5   2.346779105330011E-4  
                         3.898160879573005E-6   3.469006931419259E-4   4.450762567380641E-1   4.116533589577244E-1   1.116651618451232E-5   3.045470243296525E-4   5.296314050581833E-1  -5.694933561212771E-1  
                        
 9.081250000000000E7     4.370016871433370E-1  -5.743698543588148E-1   1.159975826233737E-4   4.288314820133240E-4   5.324289756062890E-1   4.020885579778529E-1  -1.258199026724003E-4   2.262270377709657E-4  
                         5.360525219272755E-5   3.914442747352298E-4   5.246405755163245E-1  -5.721807309376871E-1   3.218188398550070E-4   4.977422436214357E-4   4.464716123988650E-1   4.122604945791398E-1  
                         5.360358194255738E-1   4.007198300639941E-1   2.679628537222325E-4   4.652002096251295E-4   4.342582967514521E-1  -5.758607790638404E-1  -8.512881345942436E-5   3.723232396113170E-4  
                         2.058839824441949E-5   2.422402791680295E-4   4.452975254429241E-1   4.123490310045273E-1  -6.293205276160498E-5   2.864960102721684E-4   5.280728755565709E-1  -5.702735698303509E-1  
                        
 9.087500000000000E7     4.362737963473493E-1  -5.752946653343041E-1   1.399202332370562E-5   4.019554999667396E-4   5.337578347176064E-1   4.026814916106725E-1  -7.129327679401202E-5   2.305744523597177E-4  
                         1.546648300236727E-5   5.110372545061086E-4   5.255292539477159E-1  -5.722427486548205E-1   3.185010345693325E-4   4.829604148909970E-4   4.460634245415771E-1   4.116933522394461E-1  
                         5.368769885991942E-1   4.031164239431704E-1   3.141587417701448E-4   4.664074325327782E-4   4.333088600412672E-1  -5.755292287795334E-1  -1.221211784739171E-4   4.014390250558590E-4  
                        -2.199606779291860E-4   1.996670019662665E-4   4.455599582353106E-1   4.116224452282974E-1   1.783202858655311E-5   3.836453134563617E-4   5.291535258201150E-1  -5.694510116804140E-1  
                        
 9.093750000000000E7     4.355937567607374E-1  -5.755356662702383E-1   1.502622380096835E-5   5.848136109744268E-4   5.336386559413855E-1   4.023590487698335E-1  -9.878937913190841E-6   9.831720453598982E-5  
                         2.262511366537579E-5   4.185922297142114E-4   5.241239374506133E-1  -5.726997988678849E-1   2.087853959279365E-4   5.174785990843649E-4   4.466639545543628E-1   4.110165777387738E-1  
                         5.375726801545336E-1   4.018284266119848E-1   1.333563099440040E-4   3.726274371632297E-4   4.352347240174265E-1  -5.761952551590083E-1   1.369056822206894E-4   2.722872347936018E-4  
                        -6.398061614350272E-5   1.766721920909402E-4   4.462579063732897E-1   4.117318561081876E-1  -3.401203186730731E-5   3.748088543270877E-4   5.294154113575516E-1  -5.688366854389598E-1  
                        
 9.100000000000000E7     4.352700978696426E-1  -5.749380475135499E-1  -3.448008148466528E-5   2.922626602249082E-4   5.352403757719060E-1   4.027978108307894E-1  -3.690482305091369E-5   3.218503922007103E-4  
                        -2.618758326782153E-5   4.697178917857181E-4   5.245097377637624E-1  -5.728349022219490E-1   1.984415734264918E-4   4.128647214129842E-4   4.476074719694003E-1   4.131139139692028E-1  
                         5.374233520424291E-1   4.033742845258822E-1   1.452252566687869E-4   4.075777392114587E-4   4.341683951366130E-1  -5.759175929307629E-1   1.570506061324245E-4   3.892642964100865E-4  
                        -1.114061798248583E-4   2.559386988207899E-4   4.472562308095068E-1   4.121311622353393E-1   1.453109120340228E-5   4.104643212042120E-4   5.285728711366065E-1  -5.680447763213827E-1  
                        
 9.106250000000000E7     4.343994536654918E-1  -5.758386008187869E-1   5.810884212064569E-5   4.458117968173632E-4   5.342766737235317E-1   4.022151448594617E-1  -7.497320938038845E-5   2.047481174341494E-4  
                        -2.801701063481142E-5   3.870522421159459E-4   5.233723759629845E-1  -5.728614277344716E-1   3.352939011935644E-4   5.465167477823615E-4   4.472311172787840E-1   4.128106051916075E-1  
                         5.372345066798185E-1   4.023216190714636E-1   2.237297402579780E-4   4.201316783021348E-4   4.335480208603784E-1  -5.762786506518688E-1   5.688998361858528E-5   4.112814083091170E-4  
                        -8.899048603295550E-5   2.302588599683364E-4   4.474154673179909E-1   4.135638485034973E-1   6.944298547616178E-5   4.368765898153051E-4   5.283868783848771E-1  -5.694038374380376E-1  
                        
 9.112500000000000E7     4.346541131359173E-1  -5.753838247557177E-1   1.721207339667814E-5   3.850824633522105E-4   5.366849193972323E-1   4.003136009273158E-1  -1.289161118526579E-4   2.309834464611426E-4  
                         1.289317676975230E-4   3.580776623021868E-4   5.238898114417249E-1  -5.728859856413135E-1   1.305289942488624E-4   5.743429745158711E-4   4.482061005427194E-1   4.122152053649049E-1  
                         5.386991655682171E-1   4.014452323026819E-1   1.832344241579047E-4   5.702552611226653E-4   4.345337039021254E-1  -5.762637756778369E-1  -2.723818477174872E-5   3.419245655745110E-4  
                         4.967711442636423E-6   2.017528972254432E-4   4.468468927412513E-1   4.128124012645555E-1   9.878044799318728E-5   4.127362116548974E-4   5.286363134012621E-1  -5.692447729433318E-1  
                        
 9.118750000000000E7     4.334990313929202E-1  -5.747072973105033E-1   8.491016871018692E-5   4.728388158570338E-4   5.375762682526543E-1   4.009742233204514E-1  -4.562902632097727E-5   2.152867047718150E-4  
                         7.495295209599607E-5   2.893289451732733E-4   5.238909903315132E-1  -5.735341472279704E-1   1.977578471977120E-4   3.639738711811505E-4   4.483109532353330E-1   4.138351462880955E-1  
                         5.398304264256110E-1   4.024619757616257E-1   2.196626009811457E-4   5.377759416226692E-4   4.332427603453476E-1  -5.755039944493702E-1   1.143164285150841E-4   3.681096488720850E-4  
                        -1.373654573150462E-4   3.449058446587782E-4   4.466716250203592E-1   4.129086110021472E-1  -4.565380873391349E-5   2.974499734758674E-4   5.271740134991975E-1  -5.691501756645979E-1  
                        
 9.125000000000000E7     4.346437400499225E-1  -5.745436938220414E-1  -2.434154842162910E-5   4.717409028126033E-4   5.371271246404675E-1   4.023400179993295E-1  -2.248241549311152E-4   4.624113295807372E-5  
                         1.426473153336068E-4   5.663276186364728E-4   5.237925856915168E-1  -5.737997061591786E-1   3.043536575464935E-4   4.449405722121285E-4   4.482016431241503E-1   4.131883495450832E-1  
                         5.402991721118080E-1   4.019343833895844E-1   2.134112862453704E-4   5.039086148683737E-4   4.322514698307099E-1  -5.752214120694873E-1  -4.449764687708137E-5   2.690282068619370E-4  
                        -1.015703836181255E-4   1.338875346072058E-4   4.463479553485842E-1   4.124312230061167E-1   5.579378920353638E-5   2.853948570597062E-4   5.278835274090604E-1  -5.691644015206258E-1  
                        
 9.131250000000000E7     4.325639451703232E-1  -5.739531994218575E-1   1.424341460557726E-4   3.979585098565487E-4   5.372579750864382E-1   3.992233136162497E-1  -7.993910847818631E-5   1.740087768170936E-4  
                         4.805792065230454E-5   3.386446329310798E-4   5.213367501149488E-1  -5.733989450361186E-1   2.981046236732901E-4   6.100234786997119E-4   4.494495472915248E-1   4.114191583286680E-1  
                         5.403457927514174E-1   4.026967071413464E-1   1.985851333405616E-4   3.777147289385312E-4   4.323101276994458E-1  -5.751726461697900E-1  -2.549042493813284E-5   4.997589629609385E-4  
                        -6.465053782519679E-5   3.038973758051882E-4   4.472305300537158E-1   4.136915086092878E-1   1.931935662411961E-5   3.945642410751609E-4   5.281351100950513E-1  -5.693687451720627E-1  
                        
 9.137500000000000E7     4.339580247907273E-1  -5.756865134931635E-1   3.441671308403785E-5   3.100573440608880E-4   5.378800827133485E-1   4.002516972210575E-1  -9.441950854055219E-5   3.300962378710210E-4  
                         6.447602134185646E-6   4.673529371849348E-4   5.218685565642992E-1  -5.719794376314451E-1   1.934974872146071E-4   3.436514528732483E-4   4.491836031425178E-1   4.110322252899327E-1  
                         5.409049485357987E-1   4.013538623866352E-1   1.986889202551080E-4   4.333577793492445E-4   4.307797147050999E-1  -5.747807828052212E-1  -7.815534822258125E-5   3.534573907540035E-4  
                        -1.211246740413006E-4   2.119153616365073E-4   4.492451963649117E-1   4.121708074314306E-1   4.967768917652142E-5   3.595825970599254E-4   5.260745494820267E-1  -5.708662175793842E-1  
                        
