#  HZ   S   RI   R     50.0000 
! Rohde & Schwarz ZVA/B 
! 
! 
! 

5.000000000000000E+007   9.552633123827646E-001  -2.439695623158881E-001  -1.966100224146916E-005  -3.564427884035492E-005   4.851269608017952E-002   1.355997260148825E-001   9.209747503707101E-005  -1.259430633633221E-004  
                        -3.620927211616970E-004   1.227184593309148E-004   8.148988927215346E-001  -4.233837447218365E-001   1.285518967579108E-004  -2.563851735059106E-004   1.991212446568310E-001   3.255753103031894E-001  
                         4.429192705170546E-002   1.431920521650140E-001   1.001406583525053E-005   8.417452723865728E-006   9.578718054409462E-001  -2.388915244191412E-001  -1.897423676227335E-004   8.184954194602618E-005  
                         2.334905822587306E-004   1.575218952666383E-004   1.994401441881859E-001   3.361129830491964E-001   1.334912769419635E-005   9.931394884725800E-005   8.226087650636815E-001  -4.192026370721177E-001  
                        
5.012500000000000E+007   9.546375712993591E-001  -2.455045712627677E-001  -6.258131123618886E-005   2.989270553165028E-004   4.941883053820204E-002   1.351454932910516E-001   1.704739426703304E-004   5.733170043817496E-005  
                        -8.045186790971674E-005   7.503483457635666E-005   8.140248723002612E-001  -4.234668148779662E-001  -2.562100624890493E-005  -4.295632649615844E-005   1.999740434036653E-001   3.253563547939649E-001  
                         4.421131740675527E-002   1.430696984919863E-001  -1.046558461793247E-005   1.467424525234468E-005   9.571105708478773E-001  -2.404432395040002E-001   1.035895965508824E-005   1.242282055083293E-004  
                         1.177750864647192E-004   9.847745617898392E-005   1.999230093526486E-001   3.370834890549306E-001  -1.424858323630493E-004   2.446379460544537E-005   8.205820107482740E-001  -4.201853187996985E-001  
                        
5.025000000000000E+007   9.552560585514386E-001  -2.456449970852268E-001   2.006446948610985E-004   1.866851433331186E-004   4.910515320002019E-002   1.360423859672061E-001   7.127275179383852E-005   1.217407195413121E-004  
                         6.942298721249162E-005   1.592166019338483E-004   8.124639397790021E-001  -4.251131502919477E-001   4.257355039445319E-005   3.406621347881520E-005   2.006867022347531E-001   3.266577740952070E-001  
                         4.436990994135610E-002   1.437216947066315E-001  -3.673301232836353E-005   2.189377633943745E-004   9.566561009769112E-001  -2.396754444149164E-001  -1.233427207272600E-004   7.610148108695753E-005  
                        -1.008207166687724E-004   2.582884355095128E-005   2.008102962656546E-001   3.366760009029627E-001   6.633378629990966E-006   1.579373913700098E-004   8.205402870480643E-001  -4.209444047377114E-001  
                        
5.037500000000000E+007   9.545635888398317E-001  -2.464430526660032E-001   6.660607909135577E-005   1.186832518299465E-004   4.979754720439432E-002   1.361915744365164E-001   1.312555759259370E-005   8.482355939963097E-005  
                        -4.506105885765226E-005   1.985450685872654E-004   8.124802161209437E-001  -4.259923011444868E-001   1.405242342577161E-004   2.197688834113376E-004   2.013976315529147E-001   3.273915040691085E-001  
                         4.446039354133854E-002   1.441241197946528E-001   1.858467207278379E-004   1.186778907520049E-004   9.568865756290345E-001  -2.413796568885953E-001  -5.484572595489867E-005   1.794182411817868E-004  
                         3.187718188694415E-005   8.420058375296273E-005   2.016008886609943E-001   3.373374559703973E-001   6.082579122806438E-006   8.783222255182739E-005   8.201130737342983E-001  -4.211880972376719E-001  
                        
5.050000000000000E+007   9.533985884878004E-001  -2.476378807244736E-001   3.415260223204306E-005   1.953829404806984E-004   4.966585147889934E-002   1.365742084177262E-001  -6.991972867008436E-005  -2.165576385253775E-005  
                         2.484268653152605E-005   2.314326743376696E-004   8.110920896350580E-001  -4.263796123586505E-001  -1.705904707380305E-005   1.116714915310795E-004   2.017925482429062E-001   3.274705091516567E-001  
                         4.463718975671382E-002   1.442759838995436E-001  -6.962891021011148E-005   1.891854732118804E-004   9.561115314302221E-001  -2.419970625106259E-001  -6.945187815505748E-006   9.440951333154207E-005  
                        -2.991379492620015E-005   2.131335323014475E-004   2.022258704255642E-001   3.375590312789852E-001  -2.917970319903526E-005   1.758562750590785E-004   8.184216870501457E-001  -4.222500479019988E-001  
                        
5.062500000000000E+007   9.531850381129816E-001  -2.481417052306223E-001   2.679737866342810E-005   1.024551323150735E-004   5.043228015154368E-002   1.371748182151339E-001  -1.073635014238202E-005   1.081742966201153E-004  
                        -1.713251729742812E-005   5.170105300638720E-005   8.100165021116095E-001  -4.276026177623140E-001   4.306816497794115E-005   1.363333274529468E-004   2.030499785603892E-001   3.280656732059594E-001  
                         4.516876406374813E-002   1.446872773384729E-001   5.604322617737569E-005   1.781917477950502E-004   9.556458340744561E-001  -2.429658711698409E-001   9.054742881938975E-005   7.405798222882583E-005  
                        -7.000484617426865E-005   2.359720611340370E-005   2.033072894290526E-001   3.380307228965301E-001  -2.868673247574781E-005   1.856792298814905E-004   8.186462341808172E-001  -4.236591617419073E-001  
                        
5.075000000000000E+007   9.536752821949640E-001  -2.486863646112604E-001   1.792587302612748E-006   2.660534895395302E-005   5.096116403573615E-002   1.372886048623891E-001   1.044316820542507E-005   1.353927670125115E-005  
                         1.499174389439032E-005   3.346358925602251E-005   8.098096766106346E-001  -4.286204129034688E-001   1.632738186141497E-004   2.582248927739481E-004   2.036250982822154E-001   3.281164370167531E-001  
                         4.544429413690083E-002   1.450625962896329E-001   1.172701259478985E-004   1.603802128371960E-004   9.554785898707843E-001  -2.438615475636735E-001   1.052183997407041E-004   1.111412168794953E-004  
                        -1.723279085032332E-004   1.226247134096786E-004   2.043618689933008E-001   3.385516018813368E-001   9.827132364850514E-005   1.628496154986103E-004   8.174643295533165E-001  -4.239465622820959E-001  
                        
5.087500000000000E+007   9.527772620912433E-001  -2.491057323581349E-001   1.207398071387081E-004   6.610866797504017E-005   5.087627795212265E-002   1.373987563085188E-001  -1.779307790134095E-005   4.732677653778481E-005  
                         9.131237164350527E-005  -3.646492085267267E-005   8.086405226355699E-001  -4.290001336794566E-001   5.456782897410216E-005   1.428320876064096E-004   2.044538474778780E-001   3.288307328784432E-001  
                         4.567888891999723E-002   1.453369233748653E-001   2.235123429376507E-004   2.138034524215277E-004   9.554433067041083E-001  -2.441542288610730E-001   7.442582286033816E-005   1.435301841528037E-004  
                        -4.583770522357370E-005   7.987468382995824E-005   2.051953404469797E-001   3.387894093132481E-001   6.194673493468516E-005   6.700289337612623E-005   8.172109125342695E-001  -4.248467870536161E-001  
                        
5.100000000000000E+007   9.525334631138349E-001  -2.500315069149051E-001  -6.039360865075028E-005   9.209728769046578E-005   5.126277106090893E-002   1.371724531281959E-001   1.393721239304069E-005  -3.766018888974925E-006  
                        -2.045325966944959E-004  -7.974854148265720E-005   8.073081606307252E-001  -4.285455958225772E-001   1.483259028318936E-004   2.371988974005342E-004   2.055766177983907E-001   3.283529111256397E-001  
                         4.590403675372215E-002   1.454769185392773E-001   7.705083001331847E-005   1.701676919618231E-004   9.536054162566887E-001  -2.451882944323311E-001   7.595183786582329E-005   6.019701229450087E-005  
                        -6.537440126993834E-005   4.830587112800580E-005   2.053749230403972E-001   3.385306557142009E-001   1.729139270523526E-004   6.562026296116480E-005   8.143598224746503E-001  -4.265542198070219E-001  
                        
5.112500000000000E+007   9.520418241134755E-001  -2.515488772154149E-001   6.644182623034322E-006   8.691899115163364E-005   5.178704219002904E-002   1.381688369736043E-001   2.310016148502261E-005   1.282495852916348E-004  
                        -1.501589792500167E-004  -9.199224609988581E-005   8.074430871559731E-001  -4.299777631854454E-001   4.205307916506950E-005   9.153005029507351E-005   2.057364040579194E-001   3.290031034473118E-001  
                         4.650075323617260E-002   1.457191926883293E-001   1.504897208686344E-005   2.354651987542687E-004   9.545622223186051E-001  -2.462971761764164E-001   1.396403966533680E-004   8.944406401195057E-005  
                         5.633454469949062E-006   1.420241757231040E-004   2.064960363427848E-001   3.395738328965702E-001   2.339300468645704E-006   4.427699901669885E-005   8.139091803280495E-001  -4.260251050132197E-001  
                        
5.125000000000000E+007   9.526547801324465E-001  -2.523403041320245E-001  -9.630197602990383E-005  -7.734261267284832E-005   5.197622137471545E-002   1.382708519257113E-001   2.108208237383549E-005   2.622558781719670E-004  
                        -8.373818236095611E-006   1.908363553571912E-004   8.056274040661963E-001  -4.307542771789639E-001   4.980492315417320E-006   2.054237154039733E-004   2.068385888289267E-001   3.297163568592670E-001  
                         4.674297035039768E-002   1.462798157635192E-001  -5.175952168417834E-006   2.256882599951907E-004   9.539924067724552E-001  -2.466358974099879E-001  -5.408250483827583E-005  -2.498198182467792E-005  
                        -2.084364187423991E-005   2.430635342135107E-004   2.075324013792113E-001   3.394393337937633E-001  -1.252128521413771E-004   4.057705573092479E-005   8.132194480582752E-001  -4.270522337919224E-001  
                        
5.137500000000000E+007   9.522508013577153E-001  -2.525414844017534E-001  -2.120001507860177E-004   1.170275925263904E-004   5.183816541908239E-002   1.385807203480225E-001   1.065695804848424E-004   2.096545154094431E-004  
                        -1.184006299580909E-004   1.682049388389931E-004   8.051759104155761E-001  -4.315025351222907E-001   1.610625423029319E-004   1.205766935692936E-005   2.076910781328589E-001   3.297809369112520E-001  
                         4.688815205860272E-002   1.469517329591630E-001   6.119523960765547E-005   2.522164323512123E-004   9.535033414698503E-001  -2.467100770300613E-001  -1.456851514753939E-005  -8.956217791072197E-005  
                        -2.998224673795851E-006   3.767434226012355E-004   2.083758816352180E-001   3.399100558182665E-001   3.614381495976134E-005  -1.338155598146150E-005   8.128066293594974E-001  -4.281738187334537E-001  
                        
5.150000000000000E+007   9.513341572273886E-001  -2.534386710071436E-001  -2.962840312433143E-004   3.243566125128371E-005   5.195402195968288E-002   1.387375005263731E-001  -4.238490933977930E-005   9.847703077567522E-005  
                        -1.424523523952497E-004   8.590048906620530E-005   8.050064825707974E-001  -4.328047009263496E-001   5.356257870765939E-005  -2.251863355613910E-006   2.076822291932023E-001   3.304888807256567E-001  
                         4.702996997444840E-002   1.466582313900774E-001  -7.995525093521423E-006   6.068639281928182E-005   9.539375342271804E-001  -2.474026846791561E-001  -1.594662359557925E-004  -1.645931315604030E-005  
                        -6.222276871220096E-006   2.044973961788825E-004   2.093610472591287E-001   3.405542079296871E-001  -1.222235794359156E-004   3.964596051749666E-005   8.124421633797864E-001  -4.277770798161131E-001  
                        
5.162500000000000E+007   9.517394944327405E-001  -2.537567779249061E-001  -2.769105567704910E-004   7.775727327190675E-005   5.277742494032406E-002   1.388955685620179E-001  -1.187671818047884E-004   9.861353460904177E-005  
                         4.856537175447996E-005   1.317610749152586E-004   8.038919321221282E-001  -4.332588454360362E-001  -9.874984502421994E-005   5.224264620551535E-005   2.088394124824849E-001   3.311498291775105E-001  
                         4.742632261559761E-002   1.472134042405867E-001  -1.642406338895460E-004   4.034384837839400E-005   9.534542932922284E-001  -2.480648204822595E-001  -1.870540832799689E-004   7.992798564213124E-005  
                         1.330413932912041E-004   1.525308996935051E-004   2.099713495471299E-001   3.406005068769612E-001  -3.493681403495746E-004   5.939798709760469E-006   8.117719159529182E-001  -4.296571745407209E-001  
                        
5.175000000000000E+007   9.508128811963287E-001  -2.529234420022459E-001  -9.598675020599550E-005   2.491076438389908E-004   5.323143353997120E-002   1.390717972370938E-001   6.678542742556420E-005   2.127376953565671E-004  
                        -1.804760638312716E-004   3.234243523201098E-004   8.026393409592295E-001  -4.332181043764630E-001   1.516596983364549E-004   1.294078474137536E-004   2.093372821884033E-001   3.318737552518618E-001  
                         4.702756500920373E-002   1.470834671532204E-001  -1.768463169986360E-004   1.122629105525605E-004   9.528279752606151E-001  -2.485664710904782E-001  -1.949289256586937E-004   2.934935245501909E-004  
                         2.473313166366638E-004   8.846203114067271E-006   2.105124663933509E-001   3.411718035621518E-001  -1.400072341163002E-004   1.978049865628912E-004   8.113569136772814E-001  -4.296833100220376E-001  
                        
5.187500000000000E+007   9.508411183699213E-001  -2.538312171218849E-001  -4.752652357825233E-005   3.439185162693506E-004   5.359444156505544E-002   1.390811789636379E-001   1.113201713717126E-004   4.409060133457695E-005  
                        -8.505956941091302E-005   3.363948562055209E-004   8.021921695110528E-001  -4.338786896192968E-001   1.946488632669649E-005   1.379436822488283E-004   2.099198500024511E-001   3.317478108775273E-001  
                         4.783068699918774E-002   1.473792296003306E-001  -8.829810308502790E-005   7.561228633573254E-005   9.524134768452398E-001  -2.493495316106798E-001  -1.376101536888151E-004   3.477283186007725E-004  
                         4.278298987874795E-005   5.945560781999273E-005   2.111739088162423E-001   3.417171961540004E-001  -6.016744240698354E-005   2.692954727186628E-004   8.101512623376825E-001  -4.301852336401586E-001  
                        
5.200000000000000E+007   9.507048270507246E-001  -2.544653219041083E-001   5.113212094121425E-005   4.299017395033306E-004   5.383761317614655E-002   1.394977315168119E-001   9.741753636180731E-005  -8.755286165162800E-005  
                         3.820989504802692E-005   1.445073095512383E-004   8.014287237206687E-001  -4.350233622237351E-001  -1.177795194626702E-004   3.961812674637053E-005   2.111439055690457E-001   3.321484509763680E-001  
                         4.811837755693074E-002   1.478242603790702E-001  -5.168211497441355E-005   3.983041793406054E-005   9.530689730457279E-001  -2.502438643258629E-001   9.607358549648571E-005   2.537092825235045E-004  
                        -3.848408978908427E-005   3.734399110690160E-005   2.124614309885324E-001   3.421098558758339E-001   8.554192762473415E-005   2.246022823889642E-004   8.092660707469304E-001  -4.309288783343973E-001  
                        
5.212500000000000E+007   9.503057043547519E-001  -2.541305041321176E-001   2.239738797336700E-004   2.853706968439846E-004   5.408643610116189E-002   1.394424884227216E-001  -1.159693348119137E-004  -4.713607724922456E-006  
                         2.439817442790228E-004   4.180655489389825E-004   8.009844032225484E-001  -4.344108005228339E-001  -2.247764537010848E-004   7.952689031982174E-005   2.118383611529863E-001   3.322061579048309E-001  
                         4.847549086179622E-002   1.481515954599835E-001  -1.914822476875886E-004   3.832814769811595E-005   9.517625995253993E-001  -2.500835154017349E-001   1.139601194970833E-004   2.320091285722305E-004  
                         5.213792510241346E-005   7.391008074682377E-005   2.129511862876640E-001   3.422739803122304E-001   2.335965893118893E-004   2.529389831793045E-004   8.082725197554110E-001  -4.317171484761124E-001  
                        
5.225000000000000E+007   9.514568320075036E-001  -2.551288105880878E-001   3.697741261178241E-004   2.329111813117696E-004   5.444640703833632E-002   1.397042111384353E-001  -1.097221522970805E-004  -9.096733830400585E-005  
                         2.495669721591941E-004   2.418382391515882E-004   8.000802075831629E-001  -4.355420050867856E-001  -1.830571268506252E-004   1.976107743452024E-004   2.133150259182406E-001   3.326565801048774E-001  
                         4.844846302022980E-002   1.484700590565541E-001  -3.202284846480351E-004   1.628936559865184E-004   9.519552217099997E-001  -2.509331767949861E-001   1.541129084438191E-004   1.522691963630795E-004  
                        -2.493462714262759E-004  -1.048344042975879E-005   2.139506204058943E-001   3.423658585755273E-001   1.312563221355531E-004   2.730385457893696E-004   8.080886320766350E-001  -4.331821939806985E-001  
                        
5.237500000000000E+007   9.501279973742957E-001  -2.540054974682621E-001   1.779337651863828E-004   1.041208173612414E-004   5.432586262948110E-002   1.400660951230464E-001  -1.858962228765925E-004   1.097740379722083E-004  
                         2.196877163136881E-004   1.004871513208631E-004   7.999935884786608E-001  -4.358286336796674E-001  -1.804078466304878E-004   2.877749149583531E-004   2.135105321818874E-001   3.327375478659751E-001  
                         4.845370468263689E-002   1.481020807798088E-001  -8.688652987230248E-005   2.476816885752041E-004   9.519443337875686E-001  -2.508622656252275E-001   8.606876034349611E-005   1.291824042438937E-004  
                        -1.527056886349018E-004   7.676077100947705E-005   2.152065118074901E-001   3.429272743651352E-001   9.342649927243562E-005   5.459914963716189E-005   8.071749868146801E-001  -4.334768503324377E-001  
                        
5.250000000000000E+007   9.499649202009376E-001  -2.547359106911918E-001   1.383394075608631E-004   7.325429568248974E-005   5.448610666428570E-002   1.401025905912951E-001  -2.092441562746636E-004   7.871902574306370E-005  
                         1.647041984234848E-004  -5.994374569402148E-006   7.986050935899508E-001  -4.363632938495440E-001  -1.318440106111719E-004   4.378425682589187E-004   2.144942703348646E-001   3.331453548564822E-001  
                         4.868706999633168E-002   1.486990885774073E-001  -4.731242882354539E-005   3.789753073414297E-004   9.516618765258178E-001  -2.497199184044920E-001   2.192561954778255E-004   1.076080601111607E-004  
                        -2.195164736369275E-004   2.376185787492745E-004   2.156427625777233E-001   3.427222768498080E-001   2.382833864564058E-004   7.959029589920037E-005   8.065355166030519E-001  -4.335894561736001E-001  
                        
5.262500000000000E+007   9.503707585381777E-001  -2.549406388643375E-001   2.191561407744393E-004   1.316066569454991E-004   5.450777302529895E-002   1.407849516460926E-001   7.753530009251214E-006   2.600793138506292E-004  
