#  HZ   S   RI   R     50.0000 
! Rohde & Schwarz ZVA/B 
! 
! 
! 

5.000000000000000E+007   5.377833062046259E-001  -5.347370793510320E-001   2.285513250947897E-004  -1.892664024988416E-004   4.557128901016970E-001   4.083137119228650E-001  -1.965264350746789E-004   4.893126513707534E-004  
                        -2.146254969984678E-004  -2.230782866124823E-004   9.731794021552734E-001  -1.733623513257669E-001  -3.584213599245888E-005   7.602350668973214E-005   2.713662970957062E-002   8.764203826295913E-002  
                         4.700358528669136E-001   4.330803118058733E-001  -1.097299933725036E-004   3.594737695406339E-004   5.639003676172711E-001  -5.472295956116033E-001  -9.982721467037931E-005   7.778905653984577E-005  
                        -1.125627591989279E-004   3.354818436950789E-004   2.579667441900399E-002   8.954252114299677E-002  -6.901865066687870E-005  -2.155649964414869E-004   9.752453818237463E-001  -1.795491354663249E-001  
                        
5.012500000000000E+007   5.373793464441120E-001  -5.352381965095836E-001   4.847772951340736E-005  -2.411481793184515E-004   4.570007581954450E-001   4.084626773401024E-001  -7.471823232155888E-005   2.879708323913027E-004  
                         1.301817760481931E-004  -3.449836041359408E-004   9.742984046962835E-001  -1.753905889170349E-001  -4.715299658907413E-005   2.313256232095045E-004   2.752197861327745E-002   8.754543966091319E-002  
                         4.724283180035115E-001   4.327074517978229E-001  -4.975943248179989E-006   1.629923903802615E-004   5.624772085023166E-001  -5.482592663117010E-001  -4.899990304480421E-005  -1.207085130689873E-004  
                         7.917003956869996E-005   3.235815401755440E-004   2.620315589136043E-002   8.991997598015523E-002  -8.178790534696834E-005  -1.549910734410003E-004   9.747349096938515E-001  -1.810884480225211E-001  
                        
5.025000000000000E+007   5.354871527874831E-001  -5.360397123110671E-001  -1.487011438388448E-004  -2.276603333686157E-004   4.589638194191432E-001   4.075503690559068E-001   4.252327647534355E-005   3.100994063654477E-004  
                        -1.489732032747808E-004  -3.818977879394440E-004   9.742012360526849E-001  -1.761205348334670E-001   1.977445111108924E-004   1.820432274277635E-005   2.759971762424389E-002   8.759995377530977E-002  
                         4.736596555704169E-001   4.325729027448334E-001   2.861660664021420E-005   1.868172610358353E-004   5.617363564601570E-001  -5.496308137408814E-001   1.197504515393927E-006  -1.449677820326725E-004  
                         1.638843682469717E-004   2.554472633685636E-004   2.639419736912768E-002   8.981213335957081E-002   3.841635964985100E-006   4.391282245636085E-005   9.754514561193969E-001  -1.812217583003248E-001  
                        
5.037500000000000E+007   5.335457348025783E-001  -5.355846541908685E-001  -1.944751144555742E-004  -1.218793300680010E-004   4.598239565250461E-001   4.081707609649908E-001   2.233161446494961E-004   3.696877249697947E-004  
                        -3.383650380731913E-004  -9.499245308438677E-005   9.734287440756974E-001  -1.762515810424543E-001   8.714338101617892E-005   2.760443035266634E-004   2.775950000898880E-002   8.783327020699296E-002  
                         4.743405453713231E-001   4.318969634203142E-001   1.572101724761988E-004   1.259476987040029E-004   5.605727399303110E-001  -5.492917162223452E-001  -1.088861938042900E-004  -1.850869368979709E-004  
                         3.490991982144811E-005   2.434147676783318E-004   2.644553368722599E-002   8.969009122035855E-002  -6.368159669377637E-005  -1.758272461219757E-004   9.748340655169689E-001  -1.826556423368874E-001  
                        
5.050000000000000E+007   5.325135504698911E-001  -5.359565970594474E-001  -2.187246547394734E-004  -5.860578450583502E-005   4.605890088885444E-001   4.081712290978900E-001   2.932519993819058E-004   3.711792905005824E-004  
                        -2.877301845528719E-004  -8.706016323570282E-005   9.729182876755459E-001  -1.771053217233602E-001   2.605856878831894E-004   6.950012343321666E-005   2.766574856106786E-002   8.777967793599985E-002  
                         4.758761219601989E-001   4.321643508624387E-001   1.795028241069325E-004   3.033447552612874E-005   5.593593171308827E-001  -5.493946832378779E-001  -1.339667728873284E-004  -1.098822958883825E-004  
                         2.419461950957144E-004   3.604960211520951E-004   2.657718482395313E-002   9.002909570223208E-002  -1.479492589758956E-004   4.463388277652800E-005   9.746965423745871E-001  -1.825129659185809E-001  
                        
5.062500000000000E+007   5.312044801954762E-001  -5.370121014194657E-001  -2.458324367398328E-004   1.146819301178910E-004   4.620884917171604E-001   4.075251677333719E-001   3.444014796075865E-004   3.723156932970966E-004  
                        -1.082437778836037E-004  -3.287598172938596E-005   9.737545231159095E-001  -1.773385109684214E-001   2.424795326581248E-004   8.122089007402939E-005   2.787028568057016E-002   8.839225410444158E-002  
                         4.777250169679331E-001   4.323236393354561E-001   1.971313762765223E-004   4.929616929398604E-005   5.574595653292995E-001  -5.508831918810839E-001  -2.446447574393195E-004   1.923202915600817E-004  
                         2.489608449176924E-004   3.678567610598261E-004   2.667527041334260E-002   9.041434259599777E-002  -3.819077580837439E-004   1.748841472118416E-004   9.740339207213802E-001  -1.835059528171895E-001  
                        
5.075000000000000E+007   5.299785370165133E-001  -5.369883444837168E-001  -1.487063984377752E-004   4.554228389136882E-005   4.634590426436083E-001   4.074034052215139E-001   2.679870890199249E-004   1.192613085033425E-004  
                        -3.770577575745159E-005   1.326282665164027E-004   9.736459687722410E-001  -1.783671417812501E-001   2.441516375406063E-005  -1.434434310738943E-005   2.813217807348898E-002   8.851109507362696E-002  
                         4.787050440284741E-001   4.318946020298314E-001   3.249421709587956E-005  -3.471188251788531E-005   5.558877248336753E-001  -5.512475398364870E-001  -1.762873724176061E-004   2.748567754387583E-004  
                         3.714673373549861E-004   6.039016059510610E-005   2.707324418224767E-002   9.062200600750822E-002  -2.735350546596715E-004   2.213310836254285E-004   9.742399506860687E-001  -1.838035623147103E-001  
                        
5.087500000000000E+007   5.275945554103347E-001  -5.376663099158153E-001  -1.092234948892427E-004   5.579259492045234E-005   4.646486412277801E-001   4.076302716164765E-001   1.138146354077722E-004   6.476987122087050E-005  
                        -1.737924424493444E-004   5.054904986820639E-005   9.731996024600716E-001  -1.767281174429008E-001   1.348996053171258E-004  -9.185737761122596E-005   2.838539004434594E-002   8.883964037285998E-002  
                         4.798636264344321E-001   4.314469834412282E-001   1.882918372373067E-005  -1.211692323223038E-004   5.547476006225426E-001  -5.520949408115183E-001  -2.915161078330269E-004   2.912050564284658E-004  
                         3.946164723984371E-004   1.600499939138044E-004   2.704877421752165E-002   9.085269194790548E-002  -5.112948064835254E-005   3.203144564625873E-004   9.738336778183437E-001  -1.843908466138368E-001  
                        
5.100000000000000E+007   5.267230290340804E-001  -5.379515604406480E-001  -7.519622876528031E-005   1.199671598732586E-004   4.654142942733285E-001   4.074477563259027E-001   1.282861385749970E-004   5.275784848918193E-005  
                        -2.929327744451528E-005   1.805076872995575E-004   9.721686288430699E-001  -1.793430382331399E-001   2.309435624259899E-005  -2.043978534387385E-004   2.853703308228384E-002   8.891980228984096E-002  
                         4.816706121776254E-001   4.318264018420744E-001   3.549363161781804E-005  -1.154455958218708E-004   5.538650740220826E-001  -5.518386532184046E-001   3.967544614572426E-005   3.207475669758353E-004  
                         2.941639109141407E-004  -3.290125959826350E-005   2.724336721171113E-002   9.058562532790451E-002  -2.323553683148404E-005   4.205713958652836E-004   9.741743436047672E-001  -1.849069786205159E-001  
                        
5.112500000000000E+007   5.249745557006407E-001  -5.378370427206640E-001   8.690797756709780E-005   1.197453210617326E-004   4.671577255909937E-001   4.067076792857717E-001   7.130038373203439E-005   6.115277489951525E-006  
                         5.169903636373345E-005   9.126227544198074E-005   9.731105876810028E-001  -1.790946779568583E-001  -9.964555455501877E-005  -2.478677870254541E-005   2.855020697168437E-002   8.901108547294725E-002  
                         4.824968839150541E-001   4.308939010625372E-001   1.621859683378181E-004  -1.405038016841197E-004   5.519613453827376E-001  -5.527117329718658E-001   2.451877240330029E-004   3.687607188194043E-004  
                        -2.590905382236268E-005   2.225256576419761E-005   2.761572531471648E-002   9.100206895064468E-002   5.669282295560623E-005   1.734527716819332E-004   9.739768603780136E-001  -1.849352011432293E-001  
                        
5.125000000000000E+007   5.240638697600133E-001  -5.382412127914841E-001   1.376273504384079E-004   8.042751079411722E-005   4.676701641998262E-001   4.063744175730639E-001  -8.002253806582517E-005  -2.611519947606865E-005  
                         1.139889834294727E-004   1.477421533268682E-004   9.728082828679717E-001  -1.797115917727685E-001  -1.260623370806647E-004   3.137664492036968E-005   2.891986286506014E-002   8.924151870157066E-002  
                         4.837163763750746E-001   4.315244248993571E-001  -2.248016679002711E-004  -4.479610628299014E-005   5.504699229773138E-001  -5.525608154883099E-001   2.226095924975896E-004   6.499716464478643E-005  
                        -6.581220987786482E-005   4.513703626599147E-005   2.759715938432511E-002   9.114386296556734E-002   1.600106897936559E-004   1.221619088619357E-004   9.738531056440072E-001  -1.861255196361034E-001  
                        
5.137500000000000E+007   5.226861274271621E-001  -5.389875862267501E-001   2.467618753636564E-004   1.959227980131511E-004   4.691840763076727E-001   4.063533730560471E-001  -1.568987701225193E-004   1.912542392985427E-004  
                         1.240357684741523E-004  -2.137347802701914E-005   9.725521595211695E-001  -1.810489705064536E-001  -2.822248749915114E-004   1.609819988887414E-004   2.907397094349505E-002   8.963414499781867E-002  
                         4.850525628289015E-001   4.312310528986528E-001  -1.707119266940132E-004   1.627774475502283E-004   5.490012372723525E-001  -5.534462145453378E-001   1.503519073260296E-004   4.834825878000267E-005  
                        -2.189897556288729E-004   3.004319498098801E-004   2.796605793646982E-002   9.149087560082164E-002   1.388362493490890E-004   3.125711106302292E-004   9.728385480841959E-001  -1.865777950801885E-001  
                        
5.150000000000000E+007   5.211345527252457E-001  -5.396341728907617E-001   1.984855440827749E-004  -1.195292028232419E-005   4.704052613480066E-001   4.058788359096534E-001  -7.477233883330814E-005   2.305854873393398E-004  
                         8.190194917148065E-005  -7.134755800421364E-005   9.732338726730196E-001  -1.821714984675241E-001  -2.387887493026778E-004   2.564775046221628E-004   2.885476679844442E-002   8.918122966113896E-002  
                         4.871584097019066E-001   4.310758986641404E-001  -2.042139140822428E-005   2.104724165671597E-004   5.478973931410299E-001  -5.540077612157516E-001   9.737454275775304E-005  -2.901990561805626E-005  
                        -9.890145736344067E-005   2.488788402265312E-004   2.820839316971549E-002   9.125182364628942E-002   1.045513579486102E-004   8.263044016669511E-006   9.737303970796047E-001  -1.872594614314186E-001  
                        
5.162500000000000E+007   5.196779407592644E-001  -5.401452419209700E-001   4.505206010694713E-006  -2.057014292553165E-004   4.726694080493226E-001   4.056601686581310E-001   1.347485624304458E-005   3.372646529835502E-004  
                        -3.697899747177124E-005  -2.062504098834848E-004   9.733811213715596E-001  -1.813945979595774E-001  -4.037846997487348E-005   1.911662243761751E-004   2.911565826743300E-002   8.956522980374082E-002  
                         4.885542394500594E-001   4.311362099650477E-001  -2.985799279353661E-005   1.402514691147094E-004   5.467417499900577E-001  -5.550097620725152E-001  -1.873391873566905E-005  -3.727796996479915E-005  
                        -6.906511780693484E-005   4.761025880864148E-004   2.788716072145452E-002   9.194233563314931E-002   9.104814812263121E-005  -4.526299141522365E-005   9.727520560124046E-001  -1.872001076468755E-001  
                        
5.175000000000000E+007   5.181953923911226E-001  -5.399617160801321E-001   2.519493430958596E-005  -1.496771422903258E-004   4.728908930657869E-001   4.047427081318972E-001   2.188502921480765E-004   3.370184053705827E-004  
                        -1.832855305123141E-004  -1.198781456576569E-004   9.725880787290105E-001  -1.823705020889245E-001   1.397584604182534E-004   5.663040728256011E-005   2.912756117542317E-002   8.986570353591235E-002  
                         4.897720287447149E-001   4.309252346171514E-001   8.858350709948950E-005   4.209298026714383E-005   5.450371015698123E-001  -5.546235874311828E-001  -1.907637951895919E-005  -9.995628094614484E-006  
                         6.853240478637686E-005   3.795961120630111E-004   2.841339967704442E-002   9.171967304972599E-002  -1.991836021205765E-005  -4.423894343711595E-005   9.731008014885105E-001  -1.878039318074097E-001  
                        
5.187500000000000E+007   5.171407143259240E-001  -5.405246617681949E-001  -4.389778176323923E-005  -9.927072077500867E-006   4.740648277587242E-001   4.049461530918040E-001   7.615159432126337E-005   2.095203364745026E-004  
                         2.064719748851237E-005  -7.636492208972183E-005   9.732518163515165E-001  -1.830298023400430E-001  -1.729196633676354E-005   1.466106628414520E-004   2.962872214791362E-002   8.986606786271094E-002  
                         4.919272054789126E-001   4.304725236720787E-001   1.275627973019841E-004   3.778423272682772E-005   5.440004299446368E-001  -5.543795984895457E-001  -9.531521818918702E-005   1.850210258271049E-004  
                         1.837411535266980E-004   3.464185750688487E-004   2.849572002485767E-002   9.251782612251377E-002  -2.076960362679581E-004   7.462110999685313E-005   9.733477132364333E-001  -1.887977795959907E-001  
                        
5.200000000000000E+007   5.158337711899018E-001  -5.407061237404428E-001  -1.883441141882475E-004  -2.565009020245395E-005   4.763861611877608E-001   4.043938887348917E-001   2.270878513867515E-004   3.197721787228597E-004  
                        -2.582875590680759E-004   8.866983266566359E-005   9.732477277840858E-001  -1.829189913087709E-001   1.829149413595435E-004   4.310987646787501E-005   2.958841224781168E-002   9.046371314211001E-002  
                         4.927423351796052E-001   4.299026548306459E-001  -6.645723424940228E-005   7.886180421688450E-005   5.425309373237535E-001  -5.559933993759386E-001  -1.154708963669305E-004   2.522669748791599E-005  
                         2.116976935359426E-004   1.910870863488085E-004   2.846395035146065E-002   9.237893395298320E-002  -6.904457823838320E-005   4.124975546935448E-005   9.733176852589007E-001  -1.900731843124896E-001  
                        
5.212500000000000E+007   5.150101712908245E-001  -5.401717415554526E-001  -9.264297530524157E-005  -3.684999643796125E-006   4.774101553332555E-001   4.043786214181595E-001   2.424533861913387E-004   3.544839299618911E-004  
                        -2.249532819390817E-005   1.343989841915177E-004   9.719960716306497E-001  -1.832557682429962E-001   4.192423241157053E-005   1.573451099778083E-005   2.963963655046857E-002   9.052838521987575E-002  
                         4.936066378889240E-001   4.302920888528550E-001   2.806404217835929E-005   3.990745797866560E-005   5.418899225124300E-001  -5.558864967695283E-001   1.604451619358272E-005   1.179442559262415E-004  
                         1.234786355114316E-004   2.693608617880280E-004   2.870662133993912E-002   9.239440695636766E-002  -1.894926185525224E-004   7.778035231128714E-005   9.739626136856574E-001  -1.895608989204194E-001  
                        
5.225000000000000E+007   5.135750523272871E-001  -5.410333406663876E-001  -8.475912131766893E-005   5.912986983972537E-005   4.781593847074289E-001   4.039651534876057E-001   2.166234269272663E-004   1.934433771929804E-004  
                         1.123187996876136E-005   1.664286007937542E-004   9.734129217424598E-001  -1.828647049911958E-001  -4.540975507029377E-005  -1.192115938000118E-005   2.969212661647551E-002   9.063841329986740E-002  
                         4.954942578815956E-001   4.296531147589917E-001   3.024329911251854E-005   2.558657973208054E-004   5.404478134267304E-001  -5.557817582323260E-001  -1.940909971941520E-004   2.627454705035823E-004  
                         1.150489988425435E-004   2.920017247321920E-004   2.860388317765004E-002   9.270671165269345E-002   1.853682526206079E-005   3.365104971953366E-004   9.728262208357732E-001  -1.905651818200150E-001  
                        
5.237500000000000E+007   5.122167595757508E-001  -5.408047837854770E-001  -1.410229977005038E-004   2.234190889744634E-004   4.785840799528172E-001   4.038469181833748E-001   1.422823743116006E-004   2.007329723029932E-005  
                         7.145791541628427E-006   1.336726879365498E-004   9.731584046126679E-001  -1.841058738352979E-001   1.027940849413981E-005   1.022615449159439E-004   3.010151986747723E-002   9.071281116928993E-002  
                         4.963156539657915E-001   4.299605551413218E-001   2.462654785248284E-004   7.869068857583785E-005   5.391762148045035E-001  -5.554864587793390E-001  -4.162014891760648E-005   1.488185762899055E-004  
                         3.374864268222623E-004   7.619581147526913E-005   2.913276228376710E-002   9.285111764496017E-002  -1.409105350821321E-004   1.043442695993361E-004   9.733364265679354E-001  -1.907288267751754E-001  
                        
5.250000000000000E+007   5.115447499260082E-001  -5.396237045957850E-001   6.342289288373224E-006   1.087589949513394E-004   4.809202623114713E-001   4.037950034454420E-001   2.745504205523343E-004   1.197685471952963E-004  
                         3.092777839321597E-005   1.246126053258748E-004   9.717634148737218E-001  -1.844282135206506E-001   1.771540747439547E-004  -5.411926563739223E-005   3.012728101899373E-002   9.078379083154428E-002  
                         4.968127967571668E-001   4.299381504799346E-001   1.261357342912596E-005   5.581483486115267E-005   5.391542838774980E-001  -5.562187676563314E-001  -6.293853322153094E-005   3.513777960633231E-004  
                         1.723745374971730E-004   1.065833158687669E-004   2.881504366848011E-002   9.281202298306689E-002  -5.767397457860780E-005   1.659884575573560E-004   9.724608932875318E-001  -1.900883375523094E-001  
                        
5.262500000000000E+007   5.098676228375433E-001  -5.403483080581726E-001   4.528511842126905E-006   2.696672433917287E-004   4.811641264348142E-001   4.036234389155574E-001   1.563161210543103E-004   4.828334461166570E-005  
