! Matrix data file written by TouchstoneData, EPCOS AG
! FILENAME: "wide band unmatched S-parameter"
! COMMENT: "(PCB11_MB.s2p)"
! INFO: nport=2, nfreq=1601
! DATE: "Thu May  8 19:13:16 2014"
! USER: "Andy Zhang"
!
! port | pin | signal
! -----|-----|--------
!   1  |  2  |  input
!   2  |  4  |  output
! --------------------
! 
# MHZ S MA R 50
! freq  magS11 angS11  magS21 angS21  magS12 angS12  magS22 angS22
8.915000E+02  9.680691E-01 -3.872332E+01  3.808631E-05 1.697359E+02  4.156747E-05 1.684544E+02  9.683254E-01 -4.011657E+01 
8.915312E+02  9.681376E-01 -3.871808E+01  4.322230E-05 -1.763419E+02  4.769367E-05 -1.726748E+02  9.682494E-01 -4.010966E+01 
8.915625E+02  9.681196E-01 -3.871052E+01  5.580043E-05 -1.648826E+02  5.836876E-05 -1.685070E+02  9.683504E-01 -4.011255E+01 
8.915938E+02  9.681544E-01 -3.872357E+01  6.101837E-05 -1.551381E+02  6.070547E-05 -1.605429E+02  9.682870E-01 -4.012779E+01 
8.916250E+02  9.681908E-01 -3.873291E+01  6.570970E-05 -1.527491E+02  7.149145E-05 -1.526790E+02  9.683767E-01 -4.013232E+01 
8.916562E+02  9.681480E-01 -3.873468E+01  6.544872E-05 -1.562452E+02  8.492279E-05 -1.545274E+02  9.682971E-01 -4.012426E+01 
8.916875E+02  9.681650E-01 -3.872999E+01  8.867076E-05 -1.567893E+02  8.571860E-05 -1.595270E+02  9.683156E-01 -4.012122E+01 
8.917188E+02  9.681695E-01 -3.872217E+01  9.341408E-05 -1.541826E+02  9.170907E-05 -1.534343E+02  9.683407E-01 -4.012603E+01 
8.917500E+02  9.681952E-01 -3.872787E+01  1.071073E-04 -1.522749E+02  9.872594E-05 -1.548538E+02  9.683485E-01 -4.013388E+01 
8.917812E+02  9.682294E-01 -3.874185E+01  1.023518E-04 -1.549210E+02  1.128254E-04 -1.505322E+02  9.683279E-01 -4.013453E+01 
8.918125E+02  9.681883E-01 -3.874733E+01  1.206489E-04 -1.587493E+02  1.222054E-04 -1.600478E+02  9.682902E-01 -4.013826E+01 
8.918438E+02  9.682193E-01 -3.873683E+01  1.209723E-04 -1.536689E+02  1.241499E-04 -1.560725E+02  9.683339E-01 -4.012915E+01 
8.918750E+02  9.682109E-01 -3.873354E+01  1.286858E-04 -1.556769E+02  1.374266E-04 -1.566720E+02  9.683415E-01 -4.013616E+01 
8.919062E+02  9.681979E-01 -3.873673E+01  1.399207E-04 -1.557013E+02  1.385747E-04 -1.575764E+02  9.682915E-01 -4.013779E+01 
8.919375E+02  9.682342E-01 -3.874666E+01  1.376986E-04 -1.565380E+02  1.391153E-04 -1.589738E+02  9.683234E-01 -4.014671E+01 
8.919688E+02  9.682544E-01 -3.875363E+01  1.415396E-04 -1.559866E+02  1.423717E-04 -1.612177E+02  9.683392E-01 -4.014870E+01 
8.920000E+02  9.682777E-01 -3.875007E+01  1.412767E-04 -1.574293E+02  1.397004E-04 -1.592247E+02  9.683469E-01 -4.014465E+01 
8.920312E+02  9.682261E-01 -3.874742E+01  1.448962E-04 -1.603826E+02  1.427395E-04 -1.599210E+02  9.683359E-01 -4.014683E+01 
8.920625E+02  9.682176E-01 -3.874631E+01  1.490659E-04 -1.580829E+02  1.450224E-04 -1.593214E+02  9.682649E-01 -4.014792E+01 
8.920938E+02  9.682752E-01 -3.875086E+01  1.356224E-04 -1.614358E+02  1.463204E-04 -1.614231E+02  9.684145E-01 -4.015749E+01 
8.921250E+02  9.683303E-01 -3.875945E+01  1.408934E-04 -1.602850E+02  1.369668E-04 -1.633769E+02  9.683583E-01 -4.016283E+01 
8.921562E+02  9.683002E-01 -3.876245E+01  1.516935E-04 -1.594303E+02  1.409112E-04 -1.627425E+02  9.683305E-01 -4.015690E+01 
8.921875E+02  9.683060E-01 -3.875838E+01  1.491900E-04 -1.565447E+02  1.331458E-04 -1.617032E+02  9.683305E-01 -4.016235E+01 
8.922188E+02  9.682393E-01 -3.875572E+01  1.364513E-04 -1.581548E+02  1.402688E-04 -1.618678E+02  9.683539E-01 -4.015895E+01 
8.922500E+02  9.682794E-01 -3.875478E+01  1.358900E-04 -1.592195E+02  1.354122E-04 -1.570184E+02  9.682854E-01 -4.016597E+01 
8.922812E+02  9.682790E-01 -3.876447E+01  1.452002E-04 -1.606572E+02  1.429879E-04 -1.600158E+02  9.684014E-01 -4.016646E+01 
8.923125E+02  9.682886E-01 -3.877913E+01  1.384817E-04 -1.572330E+02  1.403184E-04 -1.573187E+02  9.683686E-01 -4.017085E+01 
8.923438E+02  9.683185E-01 -3.877038E+01  1.505708E-04 -1.571814E+02  1.401985E-04 -1.564486E+02  9.683519E-01 -4.016851E+01 
8.923750E+02  9.682696E-01 -3.876657E+01  1.451260E-04 -1.579742E+02  1.377843E-04 -1.550680E+02  9.683163E-01 -4.016663E+01 
8.924062E+02  9.682957E-01 -3.876690E+01  1.518059E-04 -1.584297E+02  1.410881E-04 -1.576909E+02  9.683302E-01 -4.017016E+01 
8.924375E+02  9.683435E-01 -3.877558E+01  1.459174E-04 -1.557478E+02  1.406910E-04 -1.566872E+02  9.684564E-01 -4.018198E+01 
8.924688E+02  9.684413E-01 -3.878895E+01  1.448245E-04 -1.516838E+02  1.435261E-04 -1.502378E+02  9.683850E-01 -4.018361E+01 
8.925000E+02  9.683593E-01 -3.878656E+01  1.444400E-04 -1.537808E+02  1.502227E-04 -1.540477E+02  9.683309E-01 -4.018346E+01 
8.925312E+02  9.683835E-01 -3.877955E+01  1.524530E-04 -1.515325E+02  1.365936E-04 -1.512578E+02  9.683369E-01 -4.017340E+01 
8.925625E+02  9.683477E-01 -3.877398E+01  1.495578E-04 -1.478322E+02  1.461215E-04 -1.490101E+02  9.683089E-01 -4.017613E+01 
8.925938E+02  9.684032E-01 -3.878399E+01  1.499775E-04 -1.503334E+02  1.506561E-04 -1.490123E+02  9.683735E-01 -4.018552E+01 
8.926250E+02  9.684706E-01 -3.879625E+01  1.483901E-04 -1.472086E+02  1.426743E-04 -1.465177E+02  9.683914E-01 -4.019422E+01 
8.926562E+02  9.684354E-01 -3.879936E+01  1.466318E-04 -1.435813E+02  1.511921E-04 -1.420245E+02  9.683994E-01 -4.019172E+01 
8.926875E+02  9.684106E-01 -3.878997E+01  1.615722E-04 -1.431478E+02  1.560950E-04 -1.444876E+02  9.683961E-01 -4.018950E+01 
8.927188E+02  9.684038E-01 -3.878993E+01  1.658716E-04 -1.392429E+02  1.521561E-04 -1.437994E+02  9.684031E-01 -4.018189E+01 
8.927500E+02  9.683611E-01 -3.878849E+01  1.733933E-04 -1.402716E+02  1.650974E-04 -1.400385E+02  9.684559E-01 -4.019828E+01 
8.927812E+02  9.684945E-01 -3.880636E+01  1.682194E-04 -1.394551E+02  1.618824E-04 -1.422182E+02  9.684486E-01 -4.020412E+01 
8.928125E+02  9.683713E-01 -3.880944E+01  1.773507E-04 -1.390339E+02  1.739221E-04 -1.369476E+02  9.684488E-01 -4.020735E+01 
8.928438E+02  9.684596E-01 -3.880776E+01  1.859027E-04 -1.415040E+02  1.894130E-04 -1.397066E+02  9.684336E-01 -4.020284E+01 
8.928750E+02  9.684349E-01 -3.880025E+01  1.884708E-04 -1.339610E+02  1.908753E-04 -1.371363E+02  9.684373E-01 -4.019553E+01 
8.929062E+02  9.684237E-01 -3.879702E+01  1.849454E-04 -1.393819E+02  1.963576E-04 -1.394327E+02  9.683857E-01 -4.020319E+01 
8.929375E+02  9.684720E-01 -3.880942E+01  1.945132E-04 -1.380786E+02  1.941808E-04 -1.384861E+02  9.684862E-01 -4.020835E+01 
8.929688E+02  9.685543E-01 -3.882086E+01  1.991221E-04 -1.372135E+02  2.035161E-04 -1.402922E+02  9.684216E-01 -4.021778E+01 
8.930000E+02  9.684815E-01 -3.881939E+01  2.070530E-04 -1.392680E+02  2.019605E-04 -1.378481E+02  9.684707E-01 -4.021549E+01 
8.930312E+02  9.684386E-01 -3.881315E+01  2.152733E-04 -1.418850E+02  2.032144E-04 -1.428371E+02  9.684883E-01 -4.021072E+01 
8.930625E+02  9.684852E-01 -3.881129E+01  2.109491E-04 -1.389829E+02  2.059994E-04 -1.411977E+02  9.684198E-01 -4.021552E+01 
8.930938E+02  9.685611E-01 -3.881983E+01  2.166811E-04 -1.397682E+02  2.142376E-04 -1.397039E+02  9.685223E-01 -4.022112E+01 
8.931250E+02  9.685529E-01 -3.882987E+01  2.136096E-04 -1.433029E+02  2.181434E-04 -1.407596E+02  9.685324E-01 -4.022732E+01 
8.931562E+02  9.685513E-01 -3.882814E+01  2.242269E-04 -1.405900E+02  2.259636E-04 -1.412444E+02  9.685211E-01 -4.022489E+01 
8.931875E+02  9.685446E-01 -3.882675E+01  2.167813E-04 -1.382298E+02  2.251155E-04 -1.405476E+02  9.684505E-01 -4.022247E+01 
8.932188E+02  9.684824E-01 -3.882139E+01  2.353835E-04 -1.429345E+02  2.211860E-04 -1.404032E+02  9.684521E-01 -4.022656E+01 
8.932500E+02  9.685654E-01 -3.882782E+01  2.379422E-04 -1.410404E+02  2.252799E-04 -1.414009E+02  9.685352E-01 -4.023262E+01 
8.932812E+02  9.685495E-01 -3.884099E+01  2.342534E-04 -1.383460E+02  2.338753E-04 -1.400309E+02  9.685166E-01 -4.024183E+01 
8.933125E+02  9.686081E-01 -3.884718E+01  2.354958E-04 -1.376488E+02  2.411373E-04 -1.391366E+02  9.685009E-01 -4.023865E+01 
8.933438E+02  9.685557E-01 -3.883815E+01  2.418430E-04 -1.397490E+02  2.495645E-04 -1.412419E+02  9.684718E-01 -4.023683E+01 
8.933750E+02  9.685633E-01 -3.883972E+01  2.482060E-04 -1.389952E+02  2.467083E-04 -1.386982E+02  9.685130E-01 -4.023607E+01 
8.934062E+02  9.685705E-01 -3.883711E+01  2.463769E-04 -1.400102E+02  2.419660E-04 -1.398403E+02  9.684610E-01 -4.023986E+01 
8.934375E+02  9.685558E-01 -3.885047E+01  2.532470E-04 -1.407126E+02  2.455981E-04 -1.393396E+02  9.685859E-01 -4.024724E+01 
8.934688E+02  9.685951E-01 -3.885752E+01  2.561486E-04 -1.408173E+02  2.541356E-04 -1.412839E+02  9.685222E-01 -4.025324E+01 
8.935000E+02  9.686133E-01 -3.885844E+01  2.632251E-04 -1.382721E+02  2.567209E-04 -1.404782E+02  9.684692E-01 -4.025468E+01 
8.935312E+02  9.685681E-01 -3.885346E+01  2.607660E-04 -1.420664E+02  2.587515E-04 -1.424423E+02  9.684355E-01 -4.024957E+01 
8.935625E+02  9.685865E-01 -3.884882E+01  2.684474E-04 -1.432755E+02  2.665610E-04 -1.419734E+02  9.684773E-01 -4.024971E+01 
8.935938E+02  9.685995E-01 -3.885377E+01  2.745562E-04 -1.424382E+02  2.764343E-04 -1.430672E+02  9.685444E-01 -4.025532E+01 
8.936250E+02  9.685704E-01 -3.886582E+01  2.736874E-04 -1.412157E+02  2.753524E-04 -1.400174E+02  9.685426E-01 -4.026800E+01 
8.936562E+02  9.685178E-01 -3.886466E+01  2.660505E-04 -1.432838E+02  2.731452E-04 -1.437778E+02  9.685177E-01 -4.026544E+01 
8.936875E+02  9.685666E-01 -3.886862E+01  2.748775E-04 -1.460433E+02  2.757245E-04 -1.446622E+02  9.684508E-01 -4.026541E+01 
8.937188E+02  9.685507E-01 -3.886349E+01  2.864885E-04 -1.443053E+02  2.720100E-04 -1.445392E+02  9.684292E-01 -4.025947E+01 
8.937500E+02  9.685171E-01 -3.886516E+01  2.881645E-04 -1.441582E+02  2.875123E-04 -1.446083E+02  9.684628E-01 -4.026731E+01 
8.937812E+02  9.685928E-01 -3.887537E+01  2.884429E-04 -1.454249E+02  2.938816E-04 -1.459750E+02  9.684658E-01 -4.027565E+01 
8.938125E+02  9.685806E-01 -3.887890E+01  2.977691E-04 -1.444667E+02  2.840749E-04 -1.451886E+02  9.685015E-01 -4.027916E+01 
8.938438E+02  9.684749E-01 -3.887831E+01  2.836987E-04 -1.444974E+02  2.966637E-04 -1.463864E+02  9.684399E-01 -4.027213E+01 
8.938750E+02  9.684726E-01 -3.887593E+01  2.900179E-04 -1.476137E+02  2.944237E-04 -1.473213E+02  9.683758E-01 -4.027016E+01 
8.939062E+02  9.685093E-01 -3.887404E+01  2.910143E-04 -1.477443E+02  2.922215E-04 -1.480832E+02  9.684183E-01 -4.027609E+01 
8.939375E+02  9.684722E-01 -3.887986E+01  3.002119E-04 -1.471110E+02  2.945165E-04 -1.483210E+02  9.685237E-01 -4.028255E+01 
8.939688E+02  9.684952E-01 -3.888783E+01  2.946156E-04 -1.494141E+02  2.970547E-04 -1.482807E+02  9.684158E-01 -4.028944E+01 
8.940000E+02  9.685558E-01 -3.889356E+01  2.885449E-04 -1.496549E+02  2.989233E-04 -1.498322E+02  9.684723E-01 -4.028467E+01 
8.940312E+02  9.685101E-01 -3.888759E+01  3.007740E-04 -1.495790E+02  2.997101E-04 -1.507865E+02  9.684416E-01 -4.028246E+01 
8.940625E+02  9.684687E-01 -3.888128E+01  2.982238E-04 -1.495494E+02  3.025924E-04 -1.515785E+02  9.684141E-01 -4.028191E+01 
8.940938E+02  9.685204E-01 -3.888641E+01  3.078063E-04 -1.501396E+02  2.915872E-04 -1.507946E+02  9.684809E-01 -4.029217E+01 
8.941250E+02  9.685233E-01 -3.890062E+01  3.031130E-04 -1.529956E+02  2.984512E-04 -1.505626E+02  9.684938E-01 -4.029814E+01 
8.941562E+02  9.685048E-01 -3.890716E+01  2.955462E-04 -1.525850E+02  3.025154E-04 -1.521487E+02  9.684315E-01 -4.030016E+01 
8.941875E+02  9.684842E-01 -3.890123E+01  3.010939E-04 -1.525480E+02  2.992461E-04 -1.524375E+02  9.685038E-01 -4.029512E+01 
8.942188E+02  9.684931E-01 -3.889301E+01  3.024200E-04 -1.522301E+02  2.959061E-04 -1.535542E+02  9.684577E-01 -4.029077E+01 
8.942500E+02  9.684913E-01 -3.889603E+01  3.017713E-04 -1.526093E+02  2.859304E-04 -1.524398E+02  9.684257E-01 -4.029598E+01 
8.942812E+02  9.684783E-01 -3.890648E+01  2.890899E-04 -1.534339E+02  3.006951E-04 -1.544373E+02  9.685062E-01 -4.030964E+01 
8.943125E+02  9.685203E-01 -3.892167E+01  3.033255E-04 -1.539634E+02  3.068015E-04 -1.545201E+02  9.684302E-01 -4.031311E+01 
8.943438E+02  9.684331E-01 -3.891305E+01  3.021366E-04 -1.533388E+02  3.012080E-04 -1.557221E+02  9.684470E-01 -4.030395E+01 
8.943750E+02  9.684357E-01 -3.890491E+01  3.102570E-04 -1.555747E+02  3.054190E-04 -1.537088E+02  9.684106E-01 -4.029987E+01 
8.944062E+02  9.684728E-01 -3.890164E+01  2.969972E-04 -1.550554E+02  3.011118E-04 -1.557462E+02  9.684442E-01 -4.030610E+01 
8.944375E+02  9.685072E-01 -3.891907E+01  3.066269E-04 -1.549348E+02  3.027226E-04 -1.543560E+02  9.684781E-01 -4.031893E+01 
8.944688E+02  9.684768E-01 -3.892622E+01  3.003018E-04 -1.553748E+02  3.017829E-04 -1.563340E+02  9.684874E-01 -4.032346E+01 
8.945000E+02  9.684881E-01 -3.892713E+01  3.066386E-04 -1.558194E+02  3.110955E-04 -1.551583E+02  9.684844E-01 -4.031740E+01 
8.945312E+02  9.684590E-01 -3.892126E+01  3.061112E-04 -1.552645E+02  3.012640E-04 -1.570876E+02  9.684496E-01 -4.031127E+01 
8.945625E+02  9.684243E-01 -3.891210E+01  3.128048E-04 -1.551633E+02  2.943190E-04 -1.555616E+02  9.683924E-01 -4.031562E+01 
8.945938E+02  9.684338E-01 -3.892339E+01  2.910256E-04 -1.550774E+02  2.997680E-04 -1.564458E+02  9.684491E-01 -4.032647E+01 
8.946250E+02  9.683516E-01 -3.893529E+01  3.020514E-04 -1.563977E+02  2.914465E-04 -1.555585E+02  9.684821E-01 -4.033407E+01 
8.946562E+02  9.684415E-01 -3.893810E+01  2.997085E-04 -1.548753E+02  2.943917E-04 -1.557855E+02  9.684279E-01 -4.032717E+01 
8.946875E+02  9.684031E-01 -3.893328E+01  3.038736E-04 -1.576123E+02  3.030596E-04 -1.557865E+02  9.684187E-01 -4.032620E+01 
8.947188E+02  9.683767E-01 -3.892554E+01  2.972957E-04 -1.570134E+02  3.082906E-04 -1.591683E+02  9.684242E-01 -4.031884E+01 
8.947500E+02  9.683897E-01 -3.893405E+01  2.992816E-04 -1.574097E+02  2.985519E-04 -1.572724E+02  9.684713E-01 -4.033473E+01 
8.947812E+02  9.683578E-01 -3.894310E+01  2.968579E-04 -1.578923E+02  2.950616E-04 -1.553388E+02  9.684834E-01 -4.034315E+01 
8.948125E+02  9.683603E-01 -3.895032E+01  3.194314E-04 -1.574243E+02  3.010695E-04 -1.570347E+02  9.685228E-01 -4.033964E+01 
8.948438E+02  9.684188E-01 -3.894404E+01  3.042164E-04 -1.564006E+02  3.024272E-04 -1.579644E+02  9.684544E-01 -4.033915E+01 
8.948750E+02  9.683663E-01 -3.893527E+01  2.921998E-04 -1.562983E+02  3.087316E-04 -1.548171E+02  9.684621E-01 -4.033325E+01 
8.949062E+02  9.683704E-01 -3.894091E+01  3.013391E-04 -1.586442E+02  2.954434E-04 -1.574148E+02  9.684495E-01 -4.034026E+01 
8.949375E+02  9.683383E-01 -3.895362E+01  2.991847E-04 -1.585518E+02  3.080232E-04 -1.578746E+02  9.684863E-01 -4.035136E+01 
8.949688E+02  9.683350E-01 -3.895077E+01  2.988013E-04 -1.555616E+02  3.001391E-04 -1.568217E+02  9.684872E-01 -4.035252E+01 
8.950000E+02  9.683271E-01 -3.895788E+01  3.038117E-04 -1.562757E+02  3.136953E-04 -1.569565E+02  9.684207E-01 -4.035208E+01 
8.950312E+02  9.682482E-01 -3.895167E+01  3.127680E-04 -1.578720E+02  3.091939E-04 -1.566871E+02  9.684129E-01 -4.034757E+01 
8.950625E+02  9.682407E-01 -3.895400E+01  3.048410E-04 -1.565773E+02  3.116957E-04 -1.574981E+02  9.684665E-01 -4.035169E+01 
8.950938E+02  9.683230E-01 -3.895395E+01  3.071729E-04 -1.564530E+02  3.195748E-04 -1.572978E+02  9.684587E-01 -4.036334E+01 
8.951250E+02  9.683756E-01 -3.897107E+01  3.018670E-04 -1.563984E+02  3.087787E-04 -1.578884E+02  9.684654E-01 -4.036154E+01 
8.951562E+02  9.683545E-01 -3.897217E+01  2.998134E-04 -1.583854E+02  3.114518E-04 -1.579094E+02  9.684893E-01 -4.036246E+01 
8.951875E+02  9.683417E-01 -3.896851E+01  3.182886E-04 -1.587047E+02  3.096093E-04 -1.579758E+02  9.684735E-01 -4.036091E+01 
8.952188E+02  9.682709E-01 -3.896677E+01  3.186368E-04 -1.575576E+02  3.109981E-04 -1.589435E+02  9.683707E-01 -4.036233E+01 
8.952500E+02  9.682496E-01 -3.896770E+01  3.180369E-04 -1.582393E+02  3.206632E-04 -1.565789E+02  9.684280E-01 -4.036668E+01 
8.952812E+02  9.683532E-01 -3.898183E+01  3.086792E-04 -1.582522E+02  3.194371E-04 -1.579029E+02  9.684694E-01 -4.037442E+01 
8.953125E+02  9.683932E-01 -3.898233E+01  3.192717E-04 -1.602906E+02  3.246839E-04 -1.580349E+02  9.684554E-01 -4.037639E+01 
8.953438E+02  9.683132E-01 -3.898054E+01  3.257971E-04 -1.578814E+02  3.319079E-04 -1.578590E+02  9.684428E-01 -4.037651E+01 
8.953750E+02  9.682249E-01 -3.897827E+01  3.143946E-04 -1.575854E+02  3.253156E-04 -1.587373E+02  9.684609E-01 -4.037538E+01 
8.954062E+02  9.682282E-01 -3.897478E+01  3.275782E-04 -1.592981E+02  3.186782E-04 -1.603103E+02  9.684472E-01 -4.037581E+01 
8.954375E+02  9.682981E-01 -3.898319E+01  3.351695E-04 -1.594065E+02  3.320266E-04 -1.601985E+02  9.684474E-01 -4.038608E+01 
8.954688E+02  9.682283E-01 -3.898919E+01  3.275950E-04 -1.593287E+02  3.282973E-04 -1.607252E+02  9.685022E-01 -4.038969E+01 
8.955000E+02  9.682437E-01 -3.899689E+01  3.332546E-04 -1.607417E+02  3.315752E-04 -1.603838E+02  9.684432E-01 -4.038743E+01 
8.955312E+02  9.682549E-01 -3.899364E+01  3.350923E-04 -1.611749E+02  3.302167E-04 -1.611706E+02  9.684673E-01 -4.038316E+01 
8.955625E+02  9.682268E-01 -3.898551E+01  3.402871E-04 -1.616075E+02  3.372321E-04 -1.619648E+02  9.684081E-01 -4.037887E+01 
8.955938E+02  9.682554E-01 -3.899004E+01  3.362315E-04 -1.630215E+02  3.376700E-04 -1.617297E+02  9.684153E-01 -4.039081E+01 
8.956250E+02  9.682425E-01 -3.899979E+01  3.316436E-04 -1.626114E+02  3.450244E-04 -1.623977E+02  9.684651E-01 -4.039953E+01 
8.956562E+02  9.682128E-01 -3.900828E+01  3.363407E-04 -1.624395E+02  3.316730E-04 -1.626642E+02  9.684379E-01 -4.040023E+01 
8.956875E+02  9.681430E-01 -3.900840E+01  3.301485E-04 -1.633115E+02  3.320599E-04 -1.625913E+02  9.684356E-01 -4.039793E+01 
8.957188E+02  9.681243E-01 -3.900051E+01  3.442714E-04 -1.627143E+02  3.392633E-04 -1.623067E+02  9.684155E-01 -4.039779E+01 
8.957500E+02  9.681168E-01 -3.899858E+01  3.404797E-04 -1.631041E+02  3.311871E-04 -1.645640E+02  9.684320E-01 -4.039591E+01 
8.957812E+02  9.681568E-01 -3.901299E+01  3.449443E-04 -1.630762E+02  3.437332E-04 -1.635652E+02  9.684105E-01 -4.040906E+01 
8.958125E+02  9.682198E-01 -3.902342E+01  3.506595E-04 -1.643086E+02  3.447731E-04 -1.660914E+02  9.684350E-01 -4.041274E+01 
8.958438E+02  9.681440E-01 -3.901789E+01  3.427192E-04 -1.654355E+02  3.428245E-04 -1.620303E+02  9.684190E-01 -4.040697E+01 
8.958750E+02  9.681622E-01 -3.900982E+01  3.461085E-04 -1.650026E+02  3.564787E-04 -1.638637E+02  9.683673E-01 -4.040654E+01 
8.959062E+02  9.680950E-01 -3.900535E+01  3.422681E-04 -1.659531E+02  3.543489E-04 -1.659078E+02  9.684010E-01 -4.040873E+01 
8.959375E+02  9.681481E-01 -3.902372E+01  3.596757E-04 -1.649549E+02  3.461050E-04 -1.652026E+02  9.683708E-01 -4.041812E+01 
8.959688E+02  9.681577E-01 -3.903174E+01  3.495204E-04 -1.662163E+02  3.660705E-04 -1.663970E+02  9.684238E-01 -4.042540E+01 
8.960000E+02  9.681757E-01 -3.903256E+01  3.711917E-04 -1.658635E+02  3.753239E-04 -1.672557E+02  9.683630E-01 -4.041988E+01 
8.960312E+02  9.681567E-01 -3.902690E+01  3.727149E-04 -1.670117E+02  3.607636E-04 -1.660958E+02  9.683224E-01 -4.041277E+01 
8.960625E+02  9.680921E-01 -3.902028E+01  3.605025E-04 -1.681818E+02  3.749818E-04 -1.674480E+02  9.683696E-01 -4.041804E+01 
8.960938E+02  9.681461E-01 -3.903079E+01  3.683615E-04 -1.689672E+02  3.713956E-04 -1.709829E+02  9.683427E-01 -4.043341E+01 
8.961250E+02  9.681135E-01 -3.904442E+01  3.742911E-04 -1.688512E+02  3.802210E-04 -1.692040E+02  9.684161E-01 -4.043838E+01 
8.961562E+02  9.681744E-01 -3.904499E+01  3.790435E-04 -1.695368E+02  3.759625E-04 -1.712539E+02  9.683549E-01 -4.043585E+01 
8.961875E+02  9.680972E-01 -3.904306E+01  3.837955E-04 -1.697906E+02  3.726766E-04 -1.710931E+02  9.683002E-01 -4.042769E+01 
8.962188E+02  9.680182E-01 -3.903196E+01  3.815968E-04 -1.721721E+02  3.735549E-04 -1.736450E+02  9.682716E-01 -4.043208E+01 
8.962500E+02  9.679725E-01 -3.903963E+01  3.913940E-04 -1.716748E+02  3.870213E-04 -1.728660E+02  9.683142E-01 -4.043835E+01 
8.962812E+02  9.680295E-01 -3.905256E+01  3.857174E-04 -1.732678E+02  3.923494E-04 -1.729427E+02  9.683493E-01 -4.044398E+01 
8.963125E+02  9.680812E-01 -3.905992E+01  4.053365E-04 -1.742708E+02  3.880187E-04 -1.747114E+02  9.682729E-01 -4.044870E+01 
