! Matrix data file written by TouchstoneData, EPCOS AG
! FILENAME: "narrow band unmatched S-parameter"
! COMMENT: "(B3300_NB.s2p)"
! INFO: nport=2, nfreq=1601
! DATE: "Thu May  8 19:11:31 2014"
! USER: "Andy Zhang"
!
! port | pin | signal
! -----|-----|--------
!   1  |  2  |  input
!   2  |  4  |  output
! --------------------
! 
# MHZ S MA R 50
! freq  magS11 angS11  magS21 angS21  magS12 angS12  magS22 angS22
9.140000E+02  9.600632E-01 -4.410885E+01  6.698296E-04 -1.568446E+02  6.765936E-04 -1.569633E+02  9.610293E-01 -4.554832E+01 
9.140031E+02  9.600536E-01 -4.411401E+01  6.814783E-04 -1.558747E+02  6.850555E-04 -1.557600E+02  9.610106E-01 -4.555028E+01 
9.140063E+02  9.600365E-01 -4.411635E+01  6.971959E-04 -1.553115E+02  6.870497E-04 -1.558746E+02  9.609672E-01 -4.554857E+01 
9.140094E+02  9.600857E-01 -4.411901E+01  6.961969E-04 -1.547297E+02  6.929664E-04 -1.554360E+02  9.609579E-01 -4.556107E+01 
9.140125E+02  9.600863E-01 -4.413729E+01  7.091220E-04 -1.548098E+02  7.065780E-04 -1.543281E+02  9.609570E-01 -4.558146E+01 
9.140156E+02  9.600660E-01 -4.415453E+01  7.163814E-04 -1.536586E+02  7.128832E-04 -1.537275E+02  9.609187E-01 -4.559506E+01 
9.140187E+02  9.600293E-01 -4.416183E+01  7.301219E-04 -1.533613E+02  7.246721E-04 -1.532370E+02  9.609209E-01 -4.559550E+01 
9.140219E+02  9.599788E-01 -4.416132E+01  7.270480E-04 -1.526031E+02  7.217574E-04 -1.536870E+02  9.608316E-01 -4.559537E+01 
9.140250E+02  9.599101E-01 -4.415686E+01  7.316954E-04 -1.515289E+02  7.308710E-04 -1.518242E+02  9.608066E-01 -4.560552E+01 
9.140281E+02  9.598977E-01 -4.417217E+01  7.457847E-04 -1.506054E+02  7.377543E-04 -1.510105E+02  9.608340E-01 -4.562093E+01 
9.140312E+02  9.598773E-01 -4.419534E+01  7.497942E-04 -1.509662E+02  7.529565E-04 -1.515927E+02  9.608334E-01 -4.563391E+01 
9.140344E+02  9.598953E-01 -4.420603E+01  7.476849E-04 -1.503038E+02  7.532006E-04 -1.508203E+02  9.608038E-01 -4.564090E+01 
9.140375E+02  9.598669E-01 -4.420680E+01  7.673098E-04 -1.503630E+02  7.582543E-04 -1.500068E+02  9.606744E-01 -4.564068E+01 
9.140406E+02  9.597511E-01 -4.420588E+01  7.619191E-04 -1.485956E+02  7.700948E-04 -1.490210E+02  9.606917E-01 -4.564748E+01 
9.140438E+02  9.597946E-01 -4.421745E+01  7.669459E-04 -1.481839E+02  7.756305E-04 -1.483454E+02  9.606481E-01 -4.566175E+01 
9.140469E+02  9.598114E-01 -4.423636E+01  7.719976E-04 -1.477809E+02  7.808271E-04 -1.476936E+02  9.607235E-01 -4.567933E+01 
9.140500E+02  9.597462E-01 -4.425043E+01  7.869061E-04 -1.475878E+02  7.867335E-04 -1.478525E+02  9.606112E-01 -4.568550E+01 
9.140531E+02  9.597662E-01 -4.425388E+01  8.025740E-04 -1.456331E+02  7.823347E-04 -1.465989E+02  9.605533E-01 -4.568761E+01 
9.140562E+02  9.596945E-01 -4.425296E+01  7.896742E-04 -1.459760E+02  7.958359E-04 -1.451702E+02  9.604880E-01 -4.569501E+01 
9.140594E+02  9.596690E-01 -4.425892E+01  8.085144E-04 -1.456108E+02  8.017101E-04 -1.448454E+02  9.605087E-01 -4.570622E+01 
9.140625E+02  9.596497E-01 -4.427919E+01  8.129170E-04 -1.447273E+02  8.134850E-04 -1.442783E+02  9.605041E-01 -4.572176E+01 
9.140656E+02  9.596457E-01 -4.429729E+01  8.267521E-04 -1.440111E+02  8.214439E-04 -1.439444E+02  9.604729E-01 -4.573748E+01 
9.140688E+02  9.596617E-01 -4.430469E+01  8.343340E-04 -1.430977E+02  8.311164E-04 -1.429506E+02  9.604555E-01 -4.573826E+01 
9.140719E+02  9.596458E-01 -4.430343E+01  8.286790E-04 -1.421856E+02  8.342894E-04 -1.431027E+02  9.603980E-01 -4.574245E+01 
9.140750E+02  9.595173E-01 -4.430674E+01  8.391585E-04 -1.414167E+02  8.501009E-04 -1.414167E+02  9.603937E-01 -4.575139E+01 
9.140781E+02  9.595314E-01 -4.431817E+01  8.459189E-04 -1.402017E+02  8.446796E-04 -1.407543E+02  9.603747E-01 -4.576614E+01 
9.140812E+02  9.594965E-01 -4.434127E+01  8.472857E-04 -1.400705E+02  8.505340E-04 -1.400725E+02  9.602691E-01 -4.578040E+01 
9.140844E+02  9.594653E-01 -4.434676E+01  8.631407E-04 -1.394647E+02  8.597861E-04 -1.387732E+02  9.601813E-01 -4.578190E+01 
9.140875E+02  9.594109E-01 -4.434386E+01  8.810080E-04 -1.383359E+02  8.667974E-04 -1.389683E+02  9.601605E-01 -4.578888E+01 
9.140906E+02  9.593962E-01 -4.435574E+01  8.677638E-04 -1.371071E+02  8.722278E-04 -1.371362E+02  9.601817E-01 -4.579814E+01 
9.140938E+02  9.593901E-01 -4.437751E+01  8.846693E-04 -1.366749E+02  8.802663E-04 -1.366577E+02  9.601412E-01 -4.581221E+01 
9.140969E+02  9.593773E-01 -4.439054E+01  8.909456E-04 -1.353989E+02  8.842466E-04 -1.357691E+02  9.600798E-01 -4.582580E+01 
9.141000E+02  9.592367E-01 -4.439606E+01  8.962707E-04 -1.349740E+02  9.047512E-04 -1.340978E+02  9.599916E-01 -4.583174E+01 
9.141031E+02  9.592487E-01 -4.439786E+01  9.105926E-04 -1.333081E+02  9.022549E-04 -1.335176E+02  9.599569E-01 -4.583613E+01 
9.141063E+02  9.592249E-01 -4.440294E+01  9.166867E-04 -1.326612E+02  9.104677E-04 -1.326947E+02  9.599523E-01 -4.584531E+01 
9.141094E+02  9.592486E-01 -4.442536E+01  9.255622E-04 -1.314051E+02  9.178655E-04 -1.315038E+02  9.599066E-01 -4.586656E+01 
9.141125E+02  9.591549E-01 -4.443517E+01  9.362027E-04 -1.305452E+02  9.352253E-04 -1.304337E+02  9.598879E-01 -4.588153E+01 
9.141156E+02  9.591629E-01 -4.444655E+01  9.506860E-04 -1.300131E+02  9.386946E-04 -1.292360E+02  9.598454E-01 -4.588412E+01 
9.141187E+02  9.591060E-01 -4.444891E+01  9.499776E-04 -1.280680E+02  9.458501E-04 -1.285690E+02  9.597507E-01 -4.588470E+01 
9.141219E+02  9.590061E-01 -4.444823E+01  9.556892E-04 -1.275114E+02  9.608188E-04 -1.270855E+02  9.597364E-01 -4.589446E+01 
9.141250E+02  9.590304E-01 -4.446526E+01  9.887521E-04 -1.256891E+02  9.807127E-04 -1.258566E+02  9.596964E-01 -4.590872E+01 
9.141281E+02  9.589762E-01 -4.448308E+01  9.986323E-04 -1.243540E+02  9.922177E-04 -1.245509E+02  9.596729E-01 -4.592543E+01 
9.141313E+02  9.590005E-01 -4.449593E+01  1.013030E-03 -1.233406E+02  1.008229E-03 -1.228799E+02  9.596100E-01 -4.593118E+01 
9.141344E+02  9.588894E-01 -4.449887E+01  1.028233E-03 -1.219823E+02  1.024579E-03 -1.221250E+02  9.595245E-01 -4.593947E+01 
9.141375E+02  9.588266E-01 -4.450040E+01  1.038745E-03 -1.201403E+02  1.041018E-03 -1.202763E+02  9.594340E-01 -4.594512E+01 
9.141406E+02  9.587893E-01 -4.450602E+01  1.068134E-03 -1.187937E+02  1.062165E-03 -1.190681E+02  9.593965E-01 -4.595731E+01 
9.141437E+02  9.587848E-01 -4.453306E+01  1.084802E-03 -1.179376E+02  1.081322E-03 -1.176304E+02  9.593444E-01 -4.597550E+01 
9.141469E+02  9.587609E-01 -4.454936E+01  1.107404E-03 -1.160875E+02  1.110445E-03 -1.161033E+02  9.591600E-01 -4.598853E+01 
9.141500E+02  9.586291E-01 -4.455361E+01  1.136560E-03 -1.146836E+02  1.139461E-03 -1.146569E+02  9.591611E-01 -4.599169E+01 
9.141531E+02  9.585856E-01 -4.454989E+01  1.167419E-03 -1.129553E+02  1.160516E-03 -1.135581E+02  9.590925E-01 -4.599780E+01 
9.141562E+02  9.585857E-01 -4.455958E+01  1.196994E-03 -1.116650E+02  1.186527E-03 -1.121017E+02  9.590923E-01 -4.599774E+01 
9.141594E+02  9.584562E-01 -4.457052E+01  1.225561E-03 -1.102351E+02  1.226499E-03 -1.107679E+02  9.589494E-01 -4.602212E+01 
9.141625E+02  9.584998E-01 -4.459162E+01  1.271950E-03 -1.089213E+02  1.264581E-03 -1.089395E+02  9.589125E-01 -4.603744E+01 
9.141656E+02  9.583674E-01 -4.460750E+01  1.300613E-03 -1.075889E+02  1.313503E-03 -1.075326E+02  9.588383E-01 -4.604109E+01 
9.141688E+02  9.582939E-01 -4.460987E+01  1.350257E-03 -1.063372E+02  1.347551E-03 -1.063719E+02  9.587824E-01 -4.604401E+01 
9.141719E+02  9.582215E-01 -4.460332E+01  1.399864E-03 -1.053848E+02  1.395075E-03 -1.056718E+02  9.586618E-01 -4.605014E+01 
9.141750E+02  9.581451E-01 -4.461815E+01  1.444435E-03 -1.039313E+02  1.452809E-03 -1.040502E+02  9.586155E-01 -4.606500E+01 
9.141781E+02  9.580856E-01 -4.463667E+01  1.505708E-03 -1.030160E+02  1.502027E-03 -1.028549E+02  9.585210E-01 -4.608445E+01 
9.141812E+02  9.580331E-01 -4.465533E+01  1.570677E-03 -1.023470E+02  1.579393E-03 -1.023613E+02  9.584053E-01 -4.608876E+01 
9.141844E+02  9.579922E-01 -4.465541E+01  1.640380E-03 -1.014882E+02  1.647125E-03 -1.009544E+02  9.582299E-01 -4.608949E+01 
9.141875E+02  9.578830E-01 -4.465914E+01  1.717041E-03 -1.004127E+02  1.708101E-03 -1.004785E+02  9.581799E-01 -4.609621E+01 
9.141906E+02  9.578206E-01 -4.465736E+01  1.797828E-03 -1.000125E+02  1.781085E-03 -9.982526E+01  9.580836E-01 -4.610618E+01 
9.141938E+02  9.577965E-01 -4.467659E+01  1.857814E-03 -9.971923E+01  1.867994E-03 -9.954326E+01  9.579406E-01 -4.611895E+01 
9.141969E+02  9.577807E-01 -4.469137E+01  1.957879E-03 -9.907426E+01  1.957934E-03 -9.903570E+01  9.579069E-01 -4.612652E+01 
9.142000E+02  9.576610E-01 -4.470171E+01  2.044531E-03 -9.906777E+01  2.042880E-03 -9.904364E+01  9.577911E-01 -4.612960E+01 
9.142031E+02  9.575543E-01 -4.469725E+01  2.153239E-03 -9.886005E+01  2.153609E-03 -9.909106E+01  9.576576E-01 -4.613001E+01 
9.142062E+02  9.575388E-01 -4.470412E+01  2.242252E-03 -9.920086E+01  2.238824E-03 -9.910079E+01  9.575932E-01 -4.613897E+01 
9.142094E+02  9.573421E-01 -4.470746E+01  2.354004E-03 -9.942054E+01  2.345050E-03 -9.944803E+01  9.574923E-01 -4.614942E+01 
9.142125E+02  9.573879E-01 -4.472770E+01  2.458615E-03 -9.952232E+01  2.453838E-03 -9.966857E+01  9.573716E-01 -4.615495E+01 
9.142156E+02  9.573411E-01 -4.473525E+01  2.570440E-03 -1.002078E+02  2.569793E-03 -1.001672E+02  9.572997E-01 -4.615794E+01 
9.142188E+02  9.572650E-01 -4.473412E+01  2.678818E-03 -1.009337E+02  2.678480E-03 -1.008240E+02  9.572160E-01 -4.615704E+01 
9.142219E+02  9.571708E-01 -4.473601E+01  2.799917E-03 -1.016466E+02  2.798107E-03 -1.017844E+02  9.571296E-01 -4.616093E+01 
9.142250E+02  9.570766E-01 -4.473488E+01  2.906376E-03 -1.026320E+02  2.914122E-03 -1.027147E+02  9.570725E-01 -4.616756E+01 
9.142281E+02  9.571051E-01 -4.475345E+01  3.024488E-03 -1.036830E+02  3.024312E-03 -1.035410E+02  9.570300E-01 -4.617478E+01 
9.142313E+02  9.570656E-01 -4.476189E+01  3.148689E-03 -1.046453E+02  3.140930E-03 -1.047423E+02  9.570029E-01 -4.617862E+01 
9.142344E+02  9.570468E-01 -4.476484E+01  3.256754E-03 -1.058152E+02  3.258364E-03 -1.058520E+02  9.569513E-01 -4.617595E+01 
9.142375E+02  9.570374E-01 -4.476571E+01  3.371462E-03 -1.070565E+02  3.372670E-03 -1.069385E+02  9.569147E-01 -4.617568E+01 
9.142406E+02  9.569562E-01 -4.476682E+01  3.478805E-03 -1.085074E+02  3.470888E-03 -1.084594E+02  9.569220E-01 -4.617816E+01 
9.142437E+02  9.570196E-01 -4.477706E+01  3.580416E-03 -1.097153E+02  3.576272E-03 -1.098567E+02  9.569669E-01 -4.618180E+01 
9.142469E+02  9.570628E-01 -4.478650E+01  3.678113E-03 -1.111876E+02  3.677044E-03 -1.112453E+02  9.569909E-01 -4.619318E+01 
9.142500E+02  9.570267E-01 -4.479833E+01  3.770839E-03 -1.126588E+02  3.778959E-03 -1.126217E+02  9.569589E-01 -4.619127E+01 
9.142531E+02  9.570457E-01 -4.480116E+01  3.859368E-03 -1.140717E+02  3.864815E-03 -1.140720E+02  9.570304E-01 -4.619232E+01 
9.142563E+02  9.570693E-01 -4.480209E+01  3.936691E-03 -1.155739E+02  3.940252E-03 -1.155875E+02  9.570223E-01 -4.618850E+01 
9.142594E+02  9.570876E-01 -4.480507E+01  4.025181E-03 -1.168374E+02  4.022599E-03 -1.168382E+02  9.570979E-01 -4.619901E+01 
9.142625E+02  9.571562E-01 -4.482425E+01  4.097824E-03 -1.184066E+02  4.080704E-03 -1.185495E+02  9.572206E-01 -4.620930E+01 
9.142656E+02  9.572117E-01 -4.483557E+01  4.156370E-03 -1.197469E+02  4.163077E-03 -1.198289E+02  9.572636E-01 -4.621850E+01 
9.142687E+02  9.572467E-01 -4.483720E+01  4.218268E-03 -1.210269E+02  4.220302E-03 -1.210614E+02  9.573098E-01 -4.621965E+01 
9.142719E+02  9.572329E-01 -4.483620E+01  4.272791E-03 -1.223979E+02  4.268023E-03 -1.224820E+02  9.573669E-01 -4.622081E+01 
9.142750E+02  9.572771E-01 -4.484627E+01  4.324769E-03 -1.238237E+02  4.324071E-03 -1.236904E+02  9.574628E-01 -4.622734E+01 
9.142781E+02  9.573340E-01 -4.485960E+01  4.376218E-03 -1.249587E+02  4.364102E-03 -1.250200E+02  9.575158E-01 -4.624441E+01 
9.142812E+02  9.574072E-01 -4.487833E+01  4.402890E-03 -1.262751E+02  4.406124E-03 -1.262780E+02  9.576048E-01 -4.625646E+01 
9.142844E+02  9.573588E-01 -4.489064E+01  4.444727E-03 -1.272970E+02  4.444856E-03 -1.274875E+02  9.576607E-01 -4.625927E+01 
9.142875E+02  9.573905E-01 -4.489085E+01  4.479396E-03 -1.284475E+02  4.475287E-03 -1.285083E+02  9.577025E-01 -4.626441E+01 
9.142906E+02  9.574167E-01 -4.489577E+01  4.503531E-03 -1.296058E+02  4.509852E-03 -1.295835E+02  9.577905E-01 -4.626973E+01 
9.142938E+02  9.574778E-01 -4.491549E+01  4.529920E-03 -1.305614E+02  4.529590E-03 -1.305490E+02  9.578674E-01 -4.629242E+01 
9.142969E+02  9.574897E-01 -4.493477E+01  4.561716E-03 -1.316139E+02  4.562245E-03 -1.316543E+02  9.579133E-01 -4.631116E+01 
9.143000E+02  9.575818E-01 -4.494841E+01  4.569863E-03 -1.323461E+02  4.584420E-03 -1.323773E+02  9.580741E-01 -4.631856E+01 
9.143031E+02  9.575332E-01 -4.494989E+01  4.600003E-03 -1.332204E+02  4.603002E-03 -1.332126E+02  9.580548E-01 -4.632351E+01 
9.143062E+02  9.575506E-01 -4.495334E+01  4.608414E-03 -1.340578E+02  4.618421E-03 -1.340970E+02  9.580767E-01 -4.632779E+01 
9.143094E+02  9.575444E-01 -4.496389E+01  4.635870E-03 -1.348536E+02  4.633034E-03 -1.348471E+02  9.581178E-01 -4.634784E+01 
9.143125E+02  9.575790E-01 -4.498714E+01  4.653599E-03 -1.355478E+02  4.649615E-03 -1.356015E+02  9.582102E-01 -4.636790E+01 
9.143156E+02  9.576666E-01 -4.501142E+01  4.672161E-03 -1.361360E+02  4.670684E-03 -1.362531E+02  9.581831E-01 -4.638080E+01 
9.143188E+02  9.576656E-01 -4.501604E+01  4.681954E-03 -1.369292E+02  4.687373E-03 -1.368217E+02  9.582241E-01 -4.638713E+01 
9.143219E+02  9.575999E-01 -4.501612E+01  4.705810E-03 -1.375284E+02  4.698591E-03 -1.375049E+02  9.582320E-01 -4.638990E+01 
9.143250E+02  9.575932E-01 -4.502398E+01  4.705245E-03 -1.380452E+02  4.716736E-03 -1.380241E+02  9.583185E-01 -4.640824E+01 
9.143281E+02  9.576446E-01 -4.505728E+01  4.734771E-03 -1.385979E+02  4.733398E-03 -1.386416E+02  9.583577E-01 -4.642879E+01 
9.143312E+02  9.576535E-01 -4.507315E+01  4.745158E-03 -1.391142E+02  4.741850E-03 -1.390913E+02  9.583165E-01 -4.644489E+01 
9.143344E+02  9.575511E-01 -4.507929E+01  4.757170E-03 -1.397229E+02  4.752650E-03 -1.396691E+02  9.582439E-01 -4.644328E+01 
9.143375E+02  9.576213E-01 -4.508041E+01  4.771148E-03 -1.401854E+02  4.769740E-03 -1.400656E+02  9.583099E-01 -4.645561E+01 
9.143406E+02  9.576431E-01 -4.510179E+01  4.791390E-03 -1.406091E+02  4.782949E-03 -1.405665E+02  9.583307E-01 -4.648048E+01 
9.143438E+02  9.576363E-01 -4.512189E+01  4.793653E-03 -1.410948E+02  4.805570E-03 -1.410435E+02  9.583793E-01 -4.649550E+01 
9.143469E+02  9.575860E-01 -4.514058E+01  4.826225E-03 -1.413804E+02  4.814948E-03 -1.413336E+02  9.583886E-01 -4.650606E+01 
9.143500E+02  9.576050E-01 -4.513976E+01  4.836717E-03 -1.417090E+02  4.835337E-03 -1.417093E+02  9.583214E-01 -4.651647E+01 
9.143531E+02  9.575825E-01 -4.514436E+01  4.856331E-03 -1.421139E+02  4.854655E-03 -1.419956E+02  9.583445E-01 -4.652571E+01 
9.143563E+02  9.576372E-01 -4.516194E+01  4.864474E-03 -1.423587E+02  4.878468E-03 -1.424260E+02  9.583508E-01 -4.654311E+01 
9.143594E+02  9.575701E-01 -4.518270E+01  4.884679E-03 -1.427659E+02  4.873460E-03 -1.427027E+02  9.583642E-01 -4.656393E+01 
9.143625E+02  9.575724E-01 -4.520539E+01  4.905702E-03 -1.431054E+02  4.895700E-03 -1.428953E+02  9.583606E-01 -4.657414E+01 
9.143656E+02  9.575860E-01 -4.520942E+01  4.920186E-03 -1.433588E+02  4.923692E-03 -1.432705E+02  9.583651E-01 -4.658839E+01 
9.143687E+02  9.574936E-01 -4.521460E+01  4.949417E-03 -1.434814E+02  4.938744E-03 -1.435578E+02  9.583489E-01 -4.659656E+01 
9.143719E+02  9.575267E-01 -4.522859E+01  4.961239E-03 -1.440005E+02  4.973211E-03 -1.439420E+02  9.583006E-01 -4.661330E+01 
9.143750E+02  9.574965E-01 -4.524654E+01  4.985748E-03 -1.442166E+02  4.980127E-03 -1.439922E+02  9.583641E-01 -4.662989E+01 
9.143781E+02  9.575150E-01 -4.527630E+01  4.998378E-03 -1.443759E+02  5.008774E-03 -1.443595E+02  9.583094E-01 -4.664732E+01 
9.143813E+02  9.574188E-01 -4.528139E+01  5.027237E-03 -1.444926E+02  5.028826E-03 -1.444166E+02  9.583469E-01 -4.665821E+01 
9.143844E+02  9.573924E-01 -4.529127E+01  5.052921E-03 -1.447976E+02  5.050423E-03 -1.447447E+02  9.582845E-01 -4.667143E+01 
9.143875E+02  9.573196E-01 -4.529874E+01  5.066945E-03 -1.450097E+02  5.073555E-03 -1.449465E+02  9.582890E-01 -4.668143E+01 
9.143906E+02  9.573057E-01 -4.531192E+01  5.093879E-03 -1.452589E+02  5.086003E-03 -1.451411E+02  9.582611E-01 -4.669999E+01 
9.143937E+02  9.573356E-01 -4.533436E+01  5.125424E-03 -1.453910E+02  5.113330E-03 -1.454552E+02  9.582201E-01 -4.671672E+01 
9.143969E+02  9.573676E-01 -4.535214E+01  5.135097E-03 -1.454745E+02  5.136565E-03 -1.455665E+02  9.582153E-01 -4.672990E+01 
9.144000E+02  9.572946E-01 -4.536125E+01  5.168664E-03 -1.457081E+02  5.173096E-03 -1.457056E+02  9.581594E-01 -4.674369E+01 
9.144031E+02  9.572790E-01 -4.537120E+01  5.191702E-03 -1.458614E+02  5.183946E-03 -1.457676E+02  9.581494E-01 -4.674983E+01 
9.144062E+02  9.572424E-01 -4.537356E+01  5.227548E-03 -1.460372E+02  5.220949E-03 -1.459689E+02  9.582415E-01 -4.676863E+01 
9.144094E+02  9.572614E-01 -4.539802E+01  5.256304E-03 -1.461407E+02  5.253723E-03 -1.461376E+02  9.581748E-01 -4.678553E+01 
9.144125E+02  9.571572E-01 -4.541962E+01  5.268166E-03 -1.463290E+02  5.278190E-03 -1.461971E+02  9.581499E-01 -4.680106E+01 
9.144156E+02  9.572035E-01 -4.543357E+01  5.299984E-03 -1.464235E+02  5.298145E-03 -1.464715E+02  9.581368E-01 -4.681347E+01 
9.144188E+02  9.570701E-01 -4.543941E+01  5.321796E-03 -1.464960E+02  5.329713E-03 -1.466033E+02  9.581253E-01 -4.682296E+01 
9.144219E+02  9.571173E-01 -4.544558E+01  5.356895E-03 -1.466968E+02  5.354838E-03 -1.466803E+02  9.580850E-01 -4.683752E+01 
9.144250E+02  9.571159E-01 -4.546177E+01  5.394702E-03 -1.467955E+02  5.391355E-03 -1.467737E+02  9.580814E-01 -4.685797E+01 
9.144281E+02  9.571027E-01 -4.549040E+01  5.413332E-03 -1.468640E+02  5.420553E-03 -1.469277E+02  9.580592E-01 -4.687589E+01 
9.144312E+02  9.569569E-01 -4.550698E+01  5.450672E-03 -1.470280E+02  5.456790E-03 -1.470452E+02  9.580104E-01 -4.689059E+01 
9.144344E+02  9.569414E-01 -4.551838E+01  5.477089E-03 -1.471963E+02  5.486233E-03 -1.470480E+02  9.579496E-01 -4.689079E+01 
9.144375E+02  9.569572E-01 -4.551946E+01  5.511162E-03 -1.472936E+02  5.521786E-03 -1.472550E+02  9.579147E-01 -4.690581E+01 
9.144406E+02  9.569446E-01 -4.553373E+01  5.549014E-03 -1.474045E+02  5.553250E-03 -1.473103E+02  9.579107E-01 -4.692750E+01 
9.144438E+02  9.569246E-01 -4.555770E+01  5.572896E-03 -1.474271E+02  5.588360E-03 -1.474816E+02  9.578451E-01 -4.694702E+01 
9.144469E+02  9.569254E-01 -4.558274E+01  5.627590E-03 -1.475048E+02  5.607303E-03 -1.475436E+02  9.578663E-01 -4.696076E+01 
9.144500E+02  9.568666E-01 -4.559154E+01  5.654068E-03 -1.475669E+02  5.650224E-03 -1.476602E+02  9.577768E-01 -4.696939E+01 
9.144531E+02  9.567704E-01 -4.559687E+01  5.684176E-03 -1.477310E+02  5.685684E-03 -1.477038E+02  9.577529E-01 -4.697788E+01 
9.144562E+02  9.567505E-01 -4.560005E+01  5.717174E-03 -1.477140E+02  5.721744E-03 -1.478098E+02  9.577670E-01 -4.699599E+01 
9.144594E+02  9.567440E-01 -4.562901E+01  5.755445E-03 -1.479005E+02  5.771597E-03 -1.479127E+02  9.576817E-01 -4.701932E+01 
9.144625E+02  9.567250E-01 -4.565111E+01  5.794800E-03 -1.479112E+02  5.795224E-03 -1.478889E+02  9.577222E-01 -4.703807E+01 
9.144656E+02  9.566772E-01 -4.566656E+01  5.828697E-03 -1.480820E+02  5.830313E-03 -1.479838E+02  9.576616E-01 -4.704506E+01 
9.144688E+02  9.566257E-01 -4.567728E+01  5.870700E-03 -1.480768E+02  5.870530E-03 -1.481328E+02  9.576185E-01 -4.705330E+01 
9.144719E+02  9.565743E-01 -4.568100E+01  5.903027E-03 -1.481509E+02  5.902515E-03 -1.481490E+02  9.575680E-01 -4.707108E+01 
9.144750E+02  9.565937E-01 -4.569888E+01  5.938079E-03 -1.482273E+02  5.944874E-03 -1.481818E+02  9.575730E-01 -4.709116E+01 
9.144781E+02  9.564700E-01 -4.572712E+01  5.985534E-03 -1.483706E+02  5.979590E-03 -1.483597E+02  9.575256E-01 -4.711226E+01 
9.144813E+02  9.565389E-01 -4.573963E+01  6.031044E-03 -1.484049E+02  6.024798E-03 -1.484245E+02  9.574797E-01 -4.712388E+01 
