! Matrix data file written by TouchstoneData, EPCOS AG
! FILENAME: "B3401_WB.s2p"
! COMMENT: "NWA-Port1 : 82.0ps NWA-Port2 : 82.0ps PCB209"
! INFO: nport=2, nfreq=1601
! DATE: "Wed Jan 8 2014"
! USER: "Hiroshi Tanaka"
!
! port | pin | signal
! -----|-----|--------
!   1  |  1  |  in
!   2  |  3  |  out
! --------------------
! 
# MHZ S MA R 50
! freq  magS11 angS11  magS21 angS21  magS12 angS12  magS22 angS22
  1.000000E+02    9.876177E-01  -1.028797E+01    1.265339E-03   7.916966E+01    1.261726E-03   7.953770E+01    9.956628E-01  -9.785250E+00 
  1.018125E+02    9.876866E-01  -1.045212E+01    1.282390E-03   7.873033E+01    1.282118E-03   7.786097E+01    9.959281E-01  -9.956877E+00 
  1.036250E+02    9.876635E-01  -1.062099E+01    1.338122E-03   7.415562E+01    1.355737E-03   7.448550E+01    9.961085E-01  -1.011464E+01 
  1.054375E+02    9.872858E-01  -1.080393E+01    1.335688E-03   7.044877E+01    1.326990E-03   7.060714E+01    9.960715E-01  -1.030065E+01 
  1.072500E+02    9.875312E-01  -1.099169E+01    1.337648E-03   7.932844E+01    1.330421E-03   7.988322E+01    9.961481E-01  -1.046128E+01 
  1.090625E+02    9.871490E-01  -1.119405E+01    1.409868E-03   7.852602E+01    1.406871E-03   7.880832E+01    9.960364E-01  -1.065252E+01 
  1.108750E+02    9.858431E-01  -1.122531E+01    1.613068E-03   7.896996E+01    1.611530E-03   7.889506E+01    9.951262E-01  -1.079374E+01 
  1.126875E+02    9.872947E-01  -1.148649E+01    1.460766E-03   7.347071E+01    1.451999E-03   7.441640E+01    9.958415E-01  -1.096698E+01 
  1.145000E+02    9.875838E-01  -1.167534E+01    1.429440E-03   7.699523E+01    1.434847E-03   7.661462E+01    9.962053E-01  -1.114794E+01 
  1.163125E+02    9.877013E-01  -1.186041E+01    1.508876E-03   7.656127E+01    1.505298E-03   7.679040E+01    9.959553E-01  -1.132783E+01 
  1.181250E+02    9.879546E-01  -1.204410E+01    1.512136E-03   7.682328E+01    1.495845E-03   7.691346E+01    9.960908E-01  -1.149011E+01 
  1.199375E+02    9.884983E-01  -1.224856E+01    1.589413E-03   7.751697E+01    1.586703E-03   7.762983E+01    9.962460E-01  -1.168032E+01 
  1.217500E+02    9.886689E-01  -1.245038E+01    1.543592E-03   7.714960E+01    1.527931E-03   7.788131E+01    9.960883E-01  -1.186069E+01 
  1.235625E+02    9.884455E-01  -1.263371E+01    1.581537E-03   7.806752E+01    1.571984E-03   7.808782E+01    9.957118E-01  -1.202425E+01 
  1.253750E+02    9.888065E-01  -1.279692E+01    1.646803E-03   7.398865E+01    1.637110E-03   7.447567E+01    9.957075E-01  -1.218921E+01 
  1.271875E+02    9.893032E-01  -1.298383E+01    1.631873E-03   7.662969E+01    1.644232E-03   7.674272E+01    9.955907E-01  -1.236203E+01 
  1.290000E+02    9.898442E-01  -1.318649E+01    1.604896E-03   7.257269E+01    1.618131E-03   7.315690E+01    9.958614E-01  -1.252967E+01 
  1.308125E+02    9.908480E-01  -1.335056E+01    1.692251E-03   7.704220E+01    1.688495E-03   7.716412E+01    9.963556E-01  -1.264855E+01 
  1.326250E+02    9.911389E-01  -1.354236E+01    1.731378E-03   7.705428E+01    1.717233E-03   7.762652E+01    9.960000E-01  -1.285077E+01 
  1.344375E+02    9.911985E-01  -1.382661E+01    1.707844E-03   7.540701E+01    1.704888E-03   7.572600E+01    9.956275E-01  -1.309650E+01 
  1.362500E+02    9.915068E-01  -1.388612E+01    1.633722E-03   7.421271E+01    1.618945E-03   7.421740E+01    9.954788E-01  -1.319199E+01 
  1.380625E+02    9.918471E-01  -1.407977E+01    1.772736E-03   7.256821E+01    1.771499E-03   7.249357E+01    9.957144E-01  -1.334014E+01 
  1.398750E+02    9.922800E-01  -1.429085E+01    1.774292E-03   7.602898E+01    1.772024E-03   7.643442E+01    9.954049E-01  -1.352802E+01 
  1.416875E+02    9.926840E-01  -1.448139E+01    1.843257E-03   7.629279E+01    1.832284E-03   7.619238E+01    9.954164E-01  -1.371419E+01 
  1.435000E+02    9.930352E-01  -1.470233E+01    1.857321E-03   7.440789E+01    1.843033E-03   7.477006E+01    9.955923E-01  -1.387087E+01 
  1.453125E+02    9.933985E-01  -1.489325E+01    1.935811E-03   7.369640E+01    1.920585E-03   7.375875E+01    9.955871E-01  -1.403740E+01 
  1.471250E+02    9.935737E-01  -1.512841E+01    1.865787E-03   7.524786E+01    1.850643E-03   7.573959E+01    9.953752E-01  -1.423165E+01 
  1.489375E+02    9.937679E-01  -1.528839E+01    1.929820E-03   7.226020E+01    1.935685E-03   7.262315E+01    9.950960E-01  -1.438467E+01 
  1.507500E+02    9.938252E-01  -1.548326E+01    1.938246E-03   6.822359E+01    1.924224E-03   6.899615E+01    9.949889E-01  -1.455468E+01 
  1.525625E+02    9.943282E-01  -1.567101E+01    1.853283E-03   7.126497E+01    1.838722E-03   7.169760E+01    9.952416E-01  -1.472487E+01 
  1.543750E+02    9.948976E-01  -1.587665E+01    1.946200E-03   7.466601E+01    1.936702E-03   7.502285E+01    9.953413E-01  -1.488777E+01 
  1.561875E+02    9.947235E-01  -1.606512E+01    1.933980E-03   6.828548E+01    1.923488E-03   6.843512E+01    9.950641E-01  -1.506647E+01 
  1.580000E+02    9.948502E-01  -1.627669E+01    1.953440E-03   7.445489E+01    1.943670E-03   7.495676E+01    9.952062E-01  -1.525991E+01 
  1.598125E+02    9.921264E-01  -1.635964E+01    2.034303E-03   7.078124E+01    2.024712E-03   7.112431E+01    9.935549E-01  -1.539948E+01 
  1.616250E+02    9.949789E-01  -1.658095E+01    1.918021E-03   6.886341E+01    1.903454E-03   6.928652E+01    9.953078E-01  -1.554783E+01 
  1.634375E+02    9.944928E-01  -1.680924E+01    2.021711E-03   6.956571E+01    2.010144E-03   6.958874E+01    9.946424E-01  -1.572717E+01 
  1.652500E+02    9.945507E-01  -1.700735E+01    2.090162E-03   7.228467E+01    2.082283E-03   7.262717E+01    9.947458E-01  -1.590102E+01 
  1.670625E+02    9.944429E-01  -1.718245E+01    2.036596E-03   7.033845E+01    2.026751E-03   7.072861E+01    9.949436E-01  -1.606768E+01 
  1.688750E+02    9.936741E-01  -1.737946E+01    2.000556E-03   7.055780E+01    1.997072E-03   7.076067E+01    9.941843E-01  -1.625505E+01 
  1.706875E+02    9.937164E-01  -1.757036E+01    2.141783E-03   7.294160E+01    2.128589E-03   7.301591E+01    9.943052E-01  -1.643346E+01 
  1.725000E+02    9.931713E-01  -1.770907E+01    2.055455E-03   7.155512E+01    2.042005E-03   7.165925E+01    9.942282E-01  -1.656981E+01 
  1.743125E+02    9.925999E-01  -1.786874E+01    2.116778E-03   6.913259E+01    2.102819E-03   6.920651E+01    9.941184E-01  -1.670222E+01 
  1.761250E+02    9.928436E-01  -1.804953E+01    2.146618E-03   7.186787E+01    2.131672E-03   7.201288E+01    9.943944E-01  -1.688459E+01 
  1.779375E+02    9.932094E-01  -1.831029E+01    2.131870E-03   7.094338E+01    2.122968E-03   7.089867E+01    9.952333E-01  -1.718137E+01 
  1.797500E+02    9.928389E-01  -1.843078E+01    2.158845E-03   7.201693E+01    2.146651E-03   7.231847E+01    9.948075E-01  -1.728509E+01 
  1.815625E+02    9.922499E-01  -1.859900E+01    2.242176E-03   7.151664E+01    2.227043E-03   7.186216E+01    9.944041E-01  -1.744360E+01 
  1.833750E+02    9.921404E-01  -1.876434E+01    2.314563E-03   7.134413E+01    2.302560E-03   7.174577E+01    9.947547E-01  -1.762052E+01 
  1.851875E+02    9.910503E-01  -1.885389E+01    2.220829E-03   6.933965E+01    2.212231E-03   6.959792E+01    9.939132E-01  -1.773450E+01 
  1.870000E+02    9.914455E-01  -1.904561E+01    2.229270E-03   7.023768E+01    2.210174E-03   7.022588E+01    9.946578E-01  -1.788753E+01 
  1.888125E+02    9.916243E-01  -1.920549E+01    2.307362E-03   7.001439E+01    2.302551E-03   7.015443E+01    9.950422E-01  -1.805310E+01 
  1.906250E+02    9.907001E-01  -1.939904E+01    2.234246E-03   7.093339E+01    2.233624E-03   7.105454E+01    9.947340E-01  -1.826059E+01 
  1.924375E+02    9.897419E-01  -1.955045E+01    2.335254E-03   7.074570E+01    2.311365E-03   7.116994E+01    9.936092E-01  -1.841790E+01 
  1.942500E+02    9.883440E-01  -1.968078E+01    2.370438E-03   7.043712E+01    2.365755E-03   7.064342E+01    9.923239E-01  -1.859260E+01 
  1.960625E+02    9.896045E-01  -1.996049E+01    2.394716E-03   7.043424E+01    2.384509E-03   7.040192E+01    9.943450E-01  -1.882788E+01 
  1.978750E+02    9.887349E-01  -2.013586E+01    2.454520E-03   6.781448E+01    2.459886E-03   6.794662E+01    9.942318E-01  -1.899484E+01 
  1.996875E+02    9.885918E-01  -2.027106E+01    2.402530E-03   6.893089E+01    2.393029E-03   6.933010E+01    9.942356E-01  -1.915114E+01 
  2.015000E+02    9.879575E-01  -2.044781E+01    2.472544E-03   7.086115E+01    2.465182E-03   7.083448E+01    9.940296E-01  -1.930839E+01 
  2.033125E+02    9.875869E-01  -2.063239E+01    2.463361E-03   6.967660E+01    2.467383E-03   7.008692E+01    9.940975E-01  -1.949552E+01 
  2.051250E+02    9.880890E-01  -2.077343E+01    2.592932E-03   6.965202E+01    2.591635E-03   6.974202E+01    9.939660E-01  -1.965555E+01 
  2.069375E+02    9.873609E-01  -2.092428E+01    2.566082E-03   6.877975E+01    2.564991E-03   6.899805E+01    9.939276E-01  -1.983669E+01 
  2.087500E+02    9.836734E-01  -2.118060E+01    2.552687E-03   6.790580E+01    2.545601E-03   6.813791E+01    9.913438E-01  -2.005435E+01 
  2.105625E+02    9.874901E-01  -2.121190E+01    2.629485E-03   6.685936E+01    2.611960E-03   6.725665E+01    9.934727E-01  -2.014322E+01 
  2.123750E+02    9.878609E-01  -2.135720E+01    2.526077E-03   6.745557E+01    2.506853E-03   6.762154E+01    9.936834E-01  -2.032066E+01 
  2.141875E+02    9.875874E-01  -2.159351E+01    2.543134E-03   6.579907E+01    2.544052E-03   6.641153E+01    9.936285E-01  -2.048769E+01 
  2.160000E+02    9.878225E-01  -2.182991E+01    2.742778E-03   6.715414E+01    2.747615E-03   6.761864E+01    9.934502E-01  -2.067244E+01 
  2.178125E+02    9.879257E-01  -2.200703E+01    2.507648E-03   6.565920E+01    2.502974E-03   6.602880E+01    9.934101E-01  -2.084798E+01 
  2.196250E+02    9.875446E-01  -2.216010E+01    2.544797E-03   6.527681E+01    2.540996E-03   6.533886E+01    9.935068E-01  -2.100284E+01 
  2.214375E+02    9.863712E-01  -2.238875E+01    2.645909E-03   6.592541E+01    2.642817E-03   6.620393E+01    9.922938E-01  -2.117863E+01 
  2.232500E+02    9.871236E-01  -2.251334E+01    2.565505E-03   6.528031E+01    2.560023E-03   6.534150E+01    9.927017E-01  -2.131690E+01 
  2.250625E+02    9.879257E-01  -2.265765E+01    2.585620E-03   6.488230E+01    2.573661E-03   6.513768E+01    9.940240E-01  -2.148238E+01 
  2.268750E+02    9.881581E-01  -2.284723E+01    2.599075E-03   6.591919E+01    2.601407E-03   6.616853E+01    9.943968E-01  -2.166371E+01 
  2.286875E+02    9.884133E-01  -2.308244E+01    2.568421E-03   6.600485E+01    2.558505E-03   6.647730E+01    9.934560E-01  -2.182504E+01 
  2.305000E+02    9.885946E-01  -2.331175E+01    2.633036E-03   6.688713E+01    2.616220E-03   6.725909E+01    9.937188E-01  -2.201536E+01 
  2.323125E+02    9.888235E-01  -2.356598E+01    2.604085E-03   6.606832E+01    2.601779E-03   6.646640E+01    9.938234E-01  -2.223853E+01 
  2.341250E+02    9.881926E-01  -2.362351E+01    2.763667E-03   6.630013E+01    2.746749E-03   6.646960E+01    9.924100E-01  -2.231596E+01 
  2.359375E+02    9.892119E-01  -2.386408E+01    2.667266E-03   6.617658E+01    2.659721E-03   6.628739E+01    9.929822E-01  -2.250277E+01 
  2.377500E+02    9.897196E-01  -2.405315E+01    2.692400E-03   6.648626E+01    2.689680E-03   6.665441E+01    9.930657E-01  -2.267771E+01 
  2.395625E+02    9.901675E-01  -2.423223E+01    2.691105E-03   6.629763E+01    2.677989E-03   6.666413E+01    9.930485E-01  -2.284877E+01 
  2.413750E+02    9.903655E-01  -2.444237E+01    2.765451E-03   6.617736E+01    2.754373E-03   6.635072E+01    9.928632E-01  -2.301753E+01 
  2.431875E+02    9.906703E-01  -2.466071E+01    2.806375E-03   6.580478E+01    2.798176E-03   6.638218E+01    9.929128E-01  -2.320277E+01 
  2.450000E+02    9.907988E-01  -2.489283E+01    2.816823E-03   6.709540E+01    2.797901E-03   6.718529E+01    9.926619E-01  -2.340036E+01 
  2.468125E+02    9.904478E-01  -2.505160E+01    2.851829E-03   6.471717E+01    2.840345E-03   6.482024E+01    9.920280E-01  -2.353881E+01 
  2.486250E+02    9.911884E-01  -2.523798E+01    2.828200E-03   6.576508E+01    2.821451E-03   6.606603E+01    9.924022E-01  -2.372341E+01 
  2.504375E+02    9.915451E-01  -2.545077E+01    2.880684E-03   6.518526E+01    2.862675E-03   6.545000E+01    9.926348E-01  -2.392250E+01 
  2.522500E+02    9.915514E-01  -2.565606E+01    2.919236E-03   6.509947E+01    2.911411E-03   6.530884E+01    9.924116E-01  -2.407447E+01 
  2.540625E+02    9.917276E-01  -2.586149E+01    2.913075E-03   6.519338E+01    2.898601E-03   6.530167E+01    9.925475E-01  -2.423008E+01 
  2.558750E+02    9.918300E-01  -2.608035E+01    2.902284E-03   6.519344E+01    2.899025E-03   6.540095E+01    9.926047E-01  -2.441590E+01 
  2.576875E+02    9.897714E-01  -2.637882E+01    2.935980E-03   6.458472E+01    2.915244E-03   6.478777E+01    9.905758E-01  -2.467267E+01 
  2.595000E+02    9.915310E-01  -2.640060E+01    2.976409E-03   6.356626E+01    2.953160E-03   6.382043E+01    9.918005E-01  -2.471851E+01 
  2.613125E+02    9.919807E-01  -2.659720E+01    2.977508E-03   6.444381E+01    2.975276E-03   6.484961E+01    9.922251E-01  -2.489557E+01 
  2.631250E+02    9.921542E-01  -2.679519E+01    2.984544E-03   6.394938E+01    2.986512E-03   6.418946E+01    9.922563E-01  -2.506969E+01 
  2.649375E+02    9.922854E-01  -2.699201E+01    3.090610E-03   6.437059E+01    3.087213E-03   6.469063E+01    9.921957E-01  -2.525278E+01 
  2.667500E+02    9.922462E-01  -2.719094E+01    3.117200E-03   6.453885E+01    3.111378E-03   6.490335E+01    9.921161E-01  -2.543859E+01 
  2.685625E+02    9.924276E-01  -2.738499E+01    3.112055E-03   6.344033E+01    3.102508E-03   6.351886E+01    9.919944E-01  -2.562169E+01 
  2.703750E+02    9.912639E-01  -2.758061E+01    3.167462E-03   6.404816E+01    3.154011E-03   6.404265E+01    9.911671E-01  -2.580993E+01 
  2.721875E+02    9.918048E-01  -2.773852E+01    3.211619E-03   6.200729E+01    3.198355E-03   6.230682E+01    9.914474E-01  -2.596351E+01 
  2.740000E+02    9.919204E-01  -2.791756E+01    3.187682E-03   6.045039E+01    3.187046E-03   6.071395E+01    9.915494E-01  -2.614287E+01 
  2.758125E+02    9.918551E-01  -2.810734E+01    3.188257E-03   6.178723E+01    3.184496E-03   6.200925E+01    9.916164E-01  -2.631725E+01 
  2.776250E+02    9.915253E-01  -2.830529E+01    3.237168E-03   6.000509E+01    3.223872E-03   6.008340E+01    9.915701E-01  -2.651005E+01 
  2.794375E+02    9.913037E-01  -2.850269E+01    3.301644E-03   5.798257E+01    3.300672E-03   5.821461E+01    9.913591E-01  -2.669420E+01 
  2.812500E+02    9.911254E-01  -2.869511E+01    3.133914E-03   6.022511E+01    3.122181E-03   6.038285E+01    9.911829E-01  -2.685939E+01 
  2.830625E+02    9.898142E-01  -2.875068E+01    3.168012E-03   5.821963E+01    3.158327E-03   5.823758E+01    9.901304E-01  -2.695239E+01 
  2.848750E+02    9.904900E-01  -2.896146E+01    3.107643E-03   5.853293E+01    3.102793E-03   5.857998E+01    9.908824E-01  -2.715622E+01 
  2.866875E+02    9.903664E-01  -2.913615E+01    3.013405E-03   5.924631E+01    3.003428E-03   5.926936E+01    9.908481E-01  -2.732796E+01 
  2.885000E+02    9.903361E-01  -2.931121E+01    3.099935E-03   5.972709E+01    3.097710E-03   5.987130E+01    9.907535E-01  -2.751323E+01 
  2.903125E+02    9.901575E-01  -2.949200E+01    3.105973E-03   5.934870E+01    3.096789E-03   5.961161E+01    9.908415E-01  -2.768143E+01 
  2.921250E+02    9.899228E-01  -2.967915E+01    3.025844E-03   5.884545E+01    3.019862E-03   5.906296E+01    9.907217E-01  -2.784729E+01 
  2.939375E+02    9.897723E-01  -2.987975E+01    3.104484E-03   6.083867E+01    3.101285E-03   6.086880E+01    9.906820E-01  -2.804274E+01 
  2.957500E+02    9.888326E-01  -3.000677E+01    3.122043E-03   5.943278E+01    3.104649E-03   5.965021E+01    9.901262E-01  -2.817901E+01 
  2.975625E+02    9.890452E-01  -3.017835E+01    3.136223E-03   5.993653E+01    3.137840E-03   6.008075E+01    9.904438E-01  -2.834328E+01 
  2.993750E+02    9.889366E-01  -3.035740E+01    3.091171E-03   6.162169E+01    3.082377E-03   6.179188E+01    9.905021E-01  -2.852837E+01 
  3.011875E+02    9.888032E-01  -3.052263E+01    3.152945E-03   6.074304E+01    3.145222E-03   6.102207E+01    9.905868E-01  -2.872096E+01 
  3.030000E+02    9.885801E-01  -3.069847E+01    3.194225E-03   6.061274E+01    3.183137E-03   6.077537E+01    9.906594E-01  -2.891044E+01 
  3.048125E+02    9.882359E-01  -3.090163E+01    3.221986E-03   6.054811E+01    3.212544E-03   6.085861E+01    9.903652E-01  -2.908019E+01 
  3.066250E+02    9.867960E-01  -3.118862E+01    3.238191E-03   6.013302E+01    3.235445E-03   6.017294E+01    9.894212E-01  -2.933203E+01 
  3.084375E+02    9.872258E-01  -3.119342E+01    3.279256E-03   6.001496E+01    3.248534E-03   6.010753E+01    9.899120E-01  -2.938203E+01 
  3.102500E+02    9.872137E-01  -3.136092E+01    3.272150E-03   6.014936E+01    3.268181E-03   6.002140E+01    9.903161E-01  -2.954431E+01 
  3.120625E+02    9.870489E-01  -3.152784E+01    3.307019E-03   6.031188E+01    3.284937E-03   6.023754E+01    9.899265E-01  -2.968934E+01 
  3.138750E+02    9.871994E-01  -3.173006E+01    3.295967E-03   5.960385E+01    3.291705E-03   5.996348E+01    9.902605E-01  -2.989440E+01 
  3.156875E+02    9.871851E-01  -3.190576E+01    3.350837E-03   5.951527E+01    3.326595E-03   5.986378E+01    9.902905E-01  -3.006957E+01 
  3.175000E+02    9.869816E-01  -3.208953E+01    3.356964E-03   5.972736E+01    3.339087E-03   5.973933E+01    9.902829E-01  -3.023935E+01 
  3.193125E+02    9.859839E-01  -3.230656E+01    3.363278E-03   5.983002E+01    3.358407E-03   5.996078E+01    9.895213E-01  -3.045482E+01 
  3.211250E+02    9.863751E-01  -3.245296E+01    3.367751E-03   5.860630E+01    3.360029E-03   5.881319E+01    9.900743E-01  -3.061450E+01 
  3.229375E+02    9.866281E-01  -3.263220E+01    3.351577E-03   5.848857E+01    3.338278E-03   5.874024E+01    9.902991E-01  -3.078671E+01 
  3.247500E+02    9.865066E-01  -3.280041E+01    3.407704E-03   5.945555E+01    3.395057E-03   5.967652E+01    9.898817E-01  -3.091350E+01 
  3.265625E+02    9.864532E-01  -3.299208E+01    3.449935E-03   5.840658E+01    3.436861E-03   5.871128E+01    9.899353E-01  -3.108358E+01 
  3.283750E+02    9.866255E-01  -3.318932E+01    3.468647E-03   5.936802E+01    3.456978E-03   5.941927E+01    9.899555E-01  -3.126466E+01 
  3.301875E+02    9.864497E-01  -3.341675E+01    3.552586E-03   5.853718E+01    3.534482E-03   5.872418E+01    9.898118E-01  -3.145821E+01 
  3.320000E+02    9.848796E-01  -3.349134E+01    3.562253E-03   5.760958E+01    3.552508E-03   5.775310E+01    9.884087E-01  -3.156340E+01 
  3.338125E+02    9.860991E-01  -3.369510E+01    3.542188E-03   5.771590E+01    3.533069E-03   5.803687E+01    9.895586E-01  -3.172253E+01 
  3.356250E+02    9.862204E-01  -3.388362E+01    3.562728E-03   5.733320E+01    3.536566E-03   5.748175E+01    9.896007E-01  -3.189596E+01 
  3.374375E+02    9.862246E-01  -3.406641E+01    3.554632E-03   5.471099E+01    3.532378E-03   5.495160E+01    9.893446E-01  -3.205480E+01 
  3.392500E+02    9.865567E-01  -3.427207E+01    3.593007E-03   5.623337E+01    3.576385E-03   5.638405E+01    9.895434E-01  -3.225433E+01 
  3.410625E+02    9.865354E-01  -3.447316E+01    3.608361E-03   5.523891E+01    3.601219E-03   5.520150E+01    9.894694E-01  -3.243814E+01 
  3.428750E+02    9.862895E-01  -3.468270E+01    3.536375E-03   5.279456E+01    3.521022E-03   5.299190E+01    9.892456E-01  -3.260386E+01 
  3.446875E+02    9.858929E-01  -3.485290E+01    3.543537E-03   5.425901E+01    3.530798E-03   5.447182E+01    9.887733E-01  -3.274635E+01 
  3.465000E+02    9.864403E-01  -3.503899E+01    3.538368E-03   5.276673E+01    3.531190E-03   5.288003E+01    9.890878E-01  -3.291346E+01 
  3.483125E+02    9.867772E-01  -3.522202E+01    3.466793E-03   5.309208E+01    3.448531E-03   5.324100E+01    9.891879E-01  -3.307883E+01 
  3.501250E+02    9.870386E-01  -3.542480E+01    3.337798E-03   5.355282E+01    3.323861E-03   5.380509E+01    9.892287E-01  -3.324528E+01 
