! Matrix data file written by TouchstoneData, EPCOS AG
! FILENAME: "B3401_NB.s2p"
! COMMENT: "NWA-Port1 : 82.0ps NWA-Port2 : 82.0ps PCB209"
! INFO: nport=2, nfreq=1601
! DATE: "Wed Jan 8 2014"
! USER: "Hiroshi Tanaka"
!
! port | pin | signal
! -----|-----|--------
!   1  |  1  |  in
!   2  |  3  |  out
! --------------------
! 
# MHZ S MA R 50
! freq  magS11 angS11  magS21 angS21  magS12 angS12  magS22 angS22
  1.380000E+03    9.341979E-01  -1.302990E+02    9.076350E-03   1.191498E+02    9.041929E-03   1.194758E+02    9.336912E-01  -1.252301E+02 
  1.380250E+03    9.341489E-01  -1.303334E+02    8.947121E-03   1.189863E+02    8.915640E-03   1.193791E+02    9.336917E-01  -1.252648E+02 
  1.380500E+03    9.341426E-01  -1.303460E+02    8.789489E-03   1.189717E+02    8.755192E-03   1.192882E+02    9.337540E-01  -1.252960E+02 
  1.380750E+03    9.342177E-01  -1.303597E+02    8.597477E-03   1.191752E+02    8.567225E-03   1.195137E+02    9.337297E-01  -1.253215E+02 
  1.381000E+03    9.344220E-01  -1.303749E+02    8.440308E-03   1.197996E+02    8.405442E-03   1.201606E+02    9.337282E-01  -1.253561E+02 
  1.381250E+03    9.344863E-01  -1.304097E+02    8.294771E-03   1.204726E+02    8.272771E-03   1.207665E+02    9.339400E-01  -1.253910E+02 
  1.381500E+03    9.346149E-01  -1.304534E+02    8.211473E-03   1.212802E+02    8.188099E-03   1.215388E+02    9.340118E-01  -1.254233E+02 
  1.381750E+03    9.346449E-01  -1.304788E+02    8.131189E-03   1.218883E+02    8.112676E-03   1.221977E+02    9.341589E-01  -1.254594E+02 
  1.382000E+03    9.347612E-01  -1.305021E+02    8.061219E-03   1.224019E+02    8.043462E-03   1.227875E+02    9.343200E-01  -1.254867E+02 
  1.382250E+03    9.348090E-01  -1.305214E+02    7.972330E-03   1.230119E+02    7.949022E-03   1.234356E+02    9.344333E-01  -1.255259E+02 
  1.382500E+03    9.349461E-01  -1.305539E+02    7.883363E-03   1.236396E+02    7.865579E-03   1.239667E+02    9.344594E-01  -1.255621E+02 
  1.382750E+03    9.350777E-01  -1.305908E+02    7.816276E-03   1.246889E+02    7.787574E-03   1.250457E+02    9.347381E-01  -1.256087E+02 
  1.383000E+03    9.351623E-01  -1.306290E+02    7.792152E-03   1.255070E+02    7.766653E-03   1.258431E+02    9.347254E-01  -1.256515E+02 
  1.383250E+03    9.351869E-01  -1.306558E+02    7.757707E-03   1.264184E+02    7.719346E-03   1.267505E+02    9.346980E-01  -1.256871E+02 
  1.383500E+03    9.351658E-01  -1.306927E+02    7.745869E-03   1.271046E+02    7.710470E-03   1.275311E+02    9.347915E-01  -1.257385E+02 
  1.383750E+03    9.352250E-01  -1.307266E+02    7.719250E-03   1.280798E+02    7.691715E-03   1.284048E+02    9.349218E-01  -1.257849E+02 
  1.384000E+03    9.352856E-01  -1.307757E+02    7.727901E-03   1.289477E+02    7.699982E-03   1.293335E+02    9.350442E-01  -1.258374E+02 
  1.384250E+03    9.352404E-01  -1.308195E+02    7.767073E-03   1.298341E+02    7.743588E-03   1.302146E+02    9.350797E-01  -1.258776E+02 
  1.384500E+03    9.351969E-01  -1.308559E+02    7.803314E-03   1.304119E+02    7.772760E-03   1.306888E+02    9.351214E-01  -1.259314E+02 
  1.384750E+03    9.351493E-01  -1.308866E+02    7.844168E-03   1.310403E+02    7.807341E-03   1.313622E+02    9.350718E-01  -1.259806E+02 
  1.385000E+03    9.350928E-01  -1.309191E+02    7.850553E-03   1.314528E+02    7.836500E-03   1.318207E+02    9.350677E-01  -1.260247E+02 
  1.385250E+03    9.351070E-01  -1.309580E+02    7.905260E-03   1.322774E+02    7.874388E-03   1.325176E+02    9.350418E-01  -1.260774E+02 
  1.385500E+03    9.350371E-01  -1.309985E+02    7.940302E-03   1.326323E+02    7.914093E-03   1.330494E+02    9.350024E-01  -1.261218E+02 
  1.385750E+03    9.350738E-01  -1.310391E+02    8.003718E-03   1.333467E+02    7.970676E-03   1.337556E+02    9.348601E-01  -1.261718E+02 
  1.386000E+03    9.350241E-01  -1.310631E+02    8.077564E-03   1.337297E+02    8.042835E-03   1.341931E+02    9.347088E-01  -1.262137E+02 
  1.386250E+03    9.349135E-01  -1.310984E+02    8.147406E-03   1.340729E+02    8.125743E-03   1.343810E+02    9.346361E-01  -1.262573E+02 
  1.386500E+03    9.349272E-01  -1.311220E+02    8.194496E-03   1.343906E+02    8.172421E-03   1.346111E+02    9.344705E-01  -1.263067E+02 
  1.386750E+03    9.349546E-01  -1.311599E+02    8.260174E-03   1.346616E+02    8.237105E-03   1.349468E+02    9.342629E-01  -1.263490E+02 
  1.387000E+03    9.349919E-01  -1.311989E+02    8.321726E-03   1.351178E+02    8.296946E-03   1.354108E+02    9.340182E-01  -1.263941E+02 
  1.387250E+03    9.349320E-01  -1.312324E+02    8.443033E-03   1.353199E+02    8.407790E-03   1.356643E+02    9.337938E-01  -1.264368E+02 
  1.387500E+03    9.349429E-01  -1.312610E+02    8.528601E-03   1.355133E+02    8.491732E-03   1.359038E+02    9.334548E-01  -1.264697E+02 
  1.387750E+03    9.348020E-01  -1.312888E+02    8.672320E-03   1.354340E+02    8.654577E-03   1.357598E+02    9.332791E-01  -1.265050E+02 
  1.388000E+03    9.347581E-01  -1.313219E+02    8.765403E-03   1.350710E+02    8.734662E-03   1.354654E+02    9.329965E-01  -1.265373E+02 
  1.388250E+03    9.347252E-01  -1.313643E+02    8.829781E-03   1.348322E+02    8.803687E-03   1.352161E+02    9.328937E-01  -1.265795E+02 
  1.388500E+03    9.346929E-01  -1.314009E+02    8.903564E-03   1.345246E+02    8.877312E-03   1.348514E+02    9.326927E-01  -1.266202E+02 
  1.388750E+03    9.347291E-01  -1.314321E+02    8.964601E-03   1.340424E+02    8.936381E-03   1.343841E+02    9.325871E-01  -1.266540E+02 
  1.389000E+03    9.347325E-01  -1.314647E+02    9.001860E-03   1.337654E+02    8.964235E-03   1.341811E+02    9.324069E-01  -1.266879E+02 
  1.389250E+03    9.347235E-01  -1.315022E+02    9.046585E-03   1.333027E+02    9.014725E-03   1.336253E+02    9.323466E-01  -1.267318E+02 
  1.389500E+03    9.347316E-01  -1.315427E+02    9.059391E-03   1.330817E+02    9.037532E-03   1.334474E+02    9.321408E-01  -1.267657E+02 
  1.389750E+03    9.346260E-01  -1.315884E+02    9.106330E-03   1.325405E+02    9.087789E-03   1.329630E+02    9.320283E-01  -1.268032E+02 
  1.390000E+03    9.347462E-01  -1.316232E+02    9.124528E-03   1.322654E+02    9.099084E-03   1.326340E+02    9.319921E-01  -1.268422E+02 
  1.390250E+03    9.346936E-01  -1.316541E+02    9.150411E-03   1.319219E+02    9.128722E-03   1.322286E+02    9.317649E-01  -1.268687E+02 
  1.390500E+03    9.346587E-01  -1.316912E+02    9.181249E-03   1.312963E+02    9.144600E-03   1.316394E+02    9.315771E-01  -1.269076E+02 
  1.390750E+03    9.346585E-01  -1.317313E+02    9.164564E-03   1.307558E+02    9.135109E-03   1.311650E+02    9.314731E-01  -1.269387E+02 
  1.391000E+03    9.347044E-01  -1.317732E+02    9.175684E-03   1.303109E+02    9.153609E-03   1.306278E+02    9.313641E-01  -1.269723E+02 
  1.391250E+03    9.347534E-01  -1.318117E+02    9.133028E-03   1.297347E+02    9.098233E-03   1.300476E+02    9.312926E-01  -1.270043E+02 
  1.391500E+03    9.347664E-01  -1.318388E+02    9.141355E-03   1.293280E+02    9.113730E-03   1.296295E+02    9.311347E-01  -1.270288E+02 
  1.391750E+03    9.347215E-01  -1.318748E+02    9.075063E-03   1.286308E+02    9.051573E-03   1.288857E+02    9.308107E-01  -1.270601E+02 
  1.392000E+03    9.346506E-01  -1.319134E+02    9.033705E-03   1.283575E+02    9.001706E-03   1.287046E+02    9.307036E-01  -1.270904E+02 
  1.392250E+03    9.345449E-01  -1.319493E+02    8.994188E-03   1.276786E+02    8.966229E-03   1.280344E+02    9.306294E-01  -1.271141E+02 
  1.392500E+03    9.345573E-01  -1.319966E+02    8.896203E-03   1.271012E+02    8.875754E-03   1.274567E+02    9.306988E-01  -1.271523E+02 
  1.392750E+03    9.346738E-01  -1.320392E+02    8.820158E-03   1.268152E+02    8.792332E-03   1.270967E+02    9.306244E-01  -1.271935E+02 
  1.393000E+03    9.345685E-01  -1.320892E+02    8.720080E-03   1.263318E+02    8.698694E-03   1.266745E+02    9.305138E-01  -1.272249E+02 
  1.393250E+03    9.344630E-01  -1.321292E+02    8.603133E-03   1.261769E+02    8.582423E-03   1.265564E+02    9.303314E-01  -1.272603E+02 
  1.393500E+03    9.344082E-01  -1.321787E+02    8.539487E-03   1.258919E+02    8.505898E-03   1.262122E+02    9.303584E-01  -1.272904E+02 
  1.393750E+03    9.342274E-01  -1.322297E+02    8.392148E-03   1.256699E+02    8.378272E-03   1.260234E+02    9.304390E-01  -1.273364E+02 
  1.394000E+03    9.340416E-01  -1.322800E+02    8.322805E-03   1.256509E+02    8.285898E-03   1.259952E+02    9.302965E-01  -1.273813E+02 
  1.394250E+03    9.340035E-01  -1.323252E+02    8.171317E-03   1.253674E+02    8.152586E-03   1.257243E+02    9.301119E-01  -1.274166E+02 
  1.394500E+03    9.338824E-01  -1.323547E+02    8.047545E-03   1.255278E+02    8.017087E-03   1.258445E+02    9.298268E-01  -1.274496E+02 
  1.394750E+03    9.337566E-01  -1.324065E+02    7.930805E-03   1.255353E+02    7.907048E-03   1.260271E+02    9.296960E-01  -1.274664E+02 
  1.395000E+03    9.335646E-01  -1.324503E+02    7.769643E-03   1.258409E+02    7.740401E-03   1.262089E+02    9.297673E-01  -1.274983E+02 
  1.395250E+03    9.333879E-01  -1.325009E+02    7.646089E-03   1.265246E+02    7.628457E-03   1.268405E+02    9.298404E-01  -1.275375E+02 
  1.395500E+03    9.331630E-01  -1.325404E+02    7.556128E-03   1.268407E+02    7.529707E-03   1.272460E+02    9.297226E-01  -1.275754E+02 
  1.395750E+03    9.330158E-01  -1.325734E+02    7.426104E-03   1.273888E+02    7.400056E-03   1.277756E+02    9.295467E-01  -1.276078E+02 
  1.396000E+03    9.328539E-01  -1.326007E+02    7.297794E-03   1.281134E+02    7.289743E-03   1.283805E+02    9.293206E-01  -1.276345E+02 
  1.396250E+03    9.326876E-01  -1.326381E+02    7.184116E-03   1.290081E+02    7.165146E-03   1.293498E+02    9.293657E-01  -1.276660E+02 
  1.396500E+03    9.325160E-01  -1.326867E+02    7.096148E-03   1.301805E+02    7.077666E-03   1.305044E+02    9.292230E-01  -1.277013E+02 
  1.396750E+03    9.322734E-01  -1.327260E+02    7.026805E-03   1.315722E+02    7.006959E-03   1.318470E+02    9.290843E-01  -1.277381E+02 
  1.397000E+03    9.321566E-01  -1.327568E+02    7.014429E-03   1.331729E+02    6.984387E-03   1.334594E+02    9.288188E-01  -1.277576E+02 
  1.397250E+03    9.318829E-01  -1.327818E+02    7.067213E-03   1.341745E+02    7.039048E-03   1.345439E+02    9.287176E-01  -1.277764E+02 
  1.397500E+03    9.316568E-01  -1.328097E+02    7.051529E-03   1.349564E+02    7.038498E-03   1.353350E+02    9.286957E-01  -1.278001E+02 
  1.397750E+03    9.314688E-01  -1.328539E+02    7.067302E-03   1.358119E+02    7.048029E-03   1.361560E+02    9.287315E-01  -1.278319E+02 
  1.398000E+03    9.311776E-01  -1.329019E+02    7.036763E-03   1.365531E+02    7.016709E-03   1.369499E+02    9.288442E-01  -1.278672E+02 
  1.398250E+03    9.309295E-01  -1.329356E+02    7.018447E-03   1.378628E+02    6.995954E-03   1.381868E+02    9.287082E-01  -1.279025E+02 
  1.398500E+03    9.307508E-01  -1.329639E+02    7.043108E-03   1.391790E+02    7.025473E-03   1.394835E+02    9.285244E-01  -1.279219E+02 
  1.398750E+03    9.304801E-01  -1.329962E+02    7.107924E-03   1.404566E+02    7.085302E-03   1.407824E+02    9.286268E-01  -1.279322E+02 
  1.399000E+03    9.302442E-01  -1.330244E+02    7.197128E-03   1.415032E+02    7.178450E-03   1.418648E+02    9.288044E-01  -1.279672E+02 
  1.399250E+03    9.300460E-01  -1.330636E+02    7.284811E-03   1.421538E+02    7.265860E-03   1.424983E+02    9.289329E-01  -1.280018E+02 
  1.399500E+03    9.299120E-01  -1.330934E+02    7.347756E-03   1.429078E+02    7.336707E-03   1.433262E+02    9.289931E-01  -1.280234E+02 
  1.399750E+03    9.296970E-01  -1.331211E+02    7.425535E-03   1.434920E+02    7.401356E-03   1.437885E+02    9.290121E-01  -1.280625E+02 
  1.400000E+03    9.295589E-01  -1.331423E+02    7.452789E-03   1.444093E+02    7.443428E-03   1.447506E+02    9.290396E-01  -1.280766E+02 
  1.400250E+03    9.294361E-01  -1.331700E+02    7.557628E-03   1.453988E+02    7.542031E-03   1.457064E+02    9.291666E-01  -1.281104E+02 
  1.400500E+03    9.292680E-01  -1.332053E+02    7.669504E-03   1.463281E+02    7.641731E-03   1.465253E+02    9.293224E-01  -1.281493E+02 
  1.400750E+03    9.290380E-01  -1.332323E+02    7.802495E-03   1.469146E+02    7.780851E-03   1.472420E+02    9.294911E-01  -1.281756E+02 
  1.401000E+03    9.289352E-01  -1.332645E+02    7.929627E-03   1.475109E+02    7.912282E-03   1.477808E+02    9.295575E-01  -1.282048E+02 
  1.401250E+03    9.288733E-01  -1.332846E+02    8.050458E-03   1.479064E+02    8.024515E-03   1.483023E+02    9.297681E-01  -1.282344E+02 
  1.401500E+03    9.287409E-01  -1.333159E+02    8.159162E-03   1.485373E+02    8.134933E-03   1.488615E+02    9.298775E-01  -1.282728E+02 
  1.401750E+03    9.285570E-01  -1.333383E+02    8.298494E-03   1.493179E+02    8.265567E-03   1.496348E+02    9.300398E-01  -1.283125E+02 
  1.402000E+03    9.284757E-01  -1.333660E+02    8.475539E-03   1.500815E+02    8.447483E-03   1.503657E+02    9.301930E-01  -1.283533E+02 
  1.402250E+03    9.283610E-01  -1.333902E+02    8.721831E-03   1.504694E+02    8.695552E-03   1.507751E+02    9.302689E-01  -1.283989E+02 
  1.402500E+03    9.283803E-01  -1.334089E+02    8.936629E-03   1.505306E+02    8.910339E-03   1.507714E+02    9.303953E-01  -1.284339E+02 
  1.402750E+03    9.284264E-01  -1.334399E+02    9.166045E-03   1.504333E+02    9.127784E-03   1.507754E+02    9.305060E-01  -1.284705E+02 
  1.403000E+03    9.284100E-01  -1.334641E+02    9.378167E-03   1.501919E+02    9.357623E-03   1.504776E+02    9.307408E-01  -1.285131E+02 
  1.403250E+03    9.284708E-01  -1.335086E+02    9.559932E-03   1.497690E+02    9.531438E-03   1.500882E+02    9.308515E-01  -1.285607E+02 
  1.403500E+03    9.285765E-01  -1.335520E+02    9.732469E-03   1.494842E+02    9.699194E-03   1.498252E+02    9.309994E-01  -1.286111E+02 
  1.403750E+03    9.284771E-01  -1.335797E+02    9.963632E-03   1.493059E+02    9.928785E-03   1.496264E+02    9.310591E-01  -1.286482E+02 
  1.404000E+03    9.284486E-01  -1.336158E+02    1.016128E-02   1.487036E+02    1.013747E-02   1.490174E+02    9.312146E-01  -1.286890E+02 
  1.404250E+03    9.284812E-01  -1.336420E+02    1.033075E-02   1.480631E+02    1.030648E-02   1.483782E+02    9.312711E-01  -1.287299E+02 
  1.404500E+03    9.284605E-01  -1.336858E+02    1.050135E-02   1.474619E+02    1.047618E-02   1.477378E+02    9.314003E-01  -1.287818E+02 
  1.404750E+03    9.284640E-01  -1.337302E+02    1.064663E-02   1.468055E+02    1.060408E-02   1.471251E+02    9.312994E-01  -1.288262E+02 
  1.405000E+03    9.282473E-01  -1.337645E+02    1.075496E-02   1.463070E+02    1.073046E-02   1.465866E+02    9.313694E-01  -1.288761E+02 
  1.405250E+03    9.281818E-01  -1.337990E+02    1.092556E-02   1.458960E+02    1.088216E-02   1.462718E+02    9.312915E-01  -1.289113E+02 
  1.405500E+03    9.280517E-01  -1.338233E+02    1.111961E-02   1.453888E+02    1.108352E-02   1.457074E+02    9.312127E-01  -1.289548E+02 
  1.405750E+03    9.279965E-01  -1.338552E+02    1.132507E-02   1.445287E+02    1.129293E-02   1.449608E+02    9.313024E-01  -1.290035E+02 
  1.406000E+03    9.279845E-01  -1.338967E+02    1.147950E-02   1.436142E+02    1.145018E-02   1.439591E+02    9.312962E-01  -1.290509E+02 
  1.406250E+03    9.278523E-01  -1.339330E+02    1.164921E-02   1.426762E+02    1.161751E-02   1.429908E+02    9.313095E-01  -1.290920E+02 
  1.406500E+03    9.278756E-01  -1.339571E+02    1.178079E-02   1.415352E+02    1.172998E-02   1.418791E+02    9.312161E-01  -1.291292E+02 
  1.406750E+03    9.277936E-01  -1.339849E+02    1.186764E-02   1.405326E+02    1.182801E-02   1.408127E+02    9.311690E-01  -1.291732E+02 
  1.407000E+03    9.277646E-01  -1.340149E+02    1.192882E-02   1.396696E+02    1.189311E-02   1.400538E+02    9.311538E-01  -1.292263E+02 
  1.407250E+03    9.275655E-01  -1.340669E+02    1.204254E-02   1.388157E+02    1.200454E-02   1.391498E+02    9.312326E-01  -1.292818E+02 
  1.407500E+03    9.274343E-01  -1.340950E+02    1.216626E-02   1.378230E+02    1.213200E-02   1.382125E+02    9.311396E-01  -1.293189E+02 
  1.407750E+03    9.274415E-01  -1.341247E+02    1.227211E-02   1.367585E+02    1.224044E-02   1.370927E+02    9.311001E-01  -1.293750E+02 
  1.408000E+03    9.273667E-01  -1.341526E+02    1.237967E-02   1.356163E+02    1.233255E-02   1.359022E+02    9.310755E-01  -1.294121E+02 
  1.408250E+03    9.272460E-01  -1.341805E+02    1.244837E-02   1.341919E+02    1.240061E-02   1.345052E+02    9.311594E-01  -1.294643E+02 
  1.408500E+03    9.272644E-01  -1.342087E+02    1.244619E-02   1.327729E+02    1.240452E-02   1.331653E+02    9.311452E-01  -1.295155E+02 
  1.408750E+03    9.271489E-01  -1.342382E+02    1.241401E-02   1.316147E+02    1.237630E-02   1.319337E+02    9.311203E-01  -1.295709E+02 
  1.409000E+03    9.273461E-01  -1.342685E+02    1.238098E-02   1.304056E+02    1.233543E-02   1.307899E+02    9.309773E-01  -1.296127E+02 
  1.409250E+03    9.274405E-01  -1.342956E+02    1.232728E-02   1.293032E+02    1.228821E-02   1.296719E+02    9.308953E-01  -1.296634E+02 
  1.409500E+03    9.276418E-01  -1.343258E+02    1.228520E-02   1.283291E+02    1.224292E-02   1.286429E+02    9.308308E-01  -1.297109E+02 
  1.409750E+03    9.277715E-01  -1.343627E+02    1.223051E-02   1.272724E+02    1.218671E-02   1.275786E+02    9.306162E-01  -1.297631E+02 
  1.410000E+03    9.277778E-01  -1.344087E+02    1.215025E-02   1.261895E+02    1.210725E-02   1.264807E+02    9.307263E-01  -1.298150E+02 
  1.410250E+03    9.280755E-01  -1.344432E+02    1.205673E-02   1.251805E+02    1.200273E-02   1.255338E+02    9.303950E-01  -1.298565E+02 
  1.410500E+03    9.281614E-01  -1.344819E+02    1.196327E-02   1.243601E+02    1.190896E-02   1.246907E+02    9.304551E-01  -1.298880E+02 
  1.410750E+03    9.283370E-01  -1.345171E+02    1.187048E-02   1.235873E+02    1.182283E-02   1.239079E+02    9.302427E-01  -1.299323E+02 
  1.411000E+03    9.284175E-01  -1.345545E+02    1.178374E-02   1.228119E+02    1.174665E-02   1.230497E+02    9.302759E-01  -1.299682E+02 
  1.411250E+03    9.284078E-01  -1.345995E+02    1.170039E-02   1.220056E+02    1.166338E-02   1.222418E+02    9.300740E-01  -1.300158E+02 
  1.411500E+03    9.285184E-01  -1.346450E+02    1.161827E-02   1.209943E+02    1.157848E-02   1.212977E+02    9.299950E-01  -1.300561E+02 
  1.411750E+03    9.285768E-01  -1.346865E+02    1.148506E-02   1.200834E+02    1.146033E-02   1.203800E+02    9.298457E-01  -1.300924E+02 
  1.412000E+03    9.284988E-01  -1.347266E+02    1.135427E-02   1.191924E+02    1.132552E-02   1.195376E+02    9.296917E-01  -1.301301E+02 
  1.412250E+03    9.285999E-01  -1.347663E+02    1.120380E-02   1.184900E+02    1.117617E-02   1.188131E+02    9.295725E-01  -1.301577E+02 
  1.412500E+03    9.286352E-01  -1.348134E+02    1.107767E-02   1.177056E+02    1.104378E-02   1.180150E+02    9.295298E-01  -1.302086E+02 
  1.412750E+03    9.286828E-01  -1.348507E+02    1.092687E-02   1.169294E+02    1.088627E-02   1.172690E+02    9.294071E-01  -1.302413E+02 
  1.413000E+03    9.287656E-01  -1.349107E+02    1.074312E-02   1.162780E+02    1.071018E-02   1.165931E+02    9.294202E-01  -1.302834E+02 
  1.413250E+03    9.287930E-01  -1.349476E+02    1.058450E-02   1.157450E+02    1.053773E-02   1.160749E+02    9.293454E-01  -1.303102E+02 
  1.413500E+03    9.289318E-01  -1.349928E+02    1.038838E-02   1.151767E+02    1.035873E-02   1.154600E+02    9.294093E-01  -1.303422E+02 
  1.413750E+03    9.288992E-01  -1.350371E+02    1.020199E-02   1.148052E+02    1.017517E-02   1.152421E+02    9.294612E-01  -1.303903E+02 
  1.414000E+03    9.289717E-01  -1.350925E+02    1.003531E-02   1.146086E+02    1.000699E-02   1.149045E+02    9.294615E-01  -1.304308E+02 
  1.414250E+03    9.289186E-01  -1.351465E+02    9.891963E-03   1.143274E+02    9.859843E-03   1.146047E+02    9.295572E-01  -1.304774E+02 
  1.414500E+03    9.289481E-01  -1.351866E+02    9.751665E-03   1.140240E+02    9.716733E-03   1.144481E+02    9.294609E-01  -1.305192E+02 
