! Matrix data file written by TouchstoneData, EPCOS AG
! FILENAME: "B3402_WB.s2p"
! COMMENT: "PCB2023"
! INFO: nport=2, nfreq=1601
! DATE: "Fri Jan 10 2014"
! USER: "Hiroshi Tanaka"
!
! port | pin | signal
! -----|-----|--------
!   1  |  1  |  in
!   2  |  4  |  outa
! --------------------
! 
# MHZ S MA R 50
! freq  magS11 angS11  magS21 angS21  magS12 angS12  magS22 angS22
  1.000000E+01    9.938888E-01  -1.347423E+00    1.536975E-04   1.173698E+02    1.271410E-04   1.346786E+02    9.944913E-01  -1.316309E+00 
  1.186875E+01    9.938888E-01  -1.805096E+00    4.049280E-05  -1.558482E+01    4.800578E-05   1.031444E+01    9.944913E-01  -1.757870E+00 
  1.373750E+01    9.910466E-01  -2.222580E+00    2.748585E-05   1.647498E+02    2.828019E-05   1.606697E+02    9.942413E-01  -1.866983E+00 
  1.560625E+01    9.946452E-01  -2.434599E+00    1.091217E-05   1.240227E+01    1.073142E-05  -5.025902E+00    9.977988E-01  -2.008592E+00 
  1.747500E+01    9.928242E-01  -2.633544E+00    1.076816E-05   5.403441E+01    4.438984E-05   1.939740E+01    9.982213E-01  -2.136836E+00 
  1.934375E+01    9.925344E-01  -2.894421E+00    9.741460E-05   8.893554E+01    8.900429E-05   1.026748E+02    9.984008E-01  -2.326787E+00 
  2.121250E+01    9.931432E-01  -3.248960E+00    8.321653E-05  -1.225693E+02    8.417238E-05  -1.298888E+02    9.984008E-01  -2.646389E+00 
  2.308125E+01    9.932181E-01  -3.491057E+00    5.661488E-05   4.691430E+01    2.170766E-05   7.287857E+01    9.981548E-01  -2.933672E+00 
  2.495000E+01    9.921611E-01  -3.662642E+00    6.891480E-05   7.503077E+01    9.160752E-05   8.062758E+01    9.981548E-01  -3.200406E+00 
  2.681875E+01    9.936851E-01  -3.987747E+00    3.093586E-06   1.844718E+01    3.032980E-05  -1.274980E+02    9.995994E-01  -3.458421E+00 
  2.868750E+01    9.941196E-01  -3.867299E+00    9.305819E-05   8.059640E+01    5.871187E-05   8.293932E+01    9.981123E-01  -3.691323E+00 
  3.055625E+01    9.973809E-01  -4.540789E+00    6.701816E-05   9.189050E+01    3.791554E-05   9.986383E+01    9.987425E-01  -3.817346E+00 
  3.242500E+01    9.949601E-01  -4.669584E+00    1.967852E-05   5.750649E+01    2.665461E-05   1.711875E+02    9.991490E-01  -4.091651E+00 
  3.429375E+01    9.942185E-01  -5.063379E+00    6.162161E-05   4.794230E+01    5.486740E-05   7.816105E+01    9.982149E-01  -4.459585E+00 
  3.616250E+01    9.964066E-01  -5.448361E+00    6.275337E-05   9.282272E+01    4.357752E-05   1.145983E+02    9.973197E-01  -4.646948E+00 
  3.803125E+01    9.981660E-01  -5.661251E+00    1.384586E-04   3.703767E+01    1.475922E-04   2.864776E+01    9.991495E-01  -4.890328E+00 
  3.990000E+01    9.968959E-01  -5.979874E+00    7.999785E-05   1.052447E+02    1.000540E-04   9.033276E+01    9.989720E-01  -5.305869E+00 
  4.176875E+01    9.972790E-01  -6.279022E+00    4.666158E-05  -3.594416E+01    4.680125E-05  -2.138117E+01    9.987949E-01  -5.507216E+00 
  4.363750E+01    9.963714E-01  -6.518909E+00    6.235381E-05   5.615285E-01    4.932642E-05   4.456377E+01    9.979399E-01  -5.691284E+00 
  4.550625E+01    9.964577E-01  -6.831892E+00    1.088178E-04   7.043466E+01    1.185750E-04   8.090540E+01    9.972578E-01  -6.008772E+00 
  4.737500E+01    9.966253E-01  -7.077174E+00    1.175622E-04   4.719276E+01    9.719901E-05   4.019106E+01    9.976416E-01  -6.175781E+00 
  4.924375E+01    9.955465E-01  -7.242606E+00    8.020431E-05   8.186298E+01    1.075064E-04   7.814481E+01    9.967736E-01  -6.300306E+00 
  5.111250E+01    9.952215E-01  -7.541339E+00    6.787511E-05   7.002554E+01    7.767896E-05   6.806630E+01    9.965282E-01  -6.555768E+00 
  5.298125E+01    9.959247E-01  -7.893753E+00    9.979010E-05   7.697751E+01    1.024191E-04   8.328480E+01    9.974652E-01  -6.869427E+00 
  5.485000E+01    9.956187E-01  -8.176918E+00    7.292265E-05   1.177280E+02    8.708732E-05   1.184910E+02    9.965199E-01  -7.096858E+00 
  5.671875E+01    9.955582E-01  -8.437348E+00    5.747332E-05   9.872827E+01    4.791425E-05   8.985131E+01    9.968230E-01  -7.339666E+00 
  5.858750E+01    9.953011E-01  -8.693444E+00    4.925637E-05   7.161722E+01    6.145238E-05   6.469281E+01    9.970700E-01  -7.579894E+00 
  6.045625E+01    9.951867E-01  -8.955594E+00    4.246773E-05   1.002658E+02    5.165909E-05   9.562858E+01    9.969598E-01  -7.802418E+00 
  6.232500E+01    9.949447E-01  -9.217104E+00    6.462403E-05   3.283344E+01    5.422050E-05   3.594669E+01    9.969379E-01  -8.063927E+00 
  6.419375E+01    9.942306E-01  -9.433660E+00    5.377935E-05   1.202564E+02    7.134653E-05   1.163952E+02    9.966839E-01  -8.224574E+00 
  6.606250E+01    9.946225E-01  -9.728588E+00    8.221119E-05   4.881942E+01    7.971970E-05   4.381088E+01    9.977022E-01  -8.510217E+00 
  6.793125E+01    9.933850E-01  -1.001623E+01    1.030981E-04   9.098406E+01    1.003095E-04   8.532159E+01    9.966332E-01  -8.746591E+00 
  6.980000E+01    9.931170E-01  -1.033227E+01    9.415649E-05   8.347746E+01    8.784695E-05   8.706504E+01    9.973437E-01  -9.062608E+00 
  7.166875E+01    9.926835E-01  -1.055626E+01    5.377741E-05   4.508109E+01    4.819223E-05   5.297840E+01    9.968884E-01  -9.258764E+00 
  7.353750E+01    9.916946E-01  -1.075799E+01    9.069881E-05   7.615052E+01    8.508375E-05   7.633517E+01    9.966101E-01  -9.435842E+00 
  7.540625E+01    9.915628E-01  -1.102040E+01    6.532048E-05   1.331816E+02    6.986395E-05   1.310831E+02    9.963549E-01  -9.659438E+00 
  7.727500E+01    9.913431E-01  -1.129000E+01    9.616737E-05   7.061263E+01    8.766844E-05   6.759842E+01    9.968965E-01  -9.892160E+00 
  7.914375E+01    9.912219E-01  -1.155896E+01    8.331547E-05   7.347460E+01    9.596313E-05   7.784958E+01    9.968040E-01  -1.012981E+01 
  8.101250E+01    9.903040E-01  -1.184004E+01    8.265833E-05   4.405306E+01    8.296066E-05   5.384839E+01    9.967602E-01  -1.037477E+01 
  8.288125E+01    9.894370E-01  -1.205533E+01    5.408698E-05   8.953897E+01    6.550280E-05   9.220010E+01    9.962050E-01  -1.053929E+01 
  8.475000E+01    9.890348E-01  -1.233152E+01    1.077893E-04   8.321716E+01    8.991241E-05   7.323529E+01    9.965185E-01  -1.076362E+01 
  8.661875E+01    9.887536E-01  -1.257587E+01    9.455532E-05   7.419514E+01    9.544819E-05   7.446437E+01    9.964651E-01  -1.102641E+01 
  8.848750E+01    9.873796E-01  -1.283390E+01    1.079406E-04   6.664736E+01    1.041440E-04   6.640478E+01    9.964601E-01  -1.122849E+01 
  9.035625E+01    9.872607E-01  -1.311009E+01    1.254701E-04   9.459416E+01    1.341173E-04   8.963747E+01    9.965098E-01  -1.149415E+01 
  9.222500E+01    9.862672E-01  -1.338529E+01    8.906535E-05   4.918192E+01    9.154591E-05   5.823104E+01    9.957860E-01  -1.177597E+01 
  9.409375E+01    9.857515E-01  -1.360808E+01    1.332948E-04   9.436462E+01    1.244242E-04   9.489442E+01    9.956305E-01  -1.201481E+01 
  9.596250E+01    9.859947E-01  -1.385322E+01    6.390778E-05   9.785076E+01    7.307446E-05   9.752878E+01    9.963183E-01  -1.218434E+01 
  9.783125E+01    9.862141E-01  -1.406019E+01    1.230244E-04   6.315813E+01    1.332105E-04   7.034113E+01    9.967252E-01  -1.238899E+01 
  9.970000E+01    9.854066E-01  -1.433478E+01    9.961105E-05   6.693674E+01    9.007556E-05   7.198881E+01    9.958258E-01  -1.261828E+01 
  1.015687E+02    9.851214E-01  -1.457199E+01    9.335222E-05   8.199024E+01    9.685002E-05   8.318319E+01    9.962488E-01  -1.285258E+01 
  1.034375E+02    9.851704E-01  -1.483173E+01    8.802235E-05   1.234353E+01    8.414797E-05   1.138214E+01    9.966246E-01  -1.307226E+01 
  1.053063E+02    9.847893E-01  -1.511504E+01    1.369581E-04   8.775939E+01    1.310393E-04   8.174095E+01    9.965281E-01  -1.332760E+01 
  1.071750E+02    9.846426E-01  -1.538595E+01    1.404800E-04   8.747642E+01    1.395755E-04   8.847504E+01    9.963907E-01  -1.355286E+01 
  1.090438E+02    9.838656E-01  -1.565026E+01    1.000304E-04   6.833833E+01    1.181692E-04   7.381158E+01    9.959691E-01  -1.377911E+01 
  1.109125E+02    9.844379E-01  -1.586525E+01    1.112511E-04   6.898818E+01    1.028502E-04   7.273560E+01    9.959643E-01  -1.401651E+01 
  1.127812E+02    9.846890E-01  -1.610241E+01    8.057699E-05   6.611220E+01    7.283834E-05   6.407914E+01    9.964508E-01  -1.424370E+01 
  1.146500E+02    9.848781E-01  -1.638246E+01    8.963233E-05   8.305660E+01    9.716431E-05   8.069584E+01    9.964824E-01  -1.446071E+01 
  1.165187E+02    9.848013E-01  -1.664092E+01    1.100577E-04   8.608413E+01    1.124229E-04   8.558993E+01    9.963934E-01  -1.470844E+01 
  1.183875E+02    9.848565E-01  -1.691113E+01    7.851071E-05   6.080278E+01    7.652210E-05   5.367553E+01    9.960161E-01  -1.492703E+01 
  1.202562E+02    9.852733E-01  -1.717317E+01    1.476644E-04   7.967664E+01    1.505606E-04   7.878368E+01    9.962115E-01  -1.514727E+01 
  1.221250E+02    9.853417E-01  -1.744856E+01    7.101637E-05   6.523469E+01    8.136037E-05   6.041694E+01    9.962655E-01  -1.540432E+01 
  1.239938E+02    9.857376E-01  -1.771927E+01    1.343950E-04   6.536218E+01    1.321293E-04   6.491195E+01    9.962429E-01  -1.560903E+01 
  1.258625E+02    9.860959E-01  -1.796029E+01    1.175157E-04   5.634512E+01    1.167120E-04   6.068353E+01    9.958253E-01  -1.584573E+01 
  1.277313E+02    9.862314E-01  -1.822546E+01    1.110154E-04   7.673586E+01    1.202636E-04   6.882842E+01    9.957523E-01  -1.606527E+01 
  1.296000E+02    9.871378E-01  -1.849547E+01    1.120759E-04   6.802296E+01    1.149364E-04   6.667335E+01    9.966017E-01  -1.626844E+01 
  1.314688E+02    9.877458E-01  -1.872665E+01    1.566468E-04   1.035361E+02    1.626996E-04   9.961236E+01    9.964922E-01  -1.646644E+01 
  1.333375E+02    9.877905E-01  -1.903994E+01    7.670573E-05   7.165542E+01    7.325675E-05   7.169699E+01    9.961077E-01  -1.674275E+01 
  1.352063E+02    9.881770E-01  -1.931920E+01    1.511434E-04   8.059323E+01    1.401620E-04   8.412794E+01    9.959397E-01  -1.699539E+01 
  1.370750E+02    9.885208E-01  -1.953053E+01    1.241463E-04   7.209959E+01    1.298109E-04   6.997731E+01    9.960051E-01  -1.716472E+01 
  1.389437E+02    9.884844E-01  -1.981849E+01    1.295982E-04   5.900206E+01    1.343600E-04   6.317172E+01    9.956894E-01  -1.740039E+01 
  1.408125E+02    9.889519E-01  -2.008516E+01    1.497735E-04   6.286869E+01    1.573767E-04   6.079121E+01    9.957537E-01  -1.763452E+01 
  1.426813E+02    9.895627E-01  -2.037539E+01    9.975807E-05   4.654305E+01    9.621565E-05   5.041803E+01    9.957800E-01  -1.786357E+01 
  1.445500E+02    9.897376E-01  -2.068009E+01    1.325739E-04   7.663845E+01    1.371041E-04   7.359334E+01    9.956089E-01  -1.809736E+01 
  1.464187E+02    9.896847E-01  -2.094266E+01    1.268566E-04   7.605678E+01    1.341687E-04   7.449734E+01    9.954562E-01  -1.830590E+01 
  1.482875E+02    9.898635E-01  -2.122570E+01    1.019915E-04   7.064967E+01    1.080821E-04   7.477657E+01    9.953394E-01  -1.854766E+01 
  1.501562E+02    9.901529E-01  -2.150934E+01    1.498202E-04   6.376788E+01    1.559017E-04   6.387171E+01    9.950888E-01  -1.878428E+01 
  1.520250E+02    9.904908E-01  -2.178276E+01    9.127846E-05   7.136959E+01    9.372607E-05   7.080335E+01    9.952131E-01  -1.901699E+01 
  1.538938E+02    9.906959E-01  -2.205110E+01    1.254332E-04   6.074224E+01    1.209996E-04   6.076636E+01    9.951548E-01  -1.923270E+01 
  1.557625E+02    9.907515E-01  -2.232153E+01    1.147829E-04   7.228862E+01    1.181436E-04   6.738246E+01    9.952496E-01  -1.945062E+01 
  1.576312E+02    9.907430E-01  -2.259090E+01    1.118350E-04   6.926569E+01    1.261293E-04   6.667512E+01    9.951524E-01  -1.969198E+01 
  1.595000E+02    9.907359E-01  -2.286446E+01    1.373045E-04   4.448535E+01    1.320611E-04   4.205619E+01    9.951653E-01  -1.994152E+01 
  1.613688E+02    9.908659E-01  -2.313959E+01    1.453700E-04   7.276734E+01    1.479512E-04   6.845138E+01    9.953134E-01  -2.015374E+01 
  1.632375E+02    9.900493E-01  -2.342193E+01    1.332204E-04   6.015970E+01    1.344001E-04   5.696040E+01    9.945490E-01  -2.038268E+01 
  1.651062E+02    9.898527E-01  -2.367841E+01    1.301725E-04   6.302267E+01    1.315212E-04   6.341135E+01    9.942302E-01  -2.058120E+01 
  1.669750E+02    9.898844E-01  -2.391773E+01    1.587702E-04   7.490762E+01    1.660132E-04   7.490523E+01    9.945707E-01  -2.080416E+01 
  1.688438E+02    9.892439E-01  -2.420165E+01    1.312135E-04   7.196892E+01    1.468804E-04   7.172603E+01    9.940934E-01  -2.104713E+01 
  1.707125E+02    9.887582E-01  -2.447574E+01    1.372812E-04   5.189280E+01    1.386948E-04   5.473673E+01    9.939941E-01  -2.128916E+01 
  1.725813E+02    9.884089E-01  -2.471759E+01    1.074370E-04   6.171441E+01    1.084464E-04   6.403518E+01    9.939395E-01  -2.150151E+01 
  1.744500E+02    9.876686E-01  -2.494495E+01    7.010593E-05   6.756569E+01    6.465628E-05   5.822736E+01    9.936576E-01  -2.167601E+01 
  1.763187E+02    9.876305E-01  -2.519168E+01    1.344473E-04   7.233300E+01    1.344781E-04   7.172987E+01    9.937043E-01  -2.192369E+01 
  1.781875E+02    9.880955E-01  -2.552689E+01    1.570167E-04   7.312375E+01    1.483769E-04   7.506585E+01    9.945928E-01  -2.226084E+01 
  1.800563E+02    9.875784E-01  -2.571831E+01    1.606514E-04   5.130838E+01    1.523698E-04   5.201387E+01    9.943550E-01  -2.242449E+01 
  1.819250E+02    9.870127E-01  -2.594658E+01    1.341306E-04   6.940562E+01    1.358033E-04   6.650486E+01    9.940193E-01  -2.263991E+01 
  1.837937E+02    9.869265E-01  -2.617746E+01    1.201104E-04   6.395123E+01    1.363689E-04   6.104589E+01    9.943540E-01  -2.285412E+01 
  1.856625E+02    9.862540E-01  -2.644136E+01    1.036426E-04   7.179863E+01    1.107223E-04   7.427173E+01    9.940930E-01  -2.309535E+01 
  1.875312E+02    9.863113E-01  -2.670725E+01    1.616282E-04   8.853725E+01    1.642435E-04   8.777461E+01    9.943171E-01  -2.330898E+01 
  1.894000E+02    9.860978E-01  -2.693796E+01    1.395609E-04   6.652006E+01    1.466824E-04   6.146784E+01    9.943365E-01  -2.352995E+01 
  1.912688E+02    9.847979E-01  -2.719493E+01    1.479721E-04   6.229523E+01    1.512535E-04   6.391704E+01    9.935743E-01  -2.380001E+01 
  1.931375E+02    9.838079E-01  -2.739931E+01    1.103221E-04   7.076093E+01    1.121008E-04   7.138771E+01    9.924789E-01  -2.399609E+01 
  1.950062E+02    9.838411E-01  -2.768403E+01    9.767663E-05   4.888528E+01    1.016673E-04   4.853312E+01    9.929611E-01  -2.425814E+01 
  1.968750E+02    9.842486E-01  -2.802685E+01    1.365029E-04   7.674920E+01    1.319455E-04   7.344990E+01    9.941139E-01  -2.457112E+01 
  1.987438E+02    9.834549E-01  -2.829788E+01    1.209505E-04   5.326944E+01    1.277191E-04   5.570336E+01    9.938905E-01  -2.482109E+01 
  2.006125E+02    9.826443E-01  -2.848612E+01    1.556749E-04   6.284244E+01    1.546398E-04   6.379377E+01    9.928449E-01  -2.501171E+01 
  2.024812E+02    9.818273E-01  -2.877015E+01    1.267209E-04   7.385178E+01    1.288270E-04   7.490325E+01    9.930621E-01  -2.524593E+01 
  2.043500E+02    9.821071E-01  -2.898043E+01    1.038070E-04   6.980957E+01    9.620904E-05   6.177701E+01    9.931473E-01  -2.547821E+01 
  2.062188E+02    9.821011E-01  -2.921069E+01    1.354015E-04   7.364737E+01    1.300425E-04   7.396069E+01    9.934177E-01  -2.571783E+01 
  2.080875E+02    9.819650E-01  -2.945407E+01    1.067764E-04   6.827689E+01    1.005115E-04   6.616343E+01    9.931294E-01  -2.596705E+01 
  2.099563E+02    9.823744E-01  -2.975792E+01    1.205402E-04   6.102212E+01    1.243233E-04   6.022548E+01    9.929856E-01  -2.620804E+01 
  2.118250E+02    9.823482E-01  -2.995498E+01    1.487157E-04   5.473061E+01    1.622917E-04   5.756646E+01    9.928474E-01  -2.647211E+01 
  2.136937E+02    9.822500E-01  -3.022573E+01    1.188537E-04   4.759061E+01    1.230705E-04   4.474626E+01    9.927959E-01  -2.669473E+01 
  2.155625E+02    9.822209E-01  -3.055617E+01    1.060856E-04   4.429276E+01    1.068330E-04   4.366266E+01    9.926972E-01  -2.693784E+01 
  2.174313E+02    9.827461E-01  -3.083627E+01    1.259839E-04   6.369591E+01    1.193524E-04   6.283249E+01    9.926955E-01  -2.718920E+01 
  2.193000E+02    9.824580E-01  -3.106330E+01    1.128033E-04   7.103013E+01    1.038377E-04   7.136422E+01    9.930662E-01  -2.741288E+01 
  2.211687E+02    9.823052E-01  -3.138715E+01    1.489954E-04   6.238759E+01    1.442458E-04   6.229359E+01    9.924565E-01  -2.767906E+01 
  2.230375E+02    9.822708E-01  -3.165740E+01    1.249457E-04   6.580349E+01    1.253968E-04   5.676756E+01    9.924674E-01  -2.792307E+01 
  2.249062E+02    9.825174E-01  -3.189155E+01    9.336404E-05   7.574050E+01    9.442090E-05   8.070461E+01    9.932195E-01  -2.817065E+01 
  2.267750E+02    9.826724E-01  -3.213762E+01    1.411280E-04   7.051043E+01    1.477805E-04   7.461292E+01    9.934271E-01  -2.840649E+01 
  2.286438E+02    9.826061E-01  -3.243518E+01    1.039313E-04   6.176126E+01    1.132421E-04   6.677162E+01    9.925441E-01  -2.863027E+01 
  2.305125E+02    9.832354E-01  -3.274907E+01    1.079155E-04   5.640314E+01    1.125715E-04   5.329935E+01    9.929319E-01  -2.888354E+01 
  2.323812E+02    9.838368E-01  -3.307664E+01    1.007937E-04   6.091182E+01    1.009220E-04   5.668248E+01    9.934223E-01  -2.916763E+01 
  2.342500E+02    9.840255E-01  -3.334678E+01    9.921763E-05   7.329101E+01    9.376516E-05   7.552199E+01    9.929529E-01  -2.942616E+01 
  2.361188E+02    9.841034E-01  -3.367014E+01    1.331552E-04   6.193306E+01    1.251054E-04   5.982899E+01    9.925347E-01  -2.968910E+01 
  2.379875E+02    9.841061E-01  -3.393133E+01    1.383668E-04   7.026991E+01    1.446043E-04   6.895041E+01    9.921870E-01  -2.993947E+01 
  2.398562E+02    9.846347E-01  -3.417499E+01    9.294947E-05   6.564685E+01    1.018568E-04   6.029841E+01    9.920917E-01  -3.017002E+01 
  2.417250E+02    9.847277E-01  -3.446497E+01    1.109447E-04   4.601205E+01    1.145345E-04   4.353281E+01    9.917912E-01  -3.042044E+01 
  2.435938E+02    9.851858E-01  -3.476920E+01    8.089770E-05   9.160659E+01    8.169133E-05   8.923652E+01    9.921062E-01  -3.067210E+01 
  2.454625E+02    9.855941E-01  -3.506294E+01    6.964763E-05   6.248951E+01    8.075232E-05   6.923268E+01    9.920318E-01  -3.094132E+01 
  2.473313E+02    9.858763E-01  -3.537244E+01    9.166132E-05   6.615743E+01    9.295100E-05   6.607886E+01    9.922134E-01  -3.121512E+01 
  2.492000E+02    9.859444E-01  -3.567382E+01    1.095196E-04   8.406830E+01    1.133042E-04   8.702617E+01    9.918524E-01  -3.151033E+01 
  2.510687E+02    9.858264E-01  -3.596181E+01    1.157499E-04   6.141855E+01    1.174056E-04   5.919981E+01    9.915409E-01  -3.176920E+01 
  2.529375E+02    9.856496E-01  -3.624448E+01    1.044123E-04   5.331871E+01    1.106388E-04   5.302925E+01    9.913927E-01  -3.199093E+01 
  2.548063E+02    9.858340E-01  -3.652533E+01    8.185129E-05   5.908621E+01    9.029659E-05   5.806473E+01    9.912699E-01  -3.221539E+01 
  2.566750E+02    9.862118E-01  -3.679704E+01    9.272432E-05   5.525093E+01    9.531524E-05   5.616394E+01    9.915514E-01  -3.248157E+01 
  2.585437E+02    9.865439E-01  -3.709009E+01    1.051910E-04   7.309958E+01    1.146534E-04   7.034308E+01    9.916912E-01  -3.275358E+01 
  2.604125E+02    9.866541E-01  -3.740145E+01    7.275225E-05   5.130350E+01    6.925900E-05   5.069261E+01    9.916457E-01  -3.303074E+01 
  2.622812E+02    9.863251E-01  -3.771185E+01    7.566681E-05   6.091378E+01    8.516625E-05   6.551800E+01    9.912943E-01  -3.331609E+01 
  2.641500E+02    9.860551E-01  -3.798772E+01    6.076154E-05   6.266053E+01    6.904976E-05   6.270410E+01    9.907598E-01  -3.356879E+01 
  2.660188E+02    9.857706E-01  -3.824909E+01    6.405040E-05   6.180849E+01    6.766598E-05   5.629149E+01    9.904208E-01  -3.382285E+01 
  2.678875E+02    9.859933E-01  -3.851833E+01    9.356197E-05   5.897958E+01    9.581322E-05   5.884520E+01    9.905224E-01  -3.406962E+01 
  2.697563E+02    9.862339E-01  -3.879500E+01    7.371089E-05   6.454627E+01    7.219459E-05   6.939896E+01    9.905830E-01  -3.432536E+01 
