! Matrix data file written by TouchstoneData, EPCOS AG
! FILENAME: "B3400_NB.s2p"
! COMMENT: "PCB328"
! INFO: nport=2, nfreq=1601
! DATE: "Mon Mar 03 2014"
! USER: "Hiroshi Tanaka"
!
! port | pin | signal
! -----|-----|--------
!   1  |  2  |  in
!   2  |  5  |  out
! --------------------
! 
# MHZ S MA R 50
! freq  magS11 angS11  magS21 angS21  magS12 angS12  magS22 angS22
  1.375000E+03    9.762585E-01  -7.356603E+01    1.262941E-03  -2.749516E+01    1.266136E-03  -2.708608E+01    9.525473E-01  -1.436615E+02 
  1.375250E+03    9.763102E-01  -7.359184E+01    1.249273E-03  -2.764518E+01    1.244271E-03  -2.749560E+01    9.525060E-01  -1.436956E+02 
  1.375500E+03    9.762449E-01  -7.361841E+01    1.237683E-03  -2.720959E+01    1.239649E-03  -2.711517E+01    9.525773E-01  -1.437190E+02 
  1.375750E+03    9.761248E-01  -7.363257E+01    1.219272E-03  -2.687992E+01    1.215716E-03  -2.700762E+01    9.524919E-01  -1.437441E+02 
  1.376000E+03    9.760272E-01  -7.364291E+01    1.197415E-03  -2.557124E+01    1.192645E-03  -2.559594E+01    9.524736E-01  -1.437707E+02 
  1.376250E+03    9.758728E-01  -7.365232E+01    1.195740E-03  -2.496035E+01    1.195498E-03  -2.470486E+01    9.523963E-01  -1.437882E+02 
  1.376500E+03    9.758136E-01  -7.367254E+01    1.187644E-03  -2.387465E+01    1.193130E-03  -2.393739E+01    9.524336E-01  -1.438275E+02 
  1.376750E+03    9.759199E-01  -7.369195E+01    1.180771E-03  -2.244230E+01    1.183263E-03  -2.258032E+01    9.524734E-01  -1.438498E+02 
  1.377000E+03    9.759832E-01  -7.371275E+01    1.204346E-03  -2.193088E+01    1.199079E-03  -2.123306E+01    9.523343E-01  -1.438723E+02 
  1.377250E+03    9.759319E-01  -7.372857E+01    1.217669E-03  -2.094313E+01    1.214581E-03  -2.079906E+01    9.522821E-01  -1.438877E+02 
  1.377500E+03    9.757684E-01  -7.374105E+01    1.224666E-03  -2.070697E+01    1.217396E-03  -2.016190E+01    9.524033E-01  -1.439098E+02 
  1.377750E+03    9.757100E-01  -7.375701E+01    1.234784E-03  -1.935489E+01    1.239712E-03  -1.916822E+01    9.524228E-01  -1.439394E+02 
  1.378000E+03    9.757434E-01  -7.377971E+01    1.259918E-03  -1.831742E+01    1.258898E-03  -1.846924E+01    9.524468E-01  -1.439638E+02 
  1.378250E+03    9.756719E-01  -7.380803E+01    1.286946E-03  -1.829918E+01    1.302628E-03  -1.819487E+01    9.524414E-01  -1.439860E+02 
  1.378500E+03    9.756663E-01  -7.382176E+01    1.310841E-03  -1.830088E+01    1.320099E-03  -1.861573E+01    9.524418E-01  -1.440035E+02 
  1.378750E+03    9.756259E-01  -7.383490E+01    1.330345E-03  -1.847145E+01    1.328809E-03  -1.862331E+01    9.523487E-01  -1.440201E+02 
  1.379000E+03    9.756163E-01  -7.385865E+01    1.352420E-03  -1.888582E+01    1.354608E-03  -1.905029E+01    9.524241E-01  -1.440583E+02 
  1.379250E+03    9.755693E-01  -7.388677E+01    1.370714E-03  -1.918717E+01    1.373753E-03  -1.924554E+01    9.524571E-01  -1.440888E+02 
  1.379500E+03    9.754715E-01  -7.391509E+01    1.389662E-03  -1.923053E+01    1.383563E-03  -1.920113E+01    9.524641E-01  -1.441147E+02 
  1.379750E+03    9.753074E-01  -7.392426E+01    1.410308E-03  -1.988483E+01    1.410125E-03  -2.010133E+01    9.523895E-01  -1.441385E+02 
  1.380000E+03    9.752336E-01  -7.393652E+01    1.427865E-03  -2.048958E+01    1.430923E-03  -2.025505E+01    9.523459E-01  -1.441625E+02 
  1.380250E+03    9.752976E-01  -7.395141E+01    1.440975E-03  -2.097476E+01    1.441755E-03  -2.108630E+01    9.523628E-01  -1.441920E+02 
  1.380500E+03    9.751996E-01  -7.398368E+01    1.452683E-03  -2.200831E+01    1.457359E-03  -2.211790E+01    9.524919E-01  -1.442225E+02 
  1.380750E+03    9.750793E-01  -7.401343E+01    1.468304E-03  -2.282409E+01    1.469453E-03  -2.309732E+01    9.524361E-01  -1.442512E+02 
  1.381000E+03    9.749586E-01  -7.402223E+01    1.481087E-03  -2.421346E+01    1.479817E-03  -2.409872E+01    9.524621E-01  -1.442727E+02 
  1.381250E+03    9.748092E-01  -7.402758E+01    1.465316E-03  -2.508139E+01    1.473874E-03  -2.495322E+01    9.524013E-01  -1.442930E+02 
  1.381500E+03    9.746590E-01  -7.404355E+01    1.469572E-03  -2.602008E+01    1.467248E-03  -2.607539E+01    9.523796E-01  -1.443167E+02 
  1.381750E+03    9.745989E-01  -7.406421E+01    1.464986E-03  -2.682318E+01    1.465536E-03  -2.700822E+01    9.525669E-01  -1.443481E+02 
  1.382000E+03    9.745764E-01  -7.408561E+01    1.450865E-03  -2.806867E+01    1.444021E-03  -2.794694E+01    9.526282E-01  -1.443774E+02 
  1.382250E+03    9.745253E-01  -7.409673E+01    1.432233E-03  -2.874768E+01    1.420142E-03  -2.869854E+01    9.526601E-01  -1.444022E+02 
  1.382500E+03    9.743368E-01  -7.410488E+01    1.401864E-03  -2.928302E+01    1.410559E-03  -2.892909E+01    9.526515E-01  -1.444240E+02 
  1.382750E+03    9.742563E-01  -7.411852E+01    1.394023E-03  -2.930331E+01    1.390917E-03  -2.956758E+01    9.526587E-01  -1.444586E+02 
  1.383000E+03    9.742408E-01  -7.413009E+01    1.363239E-03  -2.959504E+01    1.366565E-03  -2.969075E+01    9.527180E-01  -1.444854E+02 
  1.383250E+03    9.741790E-01  -7.415170E+01    1.354325E-03  -2.973686E+01    1.354023E-03  -2.979486E+01    9.527724E-01  -1.445164E+02 
  1.383500E+03    9.742524E-01  -7.416456E+01    1.328354E-03  -2.999553E+01    1.333544E-03  -2.972293E+01    9.526966E-01  -1.445419E+02 
  1.383750E+03    9.741509E-01  -7.417655E+01    1.313016E-03  -2.925985E+01    1.312481E-03  -2.950625E+01    9.526498E-01  -1.445701E+02 
  1.384000E+03    9.741426E-01  -7.418623E+01    1.293136E-03  -2.893005E+01    1.293253E-03  -2.891822E+01    9.525124E-01  -1.446001E+02 
  1.384250E+03    9.740390E-01  -7.419823E+01    1.271911E-03  -2.870426E+01    1.273088E-03  -2.836809E+01    9.525099E-01  -1.446270E+02 
  1.384500E+03    9.740976E-01  -7.421859E+01    1.259714E-03  -2.708601E+01    1.253464E-03  -2.778127E+01    9.524899E-01  -1.446609E+02 
  1.384750E+03    9.740564E-01  -7.423146E+01    1.258718E-03  -2.634817E+01    1.255146E-03  -2.635450E+01    9.525343E-01  -1.446961E+02 
  1.385000E+03    9.740463E-01  -7.424912E+01    1.252831E-03  -2.572522E+01    1.253003E-03  -2.576654E+01    9.523944E-01  -1.447126E+02 
  1.385250E+03    9.741724E-01  -7.426248E+01    1.233680E-03  -2.481991E+01    1.246275E-03  -2.517275E+01    9.523209E-01  -1.447384E+02 
  1.385500E+03    9.740831E-01  -7.428218E+01    1.260693E-03  -2.384795E+01    1.261302E-03  -2.427214E+01    9.522859E-01  -1.447604E+02 
  1.385750E+03    9.739573E-01  -7.430790E+01    1.253417E-03  -2.315514E+01    1.246947E-03  -2.340822E+01    9.523512E-01  -1.447917E+02 
  1.386000E+03    9.738231E-01  -7.432221E+01    1.259500E-03  -2.223811E+01    1.263223E-03  -2.246533E+01    9.523518E-01  -1.448148E+02 
  1.386250E+03    9.737862E-01  -7.433178E+01    1.269389E-03  -2.126786E+01    1.279654E-03  -2.120630E+01    9.522885E-01  -1.448432E+02 
  1.386500E+03    9.737412E-01  -7.433818E+01    1.298232E-03  -2.081895E+01    1.293568E-03  -2.077723E+01    9.522777E-01  -1.448649E+02 
  1.386750E+03    9.736640E-01  -7.434971E+01    1.313429E-03  -2.090238E+01    1.322644E-03  -2.073696E+01    9.522591E-01  -1.448886E+02 
  1.387000E+03    9.736618E-01  -7.436338E+01    1.329229E-03  -2.034674E+01    1.332375E-03  -2.030471E+01    9.522495E-01  -1.449138E+02 
  1.387250E+03    9.735320E-01  -7.438183E+01    1.352306E-03  -2.054477E+01    1.356132E-03  -2.030513E+01    9.523140E-01  -1.449420E+02 
  1.387500E+03    9.735059E-01  -7.439135E+01    1.372894E-03  -2.061192E+01    1.367765E-03  -2.029854E+01    9.523756E-01  -1.449688E+02 
  1.387750E+03    9.734221E-01  -7.439345E+01    1.380527E-03  -2.104372E+01    1.380171E-03  -2.133551E+01    9.524134E-01  -1.449949E+02 
  1.388000E+03    9.734535E-01  -7.439308E+01    1.383809E-03  -2.138599E+01    1.388840E-03  -2.138407E+01    9.523784E-01  -1.450168E+02 
  1.388250E+03    9.735746E-01  -7.439344E+01    1.391533E-03  -2.144062E+01    1.385835E-03  -2.118129E+01    9.523355E-01  -1.450396E+02 
  1.388500E+03    9.737314E-01  -7.441040E+01    1.403867E-03  -2.131862E+01    1.399996E-03  -2.133102E+01    9.523146E-01  -1.450672E+02 
  1.388750E+03    9.738237E-01  -7.442529E+01    1.422661E-03  -2.115312E+01    1.408980E-03  -2.113709E+01    9.523820E-01  -1.451013E+02 
  1.389000E+03    9.739510E-01  -7.442695E+01    1.445208E-03  -2.194112E+01    1.432049E-03  -2.190040E+01    9.524030E-01  -1.451247E+02 
  1.389250E+03    9.741047E-01  -7.443793E+01    1.436474E-03  -2.280904E+01    1.443782E-03  -2.309624E+01    9.523812E-01  -1.451495E+02 
  1.389500E+03    9.742912E-01  -7.444147E+01    1.434843E-03  -2.340534E+01    1.427864E-03  -2.299835E+01    9.523384E-01  -1.451722E+02 
  1.389750E+03    9.746094E-01  -7.446943E+01    1.430888E-03  -2.364222E+01    1.420966E-03  -2.353340E+01    9.524785E-01  -1.451987E+02 
  1.390000E+03    9.747366E-01  -7.448879E+01    1.427744E-03  -2.357004E+01    1.419860E-03  -2.357069E+01    9.525428E-01  -1.452396E+02 
  1.390250E+03    9.748658E-01  -7.450586E+01    1.417620E-03  -2.394147E+01    1.416580E-03  -2.398480E+01    9.525859E-01  -1.452693E+02 
  1.390500E+03    9.750162E-01  -7.451933E+01    1.421283E-03  -2.389992E+01    1.413655E-03  -2.431414E+01    9.526182E-01  -1.452905E+02 
  1.390750E+03    9.751835E-01  -7.453316E+01    1.408749E-03  -2.421841E+01    1.403068E-03  -2.448097E+01    9.525774E-01  -1.453193E+02 
  1.391000E+03    9.753386E-01  -7.455396E+01    1.406364E-03  -2.367176E+01    1.414742E-03  -2.412748E+01    9.526610E-01  -1.453477E+02 
  1.391250E+03    9.753907E-01  -7.458149E+01    1.410774E-03  -2.375705E+01    1.406849E-03  -2.371705E+01    9.527888E-01  -1.453824E+02 
  1.391500E+03    9.756411E-01  -7.460768E+01    1.406262E-03  -2.416508E+01    1.406486E-03  -2.434853E+01    9.528631E-01  -1.454123E+02 
  1.391750E+03    9.758732E-01  -7.462774E+01    1.383192E-03  -2.413768E+01    1.386045E-03  -2.464641E+01    9.528093E-01  -1.454434E+02 
  1.392000E+03    9.759298E-01  -7.463990E+01    1.376451E-03  -2.390401E+01    1.374400E-03  -2.406778E+01    9.527449E-01  -1.454641E+02 
  1.392250E+03    9.760162E-01  -7.466383E+01    1.381655E-03  -2.329156E+01    1.377273E-03  -2.322847E+01    9.527695E-01  -1.454993E+02 
  1.392500E+03    9.760935E-01  -7.469115E+01    1.375415E-03  -2.252186E+01    1.371802E-03  -2.289818E+01    9.528266E-01  -1.455357E+02 
  1.392750E+03    9.763140E-01  -7.472565E+01    1.374940E-03  -2.218708E+01    1.380724E-03  -2.210874E+01    9.529218E-01  -1.455612E+02 
  1.393000E+03    9.763056E-01  -7.474989E+01    1.389170E-03  -2.187198E+01    1.386753E-03  -2.216779E+01    9.528071E-01  -1.455940E+02 
  1.393250E+03    9.763216E-01  -7.476072E+01    1.379682E-03  -2.154151E+01    1.379430E-03  -2.119300E+01    9.526960E-01  -1.456257E+02 
  1.393500E+03    9.763393E-01  -7.478702E+01    1.384340E-03  -2.106023E+01    1.383579E-03  -2.042925E+01    9.526341E-01  -1.456529E+02 
  1.393750E+03    9.764872E-01  -7.482033E+01    1.396335E-03  -2.081647E+01    1.386482E-03  -2.049948E+01    9.526658E-01  -1.456968E+02 
  1.394000E+03    9.765398E-01  -7.485366E+01    1.395517E-03  -2.037664E+01    1.389561E-03  -1.980714E+01    9.526274E-01  -1.457311E+02 
  1.394250E+03    9.765574E-01  -7.487341E+01    1.398820E-03  -1.944602E+01    1.397767E-03  -1.921769E+01    9.525862E-01  -1.457567E+02 
  1.394500E+03    9.766280E-01  -7.488762E+01    1.411484E-03  -1.884783E+01    1.421041E-03  -1.895371E+01    9.525245E-01  -1.457933E+02 
  1.394750E+03    9.767377E-01  -7.490453E+01    1.436375E-03  -1.842146E+01    1.440390E-03  -1.808755E+01    9.523124E-01  -1.458195E+02 
  1.395000E+03    9.767782E-01  -7.493094E+01    1.462580E-03  -1.845601E+01    1.451738E-03  -1.808229E+01    9.524044E-01  -1.458568E+02 
  1.395250E+03    9.768463E-01  -7.496316E+01    1.461770E-03  -1.846470E+01    1.461785E-03  -1.792063E+01    9.523278E-01  -1.458937E+02 
  1.395500E+03    9.769795E-01  -7.499044E+01    1.486649E-03  -1.787369E+01    1.487602E-03  -1.795635E+01    9.521676E-01  -1.459203E+02 
  1.395750E+03    9.769589E-01  -7.500208E+01    1.514991E-03  -1.769578E+01    1.526517E-03  -1.814607E+01    9.520660E-01  -1.459393E+02 
  1.396000E+03    9.771265E-01  -7.502201E+01    1.536772E-03  -1.755370E+01    1.548912E-03  -1.860174E+01    9.519596E-01  -1.459714E+02 
  1.396250E+03    9.771635E-01  -7.504843E+01    1.560335E-03  -1.882746E+01    1.555196E-03  -1.891867E+01    9.518104E-01  -1.459960E+02 
  1.396500E+03    9.771702E-01  -7.507705E+01    1.566829E-03  -1.921857E+01    1.564989E-03  -1.902297E+01    9.519242E-01  -1.460275E+02 
  1.396750E+03    9.771881E-01  -7.510241E+01    1.586849E-03  -1.961696E+01    1.588284E-03  -1.971333E+01    9.516796E-01  -1.460496E+02 
  1.397000E+03    9.771838E-01  -7.511548E+01    1.590956E-03  -2.018862E+01    1.585800E-03  -2.006572E+01    9.515958E-01  -1.460747E+02 
  1.397250E+03    9.772738E-01  -7.512917E+01    1.585925E-03  -2.058819E+01    1.589219E-03  -2.065925E+01    9.516407E-01  -1.461012E+02 
  1.397500E+03    9.772620E-01  -7.516247E+01    1.595332E-03  -2.103588E+01    1.592538E-03  -2.112594E+01    9.515860E-01  -1.461254E+02 
  1.397750E+03    9.773715E-01  -7.519591E+01    1.587377E-03  -2.176966E+01    1.574834E-03  -2.148475E+01    9.515780E-01  -1.461624E+02 
  1.398000E+03    9.774150E-01  -7.521484E+01    1.571045E-03  -2.140580E+01    1.577589E-03  -2.178423E+01    9.514447E-01  -1.461808E+02 
  1.398250E+03    9.773433E-01  -7.523890E+01    1.567987E-03  -2.169583E+01    1.573320E-03  -2.142142E+01    9.513412E-01  -1.462011E+02 
  1.398500E+03    9.773865E-01  -7.524754E+01    1.569839E-03  -2.171625E+01    1.575189E-03  -2.157873E+01    9.513478E-01  -1.462280E+02 
  1.398750E+03    9.774864E-01  -7.528462E+01    1.567022E-03  -2.157309E+01    1.551588E-03  -2.191650E+01    9.513974E-01  -1.462589E+02 
  1.399000E+03    9.775004E-01  -7.531756E+01    1.565064E-03  -2.144748E+01    1.560576E-03  -2.130802E+01    9.513703E-01  -1.462878E+02 
  1.399250E+03    9.774709E-01  -7.533885E+01    1.561531E-03  -2.077092E+01    1.565380E-03  -2.043075E+01    9.513223E-01  -1.463089E+02 
  1.399500E+03    9.774834E-01  -7.535497E+01    1.566807E-03  -2.075452E+01    1.562336E-03  -2.069207E+01    9.512465E-01  -1.463335E+02 
  1.399750E+03    9.775500E-01  -7.537381E+01    1.574746E-03  -2.010132E+01    1.555726E-03  -2.021160E+01    9.512816E-01  -1.463522E+02 
  1.400000E+03    9.775990E-01  -7.540731E+01    1.574555E-03  -1.982382E+01    1.573222E-03  -1.939937E+01    9.512635E-01  -1.463905E+02 
  1.400250E+03    9.776810E-01  -7.544197E+01    1.582621E-03  -1.931058E+01    1.586050E-03  -1.945662E+01    9.513609E-01  -1.464182E+02 
  1.400500E+03    9.776813E-01  -7.546979E+01    1.581408E-03  -1.900671E+01    1.592277E-03  -1.924184E+01    9.512502E-01  -1.464386E+02 
  1.400750E+03    9.776789E-01  -7.548863E+01    1.612339E-03  -1.851172E+01    1.603692E-03  -1.828865E+01    9.512074E-01  -1.464614E+02 
  1.401000E+03    9.777227E-01  -7.550996E+01    1.631240E-03  -1.825289E+01    1.622845E-03  -1.832198E+01    9.512731E-01  -1.464807E+02 
  1.401250E+03    9.777760E-01  -7.553719E+01    1.645036E-03  -1.795661E+01    1.655258E-03  -1.807766E+01    9.513389E-01  -1.465207E+02 
  1.401500E+03    9.776624E-01  -7.556889E+01    1.674745E-03  -1.801346E+01    1.667818E-03  -1.803403E+01    9.514071E-01  -1.465515E+02 
  1.401750E+03    9.777968E-01  -7.560630E+01    1.692604E-03  -1.807901E+01    1.701145E-03  -1.772577E+01    9.513268E-01  -1.465751E+02 
  1.402000E+03    9.777252E-01  -7.562188E+01    1.719325E-03  -1.769983E+01    1.723573E-03  -1.805354E+01    9.513526E-01  -1.465976E+02 
  1.402250E+03    9.777102E-01  -7.564175E+01    1.740452E-03  -1.827329E+01    1.737119E-03  -1.876827E+01    9.513089E-01  -1.466225E+02 
  1.402500E+03    9.777516E-01  -7.566998E+01    1.758883E-03  -1.902482E+01    1.755371E-03  -1.883254E+01    9.514101E-01  -1.466560E+02 
  1.402750E+03    9.777297E-01  -7.570432E+01    1.770778E-03  -1.887755E+01    1.784172E-03  -1.903438E+01    9.514503E-01  -1.466888E+02 
  1.403000E+03    9.776773E-01  -7.573928E+01    1.803218E-03  -1.914545E+01    1.805946E-03  -1.891766E+01    9.514750E-01  -1.467256E+02 
  1.403250E+03    9.777087E-01  -7.576204E+01    1.829281E-03  -1.932955E+01    1.826606E-03  -1.943131E+01    9.513983E-01  -1.467510E+02 
  1.403500E+03    9.775764E-01  -7.578835E+01    1.862260E-03  -2.008152E+01    1.854927E-03  -2.042815E+01    9.513581E-01  -1.467735E+02 
  1.403750E+03    9.775539E-01  -7.580923E+01    1.866143E-03  -2.092937E+01    1.867343E-03  -2.098625E+01    9.514419E-01  -1.468125E+02 
  1.404000E+03    9.774458E-01  -7.584370E+01    1.890741E-03  -2.132996E+01    1.885745E-03  -2.158075E+01    9.514531E-01  -1.468439E+02 
  1.404250E+03    9.774686E-01  -7.588047E+01    1.897480E-03  -2.243978E+01    1.896703E-03  -2.253280E+01    9.514442E-01  -1.468800E+02 
  1.404500E+03    9.774381E-01  -7.590591E+01    1.906323E-03  -2.363585E+01    1.903815E-03  -2.343117E+01    9.514209E-01  -1.469066E+02 
  1.404750E+03    9.772730E-01  -7.591977E+01    1.901602E-03  -2.401050E+01    1.899131E-03  -2.384854E+01    9.513026E-01  -1.469297E+02 
  1.405000E+03    9.772697E-01  -7.594780E+01    1.913268E-03  -2.507705E+01    1.908076E-03  -2.473497E+01    9.513548E-01  -1.469651E+02 
  1.405250E+03    9.771233E-01  -7.598040E+01    1.907297E-03  -2.582590E+01    1.903090E-03  -2.591246E+01    9.514000E-01  -1.469934E+02 
  1.405500E+03    9.769491E-01  -7.601650E+01    1.899458E-03  -2.680075E+01    1.901594E-03  -2.679706E+01    9.514543E-01  -1.470362E+02 
  1.405750E+03    9.768535E-01  -7.604399E+01    1.877621E-03  -2.751719E+01    1.883053E-03  -2.741153E+01    9.512944E-01  -1.470690E+02 
  1.406000E+03    9.767960E-01  -7.606551E+01    1.865618E-03  -2.849735E+01    1.853633E-03  -2.832321E+01    9.512653E-01  -1.470913E+02 
  1.406250E+03    9.767218E-01  -7.608911E+01    1.837622E-03  -2.861373E+01    1.842988E-03  -2.866518E+01    9.512367E-01  -1.471212E+02 
  1.406500E+03    9.764905E-01  -7.611433E+01    1.830730E-03  -2.938917E+01    1.821410E-03  -2.909972E+01    9.511280E-01  -1.471604E+02 
  1.406750E+03    9.763337E-01  -7.614591E+01    1.806178E-03  -2.983839E+01    1.791459E-03  -2.961307E+01    9.510710E-01  -1.471850E+02 
  1.407000E+03    9.762332E-01  -7.616891E+01    1.771413E-03  -2.966816E+01    1.761056E-03  -2.978651E+01    9.509939E-01  -1.472125E+02 
  1.407250E+03    9.761423E-01  -7.618738E+01    1.731053E-03  -2.958635E+01    1.735999E-03  -2.982678E+01    9.510047E-01  -1.472378E+02 
  1.407500E+03    9.759772E-01  -7.621713E+01    1.712642E-03  -2.910176E+01    1.716767E-03  -2.917002E+01    9.509601E-01  -1.472710E+02 
  1.407750E+03    9.757978E-01  -7.623611E+01    1.679442E-03  -2.911569E+01    1.695259E-03  -2.885492E+01    9.508357E-01  -1.472989E+02 
  1.408000E+03    9.756761E-01  -7.626271E+01    1.678574E-03  -2.800465E+01    1.673330E-03  -2.813128E+01    9.509335E-01  -1.473365E+02 
  1.408250E+03    9.755142E-01  -7.628363E+01    1.668262E-03  -2.724026E+01    1.659016E-03  -2.742267E+01    9.509506E-01  -1.473688E+02 
  1.408500E+03    9.755171E-01  -7.631626E+01    1.648848E-03  -2.666577E+01    1.661072E-03  -2.707813E+01    9.508451E-01  -1.473989E+02 
  1.408750E+03    9.753123E-01  -7.634173E+01    1.648355E-03  -2.591727E+01    1.647432E-03  -2.599022E+01    9.508074E-01  -1.474287E+02 
  1.409000E+03    9.751205E-01  -7.635873E+01    1.644329E-03  -2.512660E+01    1.653496E-03  -2.525993E+01    9.507278E-01  -1.474596E+02 
  1.409250E+03    9.749683E-01  -7.638060E+01    1.639596E-03  -2.406387E+01    1.660565E-03  -2.434831E+01    9.507795E-01  -1.474894E+02 
  1.409500E+03    9.749185E-01  -7.641096E+01    1.672234E-03  -2.290911E+01    1.668608E-03  -2.269795E+01    9.508465E-01  -1.475280E+02 
  1.409750E+03    9.747064E-01  -7.643940E+01    1.682247E-03  -2.191338E+01    1.685984E-03  -2.257464E+01    9.508181E-01  -1.475662E+02 
