! Matrix data file written by TouchstoneData, EPCOS AG
! FILENAME: "newformat_AK18A.PCB7.WB.s2p"
! COMMENT: "(AK18A.PCB7.WB.s2p)"
! INFO: nport=2, nfreq=1601
! DATE: "Fri Apr 18 08:52:00 2014"
! USER: "Lynn Zhu"
!
! port | pin | signal
! -----|-----|--------
!   1  |  2  |  IN
!   2  |  5  |  OUT
! --------------------
! 
# MHZ S MA R 50
! freq  magS11 angS11  magS21 angS21  magS12 angS12  magS22 angS22
5.000000E+02  9.713295E-01 -4.019508E+01  5.908863E-03 3.263034E+01  5.891872E-03 3.263900E+01  9.548065E-01 -8.605140E+01 
5.009375E+02  9.710646E-01 -4.028665E+01  5.900583E-03 3.241403E+01  5.872108E-03 3.243098E+01  9.545733E-01 -8.620686E+01 
5.018750E+02  9.699407E-01 -4.034172E+01  5.903931E-03 3.188154E+01  5.880059E-03 3.192354E+01  9.537973E-01 -8.632282E+01 
5.028125E+02  9.705790E-01 -4.039129E+01  5.869278E-03 3.249917E+01  5.839685E-03 3.253611E+01  9.543175E-01 -8.643848E+01 
5.037500E+02  9.705917E-01 -4.046929E+01  5.912378E-03 3.200569E+01  5.890233E-03 3.208286E+01  9.541014E-01 -8.658165E+01 
5.046875E+02  9.706297E-01 -4.054621E+01  5.905758E-03 3.140089E+01  5.865797E-03 3.146847E+01  9.537788E-01 -8.670495E+01 
5.056250E+02  9.705612E-01 -4.062983E+01  5.870410E-03 3.182805E+01  5.847436E-03 3.191487E+01  9.540800E-01 -8.683848E+01 
5.065625E+02  9.705052E-01 -4.070581E+01  5.856257E-03 3.239864E+01  5.832922E-03 3.238866E+01  9.538576E-01 -8.697102E+01 
5.075000E+02  9.704126E-01 -4.078615E+01  5.963183E-03 3.192492E+01  5.930569E-03 3.193689E+01  9.536649E-01 -8.710221E+01 
5.084375E+02  9.703813E-01 -4.087204E+01  5.875519E-03 3.103772E+01  5.844189E-03 3.110299E+01  9.535148E-01 -8.725066E+01 
5.093750E+02  9.701430E-01 -4.095307E+01  5.875185E-03 3.167042E+01  5.845449E-03 3.168447E+01  9.531622E-01 -8.738585E+01 
5.103125E+02  9.697224E-01 -4.103779E+01  5.909668E-03 3.196241E+01  5.884006E-03 3.201541E+01  9.528031E-01 -8.752165E+01 
5.112500E+02  9.690594E-01 -4.106964E+01  5.925221E-03 3.115906E+01  5.897746E-03 3.136490E+01  9.521382E-01 -8.760499E+01 
5.121875E+02  9.693856E-01 -4.114620E+01  5.843738E-03 3.145323E+01  5.818834E-03 3.153300E+01  9.524034E-01 -8.773495E+01 
5.131250E+02  9.692999E-01 -4.122038E+01  5.849536E-03 3.141474E+01  5.819489E-03 3.135094E+01  9.520865E-01 -8.786067E+01 
5.140625E+02  9.693526E-01 -4.128897E+01  5.876983E-03 3.135392E+01  5.840501E-03 3.140138E+01  9.522298E-01 -8.796789E+01 
5.150000E+02  9.693550E-01 -4.136474E+01  5.917138E-03 3.090026E+01  5.894431E-03 3.104348E+01  9.523676E-01 -8.808777E+01 
5.159375E+02  9.694819E-01 -4.143693E+01  5.875651E-03 3.113346E+01  5.852497E-03 3.114957E+01  9.524756E-01 -8.822927E+01 
5.168750E+02  9.695045E-01 -4.152226E+01  5.860260E-03 3.118188E+01  5.837272E-03 3.128443E+01  9.526084E-01 -8.837561E+01 
5.178125E+02  9.692781E-01 -4.161444E+01  5.905131E-03 3.091398E+01  5.885835E-03 3.084647E+01  9.525081E-01 -8.852248E+01 
5.187500E+02  9.692636E-01 -4.171146E+01  5.903854E-03 3.084884E+01  5.876355E-03 3.089319E+01  9.520977E-01 -8.867052E+01 
5.196875E+02  9.683877E-01 -4.181466E+01  5.847122E-03 3.070797E+01  5.823531E-03 3.093949E+01  9.514260E-01 -8.882250E+01 
5.206250E+02  9.682792E-01 -4.183289E+01  5.884563E-03 3.084793E+01  5.862034E-03 3.089751E+01  9.512675E-01 -8.890233E+01 
5.215625E+02  9.682930E-01 -4.189763E+01  5.935547E-03 3.058906E+01  5.916443E-03 3.062679E+01  9.512486E-01 -8.903853E+01 
5.225000E+02  9.682677E-01 -4.197516E+01  5.896981E-03 3.013706E+01  5.863740E-03 3.021689E+01  9.508919E-01 -8.914694E+01 
5.234375E+02  9.684117E-01 -4.205620E+01  5.840331E-03 3.048052E+01  5.820410E-03 3.054149E+01  9.511678E-01 -8.926529E+01 
5.243750E+02  9.683855E-01 -4.214213E+01  5.910032E-03 3.037178E+01  5.880284E-03 3.047227E+01  9.511974E-01 -8.941306E+01 
5.253125E+02  9.681101E-01 -4.221342E+01  5.862633E-03 3.017667E+01  5.836834E-03 3.028271E+01  9.510253E-01 -8.953592E+01 
5.262500E+02  9.679591E-01 -4.228711E+01  5.863257E-03 3.015417E+01  5.835674E-03 3.031147E+01  9.508349E-01 -8.966253E+01 
5.271875E+02  9.682141E-01 -4.236528E+01  5.884210E-03 3.027000E+01  5.862884E-03 3.044479E+01  9.508624E-01 -8.978546E+01 
5.281250E+02  9.681645E-01 -4.245549E+01  5.872808E-03 3.004057E+01  5.854093E-03 3.006225E+01  9.509904E-01 -8.993244E+01 
5.290625E+02  9.672049E-01 -4.251795E+01  5.875108E-03 2.937833E+01  5.853397E-03 2.955236E+01  9.503778E-01 -9.004700E+01 
5.300000E+02  9.670947E-01 -4.253461E+01  5.854374E-03 3.020994E+01  5.815289E-03 3.033694E+01  9.503337E-01 -9.012241E+01 
5.309375E+02  9.673189E-01 -4.261952E+01  5.873486E-03 2.978561E+01  5.852996E-03 2.971799E+01  9.504953E-01 -9.026469E+01 
5.318750E+02  9.677342E-01 -4.270324E+01  5.862941E-03 2.979016E+01  5.842862E-03 2.991458E+01  9.505374E-01 -9.039399E+01 
5.328125E+02  9.677653E-01 -4.279378E+01  5.860806E-03 2.955893E+01  5.837325E-03 2.959596E+01  9.509198E-01 -9.053830E+01 
5.337500E+02  9.677579E-01 -4.287761E+01  5.846511E-03 2.979067E+01  5.819900E-03 2.990834E+01  9.507164E-01 -9.067574E+01 
5.346875E+02  9.675150E-01 -4.296497E+01  5.869468E-03 2.970083E+01  5.850718E-03 2.984921E+01  9.505076E-01 -9.080372E+01 
5.356250E+02  9.676238E-01 -4.304771E+01  5.880124E-03 2.948970E+01  5.848692E-03 2.945492E+01  9.504968E-01 -9.094980E+01 
5.365625E+02  9.673339E-01 -4.313232E+01  5.852689E-03 2.920753E+01  5.847101E-03 2.919967E+01  9.502501E-01 -9.108854E+01 
5.375000E+02  9.667611E-01 -4.321338E+01  5.865363E-03 2.921874E+01  5.838469E-03 2.956921E+01  9.497692E-01 -9.122520E+01 
5.384375E+02  9.661212E-01 -4.324701E+01  5.873284E-03 2.947924E+01  5.834138E-03 2.955687E+01  9.490173E-01 -9.131198E+01 
5.393750E+02  9.665377E-01 -4.331594E+01  5.877267E-03 2.887976E+01  5.847903E-03 2.902988E+01  9.494278E-01 -9.142268E+01 
5.403125E+02  9.666138E-01 -4.337637E+01  5.793236E-03 2.909238E+01  5.773541E-03 2.907347E+01  9.492972E-01 -9.154402E+01 
5.412500E+02  9.665828E-01 -4.344398E+01  5.855726E-03 2.903280E+01  5.830040E-03 2.909992E+01  9.493678E-01 -9.163753E+01 
5.421875E+02  9.666174E-01 -4.351973E+01  5.878124E-03 2.872824E+01  5.842996E-03 2.887157E+01  9.492773E-01 -9.177571E+01 
5.431250E+02  9.666522E-01 -4.360033E+01  5.845534E-03 2.861443E+01  5.809287E-03 2.874291E+01  9.494130E-01 -9.190995E+01 
5.440625E+02  9.666826E-01 -4.367994E+01  5.826537E-03 2.889334E+01  5.799566E-03 2.896567E+01  9.494741E-01 -9.205058E+01 
5.450000E+02  9.664450E-01 -4.376685E+01  5.825511E-03 2.884645E+01  5.796672E-03 2.887805E+01  9.494939E-01 -9.219038E+01 
5.459375E+02  9.662276E-01 -4.386524E+01  5.849411E-03 2.883505E+01  5.825008E-03 2.892809E+01  9.492070E-01 -9.233965E+01 
5.468750E+02  9.661497E-01 -4.395192E+01  5.826099E-03 2.832567E+01  5.797896E-03 2.851673E+01  9.492702E-01 -9.246430E+01 
5.478125E+02  9.660767E-01 -4.398717E+01  5.831222E-03 2.850833E+01  5.794704E-03 2.867740E+01  9.489435E-01 -9.254891E+01 
5.487500E+02  9.660231E-01 -4.404833E+01  5.850123E-03 2.852107E+01  5.823961E-03 2.859555E+01  9.490127E-01 -9.267876E+01 
5.496875E+02  9.660081E-01 -4.412242E+01  5.794960E-03 2.818962E+01  5.767527E-03 2.826383E+01  9.487728E-01 -9.278845E+01 
5.506250E+02  9.661086E-01 -4.420984E+01  5.834700E-03 2.848660E+01  5.803288E-03 2.856310E+01  9.489746E-01 -9.292307E+01 
5.515625E+02  9.660841E-01 -4.429890E+01  5.828693E-03 2.837527E+01  5.793928E-03 2.844665E+01  9.490302E-01 -9.306128E+01 
5.525000E+02  9.657542E-01 -4.437238E+01  5.844507E-03 2.829061E+01  5.829780E-03 2.848571E+01  9.487631E-01 -9.319360E+01 
5.534375E+02  9.655711E-01 -4.444705E+01  5.802794E-03 2.803058E+01  5.794993E-03 2.823759E+01  9.485579E-01 -9.331090E+01 
5.543750E+02  9.656129E-01 -4.452627E+01  5.793962E-03 2.775329E+01  5.768548E-03 2.788057E+01  9.482707E-01 -9.344401E+01 
5.553125E+02  9.657175E-01 -4.461201E+01  5.825186E-03 2.809468E+01  5.801092E-03 2.819483E+01  9.483024E-01 -9.356795E+01 
5.562500E+02  9.648004E-01 -4.470136E+01  5.800391E-03 2.776963E+01  5.773955E-03 2.786939E+01  9.476807E-01 -9.369616E+01 
5.571875E+02  9.650073E-01 -4.472918E+01  5.826135E-03 2.758661E+01  5.791593E-03 2.774252E+01  9.477929E-01 -9.377111E+01 
5.581250E+02  9.650017E-01 -4.479372E+01  5.781704E-03 2.761520E+01  5.774196E-03 2.764100E+01  9.478751E-01 -9.388555E+01 
5.590625E+02  9.653417E-01 -4.487111E+01  5.804662E-03 2.745589E+01  5.770778E-03 2.752895E+01  9.479902E-01 -9.398472E+01 
5.600000E+02  9.654274E-01 -4.495128E+01  5.805649E-03 2.741292E+01  5.771730E-03 2.750445E+01  9.482509E-01 -9.411644E+01 
5.609375E+02  9.653374E-01 -4.503224E+01  5.786497E-03 2.731922E+01  5.769224E-03 2.744835E+01  9.482491E-01 -9.423649E+01 
5.618750E+02  9.655944E-01 -4.512315E+01  5.786201E-03 2.778116E+01  5.753256E-03 2.779941E+01  9.484606E-01 -9.439742E+01 
5.628125E+02  9.656431E-01 -4.520464E+01  5.819609E-03 2.728283E+01  5.793467E-03 2.741247E+01  9.485555E-01 -9.452338E+01 
5.637500E+02  9.655070E-01 -4.528749E+01  5.777672E-03 2.723468E+01  5.743341E-03 2.740887E+01  9.483473E-01 -9.465164E+01 
5.646875E+02  9.650883E-01 -4.536252E+01  5.782477E-03 2.773662E+01  5.754765E-03 2.772492E+01  9.479919E-01 -9.477683E+01 
5.656250E+02  9.644328E-01 -4.542858E+01  5.825229E-03 2.746170E+01  5.802792E-03 2.757234E+01  9.471848E-01 -9.489141E+01 
5.665625E+02  9.647669E-01 -4.547774E+01  5.809794E-03 2.687431E+01  5.784439E-03 2.690634E+01  9.471710E-01 -9.499581E+01 
5.675000E+02  9.646993E-01 -4.554748E+01  5.726874E-03 2.685951E+01  5.700783E-03 2.705683E+01  9.468509E-01 -9.510355E+01 
5.684375E+02  9.645795E-01 -4.561071E+01  5.768712E-03 2.748976E+01  5.751076E-03 2.763950E+01  9.469542E-01 -9.519259E+01 
5.693750E+02  9.642768E-01 -4.568287E+01  5.797425E-03 2.670062E+01  5.754858E-03 2.675778E+01  9.467639E-01 -9.531112E+01 
5.703125E+02  9.646703E-01 -4.576833E+01  5.746527E-03 2.654422E+01  5.726592E-03 2.653266E+01  9.468516E-01 -9.543032E+01 
5.712500E+02  9.648210E-01 -4.585381E+01  5.735979E-03 2.676510E+01  5.720026E-03 2.682015E+01  9.469150E-01 -9.555765E+01 
5.721875E+02  9.644420E-01 -4.592025E+01  5.763341E-03 2.704134E+01  5.745505E-03 2.712781E+01  9.468932E-01 -9.567768E+01 
5.731250E+02  9.644236E-01 -4.601142E+01  5.781430E-03 2.655098E+01  5.759051E-03 2.669194E+01  9.469076E-01 -9.580589E+01 
5.740625E+02  9.641960E-01 -4.610680E+01  5.747777E-03 2.624601E+01  5.712733E-03 2.631009E+01  9.466933E-01 -9.594717E+01 
5.750000E+02  9.637986E-01 -4.615567E+01  5.735097E-03 2.646280E+01  5.712057E-03 2.671358E+01  9.463149E-01 -9.603436E+01 
5.759375E+02  9.641133E-01 -4.622683E+01  5.794899E-03 2.644305E+01  5.766786E-03 2.658042E+01  9.465668E-01 -9.614528E+01 
5.768750E+02  9.641262E-01 -4.630033E+01  5.753407E-03 2.612788E+01  5.724391E-03 2.621684E+01  9.464752E-01 -9.624924E+01 
5.778125E+02  9.643739E-01 -4.639027E+01  5.703341E-03 2.638971E+01  5.672454E-03 2.644790E+01  9.468077E-01 -9.635873E+01 
5.787500E+02  9.646475E-01 -4.647579E+01  5.737616E-03 2.653244E+01  5.706235E-03 2.662121E+01  9.468461E-01 -9.649806E+01 
5.796875E+02  9.647656E-01 -4.658640E+01  5.774881E-03 2.618010E+01  5.758016E-03 2.611834E+01  9.467368E-01 -9.663832E+01 
5.806250E+02  9.645320E-01 -4.666153E+01  5.722211E-03 2.590631E+01  5.697587E-03 2.590941E+01  9.464567E-01 -9.676511E+01 
5.815625E+02  9.644975E-01 -4.673949E+01  5.689175E-03 2.629435E+01  5.673047E-03 2.639900E+01  9.463593E-01 -9.690186E+01 
5.825000E+02  9.643932E-01 -4.682259E+01  5.752662E-03 2.628494E+01  5.722588E-03 2.631909E+01  9.461546E-01 -9.702925E+01 
5.834375E+02  9.638215E-01 -4.692229E+01  5.756186E-03 2.565995E+01  5.725016E-03 2.578878E+01  9.455993E-01 -9.715104E+01 
5.843750E+02  9.631292E-01 -4.696568E+01  5.722249E-03 2.574754E+01  5.689055E-03 2.583861E+01  9.451008E-01 -9.722352E+01 
5.853125E+02  9.633199E-01 -4.701014E+01  5.713678E-03 2.548224E+01  5.675813E-03 2.554110E+01  9.451801E-01 -9.731416E+01 
5.862500E+02  9.633470E-01 -4.701925E+01  5.756268E-03 2.579350E+01  5.727831E-03 2.603050E+01  9.453119E-01 -9.742407E+01 
5.871875E+02  9.630533E-01 -4.708277E+01  5.686677E-03 2.521980E+01  5.660157E-03 2.524438E+01  9.456593E-01 -9.753693E+01 
5.881250E+02  9.627402E-01 -4.717786E+01  5.700847E-03 2.566133E+01  5.677894E-03 2.564331E+01  9.456052E-01 -9.765030E+01 
5.890625E+02  9.629483E-01 -4.727880E+01  5.704546E-03 2.587155E+01  5.676598E-03 2.592837E+01  9.456050E-01 -9.776705E+01 
5.900000E+02  9.638361E-01 -4.738671E+01  5.710042E-03 2.520241E+01  5.684350E-03 2.527046E+01  9.455587E-01 -9.787855E+01 
5.909375E+02  9.636207E-01 -4.746275E+01  5.686545E-03 2.571897E+01  5.666967E-03 2.582624E+01  9.460219E-01 -9.801408E+01 
5.918750E+02  9.633640E-01 -4.753955E+01  5.688801E-03 2.545862E+01  5.663481E-03 2.548806E+01  9.459733E-01 -9.815440E+01 
5.928125E+02  9.623278E-01 -4.761037E+01  5.704269E-03 2.537847E+01  5.671903E-03 2.541390E+01  9.453223E-01 -9.825752E+01 
5.937500E+02  9.627271E-01 -4.765669E+01  5.680190E-03 2.510180E+01  5.651378E-03 2.528985E+01  9.453339E-01 -9.835205E+01 
5.946875E+02  9.629977E-01 -4.775445E+01  5.658343E-03 2.499958E+01  5.624752E-03 2.512159E+01  9.449854E-01 -9.847509E+01 
5.956250E+02  9.628742E-01 -4.783689E+01  5.699401E-03 2.538901E+01  5.668995E-03 2.544113E+01  9.452650E-01 -9.856695E+01 
5.965625E+02  9.627600E-01 -4.792527E+01  5.686342E-03 2.487891E+01  5.656572E-03 2.498036E+01  9.453240E-01 -9.868345E+01 
5.975000E+02  9.627186E-01 -4.800967E+01  5.661876E-03 2.477538E+01  5.638374E-03 2.480375E+01  9.452576E-01 -9.879194E+01 
5.984375E+02  9.628565E-01 -4.809967E+01  5.644988E-03 2.484357E+01  5.603150E-03 2.497139E+01  9.450002E-01 -9.892343E+01 
5.993750E+02  9.626131E-01 -4.819219E+01  5.636002E-03 2.515326E+01  5.624112E-03 2.530591E+01  9.443141E-01 -9.904082E+01 
6.003125E+02  9.625020E-01 -4.827725E+01  5.690063E-03 2.479118E+01  5.664917E-03 2.487117E+01  9.443242E-01 -9.914576E+01 
6.012500E+02  9.620723E-01 -4.836451E+01  5.657555E-03 2.441936E+01  5.622155E-03 2.453970E+01  9.443097E-01 -9.926540E+01 
6.021875E+02  9.616847E-01 -4.841810E+01  5.664553E-03 2.484727E+01  5.636504E-03 2.487293E+01  9.440402E-01 -9.937204E+01 
6.031250E+02  9.617866E-01 -4.846596E+01  5.637274E-03 2.440962E+01  5.609679E-03 2.440098E+01  9.441321E-01 -9.947199E+01 
6.040625E+02  9.619138E-01 -4.853228E+01  5.620002E-03 2.463732E+01  5.592370E-03 2.464774E+01  9.437741E-01 -9.958728E+01 
6.050000E+02  9.621060E-01 -4.860508E+01  5.658488E-03 2.459433E+01  5.634690E-03 2.469564E+01  9.439566E-01 -9.969677E+01 
6.059375E+02  9.623381E-01 -4.868384E+01  5.637839E-03 2.415322E+01  5.609812E-03 2.419861E+01  9.441415E-01 -9.981679E+01 
6.068750E+02  9.621957E-01 -4.876570E+01  5.616221E-03 2.447967E+01  5.589342E-03 2.457348E+01  9.440855E-01 -9.994222E+01 
6.078125E+02  9.621642E-01 -4.885135E+01  5.624129E-03 2.428933E+01  5.590379E-03 2.428795E+01  9.439332E-01 -1.000663E+02 
6.087500E+02  9.622031E-01 -4.894737E+01  5.622211E-03 2.423835E+01  5.598563E-03 2.430134E+01  9.437835E-01 -1.002035E+02 
6.096875E+02  9.623274E-01 -4.904588E+01  5.616991E-03 2.413441E+01  5.592705E-03 2.435948E+01  9.437655E-01 -1.003384E+02 
6.106250E+02  9.618806E-01 -4.913680E+01  5.601715E-03 2.398492E+01  5.587132E-03 2.416893E+01  9.432742E-01 -1.004667E+02 
6.115625E+02  9.610901E-01 -4.916667E+01  5.614790E-03 2.396090E+01  5.577856E-03 2.403342E+01  9.424079E-01 -1.005492E+02 
6.125000E+02  9.610258E-01 -4.923017E+01  5.596728E-03 2.386835E+01  5.572731E-03 2.388588E+01  9.422601E-01 -1.006657E+02 
6.134375E+02  9.609906E-01 -4.930455E+01  5.577490E-03 2.400144E+01  5.545935E-03 2.413221E+01  9.422860E-01 -1.007600E+02 
6.143750E+02  9.609990E-01 -4.936986E+01  5.588352E-03 2.402706E+01  5.569495E-03 2.410595E+01  9.424941E-01 -1.008739E+02 
6.153125E+02  9.607460E-01 -4.944480E+01  5.596542E-03 2.375734E+01  5.576499E-03 2.377878E+01  9.425387E-01 -1.009879E+02 
6.162500E+02  9.606273E-01 -4.952716E+01  5.573447E-03 2.389093E+01  5.557604E-03 2.406303E+01  9.423907E-01 -1.010959E+02 
6.171875E+02  9.606588E-01 -4.960862E+01  5.584230E-03 2.342225E+01  5.556089E-03 2.357612E+01  9.425087E-01 -1.012097E+02 
6.181250E+02  9.606298E-01 -4.969374E+01  5.574278E-03 2.352981E+01  5.548227E-03 2.363481E+01  9.425122E-01 -1.013377E+02 
6.190625E+02  9.604008E-01 -4.977171E+01  5.553836E-03 2.322332E+01  5.525170E-03 2.338226E+01  9.426599E-01 -1.014721E+02 
6.200000E+02  9.602537E-01 -4.985541E+01  5.565329E-03 2.368850E+01  5.532518E-03 2.379981E+01  9.420913E-01 -1.016034E+02 
6.209375E+02  9.602209E-01 -4.991351E+01  5.551755E-03 2.325498E+01  5.522483E-03 2.345810E+01  9.420754E-01 -1.016944E+02 
6.218750E+02  9.605063E-01 -4.998360E+01  5.527318E-03 2.308797E+01  5.504738E-03 2.307946E+01  9.421299E-01 -1.018160E+02 
6.228125E+02  9.606084E-01 -5.006263E+01  5.511052E-03 2.338275E+01  5.491176E-03 2.348766E+01  9.419496E-01 -1.019289E+02 
6.237500E+02  9.605982E-01 -5.015283E+01  5.559575E-03 2.324521E+01  5.530118E-03 2.336837E+01  9.417321E-01 -1.020539E+02 
6.246875E+02  9.606583E-01 -5.024998E+01  5.547948E-03 2.312872E+01  5.520742E-03 2.322728E+01  9.415504E-01 -1.021889E+02 
6.256250E+02  9.605093E-01 -5.034404E+01  5.531555E-03 2.302775E+01  5.519281E-03 2.318341E+01  9.413799E-01 -1.023226E+02 
6.265625E+02  9.603085E-01 -5.043026E+01  5.504123E-03 2.298459E+01  5.485132E-03 2.296945E+01  9.412539E-01 -1.024402E+02 
6.275000E+02  9.601605E-01 -5.050092E+01  5.529628E-03 2.311190E+01  5.508022E-03 2.311009E+01  9.410855E-01 -1.025373E+02 
6.284375E+02  9.600464E-01 -5.057734E+01  5.521832E-03 2.255602E+01  5.486980E-03 2.269847E+01  9.410359E-01 -1.026459E+02 
6.293750E+02  9.596205E-01 -5.063954E+01  5.504826E-03 2.273536E+01  5.470260E-03 2.275102E+01  9.407383E-01 -1.027511E+02 
6.303125E+02  9.596261E-01 -5.067479E+01  5.453806E-03 2.319015E+01  5.429170E-03 2.311023E+01  9.409134E-01 -1.028364E+02 
6.312500E+02  9.596703E-01 -5.074289E+01  5.521223E-03 2.299382E+01  5.495640E-03 2.295243E+01  9.408705E-01 -1.029498E+02 
6.321875E+02  9.598154E-01 -5.082151E+01  5.475559E-03 2.245168E+01  5.451310E-03 2.245575E+01  9.408870E-01 -1.030661E+02 
6.331250E+02  9.598362E-01 -5.089048E+01  5.459312E-03 2.288268E+01  5.433835E-03 2.304583E+01  9.412182E-01 -1.031867E+02 
6.340625E+02  9.598911E-01 -5.095152E+01  5.504959E-03 2.294824E+01  5.480532E-03 2.300230E+01  9.412608E-01 -1.033073E+02 
6.350000E+02  9.598788E-01 -5.102453E+01  5.504219E-03 2.216144E+01  5.481068E-03 2.229345E+01  9.410892E-01 -1.034342E+02 
6.359375E+02  9.599011E-01 -5.111468E+01  5.442402E-03 2.221638E+01  5.413191E-03 2.229261E+01  9.408483E-01 -1.035652E+02 
6.368750E+02  9.599741E-01 -5.120929E+01  5.435973E-03 2.269872E+01  5.412026E-03 2.275398E+01  9.406307E-01 -1.036933E+02 
6.378125E+02  9.598014E-01 -5.131303E+01  5.478505E-03 2.249697E+01  5.460539E-03 2.259861E+01  9.404415E-01 -1.038229E+02 
6.387500E+02  9.591685E-01 -5.137019E+01  5.466338E-03 2.190319E+01  5.438865E-03 2.186953E+01  9.398451E-01 -1.039212E+02 
6.396875E+02  9.591228E-01 -5.142961E+01  5.407240E-03 2.220153E+01  5.399545E-03 2.227640E+01  9.396656E-01 -1.040237E+02 
6.406250E+02  9.593716E-01 -5.152066E+01  5.414720E-03 2.212924E+01  5.388801E-03 2.221836E+01  9.398086E-01 -1.041393E+02 
6.415625E+02  9.594333E-01 -5.161783E+01  5.424545E-03 2.249267E+01  5.403987E-03 2.259606E+01  9.398748E-01 -1.042529E+02 
6.425000E+02  9.590963E-01 -5.168768E+01  5.441844E-03 2.204594E+01  5.430015E-03 2.208458E+01  9.397283E-01 -1.043673E+02 
6.434375E+02  9.589093E-01 -5.176220E+01  5.379149E-03 2.183324E+01  5.363651E-03 2.189244E+01  9.396989E-01 -1.044900E+02 
6.443750E+02  9.588532E-01 -5.184251E+01  5.395591E-03 2.234705E+01  5.382402E-03 2.239036E+01  9.395741E-01 -1.046105E+02 
6.453125E+02  9.584504E-01 -5.191982E+01  5.424303E-03 2.186605E+01  5.406592E-03 2.200315E+01  9.395810E-01 -1.047391E+02 
