! Matrix data file written by TouchstoneData, EPCOS AG
! FILENAME: "B3403_NB.s2p"
! COMMENT: "PCB2023"
! INFO: nport=2, nfreq=1601
! DATE: "Thu Jan 16 2014"
! USER: "Hiroshi Tanaka"
!
! port | pin | signal
! -----|-----|--------
!   1  |  1  |  in
!   2  |  4  |  out
! --------------------
! 
# MHZ S MA R 50
! freq  magS11 angS11  magS21 angS21  magS12 angS12  magS22 angS22
  2.650000E+02    9.830595E-01  -4.244844E+01    8.331044E-05   4.723928E+01    8.331044E-05   4.723928E+01    9.849848E-01  -4.062388E+01 
  2.650625E+02    9.830293E-01  -4.246810E+01    8.618542E-05   5.319148E+01    8.618542E-05   5.319148E+01    9.846831E-01  -4.062762E+01 
  2.651250E+02    9.830575E-01  -4.249348E+01    8.912907E-05   5.665054E+01    8.912907E-05   5.665054E+01    9.845533E-01  -4.063260E+01 
  2.651875E+02    9.829399E-01  -4.251549E+01    9.536410E-05   5.784975E+01    9.536410E-05   5.784975E+01    9.844229E-01  -4.063067E+01 
  2.652500E+02    9.828527E-01  -4.253745E+01    1.102557E-04   5.421817E+01    1.102557E-04   5.421817E+01    9.843632E-01  -4.062805E+01 
  2.653125E+02    9.828902E-01  -4.255762E+01    1.012258E-04   5.211622E+01    1.012258E-04   5.211622E+01    9.844109E-01  -4.062954E+01 
  2.653750E+02    9.826869E-01  -4.257836E+01    1.002983E-04   5.224515E+01    1.002983E-04   5.224515E+01    9.845738E-01  -4.063154E+01 
  2.654375E+02    9.825062E-01  -4.259598E+01    1.066701E-04   5.151103E+01    1.066701E-04   5.151103E+01    9.847347E-01  -4.063384E+01 
  2.655000E+02    9.823047E-01  -4.261506E+01    1.139853E-04   5.194389E+01    1.139853E-04   5.194389E+01    9.849241E-01  -4.064428E+01 
  2.655625E+02    9.822442E-01  -4.263120E+01    1.166392E-04   4.849327E+01    1.166392E-04   4.849327E+01    9.850044E-01  -4.065223E+01 
  2.656250E+02    9.820925E-01  -4.264546E+01    1.152723E-04   4.639304E+01    1.152723E-04   4.639304E+01    9.852500E-01  -4.066560E+01 
  2.656875E+02    9.819674E-01  -4.265654E+01    1.140628E-04   4.306684E+01    1.140628E-04   4.306684E+01    9.853736E-01  -4.067946E+01 
  2.657500E+02    9.816790E-01  -4.266988E+01    1.074536E-04   3.904545E+01    1.074536E-04   3.904545E+01    9.855200E-01  -4.069513E+01 
  2.658125E+02    9.814436E-01  -4.267879E+01    1.103909E-04   3.725725E+01    1.103909E-04   3.725725E+01    9.857587E-01  -4.071717E+01 
  2.658750E+02    9.813008E-01  -4.268044E+01    1.041181E-04   3.834321E+01    1.041181E-04   3.834321E+01    9.859082E-01  -4.073210E+01 
  2.659375E+02    9.812427E-01  -4.268201E+01    1.178900E-04   3.752810E+01    1.178900E-04   3.752810E+01    9.859821E-01  -4.075330E+01 
  2.660000E+02    9.811909E-01  -4.268060E+01    9.119952E-05   2.078930E+01    9.119952E-05   2.078930E+01    9.860256E-01  -4.077095E+01 
  2.660625E+02    9.813129E-01  -4.268111E+01    7.452141E-05   3.664217E+01    7.452141E-05   3.664217E+01    9.861209E-01  -4.079243E+01 
  2.661250E+02    9.813958E-01  -4.268397E+01    6.366055E-05   3.884386E+01    6.366055E-05   3.884386E+01    9.861465E-01  -4.080983E+01 
  2.661875E+02    9.816239E-01  -4.269289E+01    6.818876E-05   6.143407E+01    6.818876E-05   6.143407E+01    9.862684E-01  -4.082911E+01 
  2.662500E+02    9.817999E-01  -4.269983E+01    9.496910E-05   5.837154E+01    9.496910E-05   5.837154E+01    9.864488E-01  -4.084989E+01 
  2.663125E+02    9.820303E-01  -4.271047E+01    1.032097E-04   5.578226E+01    1.032097E-04   5.578226E+01    9.865445E-01  -4.086984E+01 
  2.663750E+02    9.823857E-01  -4.272465E+01    1.038043E-04   4.848331E+01    1.038043E-04   4.848331E+01    9.866704E-01  -4.089463E+01 
  2.664375E+02    9.825250E-01  -4.274404E+01    8.317680E-05   4.557429E+01    8.317680E-05   4.557429E+01    9.866614E-01  -4.091866E+01 
  2.665000E+02    9.826969E-01  -4.276173E+01    9.017006E-05   5.483166E+01    9.017006E-05   5.483166E+01    9.867509E-01  -4.094605E+01 
  2.665625E+02    9.828254E-01  -4.278131E+01    1.012804E-04   5.403491E+01    1.012804E-04   5.403491E+01    9.867941E-01  -4.096706E+01 
  2.666250E+02    9.830190E-01  -4.280420E+01    9.734472E-05   5.207304E+01    9.734472E-05   5.207304E+01    9.867530E-01  -4.100068E+01 
  2.666875E+02    9.831638E-01  -4.282460E+01    9.075804E-05   5.805589E+01    9.075804E-05   5.805589E+01    9.866755E-01  -4.101958E+01 
  2.667500E+02    9.832261E-01  -4.284483E+01    9.382253E-05   5.913429E+01    9.382253E-05   5.913429E+01    9.866675E-01  -4.104742E+01 
  2.668125E+02    9.833459E-01  -4.286856E+01    1.017062E-04   5.840946E+01    1.017062E-04   5.840946E+01    9.866755E-01  -4.107483E+01 
  2.668750E+02    9.834377E-01  -4.289233E+01    1.017170E-04   5.460069E+01    1.017170E-04   5.460069E+01    9.866591E-01  -4.110078E+01 
  2.669375E+02    9.834652E-01  -4.291726E+01    1.037517E-04   5.139174E+01    1.037517E-04   5.139174E+01    9.864681E-01  -4.112788E+01 
  2.670000E+02    9.835424E-01  -4.293945E+01    9.850259E-05   5.095269E+01    9.850259E-05   5.095269E+01    9.863408E-01  -4.114945E+01 
  2.670625E+02    9.835353E-01  -4.296258E+01    1.051986E-04   5.360195E+01    1.051986E-04   5.360195E+01    9.862734E-01  -4.117103E+01 
  2.671250E+02    9.834392E-01  -4.298325E+01    1.114822E-04   5.016765E+01    1.114822E-04   5.016765E+01    9.860084E-01  -4.119139E+01 
  2.671875E+02    9.835099E-01  -4.300561E+01    1.075871E-04   4.631823E+01    1.075871E-04   4.631823E+01    9.858488E-01  -4.121576E+01 
  2.672500E+02    9.834571E-01  -4.303134E+01    8.637538E-05   4.299632E+01    8.637538E-05   4.299632E+01    9.854835E-01  -4.122503E+01 
  2.673125E+02    9.834845E-01  -4.304870E+01    7.129916E-05   5.361013E+01    7.129916E-05   5.361013E+01    9.852581E-01  -4.123388E+01 
  2.673750E+02    9.834088E-01  -4.307072E+01    7.579442E-05   6.495566E+01    7.579442E-05   6.495566E+01    9.850752E-01  -4.124021E+01 
  2.674375E+02    9.833766E-01  -4.308878E+01    9.566804E-05   8.773027E+01    9.566804E-05   8.773027E+01    9.848890E-01  -4.123968E+01 
  2.675000E+02    9.832951E-01  -4.310851E+01    1.390133E-04   6.747661E+01    1.390133E-04   6.747661E+01    9.848198E-01  -4.123749E+01 
  2.675625E+02    9.832725E-01  -4.312741E+01    1.375269E-04   5.884831E+01    1.375269E-04   5.884831E+01    9.848484E-01  -4.123795E+01 
  2.676250E+02    9.832751E-01  -4.314137E+01    1.322687E-04   5.552670E+01    1.322687E-04   5.552670E+01    9.849624E-01  -4.123871E+01 
  2.676875E+02    9.832377E-01  -4.316234E+01    1.291559E-04   4.888175E+01    1.291559E-04   4.888175E+01    9.852898E-01  -4.124033E+01 
  2.677500E+02    9.832299E-01  -4.317630E+01    1.149572E-04   4.730443E+01    1.149572E-04   4.730443E+01    9.855217E-01  -4.124640E+01 
  2.678125E+02    9.832242E-01  -4.319585E+01    1.078452E-04   4.918284E+01    1.078452E-04   4.918284E+01    9.857340E-01  -4.126386E+01 
  2.678750E+02    9.832117E-01  -4.321225E+01    1.008669E-04   5.447037E+01    1.008669E-04   5.447037E+01    9.860455E-01  -4.127894E+01 
  2.679375E+02    9.831401E-01  -4.322395E+01    1.092444E-04   5.799283E+01    1.092444E-04   5.799283E+01    9.861936E-01  -4.129882E+01 
  2.680000E+02    9.831189E-01  -4.324008E+01    1.226579E-04   6.082733E+01    1.226579E-04   6.082733E+01    9.864858E-01  -4.132331E+01 
  2.680625E+02    9.831571E-01  -4.325234E+01    1.233776E-04   6.150347E+01    1.233776E-04   6.150347E+01    9.866719E-01  -4.134295E+01 
  2.681250E+02    9.831124E-01  -4.327014E+01    1.259332E-04   5.478495E+01    1.259332E-04   5.478495E+01    9.868266E-01  -4.136772E+01 
  2.681875E+02    9.831690E-01  -4.327931E+01    1.226682E-04   5.611583E+01    1.226682E-04   5.611583E+01    9.868679E-01  -4.139180E+01 
  2.682500E+02    9.832639E-01  -4.328882E+01    1.271031E-04   5.865192E+01    1.271031E-04   5.865192E+01    9.868679E-01  -4.140953E+01 
  2.683125E+02    9.833478E-01  -4.330605E+01    1.398618E-04   5.454912E+01    1.398618E-04   5.454912E+01    9.870062E-01  -4.143327E+01 
  2.683750E+02    9.834340E-01  -4.332289E+01    1.479665E-04   5.082126E+01    1.479665E-04   5.082126E+01    9.871375E-01  -4.145660E+01 
  2.684375E+02    9.836184E-01  -4.334132E+01    1.424149E-04   4.696384E+01    1.424149E-04   4.696384E+01    9.871176E-01  -4.148041E+01 
  2.685000E+02    9.837901E-01  -4.335695E+01    1.366851E-04   4.311433E+01    1.366851E-04   4.311433E+01    9.873059E-01  -4.150515E+01 
  2.685625E+02    9.838595E-01  -4.337560E+01    1.384887E-04   4.076260E+01    1.384887E-04   4.076260E+01    9.873538E-01  -4.152692E+01 
  2.686250E+02    9.839702E-01  -4.340048E+01    1.229748E-04   3.568020E+01    1.229748E-04   3.568020E+01    9.873964E-01  -4.154945E+01 
  2.686875E+02    9.840003E-01  -4.341901E+01    1.117535E-04   3.584131E+01    1.117535E-04   3.584131E+01    9.875368E-01  -4.157284E+01 
  2.687500E+02    9.842341E-01  -4.344469E+01    1.030201E-04   4.132704E+01    1.030201E-04   4.132704E+01    9.875363E-01  -4.160009E+01 
  2.688125E+02    9.842472E-01  -4.346691E+01    1.126255E-04   4.961858E+01    1.126255E-04   4.961858E+01    9.874911E-01  -4.162543E+01 
  2.688750E+02    9.843281E-01  -4.349189E+01    1.205817E-04   4.663543E+01    1.205817E-04   4.663543E+01    9.874912E-01  -4.165177E+01 
  2.689375E+02    9.843612E-01  -4.351498E+01    1.161748E-04   3.216975E+01    1.161748E-04   3.216975E+01    9.874607E-01  -4.167499E+01 
  2.690000E+02    9.843488E-01  -4.353792E+01    1.020091E-04   4.538451E+01    1.020091E-04   4.538451E+01    9.875779E-01  -4.169637E+01 
  2.690625E+02    9.844582E-01  -4.355946E+01    1.134843E-04   4.910642E+01    1.134843E-04   4.910642E+01    9.875229E-01  -4.171950E+01 
  2.691250E+02    9.844824E-01  -4.358283E+01    1.186520E-04   4.731372E+01    1.186520E-04   4.731372E+01    9.876159E-01  -4.174019E+01 
  2.691875E+02    9.845430E-01  -4.360358E+01    1.178716E-04   4.613844E+01    1.178716E-04   4.613844E+01    9.874889E-01  -4.176758E+01 
  2.692500E+02    9.846389E-01  -4.362488E+01    1.190461E-04   4.313974E+01    1.190461E-04   4.313974E+01    9.875411E-01  -4.178760E+01 
  2.693125E+02    9.845915E-01  -4.364892E+01    1.156741E-04   4.143268E+01    1.156741E-04   4.143268E+01    9.875154E-01  -4.180893E+01 
  2.693750E+02    9.846550E-01  -4.366911E+01    1.072992E-04   3.951281E+01    1.072992E-04   3.951281E+01    9.874499E-01  -4.183544E+01 
  2.694375E+02    9.846176E-01  -4.369589E+01    1.022513E-04   4.198874E+01    1.022513E-04   4.198874E+01    9.875587E-01  -4.184853E+01 
  2.695000E+02    9.847098E-01  -4.371736E+01    9.994047E-05   4.206871E+01    9.994047E-05   4.206871E+01    9.875560E-01  -4.187303E+01 
  2.695625E+02    9.847982E-01  -4.374120E+01    1.073622E-04   4.481434E+01    1.073622E-04   4.481434E+01    9.875239E-01  -4.189747E+01 
  2.696250E+02    9.848389E-01  -4.376471E+01    1.149551E-04   4.453134E+01    1.149551E-04   4.453134E+01    9.875444E-01  -4.191848E+01 
  2.696875E+02    9.849162E-01  -4.378926E+01    1.103757E-04   4.486960E+01    1.103757E-04   4.486960E+01    9.875664E-01  -4.193766E+01 
  2.697500E+02    9.849221E-01  -4.381291E+01    1.113895E-04   4.297069E+01    1.113895E-04   4.297069E+01    9.875979E-01  -4.196111E+01 
  2.698125E+02    9.848662E-01  -4.383487E+01    1.025959E-04   4.170473E+01    1.025959E-04   4.170473E+01    9.876010E-01  -4.198131E+01 
  2.698750E+02    9.848842E-01  -4.386133E+01    9.162568E-05   4.500224E+01    9.162568E-05   4.500224E+01    9.876882E-01  -4.199773E+01 
  2.699375E+02    9.849109E-01  -4.388793E+01    9.214118E-05   4.759973E+01    9.214118E-05   4.759973E+01    9.877351E-01  -4.202300E+01 
  2.700000E+02    9.848998E-01  -4.391206E+01    9.986590E-05   5.014572E+01    9.986590E-05   5.014572E+01    9.878284E-01  -4.204799E+01 
  2.700625E+02    9.848765E-01  -4.392946E+01    1.073747E-04   4.992177E+01    1.073747E-04   4.992177E+01    9.878374E-01  -4.207196E+01 
  2.701250E+02    9.849109E-01  -4.395531E+01    1.042806E-04   4.736404E+01    1.042806E-04   4.736404E+01    9.878520E-01  -4.209713E+01 
  2.701875E+02    9.849032E-01  -4.397493E+01    1.061218E-04   4.642744E+01    1.061218E-04   4.642744E+01    9.879666E-01  -4.212351E+01 
  2.702500E+02    9.849431E-01  -4.400011E+01    1.023528E-04   4.650094E+01    1.023528E-04   4.650094E+01    9.878591E-01  -4.215207E+01 
  2.703125E+02    9.849449E-01  -4.402971E+01    9.990012E-05   4.898487E+01    9.990012E-05   4.898487E+01    9.878838E-01  -4.217414E+01 
  2.703750E+02    9.849457E-01  -4.404706E+01    8.122285E-05   5.411243E+01    8.122285E-05   5.411243E+01    9.878998E-01  -4.219922E+01 
  2.704375E+02    9.849306E-01  -4.406924E+01    1.202339E-04   5.990918E+01    1.202339E-04   5.990918E+01    9.876976E-01  -4.222005E+01 
  2.705000E+02    9.849721E-01  -4.409648E+01    1.150329E-04   5.094047E+01    1.150329E-04   5.094047E+01    9.878874E-01  -4.224811E+01 
  2.705625E+02    9.849798E-01  -4.412084E+01    1.172396E-04   5.160496E+01    1.172396E-04   5.160496E+01    9.878329E-01  -4.226980E+01 
  2.706250E+02    9.849699E-01  -4.414745E+01    1.214156E-04   4.933251E+01    1.214156E-04   4.933251E+01    9.878413E-01  -4.229069E+01 
  2.706875E+02    9.850235E-01  -4.417182E+01    1.180061E-04   4.694313E+01    1.180061E-04   4.694313E+01    9.878640E-01  -4.231724E+01 
  2.707500E+02    9.849388E-01  -4.419536E+01    1.080986E-04   4.495998E+01    1.080986E-04   4.495998E+01    9.878361E-01  -4.234652E+01 
  2.708125E+02    9.849894E-01  -4.422157E+01    1.054774E-04   4.294114E+01    1.054774E-04   4.294114E+01    9.879121E-01  -4.237367E+01 
  2.708750E+02    9.850022E-01  -4.424356E+01    1.063958E-04   5.002760E+01    1.063958E-04   5.002760E+01    9.878125E-01  -4.239281E+01 
  2.709375E+02    9.850606E-01  -4.427192E+01    1.081888E-04   5.368880E+01    1.081888E-04   5.368880E+01    9.878403E-01  -4.241976E+01 
  2.710000E+02    9.849605E-01  -4.429831E+01    1.077007E-04   5.399632E+01    1.077007E-04   5.399632E+01    9.878348E-01  -4.244554E+01 
  2.710625E+02    9.849362E-01  -4.432670E+01    1.145454E-04   5.144023E+01    1.145454E-04   5.144023E+01    9.878210E-01  -4.246799E+01 
  2.711250E+02    9.849391E-01  -4.434992E+01    1.126588E-04   5.057968E+01    1.126588E-04   5.057968E+01    9.878356E-01  -4.249243E+01 
  2.711875E+02    9.849829E-01  -4.437325E+01    1.130476E-04   5.130659E+01    1.130476E-04   5.130659E+01    9.878631E-01  -4.251792E+01 
  2.712500E+02    9.849418E-01  -4.439805E+01    1.096164E-04   4.816257E+01    1.096164E-04   4.816257E+01    9.878676E-01  -4.254332E+01 
  2.713125E+02    9.848674E-01  -4.442405E+01    1.158182E-04   5.137377E+01    1.158182E-04   5.137377E+01    9.877774E-01  -4.257298E+01 
  2.713750E+02    9.848717E-01  -4.445050E+01    1.141386E-04   4.862202E+01    1.141386E-04   4.862202E+01    9.877814E-01  -4.259839E+01 
  2.714375E+02    9.849229E-01  -4.447601E+01    1.110881E-04   4.468728E+01    1.110881E-04   4.468728E+01    9.877643E-01  -4.262530E+01 
  2.715000E+02    9.849228E-01  -4.450648E+01    1.082288E-04   4.402383E+01    1.082288E-04   4.402383E+01    9.878700E-01  -4.264778E+01 
  2.715625E+02    9.847916E-01  -4.452891E+01    1.037221E-04   4.902218E+01    1.037221E-04   4.902218E+01    9.877158E-01  -4.267722E+01 
  2.716250E+02    9.848057E-01  -4.455517E+01    1.036928E-04   5.151652E+01    1.036928E-04   5.151652E+01    9.877731E-01  -4.270515E+01 
  2.716875E+02    9.847080E-01  -4.457758E+01    1.163217E-04   5.292155E+01    1.163217E-04   5.292155E+01    9.876552E-01  -4.273543E+01 
  2.717500E+02    9.847127E-01  -4.460625E+01    1.186634E-04   5.152973E+01    1.186634E-04   5.152973E+01    9.875766E-01  -4.276095E+01 
  2.718125E+02    9.846182E-01  -4.463084E+01    1.299728E-04   4.609193E+01    1.299728E-04   4.609193E+01    9.875201E-01  -4.278794E+01 
  2.718750E+02    9.845797E-01  -4.465830E+01    1.304960E-04   3.244697E+01    1.304960E-04   3.244697E+01    9.874210E-01  -4.281044E+01 
  2.719375E+02    9.844684E-01  -4.468035E+01    9.426352E-05   3.147627E+01    9.426352E-05   3.147627E+01    9.874754E-01  -4.283682E+01 
  2.720000E+02    9.844184E-01  -4.470643E+01    9.386008E-05   4.237113E+01    9.386008E-05   4.237113E+01    9.873394E-01  -4.286305E+01 
  2.720625E+02    9.843073E-01  -4.473433E+01    9.293388E-05   4.202554E+01    9.293388E-05   4.202554E+01    9.872555E-01  -4.289171E+01 
  2.721250E+02    9.842907E-01  -4.475852E+01    9.366489E-05   5.338525E+01    9.366489E-05   5.338525E+01    9.872575E-01  -4.291434E+01 
  2.721875E+02    9.842262E-01  -4.478671E+01    1.017267E-04   4.731337E+01    1.017267E-04   4.731337E+01    9.871182E-01  -4.293940E+01 
  2.722500E+02    9.842101E-01  -4.481066E+01    1.027665E-04   4.954386E+01    1.027665E-04   4.954386E+01    9.869841E-01  -4.296333E+01 
  2.723125E+02    9.841722E-01  -4.483581E+01    9.079206E-05   5.035721E+01    9.079206E-05   5.035721E+01    9.869486E-01  -4.298567E+01 
  2.723750E+02    9.840613E-01  -4.486080E+01    9.064554E-05   5.075887E+01    9.064554E-05   5.075887E+01    9.867817E-01  -4.300841E+01 
  2.724375E+02    9.838569E-01  -4.488595E+01    8.840860E-05   5.379685E+01    8.840860E-05   5.379685E+01    9.867635E-01  -4.303354E+01 
  2.725000E+02    9.837244E-01  -4.491016E+01    8.056189E-05   6.207557E+01    8.056189E-05   6.207557E+01    9.866996E-01  -4.305690E+01 
  2.725625E+02    9.836002E-01  -4.493682E+01    9.836214E-05   6.699176E+01    9.836214E-05   6.699176E+01    9.866880E-01  -4.307784E+01 
  2.726250E+02    9.834590E-01  -4.496322E+01    1.042988E-04   6.912464E+01    1.042988E-04   6.912464E+01    9.866711E-01  -4.310318E+01 
  2.726875E+02    9.832842E-01  -4.498237E+01    1.054812E-04   6.490476E+01    1.054812E-04   6.490476E+01    9.865462E-01  -4.312899E+01 
  2.727500E+02    9.832080E-01  -4.500493E+01    1.113252E-04   6.385595E+01    1.113252E-04   6.385595E+01    9.864746E-01  -4.314921E+01 
  2.728125E+02    9.830181E-01  -4.502434E+01    1.109255E-04   6.572439E+01    1.109255E-04   6.572439E+01    9.864299E-01  -4.317453E+01 
  2.728750E+02    9.829112E-01  -4.504087E+01    1.146890E-04   6.748383E+01    1.146890E-04   6.748383E+01    9.863859E-01  -4.319815E+01 
  2.729375E+02    9.827669E-01  -4.505478E+01    1.273649E-04   6.955332E+01    1.273649E-04   6.955332E+01    9.863057E-01  -4.322738E+01 
  2.730000E+02    9.827506E-01  -4.507028E+01    1.336019E-04   6.694660E+01    1.336019E-04   6.694660E+01    9.862622E-01  -4.324566E+01 
  2.730625E+02    9.825757E-01  -4.508947E+01    1.258918E-04   6.291900E+01    1.258918E-04   6.291900E+01    9.861053E-01  -4.326951E+01 
  2.731250E+02    9.826328E-01  -4.510832E+01    1.323233E-04   6.375166E+01    1.323233E-04   6.375166E+01    9.861418E-01  -4.329299E+01 
  2.731875E+02    9.826537E-01  -4.512487E+01    1.360515E-04   6.384334E+01    1.360515E-04   6.384334E+01    9.861790E-01  -4.331877E+01 
  2.732500E+02    9.826886E-01  -4.514923E+01    1.423320E-04   6.184969E+01    1.423320E-04   6.184969E+01    9.861107E-01  -4.334226E+01 
  2.733125E+02    9.826064E-01  -4.517133E+01    1.416318E-04   6.220321E+01    1.416318E-04   6.220321E+01    9.860673E-01  -4.336762E+01 
  2.733750E+02    9.825720E-01  -4.519518E+01    1.667009E-04   6.577207E+01    1.667009E-04   6.577207E+01    9.859742E-01  -4.339185E+01 
  2.734375E+02    9.826692E-01  -4.521558E+01    1.553175E-04   5.411204E+01    1.553175E-04   5.411204E+01    9.860241E-01  -4.341837E+01 
  2.735000E+02    9.825570E-01  -4.524420E+01    1.500221E-04   5.721094E+01    1.500221E-04   5.721094E+01    9.859819E-01  -4.345019E+01 
  2.735625E+02    9.825666E-01  -4.526875E+01    1.528056E-04   5.722559E+01    1.528056E-04   5.722559E+01    9.859070E-01  -4.347914E+01 
  2.736250E+02    9.824632E-01  -4.529377E+01    1.553091E-04   5.580203E+01    1.553091E-04   5.580203E+01    9.858811E-01  -4.350864E+01 
  2.736875E+02    9.824503E-01  -4.531728E+01    1.518041E-04   5.600536E+01    1.518041E-04   5.600536E+01    9.858467E-01  -4.353382E+01 
