! Matrix data file written by TouchstoneData, EPCOS AG
! FILENAME: "B3400_WB.s2p"
! COMMENT: "PCB328"
! INFO: nport=2, nfreq=1601
! DATE: "Mon Mar 03 2014"
! USER: "Hiroshi Tanaka"
!
! port | pin | signal
! -----|-----|--------
!   1  |  2  |  in
!   2  |  5  |  out
! --------------------
! 
# MHZ S MA R 50
! freq  magS11 angS11  magS21 angS21  magS12 angS12  magS22 angS22
  1.000000E+02    9.981960E-01  -5.633276E+00    2.615689E-04   8.967113E+01    2.752227E-04   9.091924E+01    9.978789E-01  -1.353660E+01 
  1.018125E+02    9.984719E-01  -5.731560E+00    2.880522E-04   7.704635E+01    2.777089E-04   7.722496E+01    9.981048E-01  -1.379352E+01 
  1.036250E+02    9.984445E-01  -5.836254E+00    3.282715E-04   7.949524E+01    3.381738E-04   7.855853E+01    9.981220E-01  -1.402730E+01 
  1.054375E+02    9.981077E-01  -5.983840E+00    3.295241E-04   7.600282E+01    3.257370E-04   7.311339E+01    9.977691E-01  -1.430371E+01 
  1.072500E+02    9.981937E-01  -6.065742E+00    3.116962E-04   7.204833E+01    3.170818E-04   7.151867E+01    9.974371E-01  -1.448127E+01 
  1.090625E+02    9.979372E-01  -6.171075E+00    2.992357E-04   8.170836E+01    3.078574E-04   8.322867E+01    9.977097E-01  -1.471061E+01 
  1.108750E+02    9.983756E-01  -6.264474E+00    2.781363E-04   8.095379E+01    2.767085E-04   7.945895E+01    9.982004E-01  -1.497837E+01 
  1.126875E+02    9.984879E-01  -6.368129E+00    3.360688E-04   8.016733E+01    3.395832E-04   7.883497E+01    9.979971E-01  -1.523798E+01 
  1.145000E+02    9.977241E-01  -6.494084E+00    5.453301E-04   1.121089E+02    5.471748E-04   1.118069E+02    9.953208E-01  -1.538442E+01 
  1.163125E+02    9.979345E-01  -6.556997E+00    3.371053E-04   8.539668E+01    3.310338E-04   8.415556E+01    9.972670E-01  -1.565665E+01 
  1.181250E+02    9.980883E-01  -6.650829E+00    3.682973E-04   7.445108E+01    3.625211E-04   7.591070E+01    9.977990E-01  -1.589324E+01 
  1.199375E+02    9.982890E-01  -6.766707E+00    3.134983E-04   7.728728E+01    3.138698E-04   7.613868E+01    9.978863E-01  -1.614300E+01 
  1.217500E+02    9.979459E-01  -6.880263E+00    3.500179E-04   8.112734E+01    3.641213E-04   8.100518E+01    9.980229E-01  -1.638857E+01 
  1.235625E+02    9.973953E-01  -6.992881E+00    4.565925E-04   9.123008E+01    4.581254E-04   9.223569E+01    9.974181E-01  -1.661712E+01 
  1.253750E+02    9.978865E-01  -7.071483E+00    3.342817E-04   6.603927E+01    3.280666E-04   6.409862E+01    9.974237E-01  -1.683820E+01 
  1.271875E+02    9.980150E-01  -7.164586E+00    3.519971E-04   7.496607E+01    3.387024E-04   7.575323E+01    9.976564E-01  -1.708155E+01 
  1.290000E+02    9.980853E-01  -7.268356E+00    3.986364E-04   8.181536E+01    3.936035E-04   8.055162E+01    9.979714E-01  -1.730903E+01 
  1.308125E+02    9.985343E-01  -7.342075E+00    3.060703E-04   7.558114E+01    3.127214E-04   7.610022E+01    9.984798E-01  -1.751012E+01 
  1.326250E+02    9.978655E-01  -7.407977E+00    3.932787E-04   7.710144E+01    3.994358E-04   7.679380E+01    9.974179E-01  -1.770875E+01 
  1.344375E+02    9.982967E-01  -7.563407E+00    3.979338E-04   7.495201E+01    3.960580E-04   7.446908E+01    9.979090E-01  -1.798041E+01 
  1.362500E+02    9.987500E-01  -7.624661E+00    3.937368E-04   7.173019E+01    3.851087E-04   7.102020E+01    9.983357E-01  -1.820172E+01 
  1.380625E+02    9.984133E-01  -7.727560E+00    3.601101E-04   7.243631E+01    3.681468E-04   7.209029E+01    9.982837E-01  -1.842424E+01 
  1.398750E+02    9.981062E-01  -7.835727E+00    4.131158E-04   7.727256E+01    4.168544E-04   7.802917E+01    9.978285E-01  -1.869046E+01 
  1.416875E+02    9.979589E-01  -7.880488E+00    4.133692E-04   6.832803E+01    4.212506E-04   6.908381E+01    9.972183E-01  -1.887746E+01 
  1.435000E+02    9.980959E-01  -7.982538E+00    3.998625E-04   7.219884E+01    3.988909E-04   7.226211E+01    9.979468E-01  -1.912054E+01 
  1.453125E+02    9.981302E-01  -8.065380E+00    4.138928E-04   7.489878E+01    4.225858E-04   7.502170E+01    9.980815E-01  -1.935000E+01 
  1.471250E+02    9.982338E-01  -8.161594E+00    3.873835E-04   7.355595E+01    3.857569E-04   7.418434E+01    9.979207E-01  -1.958986E+01 
  1.489375E+02    9.982691E-01  -8.281489E+00    4.087495E-04   7.000690E+01    4.045638E-04   7.088953E+01    9.976090E-01  -1.988538E+01 
  1.507500E+02    9.980992E-01  -8.356929E+00    4.037270E-04   7.319718E+01    4.024406E-04   7.241340E+01    9.971808E-01  -2.003709E+01 
  1.525625E+02    9.982710E-01  -8.445960E+00    3.899455E-04   7.705447E+01    3.982997E-04   7.855153E+01    9.978812E-01  -2.027382E+01 
  1.543750E+02    9.985939E-01  -8.539977E+00    4.250264E-04   7.392906E+01    4.306896E-04   7.426837E+01    9.980229E-01  -2.049930E+01 
  1.561875E+02    9.986618E-01  -8.630242E+00    4.598973E-04   7.695244E+01    4.667203E-04   7.737815E+01    9.981557E-01  -2.074243E+01 
  1.580000E+02    9.986597E-01  -8.730184E+00    4.262744E-04   7.423743E+01    4.216010E-04   7.323944E+01    9.978257E-01  -2.101363E+01 
  1.598125E+02    9.988502E-01  -8.790987E+00    4.415342E-04   7.542594E+01    4.416114E-04   7.639353E+01    9.977821E-01  -2.120136E+01 
  1.616250E+02    9.991570E-01  -8.876173E+00    4.779053E-04   7.509886E+01    4.749820E-04   7.482753E+01    9.985179E-01  -2.143652E+01 
  1.634375E+02    9.987064E-01  -8.982624E+00    4.751613E-04   7.605952E+01    4.859775E-04   7.505322E+01    9.978347E-01  -2.168141E+01 
  1.652500E+02    9.986651E-01  -9.087029E+00    4.386530E-04   7.582562E+01    4.491219E-04   7.601952E+01    9.979094E-01  -2.192699E+01 
  1.670625E+02    9.984869E-01  -9.184384E+00    4.304066E-04   6.303107E+01    4.346805E-04   6.116659E+01    9.940699E-01  -2.215751E+01 
  1.688750E+02    9.982493E-01  -9.235834E+00    5.184218E-04   6.849363E+01    5.162742E-04   6.855570E+01    9.971127E-01  -2.236042E+01 
  1.706875E+02    9.985374E-01  -9.324123E+00    4.453282E-04   7.139934E+01    4.462308E-04   7.153199E+01    9.972621E-01  -2.259536E+01 
  1.725000E+02    9.988465E-01  -9.395326E+00    4.921458E-04   7.343249E+01    4.900092E-04   7.404501E+01    9.978439E-01  -2.282144E+01 
  1.743125E+02    9.984480E-01  -9.460697E+00    5.042335E-04   7.357999E+01    5.001645E-04   7.399828E+01    9.975059E-01  -2.303605E+01 
  1.761250E+02    9.980196E-01  -9.566896E+00    5.364309E-04   8.167466E+01    5.403063E-04   8.071554E+01    9.964575E-01  -2.330037E+01 
  1.779375E+02    9.995992E-01  -9.726138E+00    4.983787E-04   6.842006E+01    4.973359E-04   6.889869E+01    9.978379E-01  -2.363716E+01 
  1.797500E+02    9.996125E-01  -9.746123E+00    5.344905E-04   7.325156E+01    5.302954E-04   7.404830E+01    9.976724E-01  -2.379951E+01 
  1.815625E+02    9.993639E-01  -9.825284E+00    5.261268E-04   6.377335E+01    5.369589E-04   6.485800E+01    9.973096E-01  -2.402181E+01 
  1.833750E+02    9.996909E-01  -9.876957E+00    5.268110E-04   7.133724E+01    5.188051E-04   7.192745E+01    9.977921E-01  -2.425662E+01 
  1.851875E+02    9.992697E-01  -9.951582E+00    5.030747E-04   6.385266E+01    5.149861E-04   6.373092E+01    9.967204E-01  -2.442700E+01 
  1.870000E+02    9.999466E-01  -1.005994E+01    4.986631E-04   7.413182E+01    5.016780E-04   7.531070E+01    9.976169E-01  -2.467832E+01 
  1.888125E+02    9.999466E-01  -1.014951E+01    4.755930E-04   7.160920E+01    4.735687E-04   7.200717E+01    9.979796E-01  -2.491112E+01 
  1.906250E+02    9.998610E-01  -1.026401E+01    4.868691E-04   6.988494E+01    4.946466E-04   6.976358E+01    9.974973E-01  -2.518619E+01 
  1.924375E+02    9.990781E-01  -1.033343E+01    5.158383E-04   7.177722E+01    5.055732E-04   7.206184E+01    9.963411E-01  -2.543104E+01 
  1.942500E+02    9.978465E-01  -1.035350E+01    4.612797E-04   7.034662E+01    4.755439E-04   7.116646E+01    9.942407E-01  -2.562709E+01 
  1.960625E+02    9.994792E-01  -1.054120E+01    5.625639E-04   7.590710E+01    5.621013E-04   7.530894E+01    9.969486E-01  -2.591685E+01 
  1.978750E+02    9.997309E-01  -1.070097E+01    5.033940E-04   7.160083E+01    5.061950E-04   7.270610E+01    9.973910E-01  -2.621455E+01 
  1.996875E+02    9.993610E-01  -1.076975E+01    5.440729E-04   7.126732E+01    5.415739E-04   7.304151E+01    9.969360E-01  -2.643162E+01 
  2.015000E+02    9.989073E-01  -1.086790E+01    4.902640E-04   6.931477E+01    4.881650E-04   6.901583E+01    9.965703E-01  -2.670215E+01 
  2.033125E+02    9.984656E-01  -1.093992E+01    5.438449E-04   7.228106E+01    5.581667E-04   7.033234E+01    9.959612E-01  -2.684686E+01 
  2.051250E+02    9.994146E-01  -1.100429E+01    5.835812E-04   6.702153E+01    5.960403E-04   6.784378E+01    9.963017E-01  -2.710340E+01 
  2.069375E+02    9.987037E-01  -1.106450E+01    5.492808E-04   6.717848E+01    5.546139E-04   6.787564E+01    9.962809E-01  -2.734864E+01 
  2.087500E+02    9.988612E-01  -1.116188E+01    5.811259E-04   7.362909E+01    5.772564E-04   7.312964E+01    9.961524E-01  -2.760419E+01 
  2.105625E+02    9.995181E-01  -1.127823E+01    5.666380E-04   6.927634E+01    5.748062E-04   6.852070E+01    9.960895E-01  -2.787549E+01 
  2.123750E+02    9.995925E-01  -1.130621E+01    5.491816E-04   6.927999E+01    5.581447E-04   6.845639E+01    9.957032E-01  -2.807412E+01 
  2.141875E+02    9.994858E-01  -1.145573E+01    5.908417E-04   7.171767E+01    6.086007E-04   7.110948E+01    9.959137E-01  -2.832343E+01 
  2.160000E+02    9.996987E-01  -1.161330E+01    5.639359E-04   6.631703E+01    5.533198E-04   6.488606E+01    9.955912E-01  -2.858303E+01 
  2.178125E+02    9.995923E-01  -1.173433E+01    5.646162E-04   6.862846E+01    5.670847E-04   6.795482E+01    9.955726E-01  -2.884063E+01 
  2.196250E+02    9.986381E-01  -1.181713E+01    5.672331E-04   6.711456E+01    5.762110E-04   6.666975E+01    9.943878E-01  -2.917692E+01 
  2.214375E+02    9.986919E-01  -1.192505E+01    5.938917E-04   6.979704E+01    5.836121E-04   7.050474E+01    9.946946E-01  -2.924779E+01 
  2.232500E+02    9.986059E-01  -1.201489E+01    5.804416E-04   6.730695E+01    5.691119E-04   6.642331E+01    9.949834E-01  -2.949854E+01 
  2.250625E+02    9.989192E-01  -1.207222E+01    5.944623E-04   7.388962E+01    6.099238E-04   7.422931E+01    9.961569E-01  -2.974211E+01 
  2.268750E+02    9.990023E-01  -1.216942E+01    5.650487E-04   6.676654E+01    5.620477E-04   6.560838E+01    9.965150E-01  -2.998618E+01 
  2.286875E+02    9.980777E-01  -1.234243E+01    6.048578E-04   7.163619E+01    6.189785E-04   7.096250E+01    9.944278E-01  -3.026764E+01 
  2.305000E+02    9.986956E-01  -1.243988E+01    5.942917E-04   6.803925E+01    5.832644E-04   6.838204E+01    9.954586E-01  -3.045391E+01 
  2.323125E+02    9.987778E-01  -1.257249E+01    6.003726E-04   6.730007E+01    6.039778E-04   6.833707E+01    9.956197E-01  -3.072406E+01 
  2.341250E+02    9.986663E-01  -1.265232E+01    6.320321E-04   6.797968E+01    6.306077E-04   6.748677E+01    9.951474E-01  -3.095695E+01 
  2.359375E+02    9.987609E-01  -1.279028E+01    6.608104E-04   6.785526E+01    6.648391E-04   6.844424E+01    9.952651E-01  -3.123318E+01 
  2.377500E+02    9.978483E-01  -1.285226E+01    6.013824E-04   6.507527E+01    6.036887E-04   6.584555E+01    9.934943E-01  -3.136409E+01 
  2.395625E+02    9.986991E-01  -1.294063E+01    6.328550E-04   6.574864E+01    6.293954E-04   6.612989E+01    9.948775E-01  -3.163915E+01 
  2.413750E+02    9.984894E-01  -1.306038E+01    6.378983E-04   6.368972E+01    6.472065E-04   6.392113E+01    9.947458E-01  -3.188873E+01 
  2.431875E+02    9.984964E-01  -1.318351E+01    6.419193E-04   6.287098E+01    6.502781E-04   6.313760E+01    9.947509E-01  -3.213056E+01 
  2.450000E+02    9.983489E-01  -1.331397E+01    6.625369E-04   6.833118E+01    6.714877E-04   6.863698E+01    9.947211E-01  -3.238447E+01 
  2.468125E+02    9.977526E-01  -1.340056E+01    6.131642E-04   6.479944E+01    6.219216E-04   6.473411E+01    9.939625E-01  -3.260655E+01 
  2.486250E+02    9.980640E-01  -1.351383E+01    6.413478E-04   6.650824E+01    6.459190E-04   6.558842E+01    9.946659E-01  -3.286099E+01 
  2.504375E+02    9.981750E-01  -1.362582E+01    6.582436E-04   6.728791E+01    6.568763E-04   6.707472E+01    9.944291E-01  -3.312769E+01 
  2.522500E+02    9.979993E-01  -1.373802E+01    6.359342E-04   6.640591E+01    6.474866E-04   6.690410E+01    9.945867E-01  -3.334744E+01 
  2.540625E+02    9.978456E-01  -1.387394E+01    6.467454E-04   6.876415E+01    6.619741E-04   6.905563E+01    9.946320E-01  -3.360749E+01 
  2.558750E+02    9.974869E-01  -1.393920E+01    6.763755E-04   6.923610E+01    6.873755E-04   6.980551E+01    9.938895E-01  -3.372470E+01 
  2.576875E+02    9.974905E-01  -1.406011E+01    6.661991E-04   6.410345E+01    6.787011E-04   6.411681E+01    9.943809E-01  -3.400468E+01 
  2.595000E+02    9.974559E-01  -1.416953E+01    6.738166E-04   6.879397E+01    6.761427E-04   6.929454E+01    9.944830E-01  -3.425606E+01 
  2.613125E+02    9.973806E-01  -1.427345E+01    6.564328E-04   6.916616E+01    6.646297E-04   6.977115E+01    9.945374E-01  -3.449213E+01 
  2.631250E+02    9.974118E-01  -1.439909E+01    6.707826E-04   6.727578E+01    6.807300E-04   6.660575E+01    9.945463E-01  -3.474320E+01 
  2.649375E+02    9.970257E-01  -1.446925E+01    6.557550E-04   6.527443E+01    6.654866E-04   6.500959E+01    9.941137E-01  -3.493287E+01 
  2.667500E+02    9.972349E-01  -1.459323E+01    6.648814E-04   6.589202E+01    6.659443E-04   6.632261E+01    9.942959E-01  -3.518374E+01 
  2.685625E+02    9.971576E-01  -1.470342E+01    7.117819E-04   6.550455E+01    7.083943E-04   6.535461E+01    9.942721E-01  -3.542218E+01 
  2.703750E+02    9.971894E-01  -1.480962E+01    6.928535E-04   6.408549E+01    7.034475E-04   6.440004E+01    9.942274E-01  -3.566465E+01 
  2.721875E+02    9.968994E-01  -1.493944E+01    7.039739E-04   6.407379E+01    7.093461E-04   6.386863E+01    9.935799E-01  -3.599406E+01 
  2.740000E+02    9.969902E-01  -1.499530E+01    7.142010E-04   6.188881E+01    7.218069E-04   6.207741E+01    9.939301E-01  -3.609213E+01 
  2.758125E+02    9.970120E-01  -1.510705E+01    6.906139E-04   6.294808E+01    6.889393E-04   6.390398E+01    9.941862E-01  -3.633564E+01 
  2.776250E+02    9.968536E-01  -1.523344E+01    7.180733E-04   6.321998E+01    7.300488E-04   6.319418E+01    9.942960E-01  -3.658408E+01 
  2.794375E+02    9.967096E-01  -1.534432E+01    6.810578E-04   6.397798E+01    6.919658E-04   6.439228E+01    9.943322E-01  -3.683173E+01 
  2.812500E+02    9.963409E-01  -1.545775E+01    7.293056E-04   6.554797E+01    7.235782E-04   6.581109E+01    9.937248E-01  -3.709093E+01 
  2.830625E+02    9.966359E-01  -1.552097E+01    7.131767E-04   6.431400E+01    7.130318E-04   6.410635E+01    9.942172E-01  -3.725572E+01 
  2.848750E+02    9.966400E-01  -1.561673E+01    7.369739E-04   6.338467E+01    7.523816E-04   6.277266E+01    9.942442E-01  -3.748715E+01 
  2.866875E+02    9.964840E-01  -1.570948E+01    7.003147E-04   6.029524E+01    7.048353E-04   6.045283E+01    9.942596E-01  -3.772185E+01 
  2.885000E+02    9.965480E-01  -1.580558E+01    7.383954E-04   5.977298E+01    7.425160E-04   5.975409E+01    9.941345E-01  -3.796722E+01 
  2.903125E+02    9.955795E-01  -1.589828E+01    7.184423E-04   5.943420E+01    7.154071E-04   5.934578E+01    9.912709E-01  -3.811084E+01 
  2.921250E+02    9.965855E-01  -1.599505E+01    7.097439E-04   6.332481E+01    7.211381E-04   6.314764E+01    9.939157E-01  -3.836237E+01 
  2.939375E+02    9.964729E-01  -1.609174E+01    7.364611E-04   6.183017E+01    7.339165E-04   6.202956E+01    9.941959E-01  -3.859045E+01 
  2.957500E+02    9.964791E-01  -1.618777E+01    7.357061E-04   6.106634E+01    7.257036E-04   6.149020E+01    9.943611E-01  -3.882597E+01 
  2.975625E+02    9.964565E-01  -1.629228E+01    7.334528E-04   6.339823E+01    7.319940E-04   6.413525E+01    9.943507E-01  -3.906046E+01 
  2.993750E+02    9.959311E-01  -1.635650E+01    7.164545E-04   6.237436E+01    7.153246E-04   6.167164E+01    9.934232E-01  -3.926651E+01 
  3.011875E+02    9.963657E-01  -1.645183E+01    7.757548E-04   6.183609E+01    7.792873E-04   6.284474E+01    9.940784E-01  -3.950549E+01 
  3.030000E+02    9.964267E-01  -1.654043E+01    7.555743E-04   6.408137E+01    7.591536E-04   6.443531E+01    9.941799E-01  -3.974998E+01 
  3.048125E+02    9.964739E-01  -1.665006E+01    7.552586E-04   6.205972E+01    7.563764E-04   6.249730E+01    9.941356E-01  -3.997018E+01 
  3.066250E+02    9.964030E-01  -1.677690E+01    7.707651E-04   6.030647E+01    7.747798E-04   6.029507E+01    9.938670E-01  -4.023088E+01 
  3.084375E+02    9.961577E-01  -1.683551E+01    7.741154E-04   6.399216E+01    7.781488E-04   6.362373E+01    9.931261E-01  -4.034974E+01 
  3.102500E+02    9.963635E-01  -1.691908E+01    7.058486E-04   6.011102E+01    7.254474E-04   5.990495E+01    9.936926E-01  -4.058708E+01 
  3.120625E+02    9.963050E-01  -1.699348E+01    7.547044E-04   5.809997E+01    7.697960E-04   5.820595E+01    9.936319E-01  -4.078384E+01 
  3.138750E+02    9.964537E-01  -1.710590E+01    7.910252E-04   6.043794E+01    7.962358E-04   6.020300E+01    9.938204E-01  -4.104719E+01 
  3.156875E+02    9.963798E-01  -1.718759E+01    7.704274E-04   6.164646E+01    7.677375E-04   6.235211E+01    9.935527E-01  -4.128496E+01 
  3.175000E+02    9.963531E-01  -1.724733E+01    7.895811E-04   5.962600E+01    7.994699E-04   5.912343E+01    9.931386E-01  -4.146021E+01 
  3.193125E+02    9.967781E-01  -1.735573E+01    7.390614E-04   6.023307E+01    7.394623E-04   6.017717E+01    9.935913E-01  -4.171821E+01 
  3.211250E+02    9.971117E-01  -1.746563E+01    7.822170E-04   5.939169E+01    7.839464E-04   5.796594E+01    9.940622E-01  -4.197766E+01 
  3.229375E+02    9.972062E-01  -1.756250E+01    7.889957E-04   6.031272E+01    8.027169E-04   6.070262E+01    9.940032E-01  -4.220998E+01 
  3.247500E+02    9.968788E-01  -1.766135E+01    7.795887E-04   6.030965E+01    7.779633E-04   6.057057E+01    9.933388E-01  -4.246803E+01 
  3.265625E+02    9.968520E-01  -1.770908E+01    8.039523E-04   6.051211E+01    8.088886E-04   6.018052E+01    9.931230E-01  -4.257004E+01 
  3.283750E+02    9.971531E-01  -1.780722E+01    7.759733E-04   5.791442E+01    7.854449E-04   5.780745E+01    9.933223E-01  -4.281307E+01 
  3.301875E+02    9.972611E-01  -1.790088E+01    7.758990E-04   5.996157E+01    7.964509E-04   6.047590E+01    9.932113E-01  -4.305443E+01 
  3.320000E+02    9.972481E-01  -1.800372E+01    8.213176E-04   5.848443E+01    8.145308E-04   5.882255E+01    9.932734E-01  -4.328727E+01 
  3.338125E+02    9.971883E-01  -1.811072E+01    7.954425E-04   6.011704E+01    8.084110E-04   6.116486E+01    9.929563E-01  -4.354946E+01 
  3.356250E+02    9.972034E-01  -1.815005E+01    7.863406E-04   5.779124E+01    8.016208E-04   5.826253E+01    9.929592E-01  -4.370250E+01 
  3.374375E+02    9.973086E-01  -1.824723E+01    8.289028E-04   6.047829E+01    8.410594E-04   6.034343E+01    9.929943E-01  -4.393528E+01 
  3.392500E+02    9.973355E-01  -1.834826E+01    7.980107E-04   5.941346E+01    8.043798E-04   5.910753E+01    9.928816E-01  -4.419059E+01 
  3.410625E+02    9.973970E-01  -1.844828E+01    8.234279E-04   5.902926E+01    8.300747E-04   5.925931E+01    9.928023E-01  -4.443989E+01 
  3.428750E+02    9.965824E-01  -1.855275E+01    8.159076E-04   5.883646E+01    8.191600E-04   5.820866E+01    9.896236E-01  -4.466772E+01 
  3.446875E+02    9.973586E-01  -1.863480E+01    8.213384E-04   5.787201E+01    8.270946E-04   5.727652E+01    9.923926E-01  -4.483167E+01 
  3.465000E+02    9.975571E-01  -1.873187E+01    8.338085E-04   5.820292E+01    8.335674E-04   5.820812E+01    9.924357E-01  -4.506134E+01 
  3.483125E+02    9.975680E-01  -1.881533E+01    8.457007E-04   5.558212E+01    8.519874E-04   5.548333E+01    9.923157E-01  -4.529553E+01 
  3.501250E+02    9.976840E-01  -1.892392E+01    8.448617E-04   5.799212E+01    8.476236E-04   5.714170E+01    9.924324E-01  -4.552490E+01 
  3.519375E+02    9.971504E-01  -1.899568E+01    8.393744E-04   5.554802E+01    8.491159E-04   5.589960E+01    9.912438E-01  -4.573774E+01 
