! Matrix data file written by TouchstoneData, EPCOS AG
! FILENAME: "B3402_NB.s2p"
! COMMENT: "PCB2023"
! INFO: nport=2, nfreq=1601
! DATE: "Fri Jan 10 2014"
! USER: "Hiroshi Tanaka"
!
! port | pin | signal
! -----|-----|--------
!   1  |  1  |  in
!   2  |  4  |  out
! --------------------
! 
# MHZ S MA R 50
! freq  magS11 angS11  magS21 angS21  magS12 angS12  magS22 angS22
  3.840000E+02    9.762811E-01  -6.233212E+01    2.623111E-04  -1.778960E+02    2.675121E-04  -1.780597E+02    9.812922E-01  -5.647969E+01 
  3.840625E+02    9.764169E-01  -6.236237E+01    2.633245E-04  -1.785234E+02    2.635690E-04  -1.779059E+02    9.812780E-01  -5.649886E+01 
  3.841250E+02    9.763968E-01  -6.238540E+01    2.557874E-04  -1.785179E+02    2.613667E-04  -1.783745E+02    9.814194E-01  -5.651568E+01 
  3.841875E+02    9.764394E-01  -6.240979E+01    2.646902E-04  -1.764138E+02    2.578812E-04  -1.776531E+02    9.815119E-01  -5.652958E+01 
  3.842500E+02    9.764642E-01  -6.243134E+01    2.618039E-04  -1.773580E+02    2.606508E-04  -1.779456E+02    9.816239E-01  -5.655119E+01 
  3.843125E+02    9.764088E-01  -6.245875E+01    2.652060E-04  -1.771029E+02    2.549789E-04  -1.766826E+02    9.815057E-01  -5.657209E+01 
  3.843750E+02    9.764760E-01  -6.248304E+01    2.582006E-04  -1.763948E+02    2.566124E-04  -1.779054E+02    9.816245E-01  -5.659657E+01 
  3.844375E+02    9.765320E-01  -6.250487E+01    2.550151E-04  -1.785212E+02    2.501808E-04  -1.769207E+02    9.817934E-01  -5.661584E+01 
  3.845000E+02    9.765953E-01  -6.252712E+01    2.538261E-04  -1.793171E+02    2.536502E-04  -1.786292E+02    9.819156E-01  -5.663099E+01 
  3.845625E+02    9.766387E-01  -6.255123E+01    2.510858E-04  -1.774970E+02    2.544703E-04  -1.787934E+02    9.819248E-01  -5.664966E+01 
  3.846250E+02    9.766305E-01  -6.257473E+01    2.552562E-04  -1.785757E+02    2.540477E-04  -1.786462E+02    9.820749E-01  -5.667373E+01 
  3.846875E+02    9.766573E-01  -6.259950E+01    2.586106E-04  -1.797257E+02    2.485030E-04   1.795364E+02    9.820933E-01  -5.669487E+01 
  3.847500E+02    9.767604E-01  -6.262215E+01    2.435224E-04   1.791141E+02    2.487815E-04   1.777298E+02    9.822631E-01  -5.671858E+01 
  3.848125E+02    9.768412E-01  -6.264401E+01    2.331969E-04   1.779690E+02    2.236256E-04   1.779727E+02    9.823743E-01  -5.673676E+01 
  3.848750E+02    9.768652E-01  -6.266847E+01    2.227412E-04  -1.793425E+02    2.187137E-04   1.798415E+02    9.825432E-01  -5.676057E+01 
  3.849375E+02    9.769315E-01  -6.269344E+01    2.225611E-04  -1.767095E+02    2.246940E-04  -1.772408E+02    9.825883E-01  -5.678394E+01 
  3.850000E+02    9.769782E-01  -6.271517E+01    2.158523E-04  -1.769503E+02    2.268525E-04  -1.781887E+02    9.827609E-01  -5.680654E+01 
  3.850625E+02    9.770683E-01  -6.274618E+01    2.215974E-04  -1.771741E+02    2.158284E-04  -1.771170E+02    9.827879E-01  -5.682974E+01 
  3.851250E+02    9.771762E-01  -6.276877E+01    2.217320E-04  -1.765377E+02    2.146276E-04  -1.779648E+02    9.829720E-01  -5.684956E+01 
  3.851875E+02    9.772948E-01  -6.279064E+01    2.208951E-04  -1.772174E+02    2.210038E-04  -1.761477E+02    9.831067E-01  -5.687278E+01 
  3.852500E+02    9.773148E-01  -6.281670E+01    2.198752E-04  -1.773616E+02    2.173436E-04  -1.772892E+02    9.831111E-01  -5.690089E+01 
  3.853125E+02    9.774903E-01  -6.284434E+01    2.066965E-04  -1.754957E+02    2.082783E-04  -1.738154E+02    9.832942E-01  -5.692912E+01 
  3.853750E+02    9.775847E-01  -6.287532E+01    2.161669E-04  -1.744919E+02    2.135819E-04  -1.756670E+02    9.834156E-01  -5.694899E+01 
  3.854375E+02    9.776210E-01  -6.290262E+01    2.123200E-04  -1.756828E+02    2.043724E-04  -1.765868E+02    9.835747E-01  -5.698067E+01 
  3.855000E+02    9.778235E-01  -6.292786E+01    1.967137E-04  -1.739385E+02    1.953236E-04  -1.739675E+02    9.836645E-01  -5.700547E+01 
  3.855625E+02    9.778413E-01  -6.295522E+01    1.950665E-04  -1.719206E+02    1.965675E-04  -1.691069E+02    9.837349E-01  -5.703339E+01 
  3.856250E+02    9.778487E-01  -6.298675E+01    1.941135E-04  -1.692245E+02    1.885894E-04  -1.681876E+02    9.837836E-01  -5.705950E+01 
  3.856875E+02    9.780002E-01  -6.301752E+01    1.998451E-04  -1.638139E+02    1.890832E-04  -1.670282E+02    9.838596E-01  -5.709029E+01 
  3.857500E+02    9.779701E-01  -6.304584E+01    2.045664E-04  -1.619387E+02    1.987606E-04  -1.675193E+02    9.838962E-01  -5.711657E+01 
  3.858125E+02    9.781614E-01  -6.307588E+01    2.088615E-04  -1.633112E+02    2.014229E-04  -1.619397E+02    9.840805E-01  -5.713965E+01 
  3.858750E+02    9.782211E-01  -6.310012E+01    2.098423E-04  -1.632281E+02    2.070487E-04  -1.637892E+02    9.842902E-01  -5.716419E+01 
  3.859375E+02    9.783482E-01  -6.312810E+01    2.096724E-04  -1.615786E+02    2.100168E-04  -1.626632E+02    9.843660E-01  -5.719130E+01 
  3.860000E+02    9.784235E-01  -6.315609E+01    2.159799E-04  -1.614019E+02    2.095918E-04  -1.605514E+02    9.845103E-01  -5.722367E+01 
  3.860625E+02    9.784518E-01  -6.319133E+01    2.174288E-04  -1.587502E+02    2.092467E-04  -1.618147E+02    9.845567E-01  -5.725279E+01 
  3.861250E+02    9.784761E-01  -6.322097E+01    2.108256E-04  -1.603364E+02    2.178174E-04  -1.610822E+02    9.845493E-01  -5.728065E+01 
  3.861875E+02    9.784870E-01  -6.324952E+01    2.155333E-04  -1.594587E+02    2.195342E-04  -1.593213E+02    9.845664E-01  -5.731042E+01 
  3.862500E+02    9.784971E-01  -6.328321E+01    2.200496E-04  -1.576400E+02    2.143497E-04  -1.591400E+02    9.845757E-01  -5.733812E+01 
  3.863125E+02    9.785320E-01  -6.331447E+01    2.237306E-04  -1.581523E+02    2.368164E-04  -1.576755E+02    9.845760E-01  -5.736928E+01 
  3.863750E+02    9.785250E-01  -6.334803E+01    2.285214E-04  -1.571375E+02    2.278153E-04  -1.585867E+02    9.846596E-01  -5.740394E+01 
  3.864375E+02    9.784826E-01  -6.337690E+01    2.293571E-04  -1.567376E+02    2.244484E-04  -1.575564E+02    9.845908E-01  -5.742955E+01 
  3.865000E+02    9.784732E-01  -6.340690E+01    2.325056E-04  -1.559816E+02    2.377406E-04  -1.552004E+02    9.846628E-01  -5.745796E+01 
  3.865625E+02    9.785552E-01  -6.343996E+01    2.381259E-04  -1.564454E+02    2.390979E-04  -1.583688E+02    9.847269E-01  -5.749543E+01 
  3.866250E+02    9.785142E-01  -6.347690E+01    2.499982E-04  -1.557538E+02    2.348920E-04  -1.555207E+02    9.846629E-01  -5.752925E+01 
  3.866875E+02    9.784384E-01  -6.350629E+01    2.381045E-04  -1.562449E+02    2.345939E-04  -1.558353E+02    9.847094E-01  -5.755525E+01 
  3.867500E+02    9.784886E-01  -6.353603E+01    2.513437E-04  -1.533889E+02    2.525992E-04  -1.550059E+02    9.846258E-01  -5.758891E+01 
  3.868125E+02    9.784351E-01  -6.356843E+01    2.415758E-04  -1.564127E+02    2.559647E-04  -1.538952E+02    9.847197E-01  -5.762024E+01 
  3.868750E+02    9.785583E-01  -6.360024E+01    2.582751E-04  -1.543097E+02    2.492281E-04  -1.548161E+02    9.847212E-01  -5.764980E+01 
  3.869375E+02    9.785247E-01  -6.363196E+01    2.688270E-04  -1.550811E+02    2.673423E-04  -1.552467E+02    9.847653E-01  -5.768384E+01 
  3.870000E+02    9.784335E-01  -6.366505E+01    2.685780E-04  -1.566196E+02    2.666613E-04  -1.561503E+02    9.847586E-01  -5.771502E+01 
  3.870625E+02    9.784517E-01  -6.369926E+01    2.638189E-04  -1.547247E+02    2.696649E-04  -1.572343E+02    9.847261E-01  -5.774762E+01 
  3.871250E+02    9.784408E-01  -6.373167E+01    2.731962E-04  -1.552277E+02    2.714544E-04  -1.570889E+02    9.847716E-01  -5.777958E+01 
  3.871875E+02    9.785353E-01  -6.376103E+01    2.718244E-04  -1.583945E+02    2.644558E-04  -1.550199E+02    9.846848E-01  -5.781386E+01 
  3.872500E+02    9.783892E-01  -6.379109E+01    2.802792E-04  -1.567286E+02    2.774415E-04  -1.560186E+02    9.847254E-01  -5.784565E+01 
  3.873125E+02    9.783788E-01  -6.382846E+01    2.751767E-04  -1.579587E+02    2.729821E-04  -1.568873E+02    9.846667E-01  -5.786966E+01 
  3.873750E+02    9.783892E-01  -6.386034E+01    2.829818E-04  -1.570804E+02    2.743275E-04  -1.570514E+02    9.846349E-01  -5.790579E+01 
  3.874375E+02    9.782534E-01  -6.389494E+01    2.936140E-04  -1.567935E+02    2.885806E-04  -1.581800E+02    9.845408E-01  -5.794372E+01 
  3.875000E+02    9.782534E-01  -6.392290E+01    2.934211E-04  -1.575556E+02    2.832471E-04  -1.586967E+02    9.845911E-01  -5.797288E+01 
  3.875625E+02    9.781761E-01  -6.395942E+01    2.862892E-04  -1.595810E+02    2.859935E-04  -1.588375E+02    9.845592E-01  -5.800484E+01 
  3.876250E+02    9.781630E-01  -6.398888E+01    2.808652E-04  -1.568632E+02    2.784776E-04  -1.582489E+02    9.843928E-01  -5.803974E+01 
  3.876875E+02    9.781210E-01  -6.402526E+01    2.812213E-04  -1.575216E+02    2.942738E-04  -1.597120E+02    9.843704E-01  -5.807157E+01 
  3.877500E+02    9.780661E-01  -6.405458E+01    2.832842E-04  -1.601871E+02    2.822365E-04  -1.604847E+02    9.843473E-01  -5.810522E+01 
  3.878125E+02    9.780744E-01  -6.409122E+01    2.765468E-04  -1.594229E+02    2.908986E-04  -1.580161E+02    9.843345E-01  -5.813444E+01 
  3.878750E+02    9.780155E-01  -6.412406E+01    2.933672E-04  -1.587538E+02    2.898812E-04  -1.576021E+02    9.842912E-01  -5.816393E+01 
  3.879375E+02    9.779183E-01  -6.415657E+01    2.883732E-04  -1.588089E+02    2.869242E-04  -1.595542E+02    9.842940E-01  -5.819791E+01 
  3.880000E+02    9.778954E-01  -6.418661E+01    2.979543E-04  -1.599836E+02    2.871084E-04  -1.599664E+02    9.841236E-01  -5.823270E+01 
  3.880625E+02    9.777850E-01  -6.422219E+01    2.988112E-04  -1.581657E+02    2.891543E-04  -1.591675E+02    9.840986E-01  -5.826524E+01 
  3.881250E+02    9.777260E-01  -6.425789E+01    3.026887E-04  -1.593975E+02    2.960153E-04  -1.603355E+02    9.839927E-01  -5.829089E+01 
  3.881875E+02    9.776927E-01  -6.428721E+01    3.143850E-04  -1.607556E+02    3.076515E-04  -1.618279E+02    9.839529E-01  -5.832464E+01 
  3.882500E+02    9.774828E-01  -6.432277E+01    2.967085E-04  -1.601890E+02    3.001155E-04  -1.606360E+02    9.838878E-01  -5.836098E+01 
  3.883125E+02    9.774033E-01  -6.435117E+01    3.052117E-04  -1.616730E+02    2.992699E-04  -1.602800E+02    9.838705E-01  -5.839207E+01 
  3.883750E+02    9.773428E-01  -6.438044E+01    2.980843E-04  -1.626567E+02    2.998389E-04  -1.621488E+02    9.837976E-01  -5.841907E+01 
  3.884375E+02    9.772409E-01  -6.441600E+01    2.945434E-04  -1.596007E+02    2.923180E-04  -1.612207E+02    9.839087E-01  -5.844889E+01 
  3.885000E+02    9.771626E-01  -6.444662E+01    3.103504E-04  -1.587896E+02    3.043872E-04  -1.604061E+02    9.837191E-01  -5.848407E+01 
  3.885625E+02    9.771214E-01  -6.447785E+01    3.117665E-04  -1.621053E+02    3.116740E-04  -1.615770E+02    9.836565E-01  -5.851403E+01 
  3.886250E+02    9.770040E-01  -6.451000E+01    3.095563E-04  -1.621062E+02    3.039561E-04  -1.632419E+02    9.836193E-01  -5.854703E+01 
  3.886875E+02    9.769586E-01  -6.453755E+01    3.215334E-04  -1.615126E+02    3.071014E-04  -1.629435E+02    9.834808E-01  -5.857793E+01 
  3.887500E+02    9.768472E-01  -6.456805E+01    3.104900E-04  -1.624963E+02    3.037542E-04  -1.616578E+02    9.834416E-01  -5.860745E+01 
  3.888125E+02    9.767571E-01  -6.459614E+01    3.150042E-04  -1.640679E+02    3.090270E-04  -1.632103E+02    9.834457E-01  -5.863541E+01 
  3.888750E+02    9.766708E-01  -6.463323E+01    3.149081E-04  -1.630043E+02    3.081463E-04  -1.648354E+02    9.833296E-01  -5.867409E+01 
  3.889375E+02    9.766160E-01  -6.465775E+01    3.150936E-04  -1.646022E+02    3.114039E-04  -1.634167E+02    9.832505E-01  -5.870216E+01 
  3.890000E+02    9.764867E-01  -6.469062E+01    3.132722E-04  -1.646484E+02    3.116008E-04  -1.653898E+02    9.831761E-01  -5.873443E+01 
  3.890625E+02    9.764817E-01  -6.472134E+01    3.112254E-04  -1.637110E+02    3.101485E-04  -1.659783E+02    9.832195E-01  -5.877024E+01 
  3.891250E+02    9.762954E-01  -6.475135E+01    3.101633E-04  -1.639674E+02    3.045200E-04  -1.644833E+02    9.830897E-01  -5.879922E+01 
  3.891875E+02    9.762602E-01  -6.478257E+01    3.140056E-04  -1.650800E+02    3.134275E-04  -1.646980E+02    9.829752E-01  -5.883280E+01 
  3.892500E+02    9.762128E-01  -6.481290E+01    3.220256E-04  -1.638789E+02    3.173494E-04  -1.633819E+02    9.828561E-01  -5.886895E+01 
  3.893125E+02    9.761487E-01  -6.484338E+01    3.183184E-04  -1.651557E+02    3.120160E-04  -1.650188E+02    9.827823E-01  -5.889989E+01 
  3.893750E+02    9.760478E-01  -6.487373E+01    3.138463E-04  -1.650124E+02    3.114276E-04  -1.676837E+02    9.826281E-01  -5.893433E+01 
  3.894375E+02    9.760766E-01  -6.490223E+01    3.086729E-04  -1.648217E+02    3.050750E-04  -1.661293E+02    9.826472E-01  -5.896115E+01 
  3.895000E+02    9.759935E-01  -6.493059E+01    2.979093E-04  -1.643617E+02    3.057677E-04  -1.635849E+02    9.825394E-01  -5.899263E+01 
  3.895625E+02    9.758910E-01  -6.496713E+01    3.124691E-04  -1.644791E+02    3.119875E-04  -1.643376E+02    9.823224E-01  -5.903011E+01 
  3.896250E+02    9.758213E-01  -6.499927E+01    3.061312E-04  -1.620800E+02    3.041522E-04  -1.614536E+02    9.822130E-01  -5.906699E+01 
  3.896875E+02    9.756369E-01  -6.503373E+01    3.168972E-04  -1.603760E+02    3.176777E-04  -1.612440E+02    9.821461E-01  -5.908955E+01 
  3.897500E+02    9.756224E-01  -6.506325E+01    3.237075E-04  -1.616822E+02    3.274436E-04  -1.625329E+02    9.819783E-01  -5.911341E+01 
  3.898125E+02    9.755438E-01  -6.510041E+01    3.245199E-04  -1.641487E+02    3.299754E-04  -1.625780E+02    9.818788E-01  -5.915462E+01 
  3.898750E+02    9.754119E-01  -6.512962E+01    3.447180E-04  -1.617794E+02    3.396744E-04  -1.628276E+02    9.817494E-01  -5.918448E+01 
  3.899375E+02    9.752609E-01  -6.516581E+01    3.428443E-04  -1.648169E+02    3.401766E-04  -1.648436E+02    9.815195E-01  -5.921345E+01 
  3.900000E+02    9.750987E-01  -6.520286E+01    3.414456E-04  -1.671753E+02    3.419079E-04  -1.666023E+02    9.814779E-01  -5.924603E+01 
  3.900625E+02    9.749948E-01  -6.523030E+01    3.406140E-04  -1.675530E+02    3.327585E-04  -1.676681E+02    9.812571E-01  -5.927341E+01 
  3.901250E+02    9.748277E-01  -6.526268E+01    3.346057E-04  -1.703249E+02    3.324228E-04  -1.692862E+02    9.811765E-01  -5.930217E+01 
  3.901875E+02    9.745554E-01  -6.529605E+01    3.293047E-04  -1.690992E+02    3.303661E-04  -1.686550E+02    9.809347E-01  -5.932989E+01 
  3.902500E+02    9.744802E-01  -6.533092E+01    3.228971E-04  -1.668593E+02    3.181018E-04  -1.678318E+02    9.808284E-01  -5.936610E+01 
  3.903125E+02    9.743214E-01  -6.536243E+01    3.273052E-04  -1.653899E+02    3.355466E-04  -1.648945E+02    9.807114E-01  -5.939304E+01 
  3.903750E+02    9.741007E-01  -6.538898E+01    3.418902E-04  -1.661515E+02    3.427427E-04  -1.663542E+02    9.805445E-01  -5.942074E+01 
  3.904375E+02    9.738853E-01  -6.541774E+01    3.464917E-04  -1.672262E+02    3.530897E-04  -1.677049E+02    9.803799E-01  -5.944446E+01 
  3.905000E+02    9.736281E-01  -6.544240E+01    3.562714E-04  -1.700228E+02    3.492207E-04  -1.691617E+02    9.802216E-01  -5.947450E+01 
  3.905625E+02    9.734231E-01  -6.547650E+01    3.532254E-04  -1.711544E+02    3.557454E-04  -1.702553E+02    9.799642E-01  -5.950143E+01 
  3.906250E+02    9.731724E-01  -6.550910E+01    3.552425E-04  -1.706108E+02    3.444297E-04  -1.717921E+02    9.797792E-01  -5.953401E+01 
  3.906875E+02    9.728909E-01  -6.553780E+01    3.455315E-04  -1.719623E+02    3.576961E-04  -1.720506E+02    9.794700E-01  -5.955648E+01 
  3.907500E+02    9.726962E-01  -6.556700E+01    3.589794E-04  -1.728080E+02    3.473288E-04  -1.739338E+02    9.793950E-01  -5.957817E+01 
  3.908125E+02    9.724888E-01  -6.559051E+01    3.553259E-04  -1.745458E+02    3.500169E-04  -1.749689E+02    9.790830E-01  -5.960657E+01 
  3.908750E+02    9.722312E-01  -6.561962E+01    3.460460E-04  -1.770536E+02    3.441278E-04  -1.771904E+02    9.789219E-01  -5.963372E+01 
  3.909375E+02    9.719369E-01  -6.564564E+01    3.337718E-04  -1.791888E+02    3.306324E-04  -1.773695E+02    9.785563E-01  -5.965578E+01 
  3.910000E+02    9.716775E-01  -6.567259E+01    3.221637E-04  -1.779424E+02    3.228335E-04  -1.764095E+02    9.783652E-01  -5.968303E+01 
  3.910625E+02    9.715793E-01  -6.569406E+01    3.264292E-04  -1.754293E+02    3.276958E-04  -1.761414E+02    9.781303E-01  -5.970630E+01 
  3.911250E+02    9.712797E-01  -6.571950E+01    3.427273E-04  -1.767850E+02    3.343278E-04  -1.760183E+02    9.780149E-01  -5.972623E+01 
  3.911875E+02    9.711218E-01  -6.574158E+01    3.320977E-04  -1.781307E+02    3.372045E-04  -1.778562E+02    9.777421E-01  -5.974534E+01 
  3.912500E+02    9.708519E-01  -6.576532E+01    3.340015E-04  -1.788203E+02    3.332258E-04  -1.784159E+02    9.775482E-01  -5.976789E+01 
  3.913125E+02    9.706754E-01  -6.578671E+01    3.381329E-04   1.773184E+02    3.368250E-04   1.757991E+02    9.773447E-01  -5.978493E+01 
  3.913750E+02    9.704776E-01  -6.580408E+01    3.040369E-04   1.731475E+02    3.007807E-04   1.734277E+02    9.771877E-01  -5.981004E+01 
  3.914375E+02    9.703447E-01  -6.582330E+01    2.868570E-04   1.756521E+02    2.792871E-04   1.756335E+02    9.770418E-01  -5.981966E+01 
  3.915000E+02    9.702386E-01  -6.584414E+01    2.756027E-04   1.790861E+02    2.706059E-04   1.779256E+02    9.769753E-01  -5.983955E+01 
  3.915625E+02    9.700021E-01  -6.586479E+01    2.756242E-04   1.799099E+02    2.828304E-04   1.796317E+02    9.768939E-01  -5.985928E+01 
  3.916250E+02    9.700424E-01  -6.587927E+01    2.895801E-04  -1.783762E+02    2.811133E-04  -1.781439E+02    9.768374E-01  -5.987561E+01 
  3.916875E+02    9.699718E-01  -6.590329E+01    2.998820E-04  -1.789040E+02    2.933025E-04  -1.773518E+02    9.768012E-01  -5.989835E+01 
  3.917500E+02    9.699425E-01  -6.591879E+01    2.971917E-04   1.796831E+02    2.977417E-04   1.792682E+02    9.768069E-01  -5.991994E+01 
  3.918125E+02    9.698705E-01  -6.594260E+01    2.861063E-04   1.778308E+02    2.979527E-04   1.752932E+02    9.767479E-01  -5.994017E+01 
  3.918750E+02    9.698615E-01  -6.595912E+01    2.912539E-04   1.726832E+02    2.813766E-04   1.749771E+02    9.766901E-01  -5.995935E+01 
  3.919375E+02    9.698303E-01  -6.598385E+01    2.546129E-04   1.733702E+02    2.561116E-04   1.740622E+02    9.765944E-01  -5.998064E+01 
  3.920000E+02    9.697597E-01  -6.600310E+01    2.394738E-04   1.750066E+02    2.473770E-04   1.746176E+02    9.766951E-01  -6.000847E+01 
  3.920625E+02    9.697733E-01  -6.602916E+01    2.355820E-04  -1.793514E+02    2.394332E-04   1.797900E+02    9.768040E-01  -6.003375E+01 
  3.921250E+02    9.697054E-01  -6.605127E+01    2.433854E-04  -1.796085E+02    2.395223E-04  -1.797360E+02    9.767339E-01  -6.006391E+01 
  3.921875E+02    9.697425E-01  -6.607914E+01    2.372758E-04   1.783216E+02    2.364081E-04   1.781188E+02    9.767264E-01  -6.008787E+01 
  3.922500E+02    9.698813E-01  -6.610183E+01    2.196401E-04   1.780509E+02    2.221351E-04   1.770598E+02    9.767278E-01  -6.011694E+01 
  3.923125E+02    9.698476E-01  -6.612642E+01    2.159316E-04  -1.776152E+02    2.062981E-04  -1.772908E+02    9.767870E-01  -6.014259E+01 
  3.923750E+02    9.698557E-01  -6.615292E+01    2.108807E-04  -1.744636E+02    1.982527E-04  -1.735229E+02    9.767529E-01  -6.017597E+01 
  3.924375E+02    9.698604E-01  -6.617933E+01    2.139040E-04  -1.683511E+02    2.092463E-04  -1.683532E+02    9.767658E-01  -6.020663E+01 
  3.925000E+02    9.698715E-01  -6.621004E+01    2.255780E-04  -1.635678E+02    2.203805E-04  -1.630563E+02    9.768107E-01  -6.023894E+01 
  3.925625E+02    9.699229E-01  -6.623783E+01    2.361405E-04  -1.649306E+02    2.386311E-04  -1.648935E+02    9.765838E-01  -6.027068E+01 
  3.926250E+02    9.698740E-01  -6.626981E+01    2.497557E-04  -1.619494E+02    2.473883E-04  -1.627719E+02    9.765765E-01  -6.030030E+01 
  3.926875E+02    9.698810E-01  -6.629827E+01    2.714780E-04  -1.675663E+02    2.708310E-04  -1.674855E+02    9.764656E-01  -6.033423E+01 
