! Matrix data file written by TouchstoneData, EPCOS AG
! FILENAME: "B3404.PCB_WB.s2p"
! COMMENT: "(B3404_WB.s2p)"
! INFO: nport=2, nfreq=1601
! DATE: "Mon Apr 21 09:26:11 2014"
! USER: "Andy Zhang"
!
! port | pin | signal
! -----|-----|--------
!   1  |  2  |  inout
!   2  |  5  |  output
! --------------------
! 
# MHZ S MA R 50
! freq  magS11 angS11  magS21 angS21  magS12 angS12  magS22 angS22
1.000000E+01  9.975829E-01 -7.201657E-01  1.611615E-03 8.815156E+01  1.624785E-03 8.976353E+01  9.973362E-01 -4.600011E-01 
1.186875E+01  9.924741E-01 -9.376917E-01  1.673016E-03 8.921783E+01  1.678352E-03 8.905658E+01  9.910982E-01 -6.658298E-01 
1.373750E+01  9.973928E-01 -1.029812E+00  1.963653E-03 8.955860E+01  1.941469E-03 8.959801E+01  9.968917E-01 -6.881979E-01 
1.560625E+01  9.945147E-01 -1.000507E+00  2.277114E-03 8.881005E+01  2.247750E-03 8.963402E+01  9.933495E-01 -5.189084E-01 
1.747500E+01  9.976249E-01 -1.345969E+00  2.519489E-03 8.771988E+01  2.516688E-03 8.909250E+01  9.960150E-01 -8.661385E-01 
1.934375E+01  9.988294E-01 -1.363906E+00  2.775575E-03 8.879689E+01  2.755499E-03 8.953809E+01  9.977882E-01 -8.019670E-01 
2.121250E+01  9.982569E-01 -1.621108E+00  3.089111E-03 8.801675E+01  3.100264E-03 8.762416E+01  9.969239E-01 -1.032836E+00 
2.308125E+01  1.000440E+00 -1.835360E+00  3.329588E-03 8.794664E+01  3.353661E-03 8.807451E+01  9.990180E-01 -1.178848E+00 
2.495000E+01  9.987409E-01 -1.974011E+00  3.589944E-03 8.750438E+01  3.625246E-03 8.796433E+01  9.971767E-01 -1.267290E+00 
2.681875E+01  9.976483E-01 -2.164354E+00  4.413690E-03 9.438652E+01  4.368001E-03 9.421446E+01  9.963496E-01 -1.492119E+00 
2.868750E+01  9.981854E-01 -2.276744E+00  4.148511E-03 8.742934E+01  4.123822E-03 8.760409E+01  9.977467E-01 -1.473191E+00 
3.055625E+01  9.988823E-01 -2.396715E+00  4.417550E-03 8.785553E+01  4.405934E-03 8.815498E+01  9.980912E-01 -1.561460E+00 
3.242500E+01  9.990581E-01 -2.639776E+00  4.675041E-03 8.741193E+01  4.664965E-03 8.731814E+01  9.978840E-01 -1.701705E+00 
3.429375E+01  9.973737E-01 -2.827659E+00  4.908930E-03 8.794412E+01  4.909344E-03 8.717808E+01  9.962869E-01 -1.802368E+00 
3.616250E+01  9.979511E-01 -2.988394E+00  5.308900E-03 8.575324E+01  5.313657E-03 8.619921E+01  9.971058E-01 -1.928208E+00 
3.803125E+01  9.996124E-01 -3.343743E+00  5.451084E-03 8.629554E+01  5.409547E-03 8.635839E+01  9.994145E-01 -2.133933E+00 
3.990000E+01  9.986139E-01 -3.297993E+00  5.702650E-03 8.748859E+01  5.712779E-03 8.740418E+01  9.977320E-01 -2.158539E+00 
4.176875E+01  9.997283E-01 -3.615123E+00  5.960189E-03 8.673951E+01  5.957537E-03 8.669504E+01  9.988512E-01 -2.405701E+00 
4.363750E+01  9.982461E-01 -3.662153E+00  6.233980E-03 8.697319E+01  6.262831E-03 8.692054E+01  9.981569E-01 -2.379868E+00 
4.550625E+01  9.988247E-01 -3.760853E+00  6.669725E-03 8.725651E+01  6.635513E-03 8.722781E+01  9.970675E-01 -2.462818E+00 
4.737500E+01  9.980135E-01 -3.918304E+00  6.834313E-03 8.624774E+01  6.811525E-03 8.622904E+01  9.973202E-01 -2.568510E+00 
4.924375E+01  9.974822E-01 -3.978269E+00  7.050068E-03 8.689035E+01  7.054281E-03 8.679926E+01  9.966569E-01 -2.585746E+00 
5.111250E+01  9.975911E-01 -4.218475E+00  7.325330E-03 8.670106E+01  7.329916E-03 8.671280E+01  9.970981E-01 -2.764144E+00 
5.298125E+01  9.978336E-01 -4.401255E+00  7.619959E-03 8.653745E+01  7.613612E-03 8.651877E+01  9.977929E-01 -2.916033E+00 
5.485000E+01  9.970023E-01 -4.507822E+00  7.834208E-03 8.628058E+01  7.835484E-03 8.624856E+01  9.974202E-01 -2.965056E+00 
5.671875E+01  9.971110E-01 -4.669956E+00  8.097517E-03 8.585489E+01  8.098839E-03 8.580649E+01  9.971974E-01 -3.079152E+00 
5.858750E+01  9.971500E-01 -4.779020E+00  8.377288E-03 8.612355E+01  8.373848E-03 8.603968E+01  9.974221E-01 -3.153607E+00 
6.045625E+01  9.970313E-01 -4.936434E+00  8.655248E-03 8.607779E+01  8.633935E-03 8.593547E+01  9.971385E-01 -3.258029E+00 
6.232500E+01  9.965100E-01 -5.143454E+00  8.707780E-03 8.694530E+01  8.700766E-03 8.690205E+01  9.964035E-01 -3.437357E+00 
6.419375E+01  9.969213E-01 -5.232439E+00  9.177918E-03 8.558917E+01  9.164927E-03 8.556200E+01  9.973508E-01 -3.446173E+00 
6.606250E+01  9.971966E-01 -5.374684E+00  9.408916E-03 8.526344E+01  9.402372E-03 8.525280E+01  9.974741E-01 -3.543649E+00 
6.793125E+01  9.969175E-01 -5.543142E+00  9.719832E-03 8.532583E+01  9.707881E-03 8.526968E+01  9.971446E-01 -3.660500E+00 
6.980000E+01  9.971302E-01 -5.676820E+00  1.001612E-02 8.520823E+01  1.003352E-02 8.517193E+01  9.975488E-01 -3.739334E+00 
7.166875E+01  9.964000E-01 -5.812560E+00  1.002539E-02 8.494973E+01  1.004302E-02 8.491009E+01  9.970838E-01 -3.825280E+00 
7.353750E+01  9.966896E-01 -5.920040E+00  1.048998E-02 8.482621E+01  1.048992E-02 8.480187E+01  9.974293E-01 -3.894300E+00 
7.540625E+01  9.968648E-01 -6.053558E+00  1.070586E-02 8.490403E+01  1.069943E-02 8.478583E+01  9.973710E-01 -3.995217E+00 
7.727500E+01  9.970779E-01 -6.232549E+00  1.099907E-02 8.473089E+01  1.099633E-02 8.463947E+01  9.974760E-01 -4.099440E+00 
7.914375E+01  9.973919E-01 -6.389046E+00  1.131831E-02 8.453765E+01  1.131940E-02 8.437355E+01  9.974789E-01 -4.214356E+00 
8.101250E+01  9.968008E-01 -6.496385E+00  1.170607E-02 8.427547E+01  1.170122E-02 8.423136E+01  9.969296E-01 -4.256251E+00 
8.288125E+01  9.968579E-01 -6.635921E+00  1.183414E-02 8.403518E+01  1.182875E-02 8.397685E+01  9.971176E-01 -4.324898E+00 
8.475000E+01  9.969166E-01 -6.800589E+00  1.215294E-02 8.399311E+01  1.216197E-02 8.395555E+01  9.975250E-01 -4.453771E+00 
8.661875E+01  9.971678E-01 -6.962041E+00  1.238092E-02 8.405250E+01  1.236736E-02 8.400704E+01  9.977685E-01 -4.575895E+00 
8.848750E+01  9.971909E-01 -7.082142E+00  1.265126E-02 8.386541E+01  1.265538E-02 8.389116E+01  9.974888E-01 -4.639816E+00 
9.035625E+01  9.961859E-01 -7.271075E+00  1.286475E-02 8.359822E+01  1.286836E-02 8.349556E+01  9.964645E-01 -4.725102E+00 
9.222500E+01  9.970832E-01 -7.355702E+00  1.313742E-02 8.359625E+01  1.313163E-02 8.352055E+01  9.973263E-01 -4.812209E+00 
9.409375E+01  9.973722E-01 -7.500524E+00  1.340849E-02 8.354481E+01  1.343142E-02 8.357651E+01  9.977328E-01 -4.906774E+00 
9.596250E+01  9.975184E-01 -7.660533E+00  1.366719E-02 8.352036E+01  1.366667E-02 8.342251E+01  9.976281E-01 -4.993518E+00 
9.783125E+01  9.979239E-01 -7.819524E+00  1.393245E-02 8.327372E+01  1.394569E-02 8.348178E+01  9.975371E-01 -5.116767E+00 
9.970000E+01  9.976449E-01 -7.928700E+00  1.416928E-02 8.296053E+01  1.418883E-02 8.299791E+01  9.972290E-01 -5.151631E+00 
1.015687E+02  9.976596E-01 -8.073493E+00  1.443413E-02 8.316536E+01  1.446452E-02 8.318806E+01  9.975265E-01 -5.225795E+00 
1.034375E+02  9.976689E-01 -8.232671E+00  1.474484E-02 8.292579E+01  1.475903E-02 8.294280E+01  9.978315E-01 -5.333676E+00 
1.053063E+02  9.978415E-01 -8.362388E+00  1.498360E-02 8.289150E+01  1.500675E-02 8.287487E+01  9.977959E-01 -5.428624E+00 
1.071750E+02  9.972792E-01 -8.532418E+00  1.507305E-02 8.233294E+01  1.509149E-02 8.230068E+01  9.968870E-01 -5.529592E+00 
1.090438E+02  9.972925E-01 -8.654125E+00  1.542906E-02 8.255046E+01  1.543873E-02 8.252315E+01  9.968800E-01 -5.594453E+00 
1.109125E+02  9.977473E-01 -8.789784E+00  1.575770E-02 8.245656E+01  1.574844E-02 8.240185E+01  9.975787E-01 -5.698979E+00 
1.127812E+02  9.979948E-01 -8.939628E+00  1.603022E-02 8.244171E+01  1.603085E-02 8.239369E+01  9.978033E-01 -5.805406E+00 
1.146500E+02  9.979055E-01 -9.104664E+00  1.628694E-02 8.230525E+01  1.631236E-02 8.229504E+01  9.979431E-01 -5.909192E+00 
1.165187E+02  9.974589E-01 -9.220509E+00  1.663032E-02 8.181500E+01  1.663191E-02 8.182313E+01  9.973638E-01 -5.971781E+00 
1.183875E+02  9.980636E-01 -9.368315E+00  1.683214E-02 8.208979E+01  1.683740E-02 8.200797E+01  9.976929E-01 -6.066071E+00 
1.202562E+02  9.980219E-01 -9.511412E+00  1.707687E-02 8.197399E+01  1.708301E-02 8.194245E+01  9.978143E-01 -6.124653E+00 
1.221250E+02  9.979556E-01 -9.673687E+00  1.738340E-02 8.187970E+01  1.739787E-02 8.182226E+01  9.977157E-01 -6.244711E+00 
1.239938E+02  9.979678E-01 -9.816839E+00  1.766026E-02 8.177606E+01  1.767599E-02 8.174471E+01  9.977794E-01 -6.360675E+00 
1.258625E+02  9.977687E-01 -9.915170E+00  1.785705E-02 8.160100E+01  1.788742E-02 8.152996E+01  9.976930E-01 -6.420305E+00 
1.277313E+02  9.977484E-01 -1.009795E+01  1.812938E-02 8.136805E+01  1.813967E-02 8.128355E+01  9.973583E-01 -6.525819E+00 
1.296000E+02  9.980478E-01 -1.024078E+01  1.837811E-02 8.124316E+01  1.839220E-02 8.126840E+01  9.974515E-01 -6.617001E+00 
1.314688E+02  9.980181E-01 -1.038619E+01  1.866910E-02 8.111530E+01  1.868507E-02 8.114855E+01  9.974741E-01 -6.736109E+00 
1.333375E+02  9.977696E-01 -1.054638E+01  1.896528E-02 8.092888E+01  1.896015E-02 8.089461E+01  9.973420E-01 -6.834118E+00 
1.352063E+02  9.977269E-01 -1.062816E+01  1.914700E-02 8.092334E+01  1.916323E-02 8.082620E+01  9.974404E-01 -6.860161E+00 
1.370750E+02  9.978645E-01 -1.079488E+01  1.944221E-02 8.069024E+01  1.947331E-02 8.068209E+01  9.975253E-01 -6.958077E+00 
1.389437E+02  9.978426E-01 -1.094405E+01  1.966303E-02 8.066218E+01  1.968227E-02 8.068477E+01  9.974061E-01 -7.067914E+00 
1.408125E+02  9.976822E-01 -1.107902E+01  1.998205E-02 8.058619E+01  1.999385E-02 8.062268E+01  9.974206E-01 -7.168973E+00 
1.426813E+02  9.970519E-01 -1.123265E+01  2.025758E-02 7.961449E+01  2.027578E-02 7.960035E+01  9.968400E-01 -7.264182E+00 
1.445500E+02  9.972988E-01 -1.134420E+01  2.045063E-02 8.047248E+01  2.048060E-02 8.044876E+01  9.975124E-01 -7.317209E+00 
1.464187E+02  9.971308E-01 -1.148680E+01  2.070248E-02 8.023651E+01  2.072859E-02 8.020136E+01  9.975015E-01 -7.413325E+00 
1.482875E+02  9.971558E-01 -1.164834E+01  2.099529E-02 8.006781E+01  2.102204E-02 8.008527E+01  9.973780E-01 -7.499870E+00 
1.501562E+02  9.971515E-01 -1.179771E+01  2.127003E-02 7.995190E+01  2.131836E-02 7.992110E+01  9.972457E-01 -7.617035E+00 
1.520250E+02  9.962671E-01 -1.189077E+01  2.156747E-02 7.951368E+01  2.160124E-02 7.953063E+01  9.966777E-01 -7.654383E+00 
1.538938E+02  9.970581E-01 -1.205488E+01  2.180473E-02 7.965825E+01  2.183369E-02 7.966317E+01  9.969718E-01 -7.790495E+00 
1.557625E+02  9.966878E-01 -1.219961E+01  2.199539E-02 7.935833E+01  2.202695E-02 7.939109E+01  9.968309E-01 -7.877830E+00 
1.576312E+02  9.969458E-01 -1.236532E+01  2.223783E-02 7.949045E+01  2.227293E-02 7.952176E+01  9.971002E-01 -7.981381E+00 
1.595000E+02  9.969627E-01 -1.253147E+01  2.254010E-02 7.941387E+01  2.257942E-02 7.944382E+01  9.973453E-01 -8.094289E+00 
1.613688E+02  9.968155E-01 -1.262222E+01  2.274370E-02 7.911167E+01  2.277673E-02 7.909667E+01  9.976076E-01 -8.137222E+00 
1.632375E+02  9.967158E-01 -1.279328E+01  2.301960E-02 7.917312E+01  2.303751E-02 7.921586E+01  9.974943E-01 -8.254612E+00 
1.651062E+02  9.964878E-01 -1.295116E+01  2.331123E-02 7.884272E+01  2.334122E-02 7.889827E+01  9.972671E-01 -8.368370E+00 
1.669750E+02  9.967635E-01 -1.309498E+01  2.356766E-02 7.886955E+01  2.361153E-02 7.888567E+01  9.972916E-01 -8.470237E+00 
1.688438E+02  9.962574E-01 -1.327752E+01  2.381938E-02 7.872007E+01  2.385637E-02 7.873894E+01  9.969917E-01 -8.594964E+00 
1.707125E+02  9.960318E-01 -1.335792E+01  2.403559E-02 7.858884E+01  2.406202E-02 7.858937E+01  9.971674E-01 -8.636024E+00 
1.725813E+02  9.959059E-01 -1.351203E+01  2.429943E-02 7.855008E+01  2.433294E-02 7.848970E+01  9.968346E-01 -8.753814E+00 
1.744500E+02  9.959921E-01 -1.364447E+01  2.456510E-02 7.831016E+01  2.460798E-02 7.830534E+01  9.969530E-01 -8.845627E+00 
1.763187E+02  9.959720E-01 -1.381140E+01  2.485166E-02 7.823669E+01  2.488724E-02 7.824724E+01  9.968472E-01 -8.953115E+00 
1.781875E+02  9.958711E-01 -1.402782E+01  2.519631E-02 7.787454E+01  2.524336E-02 7.784578E+01  9.965533E-01 -9.104771E+00 
1.800563E+02  9.956261E-01 -1.407593E+01  2.525327E-02 7.805146E+01  2.529353E-02 7.809636E+01  9.963739E-01 -9.101393E+00 
1.819250E+02  9.959873E-01 -1.423965E+01  2.556085E-02 7.787241E+01  2.559865E-02 7.790665E+01  9.965805E-01 -9.228621E+00 
1.837937E+02  9.959178E-01 -1.437584E+01  2.587798E-02 7.781931E+01  2.590436E-02 7.778933E+01  9.965431E-01 -9.319024E+00 
1.856625E+02  9.959601E-01 -1.453921E+01  2.610233E-02 7.772788E+01  2.614262E-02 7.771085E+01  9.966856E-01 -9.437469E+00 
1.875312E+02  9.951389E-01 -1.463414E+01  2.644656E-02 7.723944E+01  2.648678E-02 7.727818E+01  9.965636E-01 -9.458735E+00 
1.894000E+02  9.955404E-01 -1.481537E+01  2.655165E-02 7.740838E+01  2.656880E-02 7.749752E+01  9.970864E-01 -9.586792E+00 
1.912688E+02  9.959930E-01 -1.495962E+01  2.690671E-02 7.730296E+01  2.694113E-02 7.732077E+01  9.974829E-01 -9.679337E+00 
1.931375E+02  9.958879E-01 -1.512485E+01  2.709559E-02 7.720621E+01  2.713274E-02 7.725056E+01  9.970101E-01 -9.805190E+00 
1.950062E+02  9.954259E-01 -1.527943E+01  2.739363E-02 7.706322E+01  2.743479E-02 7.707131E+01  9.965001E-01 -9.929165E+00 
1.968750E+02  9.952266E-01 -1.538621E+01  2.759924E-02 7.685551E+01  2.763888E-02 7.689253E+01  9.968891E-01 -9.986430E+00 
1.987438E+02  9.959156E-01 -1.556137E+01  2.781734E-02 7.682039E+01  2.786660E-02 7.681726E+01  9.971649E-01 -1.011381E+01 
2.006125E+02  9.956264E-01 -1.569257E+01  2.811259E-02 7.677949E+01  2.816207E-02 7.680127E+01  9.971055E-01 -1.018654E+01 
2.024812E+02  9.956205E-01 -1.586615E+01  2.835521E-02 7.655861E+01  2.841702E-02 7.658321E+01  9.969832E-01 -1.030129E+01 
2.043500E+02  9.953977E-01 -1.601705E+01  2.866622E-02 7.643330E+01  2.870300E-02 7.641505E+01  9.970289E-01 -1.041362E+01 
2.062188E+02  9.949018E-01 -1.608882E+01  2.881848E-02 7.640660E+01  2.887310E-02 7.636766E+01  9.968912E-01 -1.043452E+01 
2.080875E+02  9.951469E-01 -1.622623E+01  2.909662E-02 7.635281E+01  2.914383E-02 7.632037E+01  9.969949E-01 -1.054393E+01 
2.099563E+02  9.951850E-01 -1.632544E+01  2.934569E-02 7.627655E+01  2.940283E-02 7.640073E+01  9.965199E-01 -1.050949E+01 
2.118250E+02  9.947686E-01 -1.652270E+01  2.962060E-02 7.597821E+01  2.969994E-02 7.601988E+01  9.966218E-01 -1.070924E+01 
2.136937E+02  9.946348E-01 -1.669469E+01  2.997575E-02 7.587952E+01  3.002338E-02 7.588226E+01  9.967137E-01 -1.087160E+01 
2.155625E+02  9.946746E-01 -1.677442E+01  3.009132E-02 7.584197E+01  3.014802E-02 7.585903E+01  9.967418E-01 -1.090320E+01 
2.174313E+02  9.950184E-01 -1.693157E+01  3.033922E-02 7.580069E+01  3.039541E-02 7.583510E+01  9.965538E-01 -1.101463E+01 
2.193000E+02  9.949631E-01 -1.708890E+01  3.064366E-02 7.566776E+01  3.067376E-02 7.569458E+01  9.965819E-01 -1.108243E+01 
2.211687E+02  9.950945E-01 -1.725987E+01  3.088291E-02 7.544460E+01  3.092390E-02 7.549337E+01  9.962986E-01 -1.118377E+01 
2.230375E+02  9.940651E-01 -1.732268E+01  3.120274E-02 7.543266E+01  3.124512E-02 7.548211E+01  9.957488E-01 -1.119259E+01 
2.249062E+02  9.953010E-01 -1.745548E+01  3.138846E-02 7.530035E+01  3.146967E-02 7.537033E+01  9.975248E-01 -1.129862E+01 
2.267750E+02  9.953583E-01 -1.760296E+01  3.162029E-02 7.522899E+01  3.169126E-02 7.522358E+01  9.972836E-01 -1.138764E+01 
2.286438E+02  9.950047E-01 -1.775757E+01  3.187449E-02 7.513154E+01  3.193191E-02 7.516296E+01  9.965726E-01 -1.145478E+01 
2.305125E+02  9.952217E-01 -1.790028E+01  3.221565E-02 7.495675E+01  3.228256E-02 7.496353E+01  9.965982E-01 -1.157481E+01 
2.323812E+02  9.946194E-01 -1.806966E+01  3.236093E-02 7.478272E+01  3.239600E-02 7.466867E+01  9.963410E-01 -1.169643E+01 
2.342500E+02  9.953012E-01 -1.812980E+01  3.262081E-02 7.481190E+01  3.270478E-02 7.485730E+01  9.963593E-01 -1.172093E+01 
2.361188E+02  9.954731E-01 -1.826859E+01  3.291582E-02 7.473379E+01  3.298551E-02 7.469865E+01  9.966510E-01 -1.177571E+01 
2.379875E+02  9.953636E-01 -1.843660E+01  3.316904E-02 7.455983E+01  3.322878E-02 7.458138E+01  9.965625E-01 -1.188129E+01 
2.398562E+02  9.951925E-01 -1.860957E+01  3.345281E-02 7.440260E+01  3.353059E-02 7.445792E+01  9.964828E-01 -1.198449E+01 
2.417250E+02  9.950616E-01 -1.869911E+01  3.363492E-02 7.427649E+01  3.367824E-02 7.430757E+01  9.961572E-01 -1.203207E+01 
2.435938E+02  9.952319E-01 -1.884278E+01  3.388379E-02 7.421280E+01  3.395993E-02 7.422405E+01  9.964047E-01 -1.213009E+01 
2.454625E+02  9.952953E-01 -1.898598E+01  3.421428E-02 7.422998E+01  3.426440E-02 7.418659E+01  9.965507E-01 -1.222445E+01 
2.473313E+02  9.953312E-01 -1.912609E+01  3.453874E-02 7.406870E+01  3.455391E-02 7.402749E+01  9.965126E-01 -1.231690E+01 
2.492000E+02  9.948626E-01 -1.929787E+01  3.479871E-02 7.379146E+01  3.484330E-02 7.383587E+01  9.962073E-01 -1.241889E+01 
2.510687E+02  9.948510E-01 -1.939168E+01  3.491050E-02 7.378470E+01  3.495257E-02 7.380085E+01  9.961987E-01 -1.246188E+01 
2.529375E+02  9.953747E-01 -1.953090E+01  3.521645E-02 7.363875E+01  3.527175E-02 7.369276E+01  9.961848E-01 -1.255364E+01 
2.548063E+02  9.953617E-01 -1.967497E+01  3.545488E-02 7.355692E+01  3.550332E-02 7.358280E+01  9.962746E-01 -1.265341E+01 
2.566750E+02  9.952408E-01 -1.980810E+01  3.573645E-02 7.352433E+01  3.582638E-02 7.348136E+01  9.964429E-01 -1.274292E+01 
2.585437E+02  9.934553E-01 -1.992868E+01  3.598761E-02 7.329982E+01  3.602829E-02 7.328981E+01  9.942791E-01 -1.279355E+01 
2.604125E+02  9.947858E-01 -2.006297E+01  3.617928E-02 7.324349E+01  3.620322E-02 7.323658E+01  9.959140E-01 -1.288334E+01 
2.622812E+02  9.950786E-01 -2.020881E+01  3.652739E-02 7.317251E+01  3.652977E-02 7.314768E+01  9.961690E-01 -1.297547E+01 
2.641500E+02  9.951959E-01 -2.036520E+01  3.676536E-02 7.299260E+01  3.679338E-02 7.298924E+01  9.962514E-01 -1.307448E+01 
2.660188E+02  9.951698E-01 -2.051505E+01  3.701938E-02 7.283514E+01  3.705527E-02 7.279708E+01  9.961537E-01 -1.317245E+01 
2.678875E+02  9.945877E-01 -2.064195E+01  3.721265E-02 7.264946E+01  3.725460E-02 7.263105E+01  9.956734E-01 -1.325805E+01 
2.697563E+02  9.950881E-01 -2.077490E+01  3.750408E-02 7.264725E+01  3.753912E-02 7.262577E+01  9.960590E-01 -1.335964E+01 
2.716250E+02  9.952162E-01 -2.094313E+01  3.778497E-02 7.244039E+01  3.784806E-02 7.248378E+01  9.962920E-01 -1.346553E+01 
2.734937E+02  9.951939E-01 -2.108764E+01  3.799255E-02 7.230017E+01  3.804420E-02 7.229438E+01  9.962210E-01 -1.354344E+01 
2.753625E+02  9.949850E-01 -2.125622E+01  3.832835E-02 7.216172E+01  3.837045E-02 7.221583E+01  9.962162E-01 -1.366864E+01 
2.772312E+02  9.944193E-01 -2.137272E+01  3.849075E-02 7.201797E+01  3.854169E-02 7.205202E+01  9.957684E-01 -1.372150E+01 
2.791000E+02  9.946171E-01 -2.153688E+01  3.877849E-02 7.194368E+01  3.882220E-02 7.191035E+01  9.959297E-01 -1.382626E+01 
2.809688E+02  9.945606E-01 -2.170214E+01  3.904873E-02 7.177428E+01  3.907490E-02 7.178044E+01  9.959264E-01 -1.393874E+01 
2.828375E+02  9.943998E-01 -2.185526E+01  3.929889E-02 7.162462E+01  3.931806E-02 7.168373E+01  9.960286E-01 -1.404201E+01 
2.847063E+02  9.940991E-01 -2.202578E+01  3.963414E-02 7.156066E+01  3.964804E-02 7.160597E+01  9.961938E-01 -1.415072E+01 
2.865750E+02  9.938695E-01 -2.212796E+01  3.979495E-02 7.140551E+01  3.982870E-02 7.139180E+01  9.962047E-01 -1.421393E+01 
2.884438E+02  9.940294E-01 -2.228607E+01  3.995919E-02 7.125172E+01  4.001142E-02 7.128704E+01  9.959797E-01 -1.431220E+01 
2.903125E+02  9.938576E-01 -2.246103E+01  4.021143E-02 7.118492E+01  4.025101E-02 7.122233E+01  9.956764E-01 -1.442149E+01 
2.921812E+02  9.938443E-01 -2.262388E+01  4.046684E-02 7.102512E+01  4.052425E-02 7.107940E+01  9.956591E-01 -1.453329E+01 
2.940500E+02  9.926011E-01 -2.281823E+01  4.082722E-02 7.080692E+01  4.088226E-02 7.082561E+01  9.944613E-01 -1.469495E+01 
2.959187E+02  9.935292E-01 -2.289934E+01  4.091084E-02 7.072383E+01  4.096609E-02 7.076957E+01  9.957264E-01 -1.471577E+01 
2.977875E+02  9.935738E-01 -2.305561E+01  4.120199E-02 7.071515E+01  4.125186E-02 7.067228E+01  9.957866E-01 -1.483256E+01 
2.996562E+02  9.933745E-01 -2.321395E+01  4.147387E-02 7.046155E+01  4.151884E-02 7.046296E+01  9.957917E-01 -1.493852E+01 
3.015250E+02  9.931544E-01 -2.338288E+01  4.175596E-02 7.037989E+01  4.178593E-02 7.043218E+01  9.956261E-01 -1.504905E+01 
3.033938E+02  9.922778E-01 -2.353260E+01  4.188480E-02 7.007413E+01  4.193179E-02 7.008579E+01  9.952079E-01 -1.512069E+01 
