! Matrix data file written by TouchstoneData, EPCOS AG
! FILENAME: "newformat_AK18A.PCB7.MB.s2p"
! COMMENT: "(AK18A.PCB7.MB.s2p)"
! INFO: nport=2, nfreq=1601
! DATE: "Fri Apr 18 08:50:00 2014"
! USER: "Lynn Zhu"
!
! port | pin | signal
! -----|-----|--------
!   1  |  2  |  IN
!   2  |  5  |  OUT
! --------------------
! 
# MHZ S MA R 50
! freq  magS11 angS11  magS21 angS21  magS12 angS12  magS22 angS22
8.255000E+02  9.373562E-01 -7.144390E+01  2.626824E-03 2.526745E+01  2.622369E-03 2.530971E+01  9.180689E-01 -1.329516E+02 
8.256250E+02  9.373314E-01 -7.146203E+01  2.642778E-03 2.545070E+01  2.628826E-03 2.561362E+01  9.179963E-01 -1.329880E+02 
8.257500E+02  9.373716E-01 -7.147144E+01  2.632447E-03 2.552459E+01  2.622032E-03 2.550957E+01  9.179581E-01 -1.330221E+02 
8.258750E+02  9.376407E-01 -7.151322E+01  2.621911E-03 2.526206E+01  2.617245E-03 2.585452E+01  9.180006E-01 -1.330720E+02 
8.260000E+02  9.376910E-01 -7.154773E+01  2.618139E-03 2.583428E+01  2.604385E-03 2.581826E+01  9.179092E-01 -1.331271E+02 
8.261250E+02  9.376622E-01 -7.156141E+01  2.611954E-03 2.595085E+01  2.600791E-03 2.616887E+01  9.178433E-01 -1.331622E+02 
8.262500E+02  9.376410E-01 -7.158379E+01  2.609123E-03 2.615638E+01  2.605602E-03 2.630927E+01  9.177478E-01 -1.331867E+02 
8.263750E+02  9.375981E-01 -7.161431E+01  2.604712E-03 2.624425E+01  2.605794E-03 2.630861E+01  9.177741E-01 -1.332314E+02 
8.265000E+02  9.376960E-01 -7.163617E+01  2.606998E-03 2.640202E+01  2.598445E-03 2.635026E+01  9.176996E-01 -1.332857E+02 
8.266250E+02  9.379094E-01 -7.165634E+01  2.599196E-03 2.653748E+01  2.593235E-03 2.660443E+01  9.176654E-01 -1.333177E+02 
8.267500E+02  9.378111E-01 -7.168116E+01  2.588465E-03 2.668763E+01  2.588553E-03 2.689951E+01  9.176396E-01 -1.333481E+02 
8.268750E+02  9.378949E-01 -7.171500E+01  2.582886E-03 2.684219E+01  2.575821E-03 2.696436E+01  9.175638E-01 -1.333891E+02 
8.270000E+02  9.378737E-01 -7.174754E+01  2.580097E-03 2.718722E+01  2.577258E-03 2.726543E+01  9.174658E-01 -1.334418E+02 
8.271250E+02  9.379456E-01 -7.176869E+01  2.591897E-03 2.713316E+01  2.587464E-03 2.719339E+01  9.173003E-01 -1.334731E+02 
8.272500E+02  9.378174E-01 -7.178991E+01  2.594980E-03 2.720772E+01  2.589311E-03 2.716699E+01  9.171973E-01 -1.335013E+02 
8.273750E+02  9.378553E-01 -7.183512E+01  2.595554E-03 2.743031E+01  2.578755E-03 2.760837E+01  9.169634E-01 -1.335465E+02 
8.275000E+02  9.376380E-01 -7.186984E+01  2.604376E-03 2.726779E+01  2.582902E-03 2.746078E+01  9.169601E-01 -1.335944E+02 
8.276250E+02  9.375429E-01 -7.189052E+01  2.587155E-03 2.707369E+01  2.583654E-03 2.727755E+01  9.168387E-01 -1.336419E+02 
8.277500E+02  9.374563E-01 -7.191040E+01  2.586701E-03 2.731877E+01  2.584555E-03 2.759472E+01  9.166011E-01 -1.336756E+02 
8.278750E+02  9.373323E-01 -7.194133E+01  2.594279E-03 2.745589E+01  2.586302E-03 2.754151E+01  9.164277E-01 -1.337219E+02 
8.280000E+02  9.371732E-01 -7.197980E+01  2.574045E-03 2.736898E+01  2.563999E-03 2.744552E+01  9.163108E-01 -1.337714E+02 
8.281250E+02  9.369481E-01 -7.200735E+01  2.564996E-03 2.732712E+01  2.562106E-03 2.750567E+01  9.161355E-01 -1.338214E+02 
8.282500E+02  9.367141E-01 -7.201991E+01  2.557701E-03 2.758954E+01  2.556128E-03 2.762566E+01  9.159796E-01 -1.338497E+02 
8.283750E+02  9.366139E-01 -7.204334E+01  2.561706E-03 2.767382E+01  2.558208E-03 2.773229E+01  9.157726E-01 -1.338952E+02 
8.285000E+02  9.365041E-01 -7.207346E+01  2.552321E-03 2.776609E+01  2.546264E-03 2.791241E+01  9.156603E-01 -1.339503E+02 
8.286250E+02  9.366037E-01 -7.209457E+01  2.558665E-03 2.787672E+01  2.534095E-03 2.817006E+01  9.154552E-01 -1.339934E+02 
8.287500E+02  9.365637E-01 -7.211772E+01  2.545632E-03 2.800558E+01  2.548418E-03 2.814365E+01  9.152276E-01 -1.340244E+02 
8.288750E+02  9.363094E-01 -7.215348E+01  2.533047E-03 2.788044E+01  2.524528E-03 2.813048E+01  9.150758E-01 -1.340620E+02 
8.290000E+02  9.360397E-01 -7.218573E+01  2.527205E-03 2.830327E+01  2.516908E-03 2.832783E+01  9.149211E-01 -1.341121E+02 
8.291250E+02  9.357110E-01 -7.219849E+01  2.532452E-03 2.837674E+01  2.518945E-03 2.865851E+01  9.146878E-01 -1.341589E+02 
8.292500E+02  9.355441E-01 -7.219176E+01  2.515392E-03 2.890547E+01  2.516777E-03 2.904620E+01  9.144527E-01 -1.341865E+02 
8.293750E+02  9.354893E-01 -7.220603E+01  2.533683E-03 2.902414E+01  2.521881E-03 2.927692E+01  9.142619E-01 -1.342209E+02 
8.295000E+02  9.353747E-01 -7.223586E+01  2.522430E-03 2.894785E+01  2.520285E-03 2.909541E+01  9.140262E-01 -1.342663E+02 
8.296250E+02  9.354626E-01 -7.225705E+01  2.512141E-03 2.916234E+01  2.508013E-03 2.928473E+01  9.139965E-01 -1.343146E+02 
8.297500E+02  9.352984E-01 -7.226652E+01  2.524732E-03 2.964403E+01  2.517411E-03 2.943035E+01  9.137442E-01 -1.343471E+02 
8.298750E+02  9.350596E-01 -7.226931E+01  2.540870E-03 2.978631E+01  2.529657E-03 2.996490E+01  9.133961E-01 -1.343749E+02 
8.300000E+02  9.349113E-01 -7.227687E+01  2.545580E-03 2.971707E+01  2.543955E-03 2.998953E+01  9.131321E-01 -1.344193E+02 
8.301250E+02  9.351610E-01 -7.228728E+01  2.526320E-03 2.957008E+01  2.533202E-03 2.963448E+01  9.128111E-01 -1.344587E+02 
8.302500E+02  9.351903E-01 -7.229322E+01  2.533115E-03 2.972922E+01  2.526784E-03 2.994288E+01  9.126043E-01 -1.344857E+02 
8.303750E+02  9.351555E-01 -7.228675E+01  2.540046E-03 2.971155E+01  2.537109E-03 2.992929E+01  9.123150E-01 -1.345091E+02 
8.305000E+02  9.354758E-01 -7.230986E+01  2.540026E-03 2.975633E+01  2.527892E-03 2.977090E+01  9.120981E-01 -1.345442E+02 
8.306250E+02  9.356521E-01 -7.233155E+01  2.532475E-03 2.995579E+01  2.522550E-03 2.997110E+01  9.118809E-01 -1.345859E+02 
8.307500E+02  9.358147E-01 -7.233565E+01  2.546356E-03 2.995281E+01  2.535721E-03 3.018258E+01  9.115835E-01 -1.346175E+02 
8.308750E+02  9.360463E-01 -7.233626E+01  2.558025E-03 2.995956E+01  2.547470E-03 3.004451E+01  9.113002E-01 -1.346281E+02 
8.310000E+02  9.364563E-01 -7.235720E+01  2.566310E-03 2.973243E+01  2.552243E-03 2.988848E+01  9.111773E-01 -1.346568E+02 
8.311250E+02  9.368936E-01 -7.239197E+01  2.552241E-03 2.915331E+01  2.540451E-03 2.923292E+01  9.109650E-01 -1.346925E+02 
8.312500E+02  9.370787E-01 -7.242280E+01  2.545202E-03 2.912994E+01  2.541191E-03 2.925311E+01  9.107748E-01 -1.347251E+02 
8.313750E+02  9.372443E-01 -7.243109E+01  2.533398E-03 2.905191E+01  2.532107E-03 2.910175E+01  9.104910E-01 -1.347419E+02 
8.315000E+02  9.374969E-01 -7.246073E+01  2.527568E-03 2.904178E+01  2.508236E-03 2.910218E+01  9.101820E-01 -1.347621E+02 
8.316250E+02  9.379099E-01 -7.250754E+01  2.494549E-03 2.917801E+01  2.495119E-03 2.924415E+01  9.099384E-01 -1.347913E+02 
8.317500E+02  9.380222E-01 -7.253772E+01  2.497372E-03 2.944860E+01  2.491444E-03 2.966874E+01  9.096461E-01 -1.348185E+02 
8.318750E+02  9.382271E-01 -7.255818E+01  2.495576E-03 2.913242E+01  2.495350E-03 2.957464E+01  9.095054E-01 -1.348279E+02 
8.320000E+02  9.383475E-01 -7.259089E+01  2.485101E-03 2.940705E+01  2.465559E-03 2.945787E+01  9.093328E-01 -1.348379E+02 
8.321250E+02  9.386075E-01 -7.263507E+01  2.487124E-03 2.942165E+01  2.483276E-03 2.948224E+01  9.091389E-01 -1.348642E+02 
8.322500E+02  9.386054E-01 -7.267353E+01  2.480589E-03 2.948885E+01  2.477475E-03 2.950538E+01  9.089654E-01 -1.348921E+02 
8.323750E+02  9.387304E-01 -7.269211E+01  2.468104E-03 2.927119E+01  2.453277E-03 2.948128E+01  9.087424E-01 -1.349056E+02 
8.325000E+02  9.387119E-01 -7.271910E+01  2.451259E-03 2.955421E+01  2.453286E-03 2.948961E+01  9.086001E-01 -1.349036E+02 
8.326250E+02  9.388354E-01 -7.276021E+01  2.449996E-03 2.980738E+01  2.449547E-03 2.991355E+01  9.085752E-01 -1.349230E+02 
8.327500E+02  9.389235E-01 -7.279777E+01  2.443053E-03 3.023179E+01  2.425220E-03 3.027960E+01  9.084642E-01 -1.349608E+02 
8.328750E+02  9.389143E-01 -7.282884E+01  2.442550E-03 3.035722E+01  2.437586E-03 3.022239E+01  9.084510E-01 -1.349803E+02 
8.330000E+02  9.390488E-01 -7.284946E+01  2.433622E-03 3.036906E+01  2.429576E-03 3.047035E+01  9.084484E-01 -1.349956E+02 
8.331250E+02  9.389984E-01 -7.287751E+01  2.425128E-03 3.062858E+01  2.422752E-03 3.061389E+01  9.084742E-01 -1.349925E+02 
8.332500E+02  9.390401E-01 -7.291949E+01  2.422891E-03 3.057819E+01  2.420650E-03 3.066080E+01  9.084246E-01 -1.350088E+02 
8.333750E+02  9.390142E-01 -7.295649E+01  2.415608E-03 3.093017E+01  2.417496E-03 3.095113E+01  9.084518E-01 -1.350287E+02 
8.335000E+02  9.388999E-01 -7.299362E+01  2.421729E-03 3.100000E+01  2.413955E-03 3.103650E+01  9.085646E-01 -1.350422E+02 
8.336250E+02  9.389300E-01 -7.302379E+01  2.420040E-03 3.115685E+01  2.409078E-03 3.142738E+01  9.087195E-01 -1.350600E+02 
8.337500E+02  9.389214E-01 -7.304681E+01  2.435081E-03 3.165212E+01  2.424047E-03 3.168964E+01  9.089349E-01 -1.350710E+02 
8.338750E+02  9.389464E-01 -7.306559E+01  2.433234E-03 3.138729E+01  2.429729E-03 3.137696E+01  9.090179E-01 -1.350809E+02 
8.340000E+02  9.389341E-01 -7.309815E+01  2.433728E-03 3.120223E+01  2.423094E-03 3.138095E+01  9.092301E-01 -1.350897E+02 
8.341250E+02  9.389603E-01 -7.315375E+01  2.424676E-03 3.141272E+01  2.419277E-03 3.158654E+01  9.094124E-01 -1.351175E+02 
8.342500E+02  9.389065E-01 -7.320674E+01  2.415553E-03 3.128251E+01  2.411126E-03 3.127659E+01  9.095335E-01 -1.351534E+02 
8.343750E+02  9.387978E-01 -7.324904E+01  2.422940E-03 3.126433E+01  2.416401E-03 3.145617E+01  9.096475E-01 -1.351931E+02 
8.345000E+02  9.387742E-01 -7.328278E+01  2.400266E-03 3.133325E+01  2.406576E-03 3.166521E+01  9.097044E-01 -1.352118E+02 
8.346250E+02  9.386815E-01 -7.331787E+01  2.417212E-03 3.140024E+01  2.404531E-03 3.169495E+01  9.098973E-01 -1.352310E+02 
8.347500E+02  9.385846E-01 -7.336038E+01  2.401788E-03 3.160067E+01  2.385839E-03 3.133470E+01  9.100337E-01 -1.352708E+02 
8.348750E+02  9.383590E-01 -7.341692E+01  2.384201E-03 3.169152E+01  2.387784E-03 3.193241E+01  9.100896E-01 -1.353113E+02 
8.350000E+02  9.383159E-01 -7.346315E+01  2.395979E-03 3.193353E+01  2.378442E-03 3.198240E+01  9.101533E-01 -1.353443E+02 
8.351250E+02  9.382195E-01 -7.350556E+01  2.391719E-03 3.192525E+01  2.391844E-03 3.169767E+01  9.103574E-01 -1.353803E+02 
8.352500E+02  9.380323E-01 -7.353892E+01  2.395901E-03 3.188722E+01  2.381165E-03 3.205591E+01  9.105233E-01 -1.354034E+02 
8.353750E+02  9.379061E-01 -7.356618E+01  2.385517E-03 3.181849E+01  2.367337E-03 3.190480E+01  9.107846E-01 -1.354397E+02 
8.355000E+02  9.378495E-01 -7.360841E+01  2.368805E-03 3.187311E+01  2.362232E-03 3.219540E+01  9.107975E-01 -1.354797E+02 
8.356250E+02  9.377561E-01 -7.366628E+01  2.370577E-03 3.234165E+01  2.365586E-03 3.248173E+01  9.107510E-01 -1.355188E+02 
8.357500E+02  9.374890E-01 -7.370872E+01  2.374517E-03 3.244760E+01  2.356928E-03 3.270733E+01  9.109176E-01 -1.355607E+02 
8.358750E+02  9.372352E-01 -7.374961E+01  2.371740E-03 3.253275E+01  2.369849E-03 3.238250E+01  9.110733E-01 -1.356044E+02 
8.360000E+02  9.369004E-01 -7.377725E+01  2.366491E-03 3.248564E+01  2.354854E-03 3.255271E+01  9.110864E-01 -1.356401E+02 
8.361250E+02  9.367017E-01 -7.380108E+01  2.368729E-03 3.248111E+01  2.365605E-03 3.267622E+01  9.111375E-01 -1.356612E+02 
8.362500E+02  9.366210E-01 -7.383020E+01  2.348925E-03 3.227741E+01  2.343369E-03 3.240666E+01  9.112910E-01 -1.356885E+02 
8.363750E+02  9.363648E-01 -7.387214E+01  2.348344E-03 3.301723E+01  2.341255E-03 3.302970E+01  9.115432E-01 -1.357306E+02 
8.365000E+02  9.363251E-01 -7.391574E+01  2.363904E-03 3.300122E+01  2.344349E-03 3.302902E+01  9.117198E-01 -1.357816E+02 
8.366250E+02  9.361728E-01 -7.396341E+01  2.360407E-03 3.287313E+01  2.351959E-03 3.308937E+01  9.119284E-01 -1.358311E+02 
8.367500E+02  9.358863E-01 -7.398317E+01  2.361869E-03 3.284549E+01  2.346391E-03 3.304970E+01  9.121059E-01 -1.358734E+02 
8.368750E+02  9.357480E-01 -7.400462E+01  2.354802E-03 3.291507E+01  2.346765E-03 3.287131E+01  9.122623E-01 -1.359072E+02 
8.370000E+02  9.355895E-01 -7.403115E+01  2.354208E-03 3.240734E+01  2.343607E-03 3.292522E+01  9.124119E-01 -1.359441E+02 
8.371250E+02  9.355077E-01 -7.407408E+01  2.353213E-03 3.274182E+01  2.341730E-03 3.290543E+01  9.125410E-01 -1.359895E+02 
8.372500E+02  9.352616E-01 -7.412079E+01  2.336950E-03 3.260365E+01  2.324836E-03 3.280428E+01  9.126905E-01 -1.360503E+02 
8.373750E+02  9.349481E-01 -7.416059E+01  2.333256E-03 3.286512E+01  2.333604E-03 3.293966E+01  9.127650E-01 -1.361162E+02 
8.375000E+02  9.346210E-01 -7.418281E+01  2.332268E-03 3.326945E+01  2.335682E-03 3.300784E+01  9.127358E-01 -1.361532E+02 
8.376250E+02  9.343949E-01 -7.419162E+01  2.325366E-03 3.271039E+01  2.316753E-03 3.272280E+01  9.128010E-01 -1.361922E+02 
8.377500E+02  9.344104E-01 -7.422149E+01  2.315273E-03 3.314105E+01  2.298463E-03 3.332838E+01  9.129372E-01 -1.362282E+02 
8.378750E+02  9.342730E-01 -7.426106E+01  2.317974E-03 3.326848E+01  2.309324E-03 3.336191E+01  9.129625E-01 -1.362796E+02 
8.380000E+02  9.340872E-01 -7.428890E+01  2.329031E-03 3.299643E+01  2.317941E-03 3.341140E+01  9.131703E-01 -1.363380E+02 
8.381250E+02  9.337912E-01 -7.430806E+01  2.325099E-03 3.286602E+01  2.300947E-03 3.271061E+01  9.131886E-01 -1.363858E+02 
8.382500E+02  9.337008E-01 -7.433043E+01  2.298489E-03 3.306796E+01  2.287136E-03 3.312189E+01  9.131600E-01 -1.364251E+02 
8.383750E+02  9.336116E-01 -7.437032E+01  2.314781E-03 3.277867E+01  2.304020E-03 3.307843E+01  9.131602E-01 -1.364773E+02 
8.385000E+02  9.335380E-01 -7.440569E+01  2.292346E-03 3.238454E+01  2.283465E-03 3.246003E+01  9.131119E-01 -1.365385E+02 
8.386250E+02  9.332778E-01 -7.442339E+01  2.274527E-03 3.257466E+01  2.272919E-03 3.271655E+01  9.131429E-01 -1.365775E+02 
8.387500E+02  9.330771E-01 -7.444430E+01  2.264216E-03 3.246641E+01  2.263012E-03 3.271971E+01  9.130091E-01 -1.366172E+02 
8.388750E+02  9.329341E-01 -7.448389E+01  2.249320E-03 3.254358E+01  2.239149E-03 3.299232E+01  9.130390E-01 -1.366638E+02 
8.390000E+02  9.327171E-01 -7.451413E+01  2.238618E-03 3.250763E+01  2.228642E-03 3.260086E+01  9.130917E-01 -1.367142E+02 
8.391250E+02  9.326748E-01 -7.453483E+01  2.209072E-03 3.324297E+01  2.204860E-03 3.320033E+01  9.132556E-01 -1.367581E+02 
8.392500E+02  9.325017E-01 -7.456057E+01  2.239046E-03 3.335869E+01  2.226548E-03 3.334997E+01  9.132027E-01 -1.367992E+02 
8.393750E+02  9.322365E-01 -7.461176E+01  2.200383E-03 3.304499E+01  2.196023E-03 3.302168E+01  9.132259E-01 -1.368544E+02 
8.395000E+02  9.318743E-01 -7.465051E+01  2.202237E-03 3.382213E+01  2.196107E-03 3.377989E+01  9.132298E-01 -1.369115E+02 
8.396250E+02  9.313532E-01 -7.465752E+01  2.186680E-03 3.330385E+01  2.190130E-03 3.345978E+01  9.131294E-01 -1.369548E+02 
8.397500E+02  9.311916E-01 -7.466062E+01  2.178126E-03 3.382068E+01  2.172374E-03 3.379284E+01  9.130902E-01 -1.369873E+02 
8.398750E+02  9.311923E-01 -7.469422E+01  2.163791E-03 3.403640E+01  2.153362E-03 3.430340E+01  9.133237E-01 -1.370408E+02 
8.400000E+02  9.311122E-01 -7.472975E+01  2.162029E-03 3.412886E+01  2.152374E-03 3.431372E+01  9.133121E-01 -1.371002E+02 
8.401250E+02  9.309955E-01 -7.476302E+01  2.164974E-03 3.427099E+01  2.157950E-03 3.444690E+01  9.132824E-01 -1.371510E+02 
8.402500E+02  9.303407E-01 -7.478621E+01  2.162594E-03 3.461461E+01  2.160803E-03 3.457439E+01  9.132835E-01 -1.371880E+02 
8.403750E+02  9.299367E-01 -7.480743E+01  2.151504E-03 3.442125E+01  2.140154E-03 3.454479E+01  9.133176E-01 -1.372427E+02 
8.405000E+02  9.295192E-01 -7.481597E+01  2.132639E-03 3.439220E+01  2.123415E-03 3.459802E+01  9.133057E-01 -1.373017E+02 
8.406250E+02  9.294783E-01 -7.481446E+01  2.122669E-03 3.503225E+01  2.122918E-03 3.516415E+01  9.134547E-01 -1.373507E+02 
8.407500E+02  9.294403E-01 -7.482800E+01  2.144421E-03 3.470954E+01  2.135180E-03 3.493514E+01  9.133720E-01 -1.374033E+02 
8.408750E+02  9.293231E-01 -7.486774E+01  2.091959E-03 3.527295E+01  2.081772E-03 3.533792E+01  9.132932E-01 -1.374604E+02 
8.410000E+02  9.286211E-01 -7.489165E+01  2.088203E-03 3.588599E+01  2.089846E-03 3.631931E+01  9.132710E-01 -1.375278E+02 
8.411250E+02  9.283304E-01 -7.486700E+01  2.108124E-03 3.592117E+01  2.099554E-03 3.579937E+01  9.130801E-01 -1.375884E+02 
8.412500E+02  9.284155E-01 -7.485408E+01  2.079933E-03 3.579874E+01  2.068220E-03 3.592125E+01  9.128761E-01 -1.376300E+02 
8.413750E+02  9.285299E-01 -7.486566E+01  2.069101E-03 3.669933E+01  2.050121E-03 3.664035E+01  9.127378E-01 -1.376812E+02 
8.415000E+02  9.286734E-01 -7.488914E+01  2.065854E-03 3.686328E+01  2.074057E-03 3.670019E+01  9.126952E-01 -1.377485E+02 
8.416250E+02  9.286214E-01 -7.489873E+01  2.065721E-03 3.690667E+01  2.068110E-03 3.711587E+01  9.124650E-01 -1.378024E+02 
8.417500E+02  9.285809E-01 -7.490094E+01  2.067717E-03 3.721944E+01  2.064291E-03 3.739093E+01  9.122305E-01 -1.378469E+02 
8.418750E+02  9.286117E-01 -7.490342E+01  2.048605E-03 3.721328E+01  2.053920E-03 3.734907E+01  9.120890E-01 -1.379031E+02 
8.420000E+02  9.286935E-01 -7.492039E+01  2.043730E-03 3.778359E+01  2.047251E-03 3.763796E+01  9.117309E-01 -1.379708E+02 
8.421250E+02  9.289605E-01 -7.491114E+01  2.050979E-03 3.831247E+01  2.031154E-03 3.863511E+01  9.113684E-01 -1.380200E+02 
8.422500E+02  9.295140E-01 -7.490386E+01  2.048300E-03 3.839427E+01  2.033804E-03 3.828598E+01  9.109756E-01 -1.380534E+02 
8.423750E+02  9.299025E-01 -7.495052E+01  2.036070E-03 3.869186E+01  2.030022E-03 3.855805E+01  9.107550E-01 -1.380987E+02 
8.425000E+02  9.301160E-01 -7.500052E+01  2.033219E-03 3.897770E+01  2.027470E-03 3.916436E+01  9.105134E-01 -1.381598E+02 
8.426250E+02  9.301737E-01 -7.502625E+01  2.029542E-03 3.950072E+01  2.034144E-03 3.955163E+01  9.101406E-01 -1.382104E+02 
8.427500E+02  9.302945E-01 -7.503564E+01  2.050874E-03 3.961863E+01  2.034116E-03 4.001605E+01  9.097529E-01 -1.382432E+02 
8.428750E+02  9.304232E-01 -7.506564E+01  2.040897E-03 3.966368E+01  2.035249E-03 3.975885E+01  9.093432E-01 -1.382795E+02 
8.430000E+02  9.306389E-01 -7.509653E+01  2.029152E-03 3.991928E+01  2.016192E-03 3.998796E+01  9.091011E-01 -1.383270E+02 
8.431250E+02  9.309804E-01 -7.512794E+01  2.028261E-03 4.072316E+01  2.022359E-03 4.077162E+01  9.087659E-01 -1.383678E+02 
8.432500E+02  9.310736E-01 -7.514778E+01  2.045240E-03 4.063532E+01  2.045212E-03 4.102460E+01  9.085163E-01 -1.383926E+02 
8.433750E+02  9.311972E-01 -7.519297E+01  2.039732E-03 4.072675E+01  2.037052E-03 4.093590E+01  9.083200E-01 -1.384231E+02 
8.435000E+02  9.312968E-01 -7.523560E+01  2.026473E-03 4.076793E+01  2.009965E-03 4.111601E+01  9.082712E-01 -1.384767E+02 
8.436250E+02  9.314344E-01 -7.526117E+01  2.051746E-03 4.141285E+01  2.035974E-03 4.102442E+01  9.079598E-01 -1.385246E+02 
8.437500E+02  9.317281E-01 -7.528060E+01  2.027119E-03 4.151111E+01  2.022991E-03 4.128640E+01  9.076411E-01 -1.385478E+02 
8.438750E+02  9.318932E-01 -7.532532E+01  2.051962E-03 4.133634E+01  2.045587E-03 4.188292E+01  9.074713E-01 -1.385768E+02 
8.440000E+02  9.319246E-01 -7.537700E+01  2.027930E-03 4.133083E+01  2.030604E-03 4.162034E+01  9.074377E-01 -1.386244E+02 
8.441250E+02  9.320673E-01 -7.541460E+01  2.031225E-03 4.166857E+01  2.032014E-03 4.176904E+01  9.072110E-01 -1.386732E+02 
8.442500E+02  9.320367E-01 -7.543163E+01  2.032648E-03 4.154248E+01  2.024825E-03 4.194355E+01  9.070068E-01 -1.387027E+02 
8.443750E+02  9.323503E-01 -7.546409E+01  2.024123E-03 4.176451E+01  2.011713E-03 4.228623E+01  9.067800E-01 -1.387296E+02 
8.445000E+02  9.324013E-01 -7.552503E+01  2.018008E-03 4.229186E+01  2.014409E-03 4.218614E+01  9.066831E-01 -1.387697E+02 
8.446250E+02  9.325040E-01 -7.557452E+01  2.017704E-03 4.247813E+01  1.997668E-03 4.256535E+01  9.065855E-01 -1.388223E+02 
8.447500E+02  9.324292E-01 -7.560366E+01  2.008921E-03 4.259937E+01  2.013522E-03 4.258627E+01  9.063512E-01 -1.388537E+02 
8.448750E+02  9.323720E-01 -7.563687E+01  2.020233E-03 4.241976E+01  2.011384E-03 4.277610E+01  9.061853E-01 -1.388861E+02 
