! Matrix data file written by TouchstoneData, EPCOS AG
! FILENAME: "B3404_NB.s2p"
! COMMENT: "Narrow band s-paramters"
! INFO: nport=2, nfreq=1601
! DATE: "Mon Nov 18 16:33:02 2013"
! USER: "Andy Zhang"
!
! port | pin | signal
! -----|-----|--------
!   1  |  2  |  in
!   2  |  5  |  out
! --------------------
! 
# MHZ S MA R 50
! freq  magS11 angS11  magS21 angS21  magS12 angS12  magS22 angS22
1.932500E+03  9.605570E-01 -1.295583E+02  6.136894E-02 -1.375077E+01  6.129388E-02 -1.384058E+01  9.798218E-01 -9.108194E+01 
1.932938E+03  9.605705E-01 -1.295861E+02  6.129226E-02 -1.376806E+01  6.121533E-02 -1.390101E+01  9.798797E-01 -9.111311E+01 
1.933375E+03  9.606451E-01 -1.296269E+02  6.121724E-02 -1.378583E+01  6.114622E-02 -1.389229E+01  9.798410E-01 -9.113691E+01 
1.933812E+03  9.606216E-01 -1.296662E+02  6.110696E-02 -1.377608E+01  6.105150E-02 -1.390912E+01  9.797763E-01 -9.117296E+01 
1.934250E+03  9.605680E-01 -1.297138E+02  6.104130E-02 -1.379319E+01  6.095135E-02 -1.389534E+01  9.796328E-01 -9.119735E+01 
1.934688E+03  9.605626E-01 -1.297484E+02  6.096158E-02 -1.383967E+01  6.088037E-02 -1.391250E+01  9.796013E-01 -9.122893E+01 
1.935125E+03  9.604073E-01 -1.297775E+02  6.085514E-02 -1.384315E+01  6.077809E-02 -1.393313E+01  9.794861E-01 -9.125000E+01 
1.935562E+03  9.603653E-01 -1.298166E+02  6.075367E-02 -1.380239E+01  6.070167E-02 -1.392105E+01  9.795181E-01 -9.127743E+01 
1.936000E+03  9.603060E-01 -1.298546E+02  6.067503E-02 -1.382824E+01  6.062211E-02 -1.393861E+01  9.793906E-01 -9.130802E+01 
1.936438E+03  9.603281E-01 -1.299065E+02  6.061499E-02 -1.383328E+01  6.055061E-02 -1.395596E+01  9.792729E-01 -9.133809E+01 
1.936875E+03  9.602031E-01 -1.299406E+02  6.049857E-02 -1.384613E+01  6.042916E-02 -1.397156E+01  9.790535E-01 -9.135690E+01 
1.937312E+03  9.600884E-01 -1.299656E+02  6.040807E-02 -1.386695E+01  6.035404E-02 -1.393304E+01  9.789576E-01 -9.136644E+01 
1.937750E+03  9.599947E-01 -1.300061E+02  6.030516E-02 -1.383010E+01  6.021467E-02 -1.396187E+01  9.789150E-01 -9.137907E+01 
1.938188E+03  9.598405E-01 -1.300406E+02  6.021286E-02 -1.377606E+01  6.014830E-02 -1.388834E+01  9.789012E-01 -9.140057E+01 
1.938625E+03  9.598312E-01 -1.300869E+02  6.014526E-02 -1.379707E+01  6.008539E-02 -1.388534E+01  9.789366E-01 -9.142671E+01 
1.939062E+03  9.597070E-01 -1.301249E+02  6.008265E-02 -1.376482E+01  6.001431E-02 -1.384907E+01  9.788923E-01 -9.144353E+01 
1.939500E+03  9.594493E-01 -1.301481E+02  5.999934E-02 -1.373457E+01  5.991764E-02 -1.385787E+01  9.788984E-01 -9.146520E+01 
1.939938E+03  9.592446E-01 -1.301758E+02  5.993115E-02 -1.370806E+01  5.987379E-02 -1.382983E+01  9.789307E-01 -9.148935E+01 
1.940375E+03  9.591713E-01 -1.302141E+02  5.987787E-02 -1.368018E+01  5.982949E-02 -1.382543E+01  9.788716E-01 -9.152065E+01 
1.940812E+03  9.590771E-01 -1.302554E+02  5.985554E-02 -1.369961E+01  5.979270E-02 -1.381088E+01  9.789349E-01 -9.154904E+01 
1.941250E+03  9.590082E-01 -1.302915E+02  5.984612E-02 -1.370150E+01  5.977414E-02 -1.379016E+01  9.789716E-01 -9.156726E+01 
1.941688E+03  9.589410E-01 -1.303123E+02  5.977193E-02 -1.370644E+01  5.973387E-02 -1.379736E+01  9.788708E-01 -9.158457E+01 
1.942125E+03  9.589114E-01 -1.303397E+02  5.974153E-02 -1.372652E+01  5.968772E-02 -1.382697E+01  9.788941E-01 -9.160279E+01 
1.942562E+03  9.588936E-01 -1.303849E+02  5.967633E-02 -1.376150E+01  5.960676E-02 -1.387729E+01  9.789704E-01 -9.163155E+01 
1.943000E+03  9.590051E-01 -1.304321E+02  5.962867E-02 -1.379480E+01  5.954660E-02 -1.391182E+01  9.789911E-01 -9.165385E+01 
1.943438E+03  9.590899E-01 -1.304751E+02  5.959167E-02 -1.381289E+01  5.948736E-02 -1.390432E+01  9.789838E-01 -9.167472E+01 
1.943875E+03  9.590791E-01 -1.305099E+02  5.950549E-02 -1.384008E+01  5.944512E-02 -1.396231E+01  9.789924E-01 -9.168710E+01 
1.944312E+03  9.588981E-01 -1.305457E+02  5.944050E-02 -1.386346E+01  5.937445E-02 -1.395635E+01  9.789608E-01 -9.171603E+01 
1.944750E+03  9.587923E-01 -1.305856E+02  5.933853E-02 -1.390384E+01  5.932065E-02 -1.400526E+01  9.789776E-01 -9.174689E+01 
1.945188E+03  9.586786E-01 -1.306303E+02  5.928862E-02 -1.390867E+01  5.924524E-02 -1.401910E+01  9.790787E-01 -9.177316E+01 
1.945625E+03  9.586319E-01 -1.306802E+02  5.920351E-02 -1.394756E+01  5.913613E-02 -1.408456E+01  9.791143E-01 -9.180272E+01 
1.946062E+03  9.585494E-01 -1.307157E+02  5.912083E-02 -1.397276E+01  5.904744E-02 -1.406047E+01  9.791882E-01 -9.182478E+01 
1.946500E+03  9.584149E-01 -1.307467E+02  5.908077E-02 -1.399408E+01  5.899712E-02 -1.407575E+01  9.792073E-01 -9.184887E+01 
1.946938E+03  9.583541E-01 -1.307815E+02  5.899104E-02 -1.398979E+01  5.891792E-02 -1.411316E+01  9.793088E-01 -9.187737E+01 
1.947375E+03  9.583173E-01 -1.308341E+02  5.889677E-02 -1.401801E+01  5.882390E-02 -1.416157E+01  9.792294E-01 -9.190229E+01 
1.947812E+03  9.583186E-01 -1.308766E+02  5.884881E-02 -1.403295E+01  5.874532E-02 -1.416994E+01  9.792403E-01 -9.192281E+01 
1.948250E+03  9.583203E-01 -1.309223E+02  5.873887E-02 -1.409418E+01  5.869091E-02 -1.417380E+01  9.793801E-01 -9.194573E+01 
1.948688E+03  9.582886E-01 -1.309514E+02  5.865850E-02 -1.411268E+01  5.858212E-02 -1.423810E+01  9.793128E-01 -9.197307E+01 
1.949125E+03  9.582013E-01 -1.309952E+02  5.858598E-02 -1.418139E+01  5.847709E-02 -1.429395E+01  9.792832E-01 -9.201707E+01 
1.949562E+03  9.581671E-01 -1.310363E+02  5.849133E-02 -1.418264E+01  5.840184E-02 -1.427498E+01  9.793887E-01 -9.205697E+01 
1.950000E+03  9.581384E-01 -1.310755E+02  5.840371E-02 -1.418680E+01  5.833236E-02 -1.432719E+01  9.792943E-01 -9.209788E+01 
1.950438E+03  9.580537E-01 -1.311150E+02  5.827567E-02 -1.424506E+01  5.822993E-02 -1.433111E+01  9.792970E-01 -9.212902E+01 
1.950875E+03  9.580489E-01 -1.311593E+02  5.815911E-02 -1.423069E+01  5.809485E-02 -1.439235E+01  9.792729E-01 -9.216334E+01 
1.951312E+03  9.579539E-01 -1.312095E+02  5.807095E-02 -1.426866E+01  5.801306E-02 -1.436816E+01  9.793342E-01 -9.219242E+01 
1.951750E+03  9.580197E-01 -1.312551E+02  5.796109E-02 -1.424892E+01  5.791429E-02 -1.438530E+01  9.792817E-01 -9.221614E+01 
1.952188E+03  9.580146E-01 -1.313050E+02  5.786684E-02 -1.424902E+01  5.779636E-02 -1.438625E+01  9.792595E-01 -9.223832E+01 
1.952625E+03  9.580565E-01 -1.313577E+02  5.777972E-02 -1.425335E+01  5.768357E-02 -1.435046E+01  9.790404E-01 -9.225524E+01 
1.953062E+03  9.579837E-01 -1.314026E+02  5.769117E-02 -1.425141E+01  5.760775E-02 -1.435112E+01  9.789583E-01 -9.226559E+01 
1.953500E+03  9.579030E-01 -1.314464E+02  5.759926E-02 -1.426823E+01  5.751484E-02 -1.438589E+01  9.787731E-01 -9.230081E+01 
1.953938E+03  9.577933E-01 -1.314879E+02  5.747696E-02 -1.423373E+01  5.744100E-02 -1.440523E+01  9.786781E-01 -9.236012E+01 
1.954375E+03  9.576577E-01 -1.315372E+02  5.741816E-02 -1.425496E+01  5.734515E-02 -1.440080E+01  9.786299E-01 -9.240879E+01 
1.954812E+03  9.574945E-01 -1.315865E+02  5.733444E-02 -1.429576E+01  5.728087E-02 -1.441067E+01  9.787064E-01 -9.245461E+01 
1.955250E+03  9.573690E-01 -1.316268E+02  5.723955E-02 -1.428753E+01  5.714342E-02 -1.438873E+01  9.787469E-01 -9.249122E+01 
1.955688E+03  9.571670E-01 -1.316725E+02  5.714009E-02 -1.423420E+01  5.706710E-02 -1.439791E+01  9.788215E-01 -9.250860E+01 
1.956125E+03  9.570381E-01 -1.317184E+02  5.707721E-02 -1.426121E+01  5.699404E-02 -1.437738E+01  9.788630E-01 -9.252669E+01 
1.956562E+03  9.569099E-01 -1.317708E+02  5.698913E-02 -1.428494E+01  5.689207E-02 -1.440561E+01  9.788623E-01 -9.254147E+01 
1.957000E+03  9.568397E-01 -1.318287E+02  5.688738E-02 -1.426363E+01  5.680515E-02 -1.438732E+01  9.787429E-01 -9.254649E+01 
1.957438E+03  9.566152E-01 -1.318655E+02  5.679594E-02 -1.423373E+01  5.671368E-02 -1.434039E+01  9.785592E-01 -9.253941E+01 
1.957875E+03  9.564367E-01 -1.319007E+02  5.671628E-02 -1.423099E+01  5.662955E-02 -1.435215E+01  9.783150E-01 -9.252231E+01 
1.958312E+03  9.562664E-01 -1.319375E+02  5.663239E-02 -1.422086E+01  5.656823E-02 -1.435159E+01  9.780894E-01 -9.255073E+01 
1.958750E+03  9.560599E-01 -1.319780E+02  5.657014E-02 -1.422288E+01  5.648413E-02 -1.432018E+01  9.780282E-01 -9.259990E+01 
1.959188E+03  9.559685E-01 -1.320191E+02  5.650741E-02 -1.420801E+01  5.643024E-02 -1.431652E+01  9.778809E-01 -9.264717E+01 
1.959625E+03  9.558378E-01 -1.320513E+02  5.645229E-02 -1.426166E+01  5.636537E-02 -1.435366E+01  9.778643E-01 -9.267818E+01 
1.960062E+03  9.557641E-01 -1.320847E+02  5.635993E-02 -1.425179E+01  5.630541E-02 -1.435193E+01  9.777074E-01 -9.269575E+01 
1.960500E+03  9.556102E-01 -1.321169E+02  5.629903E-02 -1.423091E+01  5.623995E-02 -1.435068E+01  9.776415E-01 -9.271392E+01 
1.960938E+03  9.556935E-01 -1.321597E+02  5.624919E-02 -1.426420E+01  5.616887E-02 -1.440372E+01  9.777681E-01 -9.272734E+01 
1.961375E+03  9.558959E-01 -1.322064E+02  5.618379E-02 -1.430284E+01  5.611198E-02 -1.444151E+01  9.779451E-01 -9.274708E+01 
1.961812E+03  9.560110E-01 -1.322609E+02  5.606889E-02 -1.432992E+01  5.599837E-02 -1.444945E+01  9.781382E-01 -9.274763E+01 
1.962250E+03  9.562001E-01 -1.322919E+02  5.602382E-02 -1.432706E+01  5.593782E-02 -1.442144E+01  9.781640E-01 -9.274606E+01 
1.962688E+03  9.563929E-01 -1.323300E+02  5.595866E-02 -1.434776E+01  5.587430E-02 -1.448387E+01  9.783271E-01 -9.274473E+01 
1.963125E+03  9.563683E-01 -1.323869E+02  5.583466E-02 -1.439939E+01  5.575681E-02 -1.450709E+01  9.784101E-01 -9.277960E+01 
1.963562E+03  9.562349E-01 -1.324496E+02  5.575797E-02 -1.439967E+01  5.567156E-02 -1.454445E+01  9.785725E-01 -9.282123E+01 
1.964000E+03  9.561252E-01 -1.325027E+02  5.570432E-02 -1.445899E+01  5.558702E-02 -1.453794E+01  9.786408E-01 -9.285365E+01 
1.964438E+03  9.560202E-01 -1.325388E+02  5.558059E-02 -1.444347E+01  5.551091E-02 -1.456224E+01  9.787301E-01 -9.288328E+01 
1.964875E+03  9.558728E-01 -1.325830E+02  5.542603E-02 -1.446290E+01  5.538311E-02 -1.458502E+01  9.786557E-01 -9.291381E+01 
1.965312E+03  9.558527E-01 -1.326281E+02  5.538821E-02 -1.446953E+01  5.532352E-02 -1.459203E+01  9.787621E-01 -9.294114E+01 
1.965750E+03  9.558341E-01 -1.326827E+02  5.530795E-02 -1.452817E+01  5.525521E-02 -1.463975E+01  9.788134E-01 -9.297186E+01 
1.966188E+03  9.559466E-01 -1.327422E+02  5.520939E-02 -1.458218E+01  5.512559E-02 -1.467515E+01  9.788317E-01 -9.300120E+01 
1.966625E+03  9.559092E-01 -1.327826E+02  5.509222E-02 -1.453015E+01  5.500773E-02 -1.465226E+01  9.788240E-01 -9.301634E+01 
1.967062E+03  9.559608E-01 -1.328148E+02  5.503423E-02 -1.452610E+01  5.497175E-02 -1.466739E+01  9.788017E-01 -9.303652E+01 
1.967500E+03  9.560656E-01 -1.328595E+02  5.494796E-02 -1.461266E+01  5.488385E-02 -1.472722E+01  9.787844E-01 -9.305740E+01 
1.967938E+03  9.559550E-01 -1.329325E+02  5.477257E-02 -1.466640E+01  5.471585E-02 -1.478564E+01  9.788707E-01 -9.310249E+01 
1.968375E+03  9.557755E-01 -1.330016E+02  5.467241E-02 -1.462622E+01  5.461010E-02 -1.477001E+01  9.788274E-01 -9.314555E+01 
1.968812E+03  9.556550E-01 -1.330520E+02  5.462068E-02 -1.468259E+01  5.452516E-02 -1.479791E+01  9.786987E-01 -9.317834E+01 
1.969250E+03  9.555606E-01 -1.331036E+02  5.449648E-02 -1.476619E+01  5.441748E-02 -1.489737E+01  9.786125E-01 -9.321322E+01 
1.969688E+03  9.554829E-01 -1.331542E+02  5.432083E-02 -1.473996E+01  5.422260E-02 -1.489823E+01  9.786284E-01 -9.324294E+01 
1.970125E+03  9.553085E-01 -1.332067E+02  5.423546E-02 -1.470204E+01  5.412929E-02 -1.484576E+01  9.785077E-01 -9.328143E+01 
1.970562E+03  9.553123E-01 -1.332372E+02  5.416005E-02 -1.473556E+01  5.407067E-02 -1.485841E+01  9.783466E-01 -9.330196E+01 
1.971000E+03  9.553386E-01 -1.332666E+02  5.401109E-02 -1.474663E+01  5.394022E-02 -1.488787E+01  9.783574E-01 -9.331228E+01 
1.971438E+03  9.553084E-01 -1.332984E+02  5.386429E-02 -1.470314E+01  5.378779E-02 -1.484605E+01  9.782119E-01 -9.333444E+01 
1.971875E+03  9.554169E-01 -1.333190E+02  5.380114E-02 -1.464705E+01  5.371463E-02 -1.475471E+01  9.781172E-01 -9.334637E+01 
1.972312E+03  9.556346E-01 -1.333528E+02  5.375742E-02 -1.469099E+01  5.364072E-02 -1.479499E+01  9.781176E-01 -9.336267E+01 
1.972750E+03  9.555911E-01 -1.334073E+02  5.356276E-02 -1.473045E+01  5.350370E-02 -1.485303E+01  9.780379E-01 -9.339866E+01 
1.973188E+03  9.554514E-01 -1.334545E+02  5.343467E-02 -1.467027E+01  5.334167E-02 -1.476796E+01  9.779018E-01 -9.341973E+01 
1.973625E+03  9.553124E-01 -1.334941E+02  5.333435E-02 -1.461369E+01  5.329224E-02 -1.475469E+01  9.777601E-01 -9.345311E+01 
1.974062E+03  9.553397E-01 -1.335361E+02  5.325853E-02 -1.465837E+01  5.319725E-02 -1.478402E+01  9.776829E-01 -9.346936E+01 
1.974500E+03  9.554388E-01 -1.335961E+02  5.310277E-02 -1.467102E+01  5.305099E-02 -1.476030E+01  9.776697E-01 -9.350221E+01 
1.974938E+03  9.553241E-01 -1.336432E+02  5.297794E-02 -1.462767E+01  5.292644E-02 -1.469961E+01  9.776321E-01 -9.352807E+01 
1.975375E+03  9.552589E-01 -1.336911E+02  5.292139E-02 -1.458631E+01  5.286430E-02 -1.469682E+01  9.776150E-01 -9.353922E+01 
1.975812E+03  9.552823E-01 -1.337264E+02  5.285307E-02 -1.459659E+01  5.279664E-02 -1.468862E+01  9.775467E-01 -9.355695E+01 
1.976250E+03  9.552590E-01 -1.337773E+02  5.274109E-02 -1.457761E+01  5.265410E-02 -1.465951E+01  9.777095E-01 -9.357724E+01 
1.976688E+03  9.552388E-01 -1.338213E+02  5.264939E-02 -1.447430E+01  5.258866E-02 -1.458282E+01  9.777679E-01 -9.359899E+01 
1.977125E+03  9.552666E-01 -1.338680E+02  5.259995E-02 -1.447351E+01  5.255849E-02 -1.458334E+01  9.777875E-01 -9.362394E+01 
1.977562E+03  9.550888E-01 -1.339121E+02  5.254175E-02 -1.449154E+01  5.249226E-02 -1.458398E+01  9.778169E-01 -9.365103E+01 
1.978000E+03  9.549693E-01 -1.339560E+02  5.244933E-02 -1.452168E+01  5.237379E-02 -1.458305E+01  9.778204E-01 -9.366828E+01 
1.978438E+03  9.548501E-01 -1.340011E+02  5.236095E-02 -1.447626E+01  5.228963E-02 -1.457710E+01  9.778634E-01 -9.369956E+01 
1.978875E+03  9.547466E-01 -1.340381E+02  5.231046E-02 -1.447089E+01  5.227593E-02 -1.460517E+01  9.778483E-01 -9.373288E+01 
1.979312E+03  9.547716E-01 -1.340868E+02  5.228559E-02 -1.455491E+01  5.219135E-02 -1.467616E+01  9.779201E-01 -9.376843E+01 
1.979750E+03  9.548464E-01 -1.341372E+02  5.212961E-02 -1.460632E+01  5.203842E-02 -1.468539E+01  9.779468E-01 -9.379129E+01 
1.980188E+03  9.547111E-01 -1.341716E+02  5.203219E-02 -1.454759E+01  5.195279E-02 -1.468097E+01  9.779998E-01 -9.380955E+01 
1.980625E+03  9.547033E-01 -1.342070E+02  5.194914E-02 -1.457991E+01  5.187829E-02 -1.469348E+01  9.780823E-01 -9.382994E+01 
1.981062E+03  9.546903E-01 -1.342467E+02  5.183312E-02 -1.460223E+01  5.176283E-02 -1.472863E+01  9.781448E-01 -9.386077E+01 
1.981500E+03  9.547929E-01 -1.342953E+02  5.174240E-02 -1.462261E+01  5.166474E-02 -1.474068E+01  9.782741E-01 -9.389869E+01 
1.981938E+03  9.546939E-01 -1.343159E+02  5.158798E-02 -1.459011E+01  5.153691E-02 -1.466115E+01  9.782649E-01 -9.390344E+01 
1.982375E+03  9.545983E-01 -1.342901E+02  5.152959E-02 -1.446942E+01  5.147712E-02 -1.461341E+01  9.782565E-01 -9.386773E+01 
1.982812E+03  9.539451E-01 -1.348593E+02  5.145640E-02 -1.516425E+01  5.140464E-02 -1.515992E+01  9.790209E-01 -9.447995E+01 
1.983250E+03  9.540919E-01 -1.348419E+02  5.139000E-02 -1.512775E+01  5.131234E-02 -1.511243E+01  9.788430E-01 -9.446165E+01 
1.983688E+03  9.541255E-01 -1.348278E+02  5.126450E-02 -1.510221E+01  5.119340E-02 -1.507677E+01  9.787296E-01 -9.444255E+01 
1.984125E+03  9.543450E-01 -1.348182E+02  5.117261E-02 -1.502697E+01  5.110084E-02 -1.503774E+01  9.786057E-01 -9.441641E+01 
1.984562E+03  9.544725E-01 -1.347863E+02  5.108416E-02 -1.499827E+01  5.101167E-02 -1.499545E+01  9.783415E-01 -9.437602E+01 
1.985000E+03  9.547488E-01 -1.347671E+02  5.097518E-02 -1.491903E+01  5.092267E-02 -1.498415E+01  9.781641E-01 -9.434212E+01 
1.985438E+03  9.548827E-01 -1.347492E+02  5.085803E-02 -1.487408E+01  5.079517E-02 -1.499865E+01  9.779352E-01 -9.431393E+01 
1.985875E+03  9.551401E-01 -1.347415E+02  5.073047E-02 -1.480695E+01  5.069350E-02 -1.492408E+01  9.777894E-01 -9.427921E+01 
1.986312E+03  9.552503E-01 -1.347383E+02  5.062434E-02 -1.478015E+01  5.056314E-02 -1.488517E+01  9.776331E-01 -9.425404E+01 
1.986750E+03  9.551592E-01 -1.347564E+02  5.048421E-02 -1.477264E+01  5.044200E-02 -1.487247E+01  9.775617E-01 -9.425659E+01 
1.987188E+03  9.551702E-01 -1.348006E+02  5.036111E-02 -1.479105E+01  5.033179E-02 -1.488213E+01  9.773599E-01 -9.427796E+01 
1.987625E+03  9.551523E-01 -1.348458E+02  5.020440E-02 -1.477224E+01  5.017071E-02 -1.488549E+01  9.772858E-01 -9.431112E+01 
1.988062E+03  9.551740E-01 -1.348974E+02  5.011690E-02 -1.479769E+01  5.003562E-02 -1.486939E+01  9.771629E-01 -9.433967E+01 
1.988500E+03  9.550892E-01 -1.349425E+02  4.999061E-02 -1.480333E+01  4.991836E-02 -1.491353E+01  9.771085E-01 -9.436127E+01 
1.988938E+03  9.551350E-01 -1.349868E+02  4.985728E-02 -1.482006E+01  4.974986E-02 -1.492109E+01  9.769606E-01 -9.438907E+01 
1.989375E+03  9.551011E-01 -1.350304E+02  4.971148E-02 -1.478922E+01  4.962578E-02 -1.490814E+01  9.769011E-01 -9.440478E+01 
1.989812E+03  9.551104E-01 -1.350683E+02  4.959209E-02 -1.473670E+01  4.950878E-02 -1.485314E+01  9.768019E-01 -9.442004E+01 
1.990250E+03  9.550458E-01 -1.351077E+02  4.942432E-02 -1.474376E+01  4.939532E-02 -1.484947E+01  9.766959E-01 -9.444456E+01 
1.990688E+03  9.550290E-01 -1.351498E+02  4.932661E-02 -1.468587E+01  4.927084E-02 -1.481523E+01  9.767222E-01 -9.446224E+01 
1.991125E+03  9.549989E-01 -1.351865E+02  4.920115E-02 -1.466457E+01  4.915844E-02 -1.478042E+01  9.766862E-01 -9.448039E+01 
1.991562E+03  9.549461E-01 -1.352268E+02  4.905956E-02 -1.464880E+01  4.904205E-02 -1.476576E+01  9.766512E-01 -9.450053E+01 
1.992000E+03  9.547877E-01 -1.352681E+02  4.894757E-02 -1.464586E+01  4.889682E-02 -1.470557E+01  9.766753E-01 -9.452089E+01 
1.992438E+03  9.545999E-01 -1.353106E+02  4.880069E-02 -1.462364E+01  4.873134E-02 -1.468625E+01  9.766324E-01 -9.453464E+01 
1.992875E+03  9.544767E-01 -1.353466E+02  4.865096E-02 -1.452734E+01  4.862269E-02 -1.462886E+01  9.767528E-01 -9.456328E+01 
1.993312E+03  9.542568E-01 -1.353851E+02  4.855389E-02 -1.440160E+01  4.851666E-02 -1.455559E+01  9.768675E-01 -9.458870E+01 
1.993750E+03  9.541827E-01 -1.354129E+02  4.845484E-02 -1.440125E+01  4.842557E-02 -1.446841E+01  9.769905E-01 -9.462117E+01 
1.994188E+03  9.540770E-01 -1.354449E+02  4.838007E-02 -1.431899E+01  4.834423E-02 -1.441980E+01  9.771427E-01 -9.464677E+01 
1.994625E+03  9.540188E-01 -1.354708E+02  4.830269E-02 -1.425073E+01  4.827461E-02 -1.433198E+01  9.771905E-01 -9.467328E+01 
1.995062E+03  9.540041E-01 -1.354911E+02  4.825767E-02 -1.417772E+01  4.824758E-02 -1.425620E+01  9.772896E-01 -9.469405E+01 
1.995500E+03  9.541330E-01 -1.355131E+02  4.821020E-02 -1.419624E+01  4.820724E-02 -1.427315E+01  9.773138E-01 -9.472503E+01 
1.995938E+03  9.543155E-01 -1.355360E+02  4.815063E-02 -1.417336E+01  4.815639E-02 -1.428194E+01  9.773759E-01 -9.475345E+01 
1.996375E+03  9.544002E-01 -1.355803E+02  4.807631E-02 -1.418989E+01  4.804572E-02 -1.428219E+01  9.774893E-01 -9.478856E+01 
1.996812E+03  9.544604E-01 -1.356112E+02  4.801563E-02 -1.417105E+01  4.798182E-02 -1.428538E+01  9.775245E-01 -9.482426E+01 
1.997250E+03  9.545083E-01 -1.356557E+02  4.793307E-02 -1.423036E+01  4.791486E-02 -1.432434E+01  9.774963E-01 -9.485306E+01 
1.997688E+03  9.546172E-01 -1.356863E+02  4.782438E-02 -1.423011E+01  4.782810E-02 -1.433770E+01  9.775591E-01 -9.487941E+01 
1.998125E+03  9.546763E-01 -1.357171E+02  4.774690E-02 -1.421549E+01  4.775576E-02 -1.435211E+01  9.775545E-01 -9.491421E+01 
1.998562E+03  9.547340E-01 -1.357570E+02  4.766129E-02 -1.428339E+01  4.763341E-02 -1.436378E+01  9.776192E-01 -9.494281E+01 
1.999000E+03  9.548019E-01 -1.357968E+02  4.756026E-02 -1.432896E+01  4.753053E-02 -1.440771E+01  9.776599E-01 -9.498550E+01 
1.999438E+03  9.548600E-01 -1.358400E+02  4.745232E-02 -1.434102E+01  4.740946E-02 -1.441017E+01  9.775476E-01 -9.501260E+01 
