! Matrix data file written by TouchstoneData, EPCOS AG
! FILENAME: "B3403_WB.s2p"
! COMMENT: "PCB2023"
! INFO: nport=2, nfreq=1601
! DATE: "Thu Jan 16 2014"
! USER: "Hiroshi Tanaka"
!
! port | pin | signal
! -----|-----|--------
!   1  |  1  |  in
!   2  |  4  |  out
! --------------------
! 
# MHZ S MA R 50
! freq  magS11 angS11  magS21 angS21  magS12 angS12  magS22 angS22
  1.000000E+01    9.936953E-01  -1.367505E+00    1.878237E-05  -1.035199E+02    1.878237E-05  -1.035199E+02    9.944708E-01  -1.428712E+00 
  1.186875E+01    9.936953E-01  -1.828977E+00    1.812615E-04   1.654540E+02    1.812615E-04   1.654540E+02    9.944708E-01  -1.863195E+00 
  1.373750E+01    9.916253E-01  -2.254660E+00    7.102419E-05  -1.061188E+01    7.102419E-05  -1.061188E+01    9.941767E-01  -2.012687E+00 
  1.560625E+01    9.946444E-01  -2.443358E+00    6.745526E-05  -9.719022E+01    6.745526E-05  -9.719022E+01    9.978286E-01  -2.162828E+00 
  1.747500E+01    9.928291E-01  -2.645954E+00    6.782599E-05   2.268930E+01    6.782599E-05   2.268930E+01    9.982108E-01  -2.308582E+00 
  1.934375E+01    9.924014E-01  -2.900413E+00    2.092937E-04   1.666068E+02    2.092937E-04   1.666068E+02    9.983404E-01  -2.508848E+00 
  2.121250E+01    9.932938E-01  -3.263935E+00    3.714063E-05   1.444604E+01    3.714063E-05   1.444604E+01    9.999882E-01  -2.838978E+00 
  2.308125E+01    9.933344E-01  -3.520429E+00    3.579386E-05  -1.224536E+02    3.579386E-05  -1.224536E+02    9.999753E-01  -3.168500E+00 
  2.495000E+01    9.922150E-01  -3.708570E+00    1.872315E-05   1.429005E+02    1.872315E-05   1.429005E+02    9.981648E-01  -3.444842E+00 
  2.681875E+01    9.936614E-01  -4.003576E+00    1.499553E-04   1.074132E+02    1.499553E-04   1.074132E+02    9.994824E-01  -3.712763E+00 
  2.868750E+01    9.938021E-01  -3.904133E+00    1.597285E-04   5.741143E+01    1.597285E-04   5.741143E+01    9.979121E-01  -3.959437E+00 
  3.055625E+01    9.972245E-01  -4.587799E+00    1.248270E-04   1.733585E+01    1.248270E-04   1.733585E+01    9.982778E-01  -4.117595E+00 
  3.242500E+01    9.948404E-01  -4.707249E+00    1.161819E-04   3.270982E+01    1.161819E-04   3.270982E+01    9.986656E-01  -4.417568E+00 
  3.429375E+01    9.945828E-01  -5.099413E+00    1.000797E-04   9.463145E+01    1.000797E-04   9.463145E+01    9.984364E-01  -4.806053E+00 
  3.616250E+01    9.964532E-01  -5.488995E+00    7.447190E-05   2.693180E+01    7.447190E-05   2.693180E+01    9.974161E-01  -5.013400E+00 
  3.803125E+01    9.981791E-01  -5.700951E+00    4.121482E-05   9.631449E+01    4.121482E-05   9.631449E+01    9.990446E-01  -5.284429E+00 
  3.990000E+01    9.967447E-01  -6.019867E+00    1.346977E-04   1.015471E+02    1.346977E-04   1.015471E+02    9.986640E-01  -5.715389E+00 
  4.176875E+01    9.971125E-01  -6.328949E+00    1.090117E-04   2.433869E+01    1.090117E-04   2.433869E+01    9.983348E-01  -5.940449E+00 
  4.363750E+01    9.964279E-01  -6.563992E+00    8.055191E-05   6.302463E+01    8.055191E-05   6.302463E+01    9.980098E-01  -6.148350E+00 
  4.550625E+01    9.965508E-01  -6.868990E+00    7.594762E-05   7.708426E+01    7.594762E-05   7.708426E+01    9.980655E-01  -6.461566E+00 
  4.737500E+01    9.963203E-01  -7.119351E+00    1.239527E-04   2.861835E+01    1.239527E-04   2.861835E+01    9.974756E-01  -6.652214E+00 
  4.924375E+01    9.952812E-01  -7.319706E+00    1.034406E-04   8.968645E+01    1.034406E-04   8.968645E+01    9.964617E-01  -6.837197E+00 
  5.111250E+01    9.949542E-01  -7.608522E+00    7.435539E-05   3.754766E+01    7.435539E-05   3.754766E+01    9.960953E-01  -7.102869E+00 
  5.298125E+01    9.954270E-01  -7.954143E+00    8.122635E-05   1.092019E+02    8.122635E-05   1.092019E+02    9.969469E-01  -7.436577E+00 
  5.485000E+01    9.954854E-01  -8.205608E+00    9.332433E-05   1.163484E+02    9.332433E-05   1.163484E+02    9.968967E-01  -7.669503E+00 
  5.671875E+01    9.950220E-01  -8.502409E+00    1.357345E-04   8.582922E+01    1.357345E-04   8.582922E+01    9.963177E-01  -7.926233E+00 
  5.858750E+01    9.953584E-01  -8.759270E+00    1.104802E-04   9.421301E+01    1.104802E-04   9.421301E+01    9.967967E-01  -8.203497E+00 
  6.045625E+01    9.949873E-01  -9.023477E+00    8.728899E-05   2.532788E+01    8.728899E-05   2.532788E+01    9.967706E-01  -8.464553E+00 
  6.232500E+01    9.947983E-01  -9.297379E+00    6.028982E-05   7.263635E+01    6.028982E-05   7.263635E+01    9.966368E-01  -8.732376E+00 
  6.419375E+01    9.944792E-01  -9.541076E+00    1.024893E-04   7.162191E+01    1.024893E-04   7.162191E+01    9.967656E-01  -8.953542E+00 
  6.606250E+01    9.938638E-01  -9.803939E+00    1.181814E-04   1.082296E+02    1.181814E-04   1.082296E+02    9.969992E-01  -9.214007E+00 
  6.793125E+01    9.933170E-01  -1.010172E+01    1.291271E-04   8.008940E+01    1.291271E-04   8.008940E+01    9.962465E-01  -9.477301E+00 
  6.980000E+01    9.930617E-01  -1.040993E+01    9.962906E-05   8.645034E+01    9.962906E-05   8.645034E+01    9.971196E-01  -9.807038E+00 
  7.166875E+01    9.926833E-01  -1.064577E+01    1.368262E-04   4.591246E+01    1.368262E-04   4.591246E+01    9.967770E-01  -1.002733E+01 
  7.353750E+01    9.918988E-01  -1.087664E+01    8.525693E-05   9.565881E+01    8.525693E-05   9.565881E+01    9.962406E-01  -1.026424E+01 
  7.540625E+01    9.907615E-01  -1.112905E+01    1.206919E-04   9.430132E+01    1.206919E-04   9.430132E+01    9.954766E-01  -1.049763E+01 
  7.727500E+01    9.908016E-01  -1.140623E+01    1.396145E-04   8.158101E+01    1.396145E-04   8.158101E+01    9.961043E-01  -1.073179E+01 
  7.914375E+01    9.909618E-01  -1.165628E+01    1.491034E-04   9.320370E+01    1.491034E-04   9.320370E+01    9.960182E-01  -1.097779E+01 
  8.101250E+01    9.901304E-01  -1.192722E+01    9.163369E-05   6.993713E+01    9.163369E-05   6.993713E+01    9.963511E-01  -1.123474E+01 
  8.288125E+01    9.894907E-01  -1.218509E+01    6.669542E-05   4.027998E+01    6.669542E-05   4.027998E+01    9.961610E-01  -1.145627E+01 
  8.475000E+01    9.888215E-01  -1.243388E+01    1.136953E-04   7.461329E+01    1.136953E-04   7.461329E+01    9.958866E-01  -1.169580E+01 
  8.661875E+01    9.883762E-01  -1.271123E+01    9.047038E-05   7.286897E+01    9.047038E-05   7.286897E+01    9.960770E-01  -1.197488E+01 
  8.848750E+01    9.873886E-01  -1.296136E+01    1.305552E-04   7.511723E+01    1.305552E-04   7.511723E+01    9.959010E-01  -1.219341E+01 
  9.035625E+01    9.870580E-01  -1.321644E+01    1.698617E-04   8.098226E+01    1.698617E-04   8.098226E+01    9.958472E-01  -1.246246E+01 
  9.222500E+01    9.862010E-01  -1.350817E+01    1.138026E-04   6.278143E+01    1.138026E-04   6.278143E+01    9.955285E-01  -1.277876E+01 
  9.409375E+01    9.856263E-01  -1.373393E+01    1.268171E-04   7.187722E+01    1.268171E-04   7.187722E+01    9.950453E-01  -1.303443E+01 
  9.596250E+01    9.858395E-01  -1.397852E+01    6.434412E-05   8.134512E+01    6.434412E-05   8.134512E+01    9.960820E-01  -1.322402E+01 
  9.783125E+01    9.862177E-01  -1.421801E+01    1.493669E-04   7.356911E+01    1.493669E-04   7.356911E+01    9.965071E-01  -1.345800E+01 
  9.970000E+01    9.855428E-01  -1.447977E+01    8.875076E-05   8.800438E+01    8.875076E-05   8.800438E+01    9.958529E-01  -1.371498E+01 
  1.015687E+02    9.849154E-01  -1.473679E+01    1.416432E-04   8.062795E+01    1.416432E-04   8.062795E+01    9.958723E-01  -1.396191E+01 
  1.034375E+02    9.844518E-01  -1.497439E+01    2.525428E-04   6.481048E+01    2.525428E-04   6.481048E+01    9.956083E-01  -1.418072E+01 
  1.053063E+02    9.846663E-01  -1.525870E+01    1.316853E-04   6.811132E+01    1.316853E-04   6.811132E+01    9.960509E-01  -1.445099E+01 
  1.071750E+02    9.845355E-01  -1.555390E+01    1.351653E-04   6.703694E+01    1.351653E-04   6.703694E+01    9.960184E-01  -1.471220E+01 
  1.090438E+02    9.842783E-01  -1.581725E+01    1.519567E-04   6.018559E+01    1.519567E-04   6.018559E+01    9.958734E-01  -1.497083E+01 
  1.109125E+02    9.842735E-01  -1.606436E+01    1.873022E-04   1.028205E+02    1.873022E-04   1.028205E+02    9.961287E-01  -1.523413E+01 
  1.127812E+02    9.839404E-01  -1.629209E+01    1.886312E-04   7.889645E+01    1.886312E-04   7.889645E+01    9.951196E-01  -1.544578E+01 
  1.146500E+02    9.845364E-01  -1.658727E+01    1.388555E-04   7.048122E+01    1.388555E-04   7.048122E+01    9.958648E-01  -1.573359E+01 
  1.165187E+02    9.848006E-01  -1.683555E+01    1.460289E-04   7.589263E+01    1.460289E-04   7.589263E+01    9.957969E-01  -1.597561E+01 
  1.183875E+02    9.850664E-01  -1.711473E+01    1.478455E-04   7.666064E+01    1.478455E-04   7.666064E+01    9.960203E-01  -1.622876E+01 
  1.202562E+02    9.852218E-01  -1.740458E+01    1.537199E-04   5.429781E+01    1.537199E-04   5.429781E+01    9.960273E-01  -1.650366E+01 
  1.221250E+02    9.846494E-01  -1.766774E+01    1.670972E-04   8.057582E+01    1.670972E-04   8.057582E+01    9.951110E-01  -1.672764E+01 
  1.239938E+02    9.855325E-01  -1.796179E+01    1.825834E-04   7.021551E+01    1.825834E-04   7.021551E+01    9.955186E-01  -1.702236E+01 
  1.258625E+02    9.860535E-01  -1.820318E+01    2.104009E-04   7.934858E+01    2.104009E-04   7.934858E+01    9.955236E-01  -1.723440E+01 
  1.277313E+02    9.862981E-01  -1.847439E+01    1.596858E-04   7.134466E+01    1.596858E-04   7.134466E+01    9.954947E-01  -1.749372E+01 
  1.296000E+02    9.871324E-01  -1.876118E+01    1.684804E-04   6.542486E+01    1.684804E-04   6.542486E+01    9.961188E-01  -1.773060E+01 
  1.314688E+02    9.874742E-01  -1.900166E+01    1.330393E-04   6.623509E+01    1.330393E-04   6.623509E+01    9.958274E-01  -1.794727E+01 
  1.333375E+02    9.874543E-01  -1.933360E+01    1.473967E-04   6.098810E+01    1.473967E-04   6.098810E+01    9.953876E-01  -1.826715E+01 
  1.352063E+02    9.882664E-01  -1.959608E+01    1.927723E-04   6.988047E+01    1.927723E-04   6.988047E+01    9.956615E-01  -1.853074E+01 
  1.370750E+02    9.885284E-01  -1.982410E+01    1.485172E-04   7.452752E+01    1.485172E-04   7.452752E+01    9.958813E-01  -1.872966E+01 
  1.389437E+02    9.883524E-01  -2.013101E+01    2.128089E-04   5.409650E+01    2.128089E-04   5.409650E+01    9.951179E-01  -1.900086E+01 
  1.408125E+02    9.887631E-01  -2.040692E+01    1.850069E-04   6.654587E+01    1.850069E-04   6.654587E+01    9.948674E-01  -1.925894E+01 
  1.426813E+02    9.893850E-01  -2.071136E+01    1.818410E-04   7.031772E+01    1.818410E-04   7.031772E+01    9.949833E-01  -1.951840E+01 
  1.445500E+02    9.895360E-01  -2.101494E+01    1.880453E-04   6.353888E+01    1.880453E-04   6.353888E+01    9.951061E-01  -1.978274E+01 
  1.464187E+02    9.894614E-01  -2.129338E+01    2.062324E-04   7.149344E+01    2.062324E-04   7.149344E+01    9.948221E-01  -2.002542E+01 
  1.482875E+02    9.894592E-01  -2.158923E+01    1.933078E-04   7.973510E+01    1.933078E-04   7.973510E+01    9.946351E-01  -2.028070E+01 
  1.501562E+02    9.895960E-01  -2.188383E+01    2.270985E-04   6.879673E+01    2.270985E-04   6.879673E+01    9.935744E-01  -2.053697E+01 
  1.520250E+02    9.903344E-01  -2.216341E+01    1.722434E-04   6.677893E+01    1.722434E-04   6.677893E+01    9.942875E-01  -2.082403E+01 
  1.538938E+02    9.906446E-01  -2.245444E+01    1.590080E-04   6.226166E+01    1.590080E-04   6.226166E+01    9.945532E-01  -2.107484E+01 
  1.557625E+02    9.905630E-01  -2.275432E+01    1.788895E-04   5.947779E+01    1.788895E-04   5.947779E+01    9.944295E-01  -2.134834E+01 
  1.576312E+02    9.900472E-01  -2.304213E+01    1.408849E-04   6.476041E+01    1.408849E-04   6.476041E+01    9.939718E-01  -2.162986E+01 
  1.595000E+02    9.898539E-01  -2.331781E+01    1.819807E-04   6.690417E+01    1.819807E-04   6.690417E+01    9.929038E-01  -2.186735E+01 
  1.613688E+02    9.904871E-01  -2.357039E+01    2.033435E-04   7.327410E+01    2.033435E-04   7.327410E+01    9.940224E-01  -2.214859E+01 
  1.632375E+02    9.899469E-01  -2.386646E+01    1.634498E-04   6.574775E+01    1.634498E-04   6.574775E+01    9.937460E-01  -2.239075E+01 
  1.651062E+02    9.897346E-01  -2.417081E+01    2.186485E-04   6.754897E+01    2.186485E-04   6.754897E+01    9.934790E-01  -2.264560E+01 
  1.669750E+02    9.895254E-01  -2.445857E+01    1.422028E-04   8.114510E+01    1.422028E-04   8.114510E+01    9.935051E-01  -2.293697E+01 
  1.688438E+02    9.883209E-01  -2.475651E+01    2.011852E-04   7.475524E+01    2.011852E-04   7.475524E+01    9.922103E-01  -2.320355E+01 
  1.707125E+02    9.881617E-01  -2.501822E+01    1.897413E-04   6.380617E+01    1.897413E-04   6.380617E+01    9.921010E-01  -2.348548E+01 
  1.725813E+02    9.878754E-01  -2.524703E+01    1.748422E-04   6.738464E+01    1.748422E-04   6.738464E+01    9.925759E-01  -2.369505E+01 
  1.744500E+02    9.872393E-01  -2.549709E+01    1.903119E-04   4.605172E+01    1.903119E-04   4.605172E+01    9.923785E-01  -2.391328E+01 
  1.763187E+02    9.875003E-01  -2.580727E+01    2.198888E-04   6.844787E+01    2.198888E-04   6.844787E+01    9.929303E-01  -2.422655E+01 
  1.781875E+02    9.876225E-01  -2.617445E+01    1.951159E-04   5.147934E+01    1.951159E-04   5.147934E+01    9.933542E-01  -2.462364E+01 
  1.800563E+02    9.868976E-01  -2.638878E+01    1.751261E-04   6.726949E+01    1.751261E-04   6.726949E+01    9.926875E-01  -2.483285E+01 
  1.819250E+02    9.860389E-01  -2.662064E+01    1.869117E-04   7.153249E+01    1.869117E-04   7.153249E+01    9.923125E-01  -2.506707E+01 
  1.837937E+02    9.856743E-01  -2.684614E+01    1.965669E-04   6.529471E+01    1.965669E-04   6.529471E+01    9.923620E-01  -2.530834E+01 
  1.856625E+02    9.854789E-01  -2.714955E+01    1.852476E-04   6.470098E+01    1.852476E-04   6.470098E+01    9.925446E-01  -2.559234E+01 
  1.875312E+02    9.860817E-01  -2.742675E+01    1.874461E-04   6.981977E+01    1.874461E-04   6.981977E+01    9.928852E-01  -2.583852E+01 
  1.894000E+02    9.858519E-01  -2.771643E+01    1.909091E-04   6.134749E+01    1.909091E-04   6.134749E+01    9.931246E-01  -2.612710E+01 
  1.912688E+02    9.845769E-01  -2.802229E+01    2.056002E-04   6.605931E+01    2.056002E-04   6.605931E+01    9.923398E-01  -2.646622E+01 
  1.931375E+02    9.826401E-01  -2.825049E+01    1.753407E-04   5.916307E+01    1.753407E-04   5.916307E+01    9.905582E-01  -2.672157E+01 
  1.950062E+02    9.820692E-01  -2.856959E+01    2.276019E-04   5.523045E+01    2.276019E-04   5.523045E+01    9.906549E-01  -2.703452E+01 
  1.968750E+02    9.829326E-01  -2.889243E+01    1.937223E-04   5.500545E+01    1.937223E-04   5.500545E+01    9.918798E-01  -2.733365E+01 
  1.987438E+02    9.829212E-01  -2.917328E+01    1.661113E-04   6.344324E+01    1.661113E-04   6.344324E+01    9.920617E-01  -2.761936E+01 
  2.006125E+02    9.826085E-01  -2.942735E+01    1.970012E-04   5.831180E+01    1.970012E-04   5.831180E+01    9.920444E-01  -2.788844E+01 
  2.024812E+02    9.813136E-01  -2.977939E+01    2.070254E-04   7.603046E+01    2.070254E-04   7.603046E+01    9.919289E-01  -2.821698E+01 
  2.043500E+02    9.809828E-01  -3.007194E+01    1.511702E-04   6.408389E+01    1.511702E-04   6.408389E+01    9.915398E-01  -2.853907E+01 
  2.062188E+02    9.806181E-01  -3.030680E+01    1.851862E-04   6.996521E+01    1.851862E-04   6.996521E+01    9.911128E-01  -2.878488E+01 
  2.080875E+02    9.805081E-01  -3.052585E+01    1.894352E-04   5.733844E+01    1.894352E-04   5.733844E+01    9.908716E-01  -2.905320E+01 
  2.099563E+02    9.814202E-01  -3.085607E+01    1.698361E-04   6.531886E+01    1.698361E-04   6.531886E+01    9.914328E-01  -2.934265E+01 
  2.118250E+02    9.821442E-01  -3.111930E+01    2.293813E-04   5.588743E+01    2.293813E-04   5.588743E+01    9.918842E-01  -2.968154E+01 
  2.136937E+02    9.820698E-01  -3.149159E+01    1.546108E-04   5.033418E+01    1.546108E-04   5.033418E+01    9.918728E-01  -3.002075E+01 
  2.155625E+02    9.817941E-01  -3.188521E+01    2.129802E-04   6.713637E+01    2.129802E-04   6.713637E+01    9.913636E-01  -3.034387E+01 
  2.174313E+02    9.815564E-01  -3.221406E+01    1.824602E-04   5.690945E+01    1.824602E-04   5.690945E+01    9.905169E-01  -3.065490E+01 
  2.193000E+02    9.807312E-01  -3.245667E+01    1.706963E-04   5.859991E+01    1.706963E-04   5.859991E+01    9.907544E-01  -3.091841E+01 
  2.211687E+02    9.807205E-01  -3.280458E+01    1.862413E-04   5.566026E+01    1.862413E-04   5.566026E+01    9.900353E-01  -3.120517E+01 
  2.230375E+02    9.814147E-01  -3.314991E+01    1.742816E-04   5.457137E+01    1.742816E-04   5.457137E+01    9.908202E-01  -3.155180E+01 
  2.249062E+02    9.822355E-01  -3.346468E+01    1.581088E-04   5.635731E+01    1.581088E-04   5.635731E+01    9.921208E-01  -3.189612E+01 
  2.267750E+02    9.822692E-01  -3.382082E+01    1.808979E-04   5.289815E+01    1.808979E-04   5.289815E+01    9.922443E-01  -3.225033E+01 
  2.286438E+02    9.813996E-01  -3.421656E+01    1.281589E-04   4.898844E+01    1.281589E-04   4.898844E+01    9.908042E-01  -3.258650E+01 
  2.305125E+02    9.809565E-01  -3.458080E+01    1.838190E-04   4.488798E+01    1.838190E-04   4.488798E+01    9.896313E-01  -3.290217E+01 
  2.323812E+02    9.813784E-01  -3.495773E+01    2.019509E-04   6.074080E+01    2.019509E-04   6.074080E+01    9.900437E-01  -3.329845E+01 
  2.342500E+02    9.824957E-01  -3.526918E+01    1.737630E-04   6.175404E+01    1.737630E-04   6.175404E+01    9.905484E-01  -3.358558E+01 
  2.361188E+02    9.827212E-01  -3.566153E+01    2.188597E-04   5.011092E+01    2.188597E-04   5.011092E+01    9.900610E-01  -3.393943E+01 
  2.379875E+02    9.831806E-01  -3.619808E+01    1.931261E-04   5.034975E+01    1.931261E-04   5.034975E+01    9.904073E-01  -3.446794E+01 
  2.398562E+02    9.829955E-01  -3.641512E+01    1.546901E-04   5.334019E+01    1.546901E-04   5.334019E+01    9.892938E-01  -3.467634E+01 
  2.417250E+02    9.823197E-01  -3.686125E+01    1.488511E-04   5.256944E+01    1.488511E-04   5.256944E+01    9.883396E-01  -3.514488E+01 
  2.435938E+02    9.801640E-01  -3.714225E+01    1.388118E-04   5.732142E+01    1.388118E-04   5.732142E+01    9.862213E-01  -3.541625E+01 
  2.454625E+02    9.832244E-01  -3.744143E+01    1.249874E-04   4.473272E+01    1.249874E-04   4.473272E+01    9.889589E-01  -3.568337E+01 
  2.473313E+02    9.849124E-01  -3.793005E+01    1.782644E-04   5.166743E+01    1.782644E-04   5.166743E+01    9.900533E-01  -3.613993E+01 
  2.492000E+02    9.852312E-01  -3.843178E+01    1.265193E-04   4.623156E+01    1.265193E-04   4.623156E+01    9.900315E-01  -3.665357E+01 
  2.510687E+02    9.844467E-01  -3.891071E+01    1.441719E-04   6.014310E+01    1.441719E-04   6.014310E+01    9.885172E-01  -3.713236E+01 
  2.529375E+02    9.836833E-01  -3.931426E+01    1.738857E-04   6.341821E+01    1.738857E-04   6.341821E+01    9.879372E-01  -3.752601E+01 
  2.548063E+02    9.830053E-01  -3.968240E+01    1.504207E-04   5.194660E+01    1.504207E-04   5.194660E+01    9.880345E-01  -3.785008E+01 
  2.566750E+02    9.839268E-01  -4.013281E+01    1.620059E-04   4.089716E+01    1.620059E-04   4.089716E+01    9.885247E-01  -3.826052E+01 
  2.585437E+02    9.851371E-01  -4.064770E+01    1.421390E-04   6.163810E+01    1.421390E-04   6.163810E+01    9.889513E-01  -3.879358E+01 
  2.604125E+02    9.852573E-01  -4.120832E+01    1.620115E-04   3.907673E+01    1.620115E-04   3.907673E+01    9.888399E-01  -3.935630E+01 
  2.622812E+02    9.842297E-01  -4.175993E+01    1.445921E-04   3.792189E+01    1.445921E-04   3.792189E+01    9.878166E-01  -3.992860E+01 
  2.641500E+02    9.824570E-01  -4.222835E+01    9.730854E-05   2.512377E+01    9.730854E-05   2.512377E+01    9.866459E-01  -4.039162E+01 
  2.660188E+02    9.809251E-01  -4.269088E+01    8.365813E-05   2.255163E+01    8.365813E-05   2.255163E+01    9.855692E-01  -4.080546E+01 
  2.678875E+02    9.827667E-01  -4.321889E+01    1.011607E-04   5.433355E+01    1.011607E-04   5.433355E+01    9.855962E-01  -4.131863E+01 
  2.697563E+02    9.844468E-01  -4.382488E+01    1.092802E-04   3.947551E+01    1.092802E-04   3.947551E+01    9.870876E-01  -4.199304E+01 
