! Matrix data file written by TouchstoneData, EPCOS AG
! FILENAME: "B3440_NB.s2p"
! COMMENT: "AA73B2.NB.2.s2p"
! INFO: nport=2, nfreq=1601
! DATE: "Tue Aug 27 11:24:38 2013"
! USER: "Daniel Harbusch"
!
! port | pin | signal
! -----|-----|--------
!   1  |  5  |  Output
!   2  |  2  |  Input
! --------------------
! 
# MHZ S MA R 50
! freq  magS11 angS11  magS21 angS21  magS12 angS12  magS22 angS22
7.700000000E+02  9.523554E-01 -1.146296E+02  1.462327E-03 -9.800169E+00  1.462327E-03 -9.800169E+00  9.495826E-01 -1.141741E+02 
7.701250000E+02  9.522634E-01 -1.146340E+02  1.481670E-03 -9.801518E+00  1.481670E-03 -9.801518E+00  9.495253E-01 -1.141827E+02 
7.702500000E+02  9.521801E-01 -1.146395E+02  1.488415E-03 -9.935497E+00  1.488415E-03 -9.935497E+00  9.492841E-01 -1.142039E+02 
7.703750000E+02  9.521230E-01 -1.146301E+02  1.486486E-03 -1.090900E+01  1.486486E-03 -1.090900E+01  9.491789E-01 -1.142065E+02 
7.705000000E+02  9.526119E-01 -1.146332E+02  1.468253E-03 -1.127584E+01  1.468253E-03 -1.127584E+01  9.493291E-01 -1.142353E+02 
7.706250000E+02  9.531706E-01 -1.146455E+02  1.455896E-03 -1.112772E+01  1.455896E-03 -1.112772E+01  9.491394E-01 -1.142666E+02 
7.707500000E+02  9.539943E-01 -1.146946E+02  1.438458E-03 -1.156294E+01  1.438458E-03 -1.156294E+01  9.488872E-01 -1.143011E+02 
7.708750000E+02  9.543777E-01 -1.147695E+02  1.430762E-03 -1.025611E+01  1.430762E-03 -1.025611E+01  9.487951E-01 -1.143337E+02 
7.710000000E+02  9.543961E-01 -1.148354E+02  1.425959E-03 -9.346739E+00  1.425959E-03 -9.346739E+00  9.483347E-01 -1.143557E+02 
7.711250000E+02  9.541831E-01 -1.148891E+02  1.429775E-03 -1.002259E+01  1.429775E-03 -1.002259E+01  9.482593E-01 -1.143521E+02 
7.712500000E+02  9.536850E-01 -1.149407E+02  1.430344E-03 -9.351697E+00  1.430344E-03 -9.351697E+00  9.486690E-01 -1.143737E+02 
7.713750000E+02  9.531425E-01 -1.149588E+02  1.436374E-03 -9.499900E+00  1.436374E-03 -9.499900E+00  9.485643E-01 -1.144353E+02 
7.715000000E+02  9.528892E-01 -1.149928E+02  1.446096E-03 -9.778085E+00  1.446096E-03 -9.778085E+00  9.481127E-01 -1.144577E+02 
7.716250000E+02  9.526785E-01 -1.149899E+02  1.434638E-03 -9.632812E+00  1.434638E-03 -9.632812E+00  9.481377E-01 -1.144900E+02 
7.717500000E+02  9.526186E-01 -1.149876E+02  1.423768E-03 -9.929978E+00  1.423768E-03 -9.929978E+00  9.477956E-01 -1.145370E+02 
7.718750000E+02  9.528786E-01 -1.149976E+02  1.419678E-03 -9.589976E+00  1.419678E-03 -9.589976E+00  9.471706E-01 -1.145532E+02 
7.720000000E+02  9.533975E-01 -1.150044E+02  1.437342E-03 -9.582769E+00  1.437342E-03 -9.582769E+00  9.465653E-01 -1.145679E+02 
7.721250000E+02  9.540675E-01 -1.150483E+02  1.404967E-03 -9.409588E+00  1.404967E-03 -9.409588E+00  9.462675E-01 -1.145793E+02 
7.722500000E+02  9.544810E-01 -1.151097E+02  1.411835E-03 -8.530976E+00  1.411835E-03 -8.530976E+00  9.456364E-01 -1.145652E+02 
7.723750000E+02  9.546266E-01 -1.151566E+02  1.422661E-03 -9.581836E+00  1.422661E-03 -9.581836E+00  9.461413E-01 -1.145397E+02 
7.725000000E+02  9.547581E-01 -1.152126E+02  1.411600E-03 -9.249273E+00  1.411600E-03 -9.249273E+00  9.463836E-01 -1.145516E+02 
7.726250000E+02  9.547049E-01 -1.152838E+02  1.413693E-03 -8.390706E+00  1.413693E-03 -8.390706E+00  9.464364E-01 -1.145695E+02 
7.727500000E+02  9.542686E-01 -1.153424E+02  1.408160E-03 -8.868362E+00  1.408160E-03 -8.868362E+00  9.469439E-01 -1.145919E+02 
7.728750000E+02  9.538278E-01 -1.153977E+02  1.405998E-03 -8.736072E+00  1.405998E-03 -8.736072E+00  9.469907E-01 -1.146360E+02 
7.730000000E+02  9.532351E-01 -1.154173E+02  1.399411E-03 -8.183566E+00  1.399411E-03 -8.183566E+00  9.470081E-01 -1.146623E+02 
7.731250000E+02  9.527181E-01 -1.154361E+02  1.399569E-03 -7.665622E+00  1.399569E-03 -7.665622E+00  9.469380E-01 -1.146897E+02 
7.732500000E+02  9.527462E-01 -1.154484E+02  1.418049E-03 -7.454379E+00  1.418049E-03 -7.454379E+00  9.469526E-01 -1.147436E+02 
7.733750000E+02  9.523585E-01 -1.154519E+02  1.420408E-03 -7.504756E+00  1.420408E-03 -7.504756E+00  9.461887E-01 -1.147842E+02 
7.735000000E+02  9.526990E-01 -1.154546E+02  1.417458E-03 -7.746305E+00  1.417458E-03 -7.746305E+00  9.455801E-01 -1.147829E+02 
7.736250000E+02  9.534259E-01 -1.154725E+02  1.414222E-03 -6.630099E+00  1.414222E-03 -6.630099E+00  9.451449E-01 -1.147767E+02 
7.737500000E+02  9.540225E-01 -1.155277E+02  1.429938E-03 -7.384419E+00  1.429938E-03 -7.384419E+00  9.448967E-01 -1.147455E+02 
7.738750000E+02  9.543590E-01 -1.155852E+02  1.444837E-03 -7.157554E+00  1.444837E-03 -7.157554E+00  9.452916E-01 -1.147251E+02 
7.740000000E+02  9.543747E-01 -1.156565E+02  1.445349E-03 -8.701051E+00  1.445349E-03 -8.701051E+00  9.458421E-01 -1.147229E+02 
7.741250000E+02  9.541528E-01 -1.157426E+02  1.437903E-03 -8.928842E+00  1.437903E-03 -8.928842E+00  9.465803E-01 -1.147473E+02 
7.742500000E+02  9.535311E-01 -1.158054E+02  1.412260E-03 -8.773261E+00  1.412260E-03 -8.773261E+00  9.471091E-01 -1.147852E+02 
7.743750000E+02  9.526093E-01 -1.158488E+02  1.398393E-03 -7.603518E+00  1.398393E-03 -7.603518E+00  9.472810E-01 -1.148479E+02 
7.745000000E+02  9.519441E-01 -1.158887E+02  1.406796E-03 -7.223134E+00  1.406796E-03 -7.223134E+00  9.470261E-01 -1.148954E+02 
7.746250000E+02  9.508358E-01 -1.158985E+02  1.413534E-03 -6.602986E+00  1.413534E-03 -6.602986E+00  9.468102E-01 -1.149288E+02 
7.747500000E+02  9.503463E-01 -1.158721E+02  1.441543E-03 -6.858198E+00  1.441543E-03 -6.858198E+00  9.462353E-01 -1.149588E+02 
7.748750000E+02  9.504740E-01 -1.158546E+02  1.443138E-03 -7.580311E+00  1.443138E-03 -7.580311E+00  9.460987E-01 -1.149588E+02 
7.750000000E+02  9.509008E-01 -1.158606E+02  1.434761E-03 -8.047533E+00  1.434761E-03 -8.047533E+00  9.460816E-01 -1.149888E+02 
7.751250000E+02  9.513448E-01 -1.158674E+02  1.425463E-03 -7.995750E+00  1.425463E-03 -7.995750E+00  9.455498E-01 -1.150005E+02 
7.752500000E+02  9.519185E-01 -1.159094E+02  1.432523E-03 -8.054644E+00  1.432523E-03 -8.054644E+00  9.454209E-01 -1.149983E+02 
7.753750000E+02  9.523428E-01 -1.159680E+02  1.433081E-03 -8.252438E+00  1.433081E-03 -8.252438E+00  9.453920E-01 -1.150047E+02 
7.755000000E+02  9.523841E-01 -1.160405E+02  1.427242E-03 -8.452959E+00  1.427242E-03 -8.452959E+00  9.455298E-01 -1.150038E+02 
7.756250000E+02  9.520437E-01 -1.161178E+02  1.422476E-03 -8.207376E+00  1.422476E-03 -8.207376E+00  9.457859E-01 -1.150259E+02 
7.757500000E+02  9.512111E-01 -1.161938E+02  1.419919E-03 -9.379413E+00  1.419919E-03 -9.379413E+00  9.461839E-01 -1.150497E+02 
7.758750000E+02  9.499992E-01 -1.162162E+02  1.394346E-03 -8.800071E+00  1.394346E-03 -8.800071E+00  9.463549E-01 -1.150812E+02 
7.760000000E+02  9.493525E-01 -1.162127E+02  1.399395E-03 -8.238764E+00  1.399395E-03 -8.238764E+00  9.466439E-01 -1.151173E+02 
7.761250000E+02  9.489619E-01 -1.162097E+02  1.405407E-03 -8.061272E+00  1.405407E-03 -8.061272E+00  9.465688E-01 -1.151654E+02 
7.762500000E+02  9.487755E-01 -1.162241E+02  1.397086E-03 -8.163337E+00  1.397086E-03 -8.163337E+00  9.462575E-01 -1.152131E+02 
7.763750000E+02  9.484382E-01 -1.162078E+02  1.404321E-03 -7.255642E+00  1.404321E-03 -7.255642E+00  9.462019E-01 -1.152309E+02 
7.765000000E+02  9.485872E-01 -1.162018E+02  1.439597E-03 -7.807450E+00  1.439597E-03 -7.807450E+00  9.459838E-01 -1.152781E+02 
7.766250000E+02  9.490254E-01 -1.162001E+02  1.417820E-03 -8.608222E+00  1.417820E-03 -8.608222E+00  9.456373E-01 -1.153056E+02 
7.767500000E+02  9.495575E-01 -1.162391E+02  1.407553E-03 -9.029465E+00  1.407553E-03 -9.029465E+00  9.452260E-01 -1.153163E+02 
7.768750000E+02  9.498503E-01 -1.162889E+02  1.405118E-03 -9.175770E+00  1.405118E-03 -9.175770E+00  9.449558E-01 -1.153422E+02 
7.770000000E+02  9.498709E-01 -1.163375E+02  1.382795E-03 -7.822356E+00  1.382795E-03 -7.822356E+00  9.442318E-01 -1.153555E+02 
7.771250000E+02  9.497972E-01 -1.163934E+02  1.401519E-03 -7.960256E+00  1.401519E-03 -7.960256E+00  9.440400E-01 -1.153129E+02 
7.772500000E+02  9.493269E-01 -1.164408E+02  1.393649E-03 -8.540652E+00  1.393649E-03 -8.540652E+00  9.445477E-01 -1.152907E+02 
7.773750000E+02  9.485438E-01 -1.164859E+02  1.401120E-03 -7.986359E+00  1.401120E-03 -7.986359E+00  9.451603E-01 -1.152956E+02 
7.775000000E+02  9.479745E-01 -1.165121E+02  1.400734E-03 -7.837820E+00  1.400734E-03 -7.837820E+00  9.458355E-01 -1.153237E+02 
7.776250000E+02  9.471729E-01 -1.165106E+02  1.402668E-03 -8.322088E+00  1.402668E-03 -8.322088E+00  9.463141E-01 -1.153656E+02 
7.777500000E+02  9.467774E-01 -1.164857E+02  1.400864E-03 -8.205541E+00  1.400864E-03 -8.205541E+00  9.465703E-01 -1.154299E+02 
7.778750000E+02  9.470583E-01 -1.164541E+02  1.403103E-03 -7.880728E+00  1.403103E-03 -7.880728E+00  9.464358E-01 -1.154684E+02 
7.780000000E+02  9.474945E-01 -1.164658E+02  1.410815E-03 -8.706095E+00  1.410815E-03 -8.706095E+00  9.464998E-01 -1.155168E+02 
7.781250000E+02  9.477977E-01 -1.164950E+02  1.381950E-03 -8.950647E+00  1.381950E-03 -8.950647E+00  9.460133E-01 -1.155870E+02 
7.782500000E+02  9.480556E-01 -1.165208E+02  1.378029E-03 -8.261577E+00  1.378029E-03 -8.261577E+00  9.453280E-01 -1.156153E+02 
7.783750000E+02  9.482713E-01 -1.165491E+02  1.395441E-03 -8.369982E+00  1.395441E-03 -8.369982E+00  9.445165E-01 -1.156346E+02 
7.785000000E+02  9.484941E-01 -1.165806E+02  1.389326E-03 -8.713921E+00  1.389326E-03 -8.713921E+00  9.434352E-01 -1.156188E+02 
7.786250000E+02  9.485268E-01 -1.166159E+02  1.382868E-03 -8.583626E+00  1.382868E-03 -8.583626E+00  9.432789E-01 -1.155650E+02 
7.787500000E+02  9.486932E-01 -1.166680E+02  1.381020E-03 -9.262585E+00  1.381020E-03 -9.262585E+00  9.438067E-01 -1.155406E+02 
7.788750000E+02  9.484992E-01 -1.167206E+02  1.370396E-03 -8.923625E+00  1.370396E-03 -8.923625E+00  9.446302E-01 -1.155428E+02 
7.790000000E+02  9.480189E-01 -1.167608E+02  1.396550E-03 -8.759871E+00  1.396550E-03 -8.759871E+00  9.453217E-01 -1.155551E+02 
7.791250000E+02  9.475022E-01 -1.167742E+02  1.391777E-03 -9.329990E+00  1.391777E-03 -9.329990E+00  9.458667E-01 -1.156009E+02 
7.792500000E+02  9.470550E-01 -1.167909E+02  1.365423E-03 -8.709153E+00  1.365423E-03 -8.709153E+00  9.459414E-01 -1.156560E+02 
7.793750000E+02  9.467005E-01 -1.167858E+02  1.387875E-03 -8.882784E+00  1.387875E-03 -8.882784E+00  9.460671E-01 -1.156985E+02 
7.795000000E+02  9.468403E-01 -1.167747E+02  1.367669E-03 -9.363570E+00  1.367669E-03 -9.363570E+00  9.459153E-01 -1.157483E+02 
7.796250000E+02  9.470768E-01 -1.167796E+02  1.369688E-03 -9.161818E+00  1.369688E-03 -9.161818E+00  9.455440E-01 -1.157760E+02 
7.797500000E+02  9.475844E-01 -1.167844E+02  1.370159E-03 -9.285125E+00  1.370159E-03 -9.285125E+00  9.451988E-01 -1.158142E+02 
7.798750000E+02  9.480549E-01 -1.168187E+02  1.368608E-03 -9.422951E+00  1.368608E-03 -9.422951E+00  9.443850E-01 -1.158350E+02 
7.800000000E+02  9.485808E-01 -1.168656E+02  1.375938E-03 -9.260884E+00  1.375938E-03 -9.260884E+00  9.439142E-01 -1.158279E+02 
7.801250000E+02  9.488223E-01 -1.169261E+02  1.363407E-03 -1.007197E+01  1.363407E-03 -1.007197E+01  9.434011E-01 -1.158230E+02 
7.802500000E+02  9.486490E-01 -1.169898E+02  1.350351E-03 -9.424823E+00  1.350351E-03 -9.424823E+00  9.435306E-01 -1.157862E+02 
7.803750000E+02  9.482222E-01 -1.170373E+02  1.352569E-03 -9.217956E+00  1.352569E-03 -9.217956E+00  9.440477E-01 -1.157836E+02 
7.805000000E+02  9.476554E-01 -1.170713E+02  1.363994E-03 -9.072984E+00  1.363994E-03 -9.072984E+00  9.444619E-01 -1.158007E+02 
7.806250000E+02  9.469372E-01 -1.170867E+02  1.371640E-03 -9.194703E+00  1.371640E-03 -9.194703E+00  9.447514E-01 -1.158224E+02 
7.807500000E+02  9.468537E-01 -1.170831E+02  1.354882E-03 -9.984090E+00  1.354882E-03 -9.984090E+00  9.451127E-01 -1.158345E+02 
7.808750000E+02  9.468729E-01 -1.170866E+02  1.356292E-03 -9.258575E+00  1.356292E-03 -9.258575E+00  9.456816E-01 -1.158667E+02 
7.810000000E+02  9.469415E-01 -1.171045E+02  1.362317E-03 -9.957071E+00  1.362317E-03 -9.957071E+00  9.460099E-01 -1.159147E+02 
7.811250000E+02  9.468729E-01 -1.171268E+02  1.363164E-03 -1.069346E+01  1.363164E-03 -1.069346E+01  9.461588E-01 -1.159658E+02 
7.812500000E+02  9.468894E-01 -1.171280E+02  1.363936E-03 -1.106874E+01  1.363936E-03 -1.106874E+01  9.460455E-01 -1.160224E+02 
7.813750000E+02  9.472527E-01 -1.171398E+02  1.359376E-03 -1.163187E+01  1.359376E-03 -1.163187E+01  9.455606E-01 -1.160558E+02 
7.815000000E+02  9.475711E-01 -1.171614E+02  1.331500E-03 -1.147035E+01  1.331500E-03 -1.147035E+01  9.451922E-01 -1.160680E+02 
7.816250000E+02  9.478024E-01 -1.172072E+02  1.322360E-03 -1.111510E+01  1.322360E-03 -1.111510E+01  9.450351E-01 -1.160857E+02 
7.817500000E+02  9.479565E-01 -1.172416E+02  1.330707E-03 -1.139597E+01  1.330707E-03 -1.139597E+01  9.446075E-01 -1.160920E+02 
7.818750000E+02  9.479631E-01 -1.172690E+02  1.330333E-03 -1.226194E+01  1.330333E-03 -1.226194E+01  9.443095E-01 -1.160673E+02 
7.820000000E+02  9.480598E-01 -1.173070E+02  1.311083E-03 -1.196634E+01  1.311083E-03 -1.196634E+01  9.450591E-01 -1.160399E+02 
7.821250000E+02  9.479336E-01 -1.173567E+02  1.289442E-03 -1.227623E+01  1.289442E-03 -1.227623E+01  9.457049E-01 -1.160450E+02 
7.822500000E+02  9.475022E-01 -1.173850E+02  1.278189E-03 -1.208129E+01  1.278189E-03 -1.208129E+01  9.464680E-01 -1.160798E+02 
7.823750000E+02  9.473413E-01 -1.173844E+02  1.286281E-03 -1.133876E+01  1.286281E-03 -1.133876E+01  9.469634E-01 -1.161154E+02 
7.825000000E+02  9.475034E-01 -1.173914E+02  1.278814E-03 -1.171103E+01  1.278814E-03 -1.171103E+01  9.474127E-01 -1.161545E+02 
7.826250000E+02  9.478730E-01 -1.174060E+02  1.269042E-03 -1.189002E+01  1.269042E-03 -1.189002E+01  9.477768E-01 -1.161984E+02 
7.827500000E+02  9.482877E-01 -1.174474E+02  1.266479E-03 -1.184147E+01  1.266479E-03 -1.184147E+01  9.481102E-01 -1.162548E+02 
7.828750000E+02  9.483225E-01 -1.175031E+02  1.265040E-03 -1.184702E+01  1.265040E-03 -1.184702E+01  9.480320E-01 -1.163253E+02 
7.830000000E+02  9.480098E-01 -1.175375E+02  1.262306E-03 -1.198146E+01  1.262306E-03 -1.198146E+01  9.476386E-01 -1.163735E+02 
7.831250000E+02  9.479677E-01 -1.175533E+02  1.252049E-03 -1.178786E+01  1.252049E-03 -1.178786E+01  9.470603E-01 -1.164068E+02 
7.832500000E+02  9.480620E-01 -1.175682E+02  1.227422E-03 -1.217130E+01  1.227422E-03 -1.217130E+01  9.464426E-01 -1.164129E+02 
7.833750000E+02  9.482752E-01 -1.175870E+02  1.215044E-03 -1.118827E+01  1.215044E-03 -1.118827E+01  9.462362E-01 -1.163896E+02 
7.835000000E+02  9.485268E-01 -1.176282E+02  1.223663E-03 -1.080676E+01  1.223663E-03 -1.080676E+01  9.465106E-01 -1.163796E+02 
7.836250000E+02  9.487986E-01 -1.176586E+02  1.222222E-03 -1.027347E+01  1.222222E-03 -1.027347E+01  9.471934E-01 -1.163799E+02 
7.837500000E+02  9.490542E-01 -1.176923E+02  1.231610E-03 -9.972263E+00  1.231610E-03 -9.972263E+00  9.477468E-01 -1.164057E+02 
7.838750000E+02  9.492584E-01 -1.177443E+02  1.238159E-03 -1.082936E+01  1.238159E-03 -1.082936E+01  9.483258E-01 -1.164263E+02 
7.840000000E+02  9.492524E-01 -1.177965E+02  1.240364E-03 -1.145692E+01  1.240364E-03 -1.145692E+01  9.489667E-01 -1.164725E+02 
7.841250000E+02  9.487104E-01 -1.178538E+02  1.220446E-03 -1.237515E+01  1.220446E-03 -1.237515E+01  9.493704E-01 -1.165379E+02 
7.842500000E+02  9.483879E-01 -1.178646E+02  1.189793E-03 -1.206346E+01  1.189793E-03 -1.206346E+01  9.494490E-01 -1.165908E+02 
7.843750000E+02  9.483744E-01 -1.178729E+02  1.187419E-03 -1.113101E+01  1.187419E-03 -1.113101E+01  9.493782E-01 -1.166487E+02 
7.845000000E+02  9.485899E-01 -1.178763E+02  1.199291E-03 -1.062621E+01  1.199291E-03 -1.062621E+01  9.492218E-01 -1.166904E+02 
7.846250000E+02  9.491167E-01 -1.178955E+02  1.191896E-03 -1.137526E+01  1.191896E-03 -1.137526E+01  9.486956E-01 -1.167314E+02 
7.847500000E+02  9.495492E-01 -1.179453E+02  1.188430E-03 -1.156548E+01  1.188430E-03 -1.156548E+01  9.484275E-01 -1.167588E+02 
7.848750000E+02  9.497542E-01 -1.179963E+02  1.166249E-03 -1.128732E+01  1.166249E-03 -1.128732E+01  9.481440E-01 -1.167808E+02 
7.850000000E+02  9.498924E-01 -1.180439E+02  1.149975E-03 -1.081175E+01  1.149975E-03 -1.081175E+01  9.477327E-01 -1.167766E+02 
7.851250000E+02  9.500393E-01 -1.180938E+02  1.156506E-03 -1.011488E+01  1.156506E-03 -1.011488E+01  9.481320E-01 -1.167678E+02 
7.852500000E+02  9.499144E-01 -1.181486E+02  1.169784E-03 -9.840034E+00  1.169784E-03 -9.840034E+00  9.485260E-01 -1.167934E+02 
7.853750000E+02  9.496687E-01 -1.182025E+02  1.156020E-03 -1.022506E+01  1.156020E-03 -1.022506E+01  9.489803E-01 -1.168175E+02 
7.855000000E+02  9.492246E-01 -1.182424E+02  1.143417E-03 -9.929092E+00  1.143417E-03 -9.929092E+00  9.493530E-01 -1.168522E+02 
7.856250000E+02  9.487608E-01 -1.182604E+02  1.142346E-03 -9.350148E+00  1.142346E-03 -9.350148E+00  9.497624E-01 -1.168933E+02 
7.857500000E+02  9.487631E-01 -1.182671E+02  1.158674E-03 -9.508788E+00  1.158674E-03 -9.508788E+00  9.500725E-01 -1.169459E+02 
7.858750000E+02  9.489789E-01 -1.182821E+02  1.148075E-03 -9.305735E+00  1.148075E-03 -9.305735E+00  9.502770E-01 -1.169997E+02 
7.860000000E+02  9.493932E-01 -1.183163E+02  1.157406E-03 -9.516201E+00  1.157406E-03 -9.516201E+00  9.502013E-01 -1.170674E+02 
7.861250000E+02  9.497724E-01 -1.183704E+02  1.150009E-03 -1.036931E+01  1.150009E-03 -1.036931E+01  9.497500E-01 -1.171240E+02 
7.862500000E+02  9.497345E-01 -1.184324E+02  1.129845E-03 -1.073748E+01  1.129845E-03 -1.073748E+01  9.493713E-01 -1.171564E+02 
7.863750000E+02  9.496843E-01 -1.184760E+02  1.108515E-03 -9.799600E+00  1.108515E-03 -9.799600E+00  9.491441E-01 -1.171855E+02 
7.865000000E+02  9.495853E-01 -1.185389E+02  1.114206E-03 -8.985706E+00  1.114206E-03 -8.985706E+00  9.490926E-01 -1.172130E+02 
7.866250000E+02  9.492516E-01 -1.185870E+02  1.115816E-03 -9.032631E+00  1.115816E-03 -9.032631E+00  9.489501E-01 -1.172402E+02 
7.867500000E+02  9.489595E-01 -1.186239E+02  1.104388E-03 -8.323129E+00  1.104388E-03 -8.323129E+00  9.489408E-01 -1.172609E+02 
7.868750000E+02  9.487368E-01 -1.186518E+02  1.104689E-03 -7.496692E+00  1.104689E-03 -7.496692E+00  9.490901E-01 -1.172813E+02 
7.870000000E+02  9.485689E-01 -1.186729E+02  1.113817E-03 -6.929942E+00  1.113817E-03 -6.929942E+00  9.494348E-01 -1.173110E+02 
7.871250000E+02  9.488861E-01 -1.187017E+02  1.131547E-03 -7.722116E+00  1.131547E-03 -7.722116E+00  9.496638E-01 -1.173596E+02 
7.872500000E+02  9.491034E-01 -1.187488E+02  1.122778E-03 -7.994343E+00  1.122778E-03 -7.994343E+00  9.498273E-01 -1.174018E+02 
7.873750000E+02  9.491315E-01 -1.188125E+02  1.118841E-03 -8.353188E+00  1.118841E-03 -8.353188E+00  9.498964E-01 -1.174501E+02 
7.875000000E+02  9.488638E-01 -1.188742E+02  1.125736E-03 -8.463087E+00  1.125736E-03 -8.463087E+00  9.500946E-01 -1.174969E+02 
7.876250000E+02  9.484271E-01 -1.189144E+02  1.109399E-03 -9.601487E+00  1.109399E-03 -9.601487E+00  9.500910E-01 -1.175521E+02 
7.877500000E+02  9.480798E-01 -1.189468E+02  1.088637E-03 -8.346910E+00  1.088637E-03 -8.346910E+00  9.497413E-01 -1.176226E+02 
7.878750000E+02  9.480147E-01 -1.189648E+02  1.098260E-03 -8.052036E+00  1.098260E-03 -8.052036E+00  9.493160E-01 -1.176713E+02 
7.880000000E+02  9.481973E-01 -1.190052E+02  1.088752E-03 -8.734836E+00  1.088752E-03 -8.734836E+00  9.490089E-01 -1.177014E+02 
7.881250000E+02  9.483203E-01 -1.190509E+02  1.075086E-03 -8.077706E+00  1.075086E-03 -8.077706E+00  9.487594E-01 -1.177210E+02 
7.882500000E+02  9.483156E-01 -1.191010E+02  1.072563E-03 -7.860097E+00  1.072563E-03 -7.860097E+00  9.485345E-01 -1.177434E+02 
7.883750000E+02  9.480511E-01 -1.191557E+02  1.079597E-03 -6.907480E+00  1.079597E-03 -6.907480E+00  9.485684E-01 -1.177738E+02 
7.885000000E+02  9.478761E-01 -1.192196E+02  1.084779E-03 -7.199902E+00  1.084779E-03 -7.199902E+00  9.486324E-01 -1.178137E+02 
7.886250000E+02  9.475751E-01 -1.192811E+02  1.088015E-03 -7.639773E+00  1.088015E-03 -7.639773E+00  9.485302E-01 -1.178434E+02 
7.887500000E+02  9.468314E-01 -1.193304E+02  1.078636E-03 -7.706170E+00  1.078636E-03 -7.706170E+00  9.486647E-01 -1.178757E+02 
