! Matrix data file written by TouchstoneData, EPCOS AG
! FILENAME: "B3441_WB.s2p"
! COMMENT: "Measurement on PCB, wideband"
! INFO: nport=2, nfreq=1601
! DATE: "Thu Jul 17 11:22:57 2014"
! USER: "Daniel Harbusch"
!
! port | pin | signal
! -----|-----|--------
!   1  |  2  |  Input
!   2  |  5  |  Output
! --------------------
! 
# MHZ S MA R 50
! freq  magS11 angS11  magS21 angS21  magS12 angS12  magS22 angS22
1.000000000E+02  9.894589E-01 -1.623003E+01  3.204786E-03 7.616718E+01  3.194132E-03 7.631412E+01  9.948817E-01 -1.169191E+01 
1.010625000E+02  9.897604E-01 -1.641395E+01  3.398169E-03 7.845442E+01  3.397261E-03 7.824055E+01  9.950550E-01 -1.184931E+01 
1.021250000E+02  9.902452E-01 -1.656752E+01  3.300098E-03 7.581636E+01  3.268524E-03 7.585232E+01  9.951555E-01 -1.196018E+01 
1.031875000E+02  9.904100E-01 -1.674277E+01  3.474025E-03 7.558918E+01  3.459921E-03 7.544272E+01  9.952251E-01 -1.208649E+01 
1.042500000E+02  9.904914E-01 -1.690621E+01  3.505193E-03 7.581705E+01  3.491319E-03 7.564513E+01  9.952228E-01 -1.220499E+01 
1.053125000E+02  9.905584E-01 -1.707578E+01  3.512975E-03 7.329979E+01  3.495739E-03 7.344356E+01  9.953312E-01 -1.233342E+01 
1.063750000E+02  9.905935E-01 -1.723727E+01  3.514392E-03 7.561025E+01  3.519692E-03 7.583607E+01  9.954047E-01 -1.246004E+01 
1.074375000E+02  9.903796E-01 -1.740502E+01  3.543452E-03 7.576069E+01  3.529840E-03 7.558411E+01  9.954644E-01 -1.258543E+01 
1.085000000E+02  9.899011E-01 -1.756310E+01  3.758146E-03 7.496356E+01  3.735557E-03 7.509214E+01  9.948114E-01 -1.270330E+01 
1.095625000E+02  9.900885E-01 -1.769261E+01  3.741148E-03 7.442815E+01  3.741737E-03 7.460579E+01  9.950854E-01 -1.281967E+01 
1.106250000E+02  9.907883E-01 -1.787589E+01  3.624726E-03 7.439052E+01  3.626144E-03 7.427959E+01  9.952204E-01 -1.291492E+01 
1.116875000E+02  9.912558E-01 -1.801755E+01  3.819721E-03 7.521141E+01  3.811508E-03 7.507019E+01  9.953794E-01 -1.302508E+01 
1.127500000E+02  9.913302E-01 -1.817809E+01  3.694757E-03 7.545559E+01  3.686073E-03 7.548120E+01  9.954013E-01 -1.315320E+01 
1.138125000E+02  9.917230E-01 -1.834182E+01  3.794296E-03 7.417481E+01  3.788662E-03 7.446684E+01  9.954273E-01 -1.328970E+01 
1.148750000E+02  9.916696E-01 -1.853455E+01  3.966669E-03 7.384458E+01  3.960387E-03 7.399170E+01  9.953103E-01 -1.342231E+01 
1.159375000E+02  9.914617E-01 -1.871851E+01  3.835799E-03 7.429649E+01  3.799449E-03 7.423821E+01  9.950674E-01 -1.356746E+01 
1.170000000E+02  9.901098E-01 -1.895695E+01  3.773202E-03 7.245790E+01  3.753746E-03 7.240640E+01  9.926359E-01 -1.375531E+01 
1.180625000E+02  9.910027E-01 -1.901653E+01  4.020402E-03 7.371172E+01  4.005126E-03 7.374878E+01  9.945796E-01 -1.374942E+01 
1.191250000E+02  9.913399E-01 -1.916315E+01  3.904146E-03 7.129598E+01  3.887536E-03 7.131396E+01  9.946539E-01 -1.386439E+01 
1.201875000E+02  9.916648E-01 -1.932266E+01  3.999689E-03 7.525098E+01  3.983770E-03 7.517820E+01  9.945893E-01 -1.398344E+01 
1.212500000E+02  9.919793E-01 -1.944566E+01  4.006502E-03 7.252655E+01  3.985820E-03 7.246275E+01  9.949762E-01 -1.408128E+01 
1.223125000E+02  9.921245E-01 -1.963060E+01  4.094715E-03 7.329750E+01  4.078739E-03 7.332751E+01  9.951106E-01 -1.423015E+01 
1.233750000E+02  9.920188E-01 -1.981568E+01  4.153538E-03 7.327253E+01  4.150262E-03 7.317717E+01  9.949988E-01 -1.435048E+01 
1.244375000E+02  9.922429E-01 -1.997805E+01  4.147351E-03 7.216720E+01  4.131240E-03 7.214684E+01  9.949151E-01 -1.448947E+01 
1.255000000E+02  9.920215E-01 -2.017617E+01  4.157649E-03 7.237744E+01  4.141800E-03 7.237363E+01  9.946635E-01 -1.463977E+01 
1.265625000E+02  9.912026E-01 -2.032787E+01  4.301335E-03 7.211595E+01  4.289077E-03 7.202978E+01  9.943026E-01 -1.472322E+01 
1.276250000E+02  9.915074E-01 -2.047190E+01  4.277969E-03 7.274115E+01  4.263914E-03 7.278786E+01  9.943487E-01 -1.484537E+01 
1.286875000E+02  9.915301E-01 -2.061046E+01  4.159362E-03 7.107844E+01  4.142595E-03 7.107832E+01  9.944746E-01 -1.495556E+01 
1.297500000E+02  9.920821E-01 -2.077020E+01  4.285786E-03 7.230135E+01  4.276927E-03 7.247690E+01  9.946685E-01 -1.508299E+01 
1.308125000E+02  9.920560E-01 -2.092801E+01  4.367554E-03 7.193702E+01  4.359337E-03 7.203601E+01  9.946736E-01 -1.521539E+01 
1.318750000E+02  9.922081E-01 -2.110353E+01  4.442862E-03 7.187048E+01  4.440075E-03 7.176336E+01  9.946884E-01 -1.533374E+01 
1.329375000E+02  9.918344E-01 -2.125679E+01  4.351268E-03 7.327522E+01  4.329524E-03 7.321977E+01  9.946125E-01 -1.544471E+01 
1.340000000E+02  9.920037E-01 -2.142452E+01  4.429738E-03 7.061919E+01  4.427315E-03 7.038721E+01  9.942646E-01 -1.556941E+01 
1.350625000E+02  9.903046E-01 -2.169101E+01  4.070426E-03 7.216589E+01  4.047244E-03 7.225577E+01  9.915286E-01 -1.564608E+01 
1.361250000E+02  9.914159E-01 -2.174078E+01  4.524383E-03 6.978736E+01  4.510429E-03 6.980556E+01  9.936116E-01 -1.574385E+01 
1.371875000E+02  9.914611E-01 -2.191577E+01  4.497076E-03 7.277318E+01  4.488942E-03 7.270739E+01  9.937123E-01 -1.585610E+01 
1.382500000E+02  9.917487E-01 -2.204916E+01  4.500908E-03 7.000052E+01  4.485406E-03 7.001548E+01  9.940248E-01 -1.598618E+01 
1.393125000E+02  9.921399E-01 -2.224275E+01  4.571304E-03 7.198897E+01  4.557703E-03 7.198622E+01  9.941745E-01 -1.614592E+01 
1.403750000E+02  9.917252E-01 -2.243188E+01  4.623439E-03 6.994512E+01  4.603127E-03 6.998499E+01  9.941381E-01 -1.629366E+01 
1.414375000E+02  9.916766E-01 -2.261087E+01  4.576127E-03 7.015492E+01  4.560335E-03 7.020168E+01  9.943588E-01 -1.640930E+01 
1.425000000E+02  9.915938E-01 -2.274727E+01  4.715521E-03 7.071371E+01  4.708736E-03 7.069418E+01  9.940096E-01 -1.652991E+01 
1.435625000E+02  9.915447E-01 -2.292170E+01  4.675542E-03 6.910810E+01  4.665975E-03 6.897462E+01  9.935306E-01 -1.663926E+01 
1.446250000E+02  9.905646E-01 -2.305402E+01  4.921563E-03 7.096521E+01  4.910285E-03 7.104448E+01  9.934503E-01 -1.670441E+01 
1.456875000E+02  9.911229E-01 -2.319994E+01  4.692336E-03 6.942443E+01  4.683263E-03 6.947873E+01  9.935477E-01 -1.682766E+01 
1.467500000E+02  9.912617E-01 -2.337827E+01  4.822692E-03 6.951251E+01  4.808468E-03 6.955687E+01  9.935407E-01 -1.695621E+01 
1.478125000E+02  9.910429E-01 -2.354696E+01  4.878311E-03 6.965161E+01  4.866556E-03 6.964832E+01  9.938003E-01 -1.710353E+01 
1.488750000E+02  9.910841E-01 -2.372792E+01  4.773478E-03 6.950800E+01  4.771143E-03 6.960141E+01  9.936723E-01 -1.721995E+01 
1.499375000E+02  9.906857E-01 -2.389422E+01  4.896182E-03 6.947080E+01  4.880875E-03 6.937822E+01  9.935263E-01 -1.732666E+01 
1.510000000E+02  9.906786E-01 -2.406960E+01  4.848424E-03 6.826996E+01  4.828310E-03 6.819651E+01  9.933507E-01 -1.745838E+01 
1.520625000E+02  9.905021E-01 -2.423941E+01  5.045807E-03 6.962990E+01  5.024979E-03 6.964565E+01  9.931584E-01 -1.760024E+01 
1.531250000E+02  9.884892E-01 -2.439781E+01  5.152225E-03 6.926368E+01  5.126147E-03 6.923070E+01  9.912246E-01 -1.766584E+01 
1.541875000E+02  9.899400E-01 -2.451333E+01  5.072892E-03 6.895753E+01  5.061002E-03 6.905563E+01  9.931481E-01 -1.781150E+01 
1.552500000E+02  9.901031E-01 -2.468390E+01  5.008363E-03 6.967867E+01  4.990765E-03 6.973739E+01  9.930204E-01 -1.792595E+01 
1.563125000E+02  9.901997E-01 -2.484884E+01  5.080392E-03 6.950889E+01  5.079452E-03 6.947357E+01  9.931508E-01 -1.806086E+01 
1.573750000E+02  9.901717E-01 -2.504557E+01  5.194036E-03 6.730978E+01  5.180368E-03 6.736453E+01  9.931394E-01 -1.818139E+01 
1.584375000E+02  9.900097E-01 -2.520592E+01  5.112057E-03 6.899501E+01  5.094905E-03 6.902453E+01  9.931033E-01 -1.828399E+01 
1.595000000E+02  9.897661E-01 -2.538434E+01  5.189625E-03 6.887693E+01  5.177518E-03 6.878307E+01  9.933235E-01 -1.840935E+01 
1.605625000E+02  9.897288E-01 -2.554982E+01  5.160021E-03 6.789815E+01  5.144245E-03 6.783850E+01  9.931416E-01 -1.852860E+01 
1.616250000E+02  9.896103E-01 -2.572484E+01  5.283197E-03 6.769889E+01  5.271261E-03 6.776656E+01  9.931566E-01 -1.864275E+01 
1.626875000E+02  9.882876E-01 -2.587790E+01  5.338465E-03 6.745019E+01  5.316512E-03 6.745907E+01  9.926685E-01 -1.878268E+01 
1.637500000E+02  9.887315E-01 -2.603472E+01  5.296165E-03 6.747165E+01  5.283372E-03 6.751212E+01  9.926470E-01 -1.893197E+01 
1.648125000E+02  9.889639E-01 -2.624346E+01  5.361027E-03 6.777603E+01  5.346537E-03 6.767217E+01  9.927511E-01 -1.906000E+01 
1.658750000E+02  9.885804E-01 -2.639809E+01  5.348804E-03 6.729264E+01  5.335723E-03 6.728029E+01  9.927316E-01 -1.916326E+01 
1.669375000E+02  9.885705E-01 -2.655043E+01  5.312730E-03 6.701687E+01  5.292837E-03 6.702993E+01  9.925062E-01 -1.925487E+01 
1.680000000E+02  9.882248E-01 -2.672638E+01  5.399634E-03 6.685415E+01  5.387048E-03 6.691785E+01  9.922899E-01 -1.939885E+01 
1.690625000E+02  9.879483E-01 -2.691594E+01  5.418519E-03 6.810539E+01  5.402221E-03 6.803931E+01  9.920812E-01 -1.951665E+01 
1.701250000E+02  9.874950E-01 -2.710970E+01  5.527796E-03 6.674202E+01  5.519031E-03 6.672455E+01  9.918414E-01 -1.965675E+01 
1.711875000E+02  9.857467E-01 -2.721556E+01  5.367142E-03 6.269393E+01  5.349856E-03 6.281152E+01  9.903734E-01 -1.968830E+01 
1.722500000E+02  9.867658E-01 -2.733418E+01  5.503256E-03 6.561743E+01  5.499608E-03 6.544414E+01  9.920835E-01 -1.982624E+01 
1.733125000E+02  9.864503E-01 -2.746379E+01  5.642282E-03 6.697301E+01  5.629207E-03 6.698967E+01  9.917324E-01 -1.993540E+01 
1.743750000E+02  9.866629E-01 -2.764198E+01  5.686199E-03 6.562680E+01  5.669704E-03 6.554326E+01  9.914554E-01 -2.005859E+01 
1.754375000E+02  9.863710E-01 -2.782958E+01  5.556740E-03 6.611759E+01  5.539041E-03 6.619128E+01  9.915705E-01 -2.019646E+01 
1.765000000E+02  9.866336E-01 -2.801316E+01  5.596608E-03 6.615473E+01  5.575152E-03 6.620089E+01  9.921193E-01 -2.033944E+01 
1.775625000E+02  9.865850E-01 -2.825296E+01  5.679907E-03 6.476781E+01  5.664020E-03 6.461247E+01  9.923051E-01 -2.052289E+01 
1.786250000E+02  9.862837E-01 -2.841985E+01  5.759217E-03 6.586392E+01  5.734227E-03 6.596725E+01  9.919401E-01 -2.065192E+01 
1.796875000E+02  9.859153E-01 -2.858262E+01  5.670748E-03 6.500911E+01  5.652201E-03 6.495388E+01  9.918022E-01 -2.074160E+01 
1.807500000E+02  9.850680E-01 -2.864472E+01  5.825813E-03 6.594686E+01  5.806321E-03 6.587417E+01  9.917281E-01 -2.082416E+01 
1.818125000E+02  9.858580E-01 -2.878862E+01  5.767217E-03 6.571491E+01  5.741975E-03 6.580633E+01  9.918740E-01 -2.093095E+01 
1.828750000E+02  9.859255E-01 -2.895722E+01  5.765206E-03 6.501559E+01  5.754391E-03 6.500368E+01  9.920649E-01 -2.101467E+01 
1.839375000E+02  9.859335E-01 -2.911926E+01  5.804379E-03 6.527573E+01  5.792985E-03 6.521981E+01  9.922308E-01 -2.113054E+01 
1.850000000E+02  9.856226E-01 -2.929501E+01  5.871226E-03 6.509197E+01  5.857102E-03 6.499934E+01  9.921500E-01 -2.126748E+01 
1.860625000E+02  9.852752E-01 -2.949000E+01  5.855375E-03 6.377822E+01  5.827888E-03 6.365075E+01  9.919704E-01 -2.143167E+01 
1.871250000E+02  9.857369E-01 -2.964900E+01  6.036291E-03 6.508183E+01  6.010226E-03 6.512561E+01  9.923039E-01 -2.155084E+01 
1.881875000E+02  9.859532E-01 -2.982357E+01  5.869201E-03 6.497628E+01  5.859908E-03 6.493554E+01  9.927694E-01 -2.169079E+01 
1.892500000E+02  9.845826E-01 -2.996365E+01  6.027847E-03 6.377088E+01  6.002085E-03 6.376038E+01  9.911127E-01 -2.172830E+01 
1.903125000E+02  9.849132E-01 -3.011833E+01  6.053606E-03 6.376349E+01  6.028941E-03 6.381504E+01  9.918818E-01 -2.186608E+01 
1.913750000E+02  9.844191E-01 -3.027702E+01  6.092416E-03 6.479511E+01  6.067172E-03 6.479986E+01  9.915118E-01 -2.199586E+01 
1.924375000E+02  9.840782E-01 -3.043681E+01  6.069212E-03 6.395835E+01  6.049857E-03 6.385500E+01  9.909355E-01 -2.210781E+01 
1.935000000E+02  9.831071E-01 -3.058499E+01  6.052011E-03 6.334059E+01  6.034362E-03 6.328768E+01  9.897508E-01 -2.221157E+01 
1.945625000E+02  9.831622E-01 -3.075638E+01  6.151596E-03 6.411038E+01  6.141630E-03 6.400074E+01  9.898888E-01 -2.234148E+01 
1.956250000E+02  9.841061E-01 -3.095323E+01  6.065318E-03 6.333232E+01  6.040287E-03 6.330100E+01  9.911571E-01 -2.247969E+01 
1.966875000E+02  9.839901E-01 -3.113678E+01  6.220673E-03 6.182703E+01  6.215272E-03 6.177840E+01  9.914447E-01 -2.261202E+01 
1.977500000E+02  9.841100E-01 -3.134169E+01  6.203320E-03 6.411927E+01  6.191265E-03 6.408857E+01  9.915275E-01 -2.275687E+01 
1.988125000E+02  9.830796E-01 -3.143150E+01  6.168697E-03 6.309594E+01  6.153138E-03 6.306360E+01  9.912305E-01 -2.284585E+01 
1.998750000E+02  9.836285E-01 -3.157683E+01  6.201341E-03 6.286040E+01  6.181798E-03 6.270436E+01  9.911471E-01 -2.295489E+01 
2.009375000E+02  9.836537E-01 -3.174035E+01  6.340375E-03 6.273382E+01  6.320916E-03 6.263678E+01  9.913883E-01 -2.309022E+01 
2.020000000E+02  9.834773E-01 -3.195334E+01  6.315816E-03 6.281251E+01  6.292106E-03 6.274153E+01  9.917063E-01 -2.325219E+01 
2.030625000E+02  9.832890E-01 -3.212888E+01  6.360283E-03 6.321122E+01  6.347638E-03 6.322076E+01  9.916291E-01 -2.338767E+01 
2.041250000E+02  9.830417E-01 -3.228724E+01  6.243953E-03 6.230397E+01  6.227724E-03 6.232252E+01  9.914455E-01 -2.349187E+01 
2.051875000E+02  9.832115E-01 -3.238909E+01  6.325369E-03 6.106696E+01  6.304174E-03 6.103813E+01  9.912136E-01 -2.356240E+01 
2.062500000E+02  9.829508E-01 -3.258376E+01  6.443165E-03 6.236299E+01  6.416233E-03 6.248338E+01  9.913598E-01 -2.370814E+01 
2.073125000E+02  9.816651E-01 -3.267834E+01  6.429237E-03 6.131161E+01  6.411861E-03 6.131334E+01  9.901397E-01 -2.374585E+01 
2.083750000E+02  9.823253E-01 -3.281612E+01  6.496929E-03 6.273598E+01  6.477558E-03 6.277692E+01  9.907327E-01 -2.387175E+01 
2.094375000E+02  9.828903E-01 -3.296458E+01  6.442057E-03 6.219275E+01  6.424235E-03 6.221554E+01  9.909623E-01 -2.400459E+01 
2.105000000E+02  9.829186E-01 -3.313171E+01  6.526930E-03 6.160141E+01  6.510175E-03 6.161738E+01  9.911248E-01 -2.413303E+01 
2.115625000E+02  9.829268E-01 -3.327000E+01  6.547058E-03 6.159839E+01  6.521512E-03 6.169652E+01  9.908499E-01 -2.424805E+01 
2.126250000E+02  9.827793E-01 -3.342529E+01  6.511404E-03 6.088214E+01  6.482568E-03 6.089070E+01  9.906593E-01 -2.436980E+01 
2.136875000E+02  9.829040E-01 -3.358826E+01  6.693290E-03 6.132743E+01  6.664098E-03 6.127026E+01  9.906594E-01 -2.449647E+01 
2.147500000E+02  9.829881E-01 -3.377508E+01  6.518503E-03 6.123877E+01  6.496582E-03 6.119835E+01  9.909803E-01 -2.461084E+01 
2.158125000E+02  9.832995E-01 -3.397861E+01  6.625948E-03 6.095249E+01  6.601474E-03 6.096282E+01  9.905163E-01 -2.477884E+01 
2.168750000E+02  9.829455E-01 -3.407220E+01  6.713100E-03 6.078343E+01  6.688601E-03 6.088683E+01  9.901293E-01 -2.485518E+01 
2.179375000E+02  9.833629E-01 -3.423744E+01  6.676796E-03 6.067325E+01  6.668387E-03 6.077308E+01  9.904027E-01 -2.496227E+01 
2.190000000E+02  9.831517E-01 -3.438302E+01  6.716200E-03 6.062176E+01  6.706691E-03 6.058671E+01  9.906759E-01 -2.507183E+01 
2.200625000E+02  9.828568E-01 -3.455584E+01  6.730572E-03 6.088647E+01  6.713479E-03 6.083771E+01  9.906224E-01 -2.518821E+01 
2.211250000E+02  9.828106E-01 -3.473385E+01  6.759393E-03 6.027307E+01  6.741063E-03 6.032097E+01  9.901218E-01 -2.528533E+01 
2.221875000E+02  9.825750E-01 -3.490167E+01  6.852371E-03 6.108575E+01  6.830107E-03 6.109119E+01  9.900967E-01 -2.538824E+01 
2.232500000E+02  9.826232E-01 -3.500867E+01  6.684695E-03 6.046870E+01  6.678252E-03 6.043520E+01  9.904852E-01 -2.551736E+01 
2.243125000E+02  9.828959E-01 -3.515999E+01  6.876733E-03 5.941193E+01  6.839744E-03 5.939893E+01  9.908479E-01 -2.568689E+01 
2.253750000E+02  9.821335E-01 -3.524191E+01  6.932319E-03 5.974000E+01  6.904908E-03 5.964825E+01  9.904765E-01 -2.568926E+01 
2.264375000E+02  9.829500E-01 -3.535159E+01  6.901350E-03 5.994471E+01  6.869699E-03 5.989744E+01  9.915294E-01 -2.578728E+01 
2.275000000E+02  9.828363E-01 -3.552061E+01  6.955998E-03 5.943560E+01  6.925393E-03 5.934867E+01  9.910727E-01 -2.591245E+01 
2.285625000E+02  9.829042E-01 -3.571106E+01  6.899022E-03 5.952441E+01  6.881872E-03 5.941859E+01  9.905909E-01 -2.605495E+01 
2.296250000E+02  9.828638E-01 -3.594250E+01  6.904268E-03 5.923293E+01  6.878121E-03 5.929469E+01  9.896382E-01 -2.627697E+01 
2.306875000E+02  9.825370E-01 -3.620266E+01  7.015150E-03 5.807155E+01  6.993226E-03 5.828561E+01  9.893367E-01 -2.651977E+01 
2.317500000E+02  9.824401E-01 -3.646007E+01  7.127594E-03 5.941375E+01  7.109402E-03 5.940498E+01  9.884425E-01 -2.673605E+01 
2.328125000E+02  9.841946E-01 -3.621708E+01  7.008760E-03 5.938117E+01  6.989324E-03 5.941111E+01  9.906476E-01 -2.639624E+01 
2.338750000E+02  9.833417E-01 -3.653801E+01  7.016223E-03 5.894877E+01  6.986706E-03 5.892780E+01  9.899674E-01 -2.666560E+01 
2.349375000E+02  9.829084E-01 -3.658565E+01  7.093467E-03 5.840826E+01  7.068505E-03 5.840905E+01  9.899572E-01 -2.671069E+01 
2.360000000E+02  9.834514E-01 -3.673976E+01  7.108059E-03 5.870100E+01  7.090188E-03 5.871492E+01  9.900284E-01 -2.681185E+01 
2.370625000E+02  9.839539E-01 -3.693004E+01  7.172839E-03 5.812630E+01  7.158181E-03 5.816370E+01  9.902255E-01 -2.695533E+01 
2.381250000E+02  9.839294E-01 -3.708227E+01  7.167936E-03 5.862621E+01  7.138404E-03 5.866900E+01  9.901686E-01 -2.706937E+01 
2.391875000E+02  9.835186E-01 -3.726281E+01  7.285965E-03 5.974581E+01  7.254825E-03 5.966030E+01  9.899911E-01 -2.720611E+01 
2.402500000E+02  9.838441E-01 -3.740692E+01  7.131715E-03 5.795739E+01  7.106609E-03 5.788434E+01  9.900508E-01 -2.731644E+01 
2.413125000E+02  9.840449E-01 -3.759152E+01  7.185244E-03 5.831899E+01  7.168716E-03 5.824209E+01  9.903103E-01 -2.747312E+01 
2.423750000E+02  9.839766E-01 -3.776975E+01  7.232277E-03 5.776545E+01  7.202746E-03 5.772700E+01  9.900919E-01 -2.760805E+01 
2.434375000E+02  9.828449E-01 -3.780260E+01  7.334383E-03 5.732133E+01  7.311397E-03 5.739511E+01  9.893851E-01 -2.758038E+01 
2.445000000E+02  9.842019E-01 -3.794002E+01  7.270124E-03 5.757716E+01  7.256211E-03 5.756598E+01  9.901463E-01 -2.770324E+01 
2.455625000E+02  9.846508E-01 -3.811929E+01  7.359800E-03 5.701740E+01  7.337401E-03 5.700663E+01  9.904236E-01 -2.783875E+01 
2.466250000E+02  9.845217E-01 -3.826991E+01  7.340771E-03 5.755584E+01  7.323615E-03 5.754932E+01  9.904573E-01 -2.796553E+01 
2.476875000E+02  9.847118E-01 -3.844385E+01  7.321166E-03 5.742596E+01  7.295390E-03 5.744725E+01  9.902466E-01 -2.808948E+01 
2.487500000E+02  9.846090E-01 -3.858325E+01  7.298109E-03 5.614956E+01  7.280446E-03 5.618402E+01  9.904539E-01 -2.820264E+01 
2.498125000E+02  9.847445E-01 -3.874062E+01  7.473569E-03 5.744715E+01  7.451409E-03 5.737820E+01  9.904426E-01 -2.832078E+01 
2.508750000E+02  9.846294E-01 -3.887789E+01  7.416300E-03 5.679188E+01  7.386040E-03 5.671744E+01  9.901402E-01 -2.843563E+01 
2.519375000E+02  9.839864E-01 -3.909313E+01  7.479926E-03 5.719491E+01  7.471702E-03 5.720697E+01  9.894885E-01 -2.858033E+01 
2.530000000E+02  9.845135E-01 -3.916380E+01  7.495278E-03 5.632777E+01  7.474609E-03 5.634599E+01  9.897893E-01 -2.866132E+01 
2.540625000E+02  9.847796E-01 -3.932074E+01  7.504746E-03 5.652558E+01  7.474811E-03 5.648725E+01  9.902137E-01 -2.877415E+01 
2.551250000E+02  9.847379E-01 -3.948421E+01  7.484603E-03 5.610177E+01  7.456446E-03 5.607135E+01  9.899851E-01 -2.891049E+01 
2.561875000E+02  9.847417E-01 -3.964079E+01  7.605933E-03 5.602779E+01  7.583677E-03 5.606390E+01  9.898656E-01 -2.902761E+01 
2.572500000E+02  9.849435E-01 -3.980614E+01  7.681980E-03 5.564308E+01  7.648085E-03 5.560418E+01  9.897744E-01 -2.914203E+01 
2.583125000E+02  9.847927E-01 -3.996621E+01  7.611549E-03 5.639530E+01  7.578737E-03 5.632142E+01  9.900942E-01 -2.926316E+01 
2.593750000E+02  9.851052E-01 -4.013984E+01  7.700155E-03 5.539480E+01  7.681251E-03 5.535705E+01  9.902386E-01 -2.939267E+01 
2.604375000E+02  9.852031E-01 -4.031974E+01  7.628680E-03 5.577817E+01  7.608644E-03 5.574725E+01  9.897747E-01 -2.953773E+01 
2.615000000E+02  9.839730E-01 -4.039520E+01  7.641980E-03 5.562777E+01  7.621808E-03 5.558649E+01  9.892212E-01 -2.955114E+01 
2.625625000E+02  9.850304E-01 -4.055205E+01  7.708532E-03 5.528159E+01  7.676633E-03 5.523087E+01  9.900185E-01 -2.967671E+01 
