! Matrix data file written by TouchstoneData, EPCOS AG
! FILENAME: "B3441_NB.s2p"
! COMMENT: "Measurement on PCB, narrowband"
! INFO: nport=2, nfreq=1601
! DATE: "Thu Jul 17 11:23:01 2014"
! USER: "Daniel Harbusch"
!
! port | pin | signal
! -----|-----|--------
!   1  |  2  |  Input
!   2  |  5  |  Output
! --------------------
! 
# MHZ S MA R 50
! freq  magS11 angS11  magS21 angS21  magS12 angS12  magS22 angS22
7.700000000E+02  9.533286E-01 -1.048613E+02  4.007939E-03 1.546092E+01  4.003792E-03 1.567407E+01  9.608385E-01 -8.460614E+01 
7.701250000E+02  9.531209E-01 -1.048817E+02  4.002934E-03 1.561832E+01  4.004402E-03 1.585325E+01  9.606402E-01 -8.462042E+01 
7.702500000E+02  9.530559E-01 -1.048774E+02  4.017930E-03 1.571996E+01  4.009237E-03 1.568799E+01  9.605035E-01 -8.461462E+01 
7.703750000E+02  9.530551E-01 -1.048786E+02  4.007102E-03 1.556084E+01  4.000297E-03 1.552932E+01  9.606056E-01 -8.460528E+01 
7.705000000E+02  9.530893E-01 -1.048730E+02  4.013631E-03 1.532186E+01  4.008914E-03 1.525515E+01  9.607696E-01 -8.461773E+01 
7.706250000E+02  9.529375E-01 -1.048815E+02  3.979402E-03 1.518120E+01  3.973468E-03 1.523800E+01  9.609112E-01 -8.464157E+01 
7.707500000E+02  9.530339E-01 -1.049046E+02  3.972694E-03 1.557751E+01  3.973924E-03 1.557720E+01  9.608049E-01 -8.468159E+01 
7.708750000E+02  9.531128E-01 -1.049217E+02  3.973879E-03 1.515855E+01  3.965635E-03 1.531909E+01  9.609200E-01 -8.470443E+01 
7.710000000E+02  9.530981E-01 -1.049180E+02  3.954618E-03 1.508600E+01  3.949025E-03 1.523238E+01  9.609124E-01 -8.472874E+01 
7.711250000E+02  9.534597E-01 -1.049212E+02  3.930315E-03 1.537804E+01  3.934968E-03 1.536216E+01  9.606096E-01 -8.475515E+01 
7.712500000E+02  9.536668E-01 -1.049506E+02  3.923369E-03 1.550638E+01  3.927382E-03 1.561291E+01  9.601132E-01 -8.477738E+01 
7.713750000E+02  9.535875E-01 -1.049891E+02  3.910862E-03 1.576493E+01  3.912592E-03 1.595308E+01  9.598855E-01 -8.480207E+01 
7.715000000E+02  9.534290E-01 -1.050199E+02  3.943961E-03 1.602110E+01  3.916158E-03 1.615587E+01  9.595800E-01 -8.481288E+01 
7.716250000E+02  9.532992E-01 -1.050313E+02  3.936173E-03 1.572151E+01  3.939257E-03 1.582470E+01  9.594895E-01 -8.481461E+01 
7.717500000E+02  9.531945E-01 -1.050243E+02  3.938061E-03 1.619870E+01  3.924027E-03 1.628637E+01  9.593844E-01 -8.480924E+01 
7.718750000E+02  9.533247E-01 -1.050337E+02  3.940415E-03 1.552498E+01  3.935015E-03 1.548013E+01  9.594077E-01 -8.482939E+01 
7.720000000E+02  9.534253E-01 -1.050606E+02  3.908386E-03 1.563194E+01  3.888920E-03 1.582116E+01  9.592437E-01 -8.485379E+01 
7.721250000E+02  9.533029E-01 -1.050893E+02  3.890698E-03 1.599041E+01  3.897054E-03 1.596724E+01  9.591719E-01 -8.487677E+01 
7.722500000E+02  9.531957E-01 -1.051003E+02  3.894509E-03 1.582397E+01  3.879120E-03 1.593494E+01  9.591478E-01 -8.487881E+01 
7.723750000E+02  9.533596E-01 -1.051020E+02  3.894275E-03 1.616787E+01  3.867656E-03 1.626566E+01  9.591766E-01 -8.489471E+01 
7.725000000E+02  9.534899E-01 -1.051151E+02  3.875822E-03 1.603940E+01  3.865428E-03 1.620408E+01  9.590434E-01 -8.491982E+01 
7.726250000E+02  9.534724E-01 -1.051451E+02  3.880531E-03 1.627087E+01  3.860074E-03 1.644011E+01  9.584840E-01 -8.493398E+01 
7.727500000E+02  9.532333E-01 -1.051779E+02  3.877649E-03 1.657046E+01  3.865802E-03 1.685191E+01  9.583519E-01 -8.493972E+01 
7.728750000E+02  9.531148E-01 -1.051933E+02  3.902670E-03 1.655950E+01  3.897175E-03 1.699506E+01  9.585282E-01 -8.493367E+01 
7.730000000E+02  9.531028E-01 -1.052116E+02  3.873776E-03 1.668928E+01  3.878206E-03 1.682184E+01  9.586913E-01 -8.494588E+01 
7.731250000E+02  9.529219E-01 -1.052330E+02  3.913113E-03 1.649061E+01  3.895500E-03 1.645292E+01  9.586233E-01 -8.496498E+01 
7.732500000E+02  9.524933E-01 -1.052375E+02  3.864661E-03 1.649215E+01  3.860728E-03 1.672066E+01  9.584623E-01 -8.499144E+01 
7.733750000E+02  9.523410E-01 -1.052375E+02  3.892010E-03 1.670476E+01  3.884880E-03 1.691440E+01  9.582612E-01 -8.501698E+01 
7.735000000E+02  9.524019E-01 -1.052400E+02  3.875703E-03 1.684238E+01  3.869616E-03 1.686856E+01  9.579735E-01 -8.503231E+01 
7.736250000E+02  9.527282E-01 -1.052471E+02  3.868125E-03 1.672928E+01  3.863574E-03 1.680117E+01  9.576113E-01 -8.502803E+01 
7.737500000E+02  9.528772E-01 -1.052570E+02  3.878644E-03 1.667900E+01  3.861844E-03 1.680287E+01  9.574683E-01 -8.501901E+01 
7.738750000E+02  9.529917E-01 -1.052818E+02  3.856390E-03 1.711780E+01  3.851522E-03 1.712764E+01  9.573347E-01 -8.503041E+01 
7.740000000E+02  9.528326E-01 -1.053114E+02  3.877378E-03 1.735253E+01  3.874378E-03 1.725973E+01  9.573071E-01 -8.503498E+01 
7.741250000E+02  9.527495E-01 -1.053516E+02  3.884562E-03 1.697843E+01  3.874924E-03 1.731024E+01  9.573617E-01 -8.504255E+01 
7.742500000E+02  9.525447E-01 -1.053541E+02  3.887579E-03 1.682885E+01  3.892400E-03 1.715074E+01  9.575813E-01 -8.504694E+01 
7.743750000E+02  9.524634E-01 -1.053635E+02  3.903861E-03 1.684990E+01  3.885582E-03 1.690756E+01  9.576239E-01 -8.505160E+01 
7.745000000E+02  9.523341E-01 -1.053721E+02  3.887698E-03 1.633200E+01  3.865554E-03 1.664990E+01  9.575463E-01 -8.507048E+01 
7.746250000E+02  9.520644E-01 -1.053818E+02  3.855047E-03 1.663774E+01  3.856391E-03 1.658160E+01  9.574098E-01 -8.509555E+01 
7.747500000E+02  9.520281E-01 -1.053875E+02  3.872346E-03 1.664365E+01  3.858382E-03 1.675088E+01  9.572396E-01 -8.511451E+01 
7.748750000E+02  9.523811E-01 -1.054004E+02  3.858304E-03 1.675969E+01  3.843366E-03 1.667695E+01  9.570072E-01 -8.512023E+01 
7.750000000E+02  9.526327E-01 -1.054122E+02  3.854926E-03 1.644869E+01  3.854332E-03 1.676888E+01  9.570076E-01 -8.510234E+01 
7.751250000E+02  9.526634E-01 -1.054341E+02  3.859627E-03 1.635237E+01  3.851281E-03 1.649483E+01  9.572245E-01 -8.510270E+01 
7.752500000E+02  9.525767E-01 -1.054549E+02  3.831973E-03 1.654850E+01  3.823637E-03 1.671314E+01  9.572060E-01 -8.512567E+01 
7.753750000E+02  9.525513E-01 -1.054698E+02  3.834007E-03 1.630346E+01  3.844021E-03 1.646517E+01  9.573803E-01 -8.514329E+01 
7.755000000E+02  9.525745E-01 -1.054906E+02  3.816080E-03 1.648696E+01  3.803784E-03 1.671801E+01  9.573686E-01 -8.516059E+01 
7.756250000E+02  9.525943E-01 -1.055020E+02  3.823770E-03 1.671717E+01  3.809438E-03 1.683041E+01  9.575567E-01 -8.516714E+01 
7.757500000E+02  9.525528E-01 -1.055003E+02  3.821517E-03 1.691235E+01  3.811643E-03 1.698541E+01  9.576700E-01 -8.518145E+01 
7.758750000E+02  9.527579E-01 -1.055116E+02  3.837469E-03 1.685256E+01  3.822733E-03 1.714914E+01  9.575010E-01 -8.520532E+01 
7.760000000E+02  9.526548E-01 -1.055402E+02  3.832950E-03 1.673136E+01  3.831125E-03 1.702203E+01  9.573131E-01 -8.522700E+01 
7.761250000E+02  9.527750E-01 -1.055641E+02  3.836053E-03 1.637866E+01  3.824230E-03 1.666700E+01  9.572618E-01 -8.523064E+01 
7.762500000E+02  9.527055E-01 -1.055854E+02  3.831485E-03 1.641130E+01  3.808207E-03 1.671705E+01  9.572937E-01 -8.523168E+01 
7.763750000E+02  9.525662E-01 -1.055799E+02  3.843902E-03 1.633852E+01  3.838069E-03 1.657303E+01  9.573749E-01 -8.522866E+01 
7.765000000E+02  9.527468E-01 -1.055820E+02  3.802785E-03 1.617893E+01  3.804400E-03 1.641317E+01  9.576105E-01 -8.521903E+01 
7.766250000E+02  9.526238E-01 -1.056002E+02  3.795961E-03 1.598018E+01  3.790333E-03 1.623524E+01  9.579095E-01 -8.523616E+01 
7.767500000E+02  9.527684E-01 -1.056171E+02  3.765047E-03 1.619577E+01  3.764582E-03 1.612970E+01  9.582890E-01 -8.526952E+01 
7.768750000E+02  9.530487E-01 -1.056374E+02  3.752480E-03 1.626220E+01  3.746384E-03 1.644194E+01  9.585206E-01 -8.529300E+01 
7.770000000E+02  9.531151E-01 -1.056569E+02  3.755088E-03 1.644642E+01  3.744804E-03 1.644392E+01  9.585535E-01 -8.531437E+01 
7.771250000E+02  9.531352E-01 -1.056625E+02  3.747130E-03 1.647197E+01  3.752150E-03 1.664907E+01  9.584985E-01 -8.533668E+01 
7.772500000E+02  9.531766E-01 -1.056908E+02  3.755936E-03 1.637854E+01  3.740040E-03 1.664851E+01  9.583290E-01 -8.535889E+01 
7.773750000E+02  9.528565E-01 -1.057189E+02  3.753184E-03 1.659944E+01  3.749087E-03 1.659910E+01  9.581311E-01 -8.537104E+01 
7.775000000E+02  9.529921E-01 -1.057250E+02  3.741237E-03 1.639341E+01  3.727915E-03 1.683326E+01  9.583150E-01 -8.537312E+01 
7.776250000E+02  9.530169E-01 -1.057398E+02  3.746800E-03 1.666864E+01  3.732239E-03 1.699873E+01  9.585192E-01 -8.537139E+01 
7.777500000E+02  9.530430E-01 -1.057341E+02  3.756943E-03 1.629490E+01  3.754778E-03 1.637110E+01  9.588149E-01 -8.538201E+01 
7.778750000E+02  9.532950E-01 -1.057514E+02  3.730924E-03 1.634775E+01  3.732617E-03 1.665145E+01  9.589688E-01 -8.541146E+01 
7.780000000E+02  9.530632E-01 -1.057795E+02  3.745530E-03 1.608524E+01  3.729424E-03 1.639835E+01  9.591068E-01 -8.544404E+01 
7.781250000E+02  9.530664E-01 -1.057967E+02  3.732232E-03 1.607246E+01  3.722111E-03 1.619818E+01  9.592845E-01 -8.546495E+01 
7.782500000E+02  9.533455E-01 -1.057942E+02  3.719744E-03 1.572729E+01  3.700327E-03 1.595919E+01  9.592871E-01 -8.548624E+01 
7.783750000E+02  9.536571E-01 -1.058000E+02  3.691661E-03 1.554476E+01  3.703427E-03 1.569540E+01  9.594511E-01 -8.549865E+01 
7.785000000E+02  9.539856E-01 -1.058267E+02  3.676569E-03 1.560007E+01  3.661383E-03 1.574870E+01  9.594355E-01 -8.552705E+01 
7.786250000E+02  9.540127E-01 -1.058719E+02  3.651464E-03 1.559027E+01  3.639074E-03 1.575071E+01  9.593527E-01 -8.557007E+01 
7.787500000E+02  9.537487E-01 -1.059097E+02  3.619523E-03 1.590939E+01  3.620503E-03 1.587924E+01  9.593324E-01 -8.558246E+01 
7.788750000E+02  9.536178E-01 -1.059269E+02  3.630914E-03 1.602292E+01  3.620350E-03 1.627244E+01  9.593766E-01 -8.560299E+01 
7.790000000E+02  9.534580E-01 -1.059260E+02  3.623941E-03 1.610387E+01  3.616171E-03 1.638615E+01  9.594829E-01 -8.561486E+01 
7.791250000E+02  9.537608E-01 -1.059191E+02  3.610623E-03 1.624563E+01  3.593301E-03 1.621248E+01  9.595442E-01 -8.563305E+01 
7.792500000E+02  9.538332E-01 -1.059510E+02  3.605961E-03 1.617285E+01  3.602358E-03 1.636947E+01  9.594571E-01 -8.566986E+01 
7.793750000E+02  9.537574E-01 -1.059764E+02  3.597585E-03 1.641539E+01  3.582405E-03 1.664206E+01  9.592891E-01 -8.569340E+01 
7.795000000E+02  9.540241E-01 -1.059893E+02  3.610185E-03 1.625006E+01  3.605644E-03 1.627197E+01  9.592773E-01 -8.572059E+01 
7.796250000E+02  9.544737E-01 -1.059997E+02  3.584395E-03 1.601321E+01  3.586895E-03 1.611676E+01  9.591995E-01 -8.572457E+01 
7.797500000E+02  9.547041E-01 -1.060279E+02  3.560744E-03 1.626478E+01  3.569813E-03 1.635901E+01  9.591961E-01 -8.573856E+01 
7.798750000E+02  9.549188E-01 -1.060570E+02  3.549204E-03 1.606754E+01  3.548971E-03 1.616093E+01  9.593182E-01 -8.575919E+01 
7.800000000E+02  9.548290E-01 -1.061093E+02  3.532744E-03 1.636456E+01  3.522679E-03 1.624123E+01  9.591285E-01 -8.579035E+01 
7.801250000E+02  9.547408E-01 -1.061523E+02  3.523531E-03 1.644856E+01  3.517207E-03 1.671083E+01  9.592149E-01 -8.581012E+01 
7.802500000E+02  9.546490E-01 -1.061869E+02  3.502927E-03 1.636400E+01  3.500701E-03 1.673608E+01  9.592536E-01 -8.582951E+01 
7.803750000E+02  9.542841E-01 -1.062075E+02  3.485712E-03 1.692552E+01  3.489761E-03 1.697512E+01  9.594253E-01 -8.584291E+01 
7.805000000E+02  9.538947E-01 -1.062073E+02  3.515791E-03 1.707025E+01  3.484551E-03 1.727046E+01  9.593539E-01 -8.587148E+01 
7.806250000E+02  9.536136E-01 -1.062068E+02  3.500544E-03 1.701318E+01  3.486631E-03 1.725358E+01  9.591695E-01 -8.591089E+01 
7.807500000E+02  9.538715E-01 -1.062161E+02  3.480768E-03 1.714853E+01  3.471007E-03 1.732337E+01  9.590304E-01 -8.593721E+01 
7.808750000E+02  9.540010E-01 -1.062186E+02  3.483877E-03 1.724565E+01  3.470751E-03 1.758687E+01  9.589818E-01 -8.595791E+01 
7.810000000E+02  9.543373E-01 -1.062212E+02  3.484283E-03 1.742502E+01  3.475761E-03 1.754972E+01  9.588851E-01 -8.597013E+01 
7.811250000E+02  9.548335E-01 -1.062371E+02  3.487481E-03 1.767252E+01  3.481334E-03 1.760870E+01  9.586347E-01 -8.597478E+01 
7.812500000E+02  9.551463E-01 -1.062741E+02  3.477489E-03 1.729097E+01  3.471038E-03 1.755478E+01  9.584858E-01 -8.599624E+01 
7.813750000E+02  9.551560E-01 -1.063203E+02  3.466407E-03 1.759070E+01  3.472911E-03 1.771437E+01  9.585594E-01 -8.600887E+01 
7.815000000E+02  9.552149E-01 -1.063651E+02  3.485261E-03 1.744474E+01  3.473801E-03 1.768623E+01  9.587603E-01 -8.602070E+01 
7.816250000E+02  9.552668E-01 -1.063925E+02  3.468778E-03 1.732916E+01  3.464458E-03 1.751232E+01  9.589625E-01 -8.603226E+01 
7.817500000E+02  9.551214E-01 -1.064147E+02  3.449219E-03 1.724803E+01  3.448401E-03 1.732139E+01  9.590762E-01 -8.604972E+01 
7.818750000E+02  9.549474E-01 -1.064461E+02  3.432510E-03 1.739196E+01  3.431580E-03 1.765416E+01  9.590401E-01 -8.608318E+01 
7.820000000E+02  9.546114E-01 -1.064860E+02  3.443241E-03 1.740525E+01  3.429447E-03 1.766367E+01  9.588986E-01 -8.611921E+01 
7.821250000E+02  9.540955E-01 -1.065140E+02  3.421898E-03 1.732419E+01  3.419647E-03 1.760736E+01  9.587787E-01 -8.614193E+01 
7.822500000E+02  9.539164E-01 -1.065083E+02  3.402601E-03 1.722197E+01  3.387920E-03 1.722958E+01  9.588605E-01 -8.615713E+01 
7.823750000E+02  9.540513E-01 -1.065035E+02  3.376424E-03 1.763442E+01  3.372880E-03 1.768909E+01  9.586703E-01 -8.616809E+01 
7.825000000E+02  9.540519E-01 -1.064980E+02  3.377900E-03 1.781253E+01  3.361127E-03 1.796714E+01  9.586200E-01 -8.617634E+01 
7.826250000E+02  9.542770E-01 -1.065137E+02  3.378413E-03 1.808241E+01  3.373804E-03 1.825404E+01  9.586408E-01 -8.620574E+01 
7.827500000E+02  9.546400E-01 -1.065513E+02  3.385354E-03 1.813072E+01  3.380416E-03 1.832253E+01  9.585827E-01 -8.623043E+01 
7.828750000E+02  9.548446E-01 -1.065885E+02  3.375686E-03 1.789661E+01  3.366230E-03 1.812952E+01  9.585357E-01 -8.624418E+01 
7.830000000E+02  9.549362E-01 -1.066016E+02  3.354598E-03 1.806029E+01  3.351059E-03 1.833510E+01  9.585319E-01 -8.624301E+01 
7.831250000E+02  9.550133E-01 -1.066226E+02  3.360149E-03 1.838393E+01  3.347242E-03 1.843456E+01  9.585521E-01 -8.625831E+01 
7.832500000E+02  9.550510E-01 -1.066608E+02  3.345102E-03 1.825322E+01  3.343914E-03 1.849200E+01  9.585844E-01 -8.627833E+01 
7.833750000E+02  9.550381E-01 -1.067082E+02  3.345930E-03 1.838575E+01  3.344472E-03 1.825770E+01  9.586708E-01 -8.630252E+01 
7.835000000E+02  9.548743E-01 -1.067508E+02  3.332653E-03 1.831589E+01  3.329670E-03 1.846747E+01  9.589450E-01 -8.631212E+01 
7.836250000E+02  9.546450E-01 -1.067709E+02  3.318669E-03 1.859177E+01  3.325512E-03 1.874938E+01  9.591814E-01 -8.633229E+01 
7.837500000E+02  9.543240E-01 -1.067796E+02  3.318541E-03 1.889188E+01  3.335476E-03 1.903203E+01  9.593537E-01 -8.635132E+01 
7.838750000E+02  9.540843E-01 -1.067788E+02  3.335747E-03 1.841494E+01  3.336072E-03 1.863863E+01  9.593618E-01 -8.638121E+01 
7.840000000E+02  9.541327E-01 -1.068044E+02  3.325160E-03 1.870315E+01  3.323289E-03 1.881279E+01  9.592990E-01 -8.641657E+01 
7.841250000E+02  9.542751E-01 -1.068294E+02  3.315722E-03 1.855244E+01  3.309789E-03 1.876546E+01  9.593307E-01 -8.643901E+01 
7.842500000E+02  9.543825E-01 -1.068397E+02  3.298024E-03 1.824193E+01  3.292173E-03 1.849348E+01  9.593489E-01 -8.646100E+01 
7.843750000E+02  9.545579E-01 -1.068476E+02  3.292937E-03 1.844586E+01  3.272537E-03 1.861301E+01  9.592865E-01 -8.647904E+01 
7.845000000E+02  9.548920E-01 -1.068721E+02  3.280416E-03 1.838900E+01  3.272606E-03 1.862899E+01  9.591211E-01 -8.649726E+01 
7.846250000E+02  9.549010E-01 -1.069119E+02  3.270324E-03 1.848861E+01  3.265083E-03 1.881837E+01  9.589301E-01 -8.651740E+01 
7.847500000E+02  9.548665E-01 -1.069518E+02  3.231052E-03 1.870522E+01  3.222925E-03 1.870476E+01  9.588374E-01 -8.653504E+01 
7.848750000E+02  9.548929E-01 -1.069795E+02  3.230843E-03 1.880466E+01  3.215520E-03 1.885859E+01  9.590644E-01 -8.653536E+01 
7.850000000E+02  9.550251E-01 -1.070012E+02  3.213317E-03 1.913703E+01  3.208638E-03 1.925358E+01  9.593739E-01 -8.653661E+01 
7.851250000E+02  9.549819E-01 -1.070313E+02  3.217969E-03 1.921640E+01  3.204207E-03 1.972566E+01  9.597307E-01 -8.655320E+01 
7.852500000E+02  9.548482E-01 -1.070655E+02  3.212830E-03 1.954006E+01  3.207760E-03 1.969333E+01  9.599738E-01 -8.659137E+01 
7.853750000E+02  9.545654E-01 -1.070993E+02  3.208354E-03 1.942546E+01  3.195916E-03 1.959906E+01  9.601012E-01 -8.663942E+01 
7.855000000E+02  9.543789E-01 -1.071157E+02  3.195354E-03 1.964947E+01  3.197925E-03 1.998571E+01  9.601934E-01 -8.666399E+01 
7.856250000E+02  9.544890E-01 -1.071228E+02  3.193317E-03 1.985314E+01  3.188077E-03 2.020570E+01  9.601109E-01 -8.669280E+01 
7.857500000E+02  9.545770E-01 -1.071263E+02  3.201070E-03 2.008672E+01  3.209146E-03 2.023622E+01  9.600059E-01 -8.670295E+01 
7.858750000E+02  9.548400E-01 -1.071405E+02  3.196648E-03 1.970522E+01  3.188994E-03 1.973769E+01  9.598366E-01 -8.672013E+01 
7.860000000E+02  9.548808E-01 -1.071763E+02  3.171945E-03 1.973735E+01  3.187213E-03 1.968126E+01  9.600131E-01 -8.674882E+01 
7.861250000E+02  9.549450E-01 -1.072184E+02  3.160857E-03 1.958115E+01  3.141636E-03 1.993362E+01  9.598113E-01 -8.677345E+01 
7.862500000E+02  9.548448E-01 -1.072475E+02  3.125687E-03 2.027552E+01  3.129146E-03 2.028656E+01  9.598594E-01 -8.678575E+01 
7.863750000E+02  9.548073E-01 -1.072722E+02  3.116308E-03 2.051977E+01  3.115405E-03 2.065462E+01  9.598978E-01 -8.680078E+01 
7.865000000E+02  9.546073E-01 -1.072950E+02  3.100871E-03 2.050829E+01  3.096548E-03 2.083208E+01  9.598993E-01 -8.682056E+01 
7.866250000E+02  9.544533E-01 -1.073251E+02  3.103985E-03 2.096895E+01  3.093391E-03 2.124968E+01  9.599491E-01 -8.685709E+01 
7.867500000E+02  9.544597E-01 -1.073675E+02  3.095852E-03 2.133062E+01  3.101786E-03 2.169504E+01  9.600942E-01 -8.689594E+01 
7.868750000E+02  9.542926E-01 -1.073920E+02  3.132534E-03 2.225930E+01  3.114168E-03 2.234959E+01  9.600789E-01 -8.691824E+01 
7.870000000E+02  9.541507E-01 -1.074055E+02  3.153921E-03 2.205549E+01  3.142193E-03 2.215764E+01  9.601062E-01 -8.693775E+01 
7.871250000E+02  9.539133E-01 -1.074142E+02  3.156585E-03 2.183219E+01  3.155074E-03 2.193065E+01  9.600487E-01 -8.697425E+01 
7.872500000E+02  9.538746E-01 -1.074409E+02  3.150521E-03 2.184302E+01  3.132887E-03 2.196489E+01  9.597833E-01 -8.700991E+01 
7.873750000E+02  9.537921E-01 -1.074751E+02  3.149941E-03 2.174891E+01  3.155117E-03 2.180916E+01  9.597021E-01 -8.704422E+01 
7.875000000E+02  9.536878E-01 -1.075065E+02  3.152226E-03 2.165098E+01  3.146380E-03 2.179790E+01  9.595274E-01 -8.706136E+01 
7.876250000E+02  9.535383E-01 -1.075222E+02  3.130871E-03 2.131717E+01  3.150204E-03 2.146958E+01  9.596422E-01 -8.707431E+01 
7.877500000E+02  9.534471E-01 -1.075319E+02  3.119351E-03 2.142542E+01  3.119451E-03 2.156977E+01  9.596288E-01 -8.709707E+01 
7.878750000E+02  9.533803E-01 -1.075502E+02  3.103821E-03 2.163657E+01  3.104307E-03 2.172055E+01  9.596755E-01 -8.713194E+01 
7.880000000E+02  9.533214E-01 -1.075804E+02  3.112942E-03 2.165217E+01  3.098006E-03 2.167154E+01  9.594864E-01 -8.716457E+01 
7.881250000E+02  9.535303E-01 -1.076135E+02  3.102181E-03 2.160831E+01  3.096233E-03 2.195336E+01  9.594992E-01 -8.719872E+01 
7.882500000E+02  9.535268E-01 -1.076406E+02  3.084182E-03 2.169043E+01  3.088053E-03 2.169674E+01  9.594400E-01 -8.721139E+01 
7.883750000E+02  9.535721E-01 -1.076638E+02  3.080020E-03 2.173405E+01  3.083800E-03 2.174125E+01  9.594747E-01 -8.723166E+01 
7.885000000E+02  9.534406E-01 -1.076950E+02  3.067427E-03 2.202092E+01  3.049463E-03 2.206426E+01  9.594266E-01 -8.726499E+01 
7.886250000E+02  9.530283E-01 -1.077340E+02  3.057869E-03 2.218096E+01  3.055917E-03 2.211678E+01  9.593230E-01 -8.730109E+01 
7.887500000E+02  9.530085E-01 -1.077609E+02  3.056615E-03 2.218687E+01  3.054843E-03 2.248870E+01  9.591823E-01 -8.733611E+01 
7.888750000E+02  9.529919E-01 -1.077905E+02  3.064142E-03 2.225732E+01  3.063865E-03 2.230511E+01  9.591784E-01 -8.735159E+01 
7.890000000E+02  9.528423E-01 -1.078078E+02  3.050016E-03 2.239460E+01  3.034089E-03 2.245381E+01  9.591378E-01 -8.737501E+01 
7.891250000E+02  9.526835E-01 -1.078356E+02  3.063572E-03 2.266115E+01  3.053009E-03 2.274842E+01  9.590304E-01 -8.740138E+01 
