! Matrix data file written by TouchstoneData, EPCOS AG
! FILENAME: "B3440_WB.s2p"
! COMMENT: "AA73B2.WB.2.s2p"
! INFO: nport=2, nfreq=1601
! DATE: "Tue Aug 27 11:24:42 2013"
! USER: "Daniel Harbusch"
!
! port | pin | signal
! -----|-----|--------
!   1  |  5  |  Output
!   2  |  2  |  Input
! --------------------
! 
# MHZ S MA R 50
! freq  magS11 angS11  magS21 angS21  magS12 angS12  magS22 angS22
5.000000000E+01  9.946677E-01 -8.403906E+00  7.710362E-04 7.371344E+01  7.710362E-04 7.371344E+01  9.935680E-01 -8.528794E+00 
5.121875000E+01  9.954301E-01 -8.675832E+00  9.975175E-04 7.660673E+01  9.975175E-04 7.660673E+01  9.943221E-01 -8.824611E+00 
5.243750000E+01  9.956002E-01 -8.925123E+00  8.268385E-04 8.516230E+01  8.268385E-04 8.516230E+01  9.944218E-01 -9.086766E+00 
5.365625000E+01  9.964963E-01 -9.143819E+00  9.445671E-04 7.801708E+01  9.445671E-04 7.801708E+01  9.950798E-01 -9.305788E+00 
5.487500000E+01  9.962634E-01 -9.342436E+00  1.081743E-03 9.020167E+01  1.081743E-03 9.020167E+01  9.946197E-01 -9.524427E+00 
5.609375000E+01  9.960523E-01 -9.559399E+00  1.001414E-03 8.402673E+01  1.001414E-03 8.402673E+01  9.942446E-01 -9.749485E+00 
5.731250000E+01  9.959177E-01 -9.781044E+00  9.941383E-04 7.060693E+01  9.941383E-04 7.060693E+01  9.947286E-01 -9.939373E+00 
5.853125000E+01  9.961565E-01 -9.949445E+00  9.586280E-04 7.908734E+01  9.586280E-04 7.908734E+01  9.948949E-01 -1.016581E+01 
5.975000000E+01  9.959667E-01 -1.016646E+01  1.114241E-03 8.800913E+01  1.114241E-03 8.800913E+01  9.946448E-01 -1.037382E+01 
6.096875000E+01  9.961886E-01 -1.036793E+01  1.097073E-03 7.987172E+01  1.097073E-03 7.987172E+01  9.947128E-01 -1.057639E+01 
6.218750000E+01  9.961693E-01 -1.055913E+01  9.928226E-04 8.089513E+01  9.928226E-04 8.089513E+01  9.945804E-01 -1.080908E+01 
6.340625000E+01  9.962368E-01 -1.077359E+01  1.023488E-03 8.416992E+01  1.023488E-03 8.416992E+01  9.942541E-01 -1.102839E+01 
6.462500000E+01  9.958768E-01 -1.092631E+01  1.252231E-03 8.149795E+01  1.252231E-03 8.149795E+01  9.942445E-01 -1.115052E+01 
6.584375000E+01  9.964402E-01 -1.114799E+01  1.195978E-03 7.588821E+01  1.195978E-03 7.588821E+01  9.949323E-01 -1.136674E+01 
6.706250000E+01  9.963610E-01 -1.137790E+01  1.153307E-03 8.127082E+01  1.153307E-03 8.127082E+01  9.944941E-01 -1.159250E+01 
6.828125000E+01  9.958226E-01 -1.158790E+01  1.257525E-03 7.471942E+01  1.257525E-03 7.471942E+01  9.941131E-01 -1.179069E+01 
6.950000000E+01  9.956853E-01 -1.181836E+01  1.166993E-03 7.368777E+01  1.166993E-03 7.368777E+01  9.949302E-01 -1.208350E+01 
7.071875000E+01  9.958725E-01 -1.201581E+01  1.237063E-03 7.742656E+01  1.237063E-03 7.742656E+01  9.946470E-01 -1.227088E+01 
7.193750000E+01  9.956937E-01 -1.219803E+01  1.243247E-03 7.999822E+01  1.243247E-03 7.999822E+01  9.944094E-01 -1.244099E+01 
7.315625000E+01  9.954579E-01 -1.237881E+01  1.514946E-03 8.939145E+01  1.514946E-03 8.939145E+01  9.934155E-01 -1.263197E+01 
7.437500000E+01  9.952075E-01 -1.254174E+01  1.395558E-03 8.377895E+01  1.395558E-03 8.377895E+01  9.932707E-01 -1.281386E+01 
7.559375000E+01  9.957048E-01 -1.274405E+01  1.382179E-03 7.889158E+01  1.382179E-03 7.889158E+01  9.934244E-01 -1.300958E+01 
7.681250000E+01  9.958968E-01 -1.296035E+01  1.334282E-03 7.595655E+01  1.334282E-03 7.595655E+01  9.936981E-01 -1.320197E+01 
7.803125000E+01  9.961253E-01 -1.315038E+01  1.378391E-03 7.600936E+01  1.378391E-03 7.600936E+01  9.938264E-01 -1.342091E+01 
7.925000000E+01  9.963861E-01 -1.336277E+01  1.294643E-03 7.593548E+01  1.294643E-03 7.593548E+01  9.938994E-01 -1.363373E+01 
8.046875000E+01  9.963280E-01 -1.356549E+01  1.418185E-03 7.520238E+01  1.418185E-03 7.520238E+01  9.939412E-01 -1.383572E+01 
8.168750000E+01  9.957626E-01 -1.376908E+01  1.455967E-03 7.467646E+01  1.455967E-03 7.467646E+01  9.934151E-01 -1.406370E+01 
8.290625000E+01  9.958124E-01 -1.394555E+01  1.464249E-03 7.220488E+01  1.464249E-03 7.220488E+01  9.923267E-01 -1.417374E+01 
8.412500000E+01  9.959321E-01 -1.413410E+01  1.493419E-03 7.450333E+01  1.493419E-03 7.450333E+01  9.934064E-01 -1.435616E+01 
8.534375000E+01  9.960102E-01 -1.433174E+01  1.507291E-03 7.714321E+01  1.507291E-03 7.714321E+01  9.934011E-01 -1.458589E+01 
8.656250000E+01  9.962636E-01 -1.453492E+01  1.517138E-03 7.417245E+01  1.517138E-03 7.417245E+01  9.934100E-01 -1.479658E+01 
8.778125000E+01  9.959533E-01 -1.472277E+01  1.457056E-03 6.988542E+01  1.457056E-03 6.988542E+01  9.931913E-01 -1.498650E+01 
8.900000000E+01  9.955745E-01 -1.492662E+01  1.529882E-03 7.721637E+01  1.529882E-03 7.721637E+01  9.931527E-01 -1.520151E+01 
9.021875000E+01  9.957346E-01 -1.513371E+01  1.523182E-03 7.776172E+01  1.523182E-03 7.776172E+01  9.931389E-01 -1.542592E+01 
9.143750000E+01  9.955921E-01 -1.533682E+01  1.816325E-03 7.799454E+01  1.816325E-03 7.799454E+01  9.924173E-01 -1.563225E+01 
9.265625000E+01  9.953629E-01 -1.553327E+01  1.616457E-03 7.291980E+01  1.616457E-03 7.291980E+01  9.920036E-01 -1.584997E+01 
9.387500000E+01  9.958954E-01 -1.571326E+01  1.625443E-03 7.738556E+01  1.625443E-03 7.738556E+01  9.919571E-01 -1.604657E+01 
9.509375000E+01  9.961004E-01 -1.592127E+01  1.601257E-03 7.316574E+01  1.601257E-03 7.316574E+01  9.924936E-01 -1.620904E+01 
9.631250000E+01  9.965758E-01 -1.610778E+01  1.671909E-03 7.505305E+01  1.671909E-03 7.505305E+01  9.930383E-01 -1.638636E+01 
9.753125000E+01  9.972112E-01 -1.628848E+01  1.678909E-03 7.147430E+01  1.678909E-03 7.147430E+01  9.933177E-01 -1.658926E+01 
9.875000000E+01  9.970603E-01 -1.647656E+01  1.729510E-03 7.570937E+01  1.729510E-03 7.570937E+01  9.932963E-01 -1.678631E+01 
9.996875000E+01  9.968624E-01 -1.670963E+01  1.683482E-03 7.392183E+01  1.683482E-03 7.392183E+01  9.929123E-01 -1.705478E+01 
1.011875000E+02  9.964362E-01 -1.687953E+01  1.594613E-03 7.898602E+01  1.594613E-03 7.898602E+01  9.920675E-01 -1.718327E+01 
1.024062500E+02  9.967991E-01 -1.705154E+01  1.604727E-03 7.278809E+01  1.604727E-03 7.278809E+01  9.928459E-01 -1.735804E+01 
1.036250000E+02  9.967452E-01 -1.724595E+01  1.778418E-03 6.713492E+01  1.778418E-03 6.713492E+01  9.929455E-01 -1.756745E+01 
1.048437500E+02  9.969940E-01 -1.745765E+01  1.652490E-03 7.616451E+01  1.652490E-03 7.616451E+01  9.928902E-01 -1.778091E+01 
1.060625000E+02  9.969105E-01 -1.768229E+01  1.858359E-03 6.929979E+01  1.858359E-03 6.929979E+01  9.927328E-01 -1.798283E+01 
1.072812500E+02  9.970808E-01 -1.788829E+01  1.831532E-03 7.257415E+01  1.831532E-03 7.257415E+01  9.927557E-01 -1.817347E+01 
1.085000000E+02  9.966649E-01 -1.810685E+01  1.914432E-03 7.196707E+01  1.914432E-03 7.196707E+01  9.926295E-01 -1.837688E+01 
1.097187500E+02  9.963399E-01 -1.829169E+01  1.862465E-03 7.161455E+01  1.862465E-03 7.161455E+01  9.921385E-01 -1.859412E+01 
1.109375000E+02  9.966406E-01 -1.848016E+01  1.954601E-03 7.505047E+01  1.954601E-03 7.505047E+01  9.925942E-01 -1.874584E+01 
1.121562500E+02  9.970322E-01 -1.866219E+01  1.870408E-03 7.283370E+01  1.870408E-03 7.283370E+01  9.928609E-01 -1.896913E+01 
1.133750000E+02  9.970430E-01 -1.887612E+01  1.957843E-03 7.283448E+01  1.957843E-03 7.283448E+01  9.930579E-01 -1.914702E+01 
1.145937500E+02  9.967015E-01 -1.907838E+01  1.959580E-03 6.905974E+01  1.959580E-03 6.905974E+01  9.930462E-01 -1.935707E+01 
1.158125000E+02  9.969622E-01 -1.927957E+01  2.000362E-03 7.265550E+01  2.000362E-03 7.265550E+01  9.929062E-01 -1.956877E+01 
1.170312500E+02  9.968860E-01 -1.948610E+01  2.074315E-03 6.844646E+01  2.074315E-03 6.844646E+01  9.926387E-01 -1.977576E+01 
1.182500000E+02  9.966677E-01 -1.970361E+01  2.045243E-03 6.917129E+01  2.045243E-03 6.917129E+01  9.927598E-01 -2.000890E+01 
1.194687500E+02  9.959976E-01 -1.987362E+01  1.948518E-03 7.613073E+01  1.948518E-03 7.613073E+01  9.919567E-01 -2.010491E+01 
1.206875000E+02  9.963708E-01 -2.005540E+01  2.192128E-03 7.042836E+01  2.192128E-03 7.042836E+01  9.929773E-01 -2.031499E+01 
1.219062500E+02  9.964604E-01 -2.026416E+01  2.000561E-03 7.175829E+01  2.000561E-03 7.175829E+01  9.931339E-01 -2.052965E+01 
1.231250000E+02  9.964339E-01 -2.047479E+01  2.036615E-03 6.987171E+01  2.036615E-03 6.987171E+01  9.932591E-01 -2.074016E+01 
1.243437500E+02  9.964414E-01 -2.065999E+01  2.156867E-03 6.795951E+01  2.156867E-03 6.795951E+01  9.931933E-01 -2.093706E+01 
1.255625000E+02  9.964540E-01 -2.085799E+01  2.074664E-03 6.662605E+01  2.074664E-03 6.662605E+01  9.928306E-01 -2.113867E+01 
1.267812500E+02  9.961845E-01 -2.107651E+01  2.089993E-03 6.934095E+01  2.089993E-03 6.934095E+01  9.928856E-01 -2.135548E+01 
1.280000000E+02  9.953461E-01 -2.126996E+01  2.319013E-03 6.759097E+01  2.319013E-03 6.759097E+01  9.919781E-01 -2.157650E+01 
1.292187500E+02  9.955855E-01 -2.144207E+01  2.164891E-03 6.963457E+01  2.164891E-03 6.963457E+01  9.929253E-01 -2.169626E+01 
1.304375000E+02  9.963821E-01 -2.161712E+01  2.156625E-03 6.944435E+01  2.156625E-03 6.944435E+01  9.932829E-01 -2.184834E+01 
1.316562500E+02  9.961376E-01 -2.179014E+01  2.262858E-03 6.811790E+01  2.262858E-03 6.811790E+01  9.931873E-01 -2.203547E+01 
1.328750000E+02  9.959132E-01 -2.201285E+01  2.245569E-03 6.928508E+01  2.245569E-03 6.928508E+01  9.933048E-01 -2.228417E+01 
1.340937500E+02  9.955646E-01 -2.224238E+01  2.142311E-03 6.682382E+01  2.142311E-03 6.682382E+01  9.932507E-01 -2.251411E+01 
1.353125000E+02  9.958948E-01 -2.239223E+01  2.321294E-03 6.553157E+01  2.321294E-03 6.553157E+01  9.934015E-01 -2.270806E+01 
1.365312500E+02  9.957798E-01 -2.259293E+01  2.121901E-03 7.053868E+01  2.121901E-03 7.053868E+01  9.933900E-01 -2.293729E+01 
1.377500000E+02  9.946483E-01 -2.276974E+01  2.346956E-03 6.260180E+01  2.346956E-03 6.260180E+01  9.926261E-01 -2.298936E+01 
1.389687500E+02  9.946266E-01 -2.296543E+01  2.413168E-03 6.501338E+01  2.413168E-03 6.501338E+01  9.929170E-01 -2.323452E+01 
1.401875000E+02  9.948573E-01 -2.313980E+01  2.235483E-03 6.837519E+01  2.235483E-03 6.837519E+01  9.930927E-01 -2.343680E+01 
1.414062500E+02  9.951179E-01 -2.334151E+01  2.388408E-03 6.655568E+01  2.388408E-03 6.655568E+01  9.931409E-01 -2.364276E+01 
1.426250000E+02  9.950753E-01 -2.355353E+01  2.399453E-03 6.635021E+01  2.399453E-03 6.635021E+01  9.932997E-01 -2.384732E+01 
1.438437500E+02  9.944921E-01 -2.375819E+01  2.432554E-03 6.440976E+01  2.432554E-03 6.440976E+01  9.933065E-01 -2.404220E+01 
1.450625000E+02  9.948437E-01 -2.396048E+01  2.480950E-03 6.611187E+01  2.480950E-03 6.611187E+01  9.932311E-01 -2.424324E+01 
1.462812500E+02  9.939618E-01 -2.414611E+01  2.542180E-03 6.905542E+01  2.542180E-03 6.905542E+01  9.920153E-01 -2.444792E+01 
1.475000000E+02  9.941863E-01 -2.432454E+01  2.432057E-03 6.539099E+01  2.432057E-03 6.539099E+01  9.929657E-01 -2.459171E+01 
1.487187500E+02  9.941085E-01 -2.453538E+01  2.394289E-03 6.651557E+01  2.394289E-03 6.651557E+01  9.929840E-01 -2.481490E+01 
1.499375000E+02  9.942676E-01 -2.473589E+01  2.465478E-03 6.319602E+01  2.465478E-03 6.319602E+01  9.929311E-01 -2.502950E+01 
1.511562500E+02  9.943403E-01 -2.494960E+01  2.578816E-03 6.427753E+01  2.578816E-03 6.427753E+01  9.929046E-01 -2.524438E+01 
1.523750000E+02  9.942720E-01 -2.513610E+01  2.594507E-03 6.609406E+01  2.594507E-03 6.609406E+01  9.928659E-01 -2.542539E+01 
1.535937500E+02  9.944370E-01 -2.532692E+01  2.500249E-03 6.394479E+01  2.500249E-03 6.394479E+01  9.929335E-01 -2.563385E+01 
1.548125000E+02  9.942839E-01 -2.552521E+01  2.526779E-03 6.348427E+01  2.526779E-03 6.348427E+01  9.923581E-01 -2.590469E+01 
1.560312500E+02  9.933480E-01 -2.568403E+01  2.512283E-03 6.880037E+01  2.512283E-03 6.880037E+01  9.919870E-01 -2.595405E+01 
1.572500000E+02  9.938951E-01 -2.587032E+01  2.466595E-03 6.304300E+01  2.466595E-03 6.304300E+01  9.926437E-01 -2.616486E+01 
1.584687500E+02  9.939710E-01 -2.607180E+01  2.669423E-03 6.218805E+01  2.669423E-03 6.218805E+01  9.925816E-01 -2.637378E+01 
1.596875000E+02  9.942131E-01 -2.626774E+01  2.549817E-03 6.422599E+01  2.549817E-03 6.422599E+01  9.928951E-01 -2.658328E+01 
1.609062500E+02  9.943237E-01 -2.646838E+01  2.644102E-03 6.234946E+01  2.644102E-03 6.234946E+01  9.928755E-01 -2.678567E+01 
1.621250000E+02  9.940277E-01 -2.666701E+01  2.711515E-03 6.146003E+01  2.711515E-03 6.146003E+01  9.926660E-01 -2.696662E+01 
1.633437500E+02  9.934604E-01 -2.687659E+01  2.611484E-03 6.319153E+01  2.611484E-03 6.319153E+01  9.923221E-01 -2.718176E+01 
1.645625000E+02  9.928596E-01 -2.707384E+01  2.613221E-03 5.900327E+01  2.613221E-03 5.900327E+01  9.902979E-01 -2.738389E+01 
1.657812500E+02  9.933103E-01 -2.723205E+01  2.730993E-03 6.172197E+01  2.730993E-03 6.172197E+01  9.920150E-01 -2.751707E+01 
1.670000000E+02  9.936357E-01 -2.743489E+01  2.656541E-03 6.148450E+01  2.656541E-03 6.148450E+01  9.921919E-01 -2.773595E+01 
1.682187500E+02  9.930758E-01 -2.762378E+01  2.744879E-03 6.365976E+01  2.744879E-03 6.365976E+01  9.917208E-01 -2.794566E+01 
1.694375000E+02  9.930388E-01 -2.782290E+01  2.738115E-03 6.058900E+01  2.738115E-03 6.058900E+01  9.912682E-01 -2.813626E+01 
1.706562500E+02  9.932263E-01 -2.800680E+01  2.774407E-03 6.153024E+01  2.774407E-03 6.153024E+01  9.914168E-01 -2.833551E+01 
1.718750000E+02  9.938496E-01 -2.822878E+01  2.757986E-03 6.117750E+01  2.757986E-03 6.117750E+01  9.919129E-01 -2.854027E+01 
1.730937500E+02  9.931644E-01 -2.841885E+01  2.744542E-03 6.063061E+01  2.744542E-03 6.063061E+01  9.905272E-01 -2.881241E+01 
1.743125000E+02  9.923487E-01 -2.854561E+01  2.924350E-03 6.208823E+01  2.924350E-03 6.208823E+01  9.903322E-01 -2.881484E+01 
1.755312500E+02  9.930442E-01 -2.874648E+01  2.806994E-03 6.308162E+01  2.806994E-03 6.308162E+01  9.909685E-01 -2.904376E+01 
1.767500000E+02  9.935821E-01 -2.896718E+01  2.857268E-03 5.852838E+01  2.857268E-03 5.852838E+01  9.913621E-01 -2.927821E+01 
1.779687500E+02  9.939230E-01 -2.924065E+01  2.882411E-03 6.176710E+01  2.882411E-03 6.176710E+01  9.915532E-01 -2.957624E+01 
1.791875000E+02  9.940701E-01 -2.938533E+01  2.798971E-03 6.153446E+01  2.798971E-03 6.153446E+01  9.913136E-01 -2.972461E+01 
1.804062500E+02  9.941020E-01 -2.957451E+01  2.893778E-03 6.063658E+01  2.893778E-03 6.063658E+01  9.912201E-01 -2.988016E+01 
1.816250000E+02  9.935086E-01 -2.976303E+01  2.798601E-03 6.038243E+01  2.798601E-03 6.038243E+01  9.909173E-01 -3.009266E+01 
1.828437500E+02  9.929325E-01 -2.990262E+01  2.899785E-03 6.210514E+01  2.899785E-03 6.210514E+01  9.893177E-01 -3.023564E+01 
1.840625000E+02  9.938353E-01 -3.005066E+01  3.042716E-03 5.946635E+01  3.042716E-03 5.946635E+01  9.905608E-01 -3.039623E+01 
1.852812500E+02  9.943606E-01 -3.028207E+01  2.855443E-03 5.957884E+01  2.855443E-03 5.957884E+01  9.909294E-01 -3.060120E+01 
1.865000000E+02  9.939545E-01 -3.051377E+01  2.923366E-03 6.122386E+01  2.923366E-03 6.122386E+01  9.906405E-01 -3.080971E+01 
1.877187500E+02  9.946771E-01 -3.067961E+01  2.940839E-03 5.981059E+01  2.940839E-03 5.981059E+01  9.911054E-01 -3.097397E+01 
1.889375000E+02  9.948804E-01 -3.087411E+01  2.982952E-03 5.910563E+01  2.982952E-03 5.910563E+01  9.910969E-01 -3.116712E+01 
1.901562500E+02  9.947330E-01 -3.109607E+01  3.044298E-03 5.845280E+01  3.044298E-03 5.845280E+01  9.909901E-01 -3.138968E+01 
1.913750000E+02  9.936824E-01 -3.130572E+01  3.024998E-03 5.793662E+01  3.024998E-03 5.793662E+01  9.884799E-01 -3.170716E+01 
1.925937500E+02  9.929094E-01 -3.140958E+01  3.021613E-03 5.824050E+01  3.021613E-03 5.824050E+01  9.888785E-01 -3.170800E+01 
1.938125000E+02  9.923093E-01 -3.157416E+01  3.090792E-03 5.845422E+01  3.090792E-03 5.845422E+01  9.880507E-01 -3.190600E+01 
1.950312500E+02  9.931854E-01 -3.183315E+01  3.115626E-03 5.866382E+01  3.115626E-03 5.866382E+01  9.893529E-01 -3.214607E+01 
1.962500000E+02  9.935332E-01 -3.208693E+01  3.156848E-03 5.738974E+01  3.156848E-03 5.738974E+01  9.902357E-01 -3.238723E+01 
1.974687500E+02  9.938600E-01 -3.229846E+01  3.208229E-03 5.849714E+01  3.208229E-03 5.849714E+01  9.904245E-01 -3.260861E+01 
1.986875000E+02  9.939918E-01 -3.250094E+01  3.173127E-03 5.715998E+01  3.173127E-03 5.715998E+01  9.904624E-01 -3.279840E+01 
1.999062500E+02  9.942500E-01 -3.267835E+01  3.020799E-03 5.882987E+01  3.020799E-03 5.882987E+01  9.899829E-01 -3.299472E+01 
2.011250000E+02  9.928468E-01 -3.286359E+01  3.095689E-03 5.750109E+01  3.095689E-03 5.750109E+01  9.883975E-01 -3.311845E+01 
2.023437500E+02  9.931792E-01 -3.304903E+01  3.221754E-03 5.785037E+01  3.221754E-03 5.785037E+01  9.895009E-01 -3.332394E+01 
2.035625000E+02  9.933028E-01 -3.324780E+01  3.140801E-03 5.642299E+01  3.140801E-03 5.642299E+01  9.896973E-01 -3.353333E+01 
2.047812500E+02  9.937786E-01 -3.344082E+01  3.254309E-03 5.785222E+01  3.254309E-03 5.785222E+01  9.898346E-01 -3.372746E+01 
2.060000000E+02  9.933382E-01 -3.360373E+01  3.300102E-03 5.674305E+01  3.300102E-03 5.674305E+01  9.895898E-01 -3.392097E+01 
2.072187500E+02  9.933776E-01 -3.376253E+01  3.298861E-03 5.682037E+01  3.298861E-03 5.682037E+01  9.890765E-01 -3.409990E+01 
2.084375000E+02  9.932771E-01 -3.398370E+01  3.241587E-03 5.824456E+01  3.241587E-03 5.824456E+01  9.895577E-01 -3.431389E+01 
2.096562500E+02  9.936162E-01 -3.423798E+01  3.066598E-03 5.715289E+01  3.066598E-03 5.715289E+01  9.872032E-01 -3.461867E+01 
2.108750000E+02  9.933578E-01 -3.432711E+01  3.227926E-03 5.628956E+01  3.227926E-03 5.628956E+01  9.892656E-01 -3.464999E+01 
2.120937500E+02  9.939319E-01 -3.451127E+01  3.360988E-03 5.504347E+01  3.360988E-03 5.504347E+01  9.896128E-01 -3.486876E+01 
2.133125000E+02  9.939757E-01 -3.473366E+01  3.293821E-03 5.478136E+01  3.293821E-03 5.478136E+01  9.897187E-01 -3.506612E+01 
2.145312500E+02  9.934816E-01 -3.497034E+01  3.331189E-03 5.468001E+01  3.331189E-03 5.468001E+01  9.897921E-01 -3.526578E+01 
2.157500000E+02  9.932930E-01 -3.518756E+01  3.297139E-03 5.376801E+01  3.297139E-03 5.376801E+01  9.896855E-01 -3.546814E+01 
2.169687500E+02  9.938822E-01 -3.538720E+01  3.461187E-03 5.356027E+01  3.461187E-03 5.356027E+01  9.896829E-01 -3.568708E+01 
2.181875000E+02  9.937403E-01 -3.559005E+01  3.422260E-03 5.422133E+01  3.422260E-03 5.422133E+01  9.897190E-01 -3.590067E+01 
2.194062500E+02  9.926309E-01 -3.573743E+01  3.429705E-03 5.579318E+01  3.429705E-03 5.579318E+01  9.887824E-01 -3.601220E+01 
2.206250000E+02  9.930000E-01 -3.595496E+01  3.354642E-03 5.365938E+01  3.354642E-03 5.365938E+01  9.892270E-01 -3.624207E+01 
2.218437500E+02  9.927250E-01 -3.617047E+01  3.422046E-03 5.300883E+01  3.422046E-03 5.300883E+01  9.891339E-01 -3.645174E+01 
2.230625000E+02  9.921288E-01 -3.635898E+01  3.345404E-03 5.335571E+01  3.345404E-03 5.335571E+01  9.891813E-01 -3.664045E+01 
2.242812500E+02  9.922035E-01 -3.652534E+01  3.522583E-03 5.450970E+01  3.522583E-03 5.450970E+01  9.897783E-01 -3.684970E+01 
2.255000000E+02  9.925782E-01 -3.665652E+01  3.480965E-03 5.212092E+01  3.480965E-03 5.212092E+01  9.906003E-01 -3.703693E+01 
2.267187500E+02  9.922047E-01 -3.684836E+01  3.518948E-03 5.334001E+01  3.518948E-03 5.334001E+01  9.907614E-01 -3.724307E+01 
2.279375000E+02  9.918266E-01 -3.709774E+01  3.458361E-03 5.345049E+01  3.458361E-03 5.345049E+01  9.870364E-01 -3.746928E+01 
2.291562500E+02  9.916666E-01 -3.725739E+01  3.499646E-03 5.287272E+01  3.499646E-03 5.287272E+01  9.894192E-01 -3.756573E+01 
2.303750000E+02  9.916615E-01 -3.747186E+01  3.481567E-03 5.341850E+01  3.481567E-03 5.341850E+01  9.900628E-01 -3.776973E+01 
2.315937500E+02  9.919026E-01 -3.766831E+01  3.560387E-03 5.068513E+01  3.560387E-03 5.068513E+01  9.903359E-01 -3.798384E+01 
2.328125000E+02  9.920761E-01 -3.779269E+01  3.467895E-03 5.207444E+01  3.467895E-03 5.207444E+01  9.896884E-01 -3.816010E+01 
2.340312500E+02  9.919374E-01 -3.805220E+01  3.505810E-03 5.165668E+01  3.505810E-03 5.165668E+01  9.899208E-01 -3.838289E+01 
2.352500000E+02  9.918551E-01 -3.826166E+01  3.545022E-03 5.232075E+01  3.545022E-03 5.232075E+01  9.897622E-01 -3.858044E+01 
2.364687500E+02  9.917732E-01 -3.847412E+01  3.564871E-03 4.945053E+01  3.564871E-03 4.945053E+01  9.897148E-01 -3.880215E+01 
