! Matrix data file written by TouchstoneData, EPCOS AG
! FILENAME: "AA47A_3_PCB04_V3_10nH_2.4nH_2.4nH_10nH.snp"
! COMMENT: "(TS/AA47A_3_PCB04_V3_10nH_2.4nH_2.4nH_10nH.s"
! INFO: nport=2, nfreq=1601
! DATE: "Mon Jan 14 16:53:41 2013"
! USER: "Wee Chuan Tay"
!
! port | pin | signal
! -----|-----|--------
!   1  |  9  |  Input
!   2  |  6  |  Output
! --------------------
! 
# MHZ S RI R 50
! freq  reS11 imS11  reS21 imS21  reS12 imS12  reS22 imS22
10  -0.985040122679621 0.0355439479614483  -7.93628943125159e-07 8.59208685889384e-07  -7.93628943125159e-07 8.59208685889384e-07  -0.986352397139237 0.0364930746060452 
12.49375  -0.985451723429227 0.0453483496813092  -8.97963596799239e-06 -1.33650677756779e-05  -8.97963596799239e-06 -1.33650677756779e-05  -0.986867169293981 0.0460586106081635 
14.9875  -0.985258880291732 0.0541606229586929  5.83131462808571e-06 -2.02708034147117e-06  5.83131462808571e-06 -2.02708034147117e-06  -0.986851602515489 0.0556074223178279 
17.48125  -0.985382371188306 0.0631928714358281  -6.42207023777001e-06 -3.26409098735682e-07  -6.42207023777001e-06 -3.26409098735682e-07  -0.986325616554539 0.0648524847416496 
19.975  -0.985953635273387 0.0731093212933802  -8.69158543907398e-06 -1.29584061654021e-05  -8.69158543907398e-06 -1.29584061654021e-05  -0.986385808194316 0.0741732288502332 
22.46875  -0.985880563099055 0.0826463702691237  -6.8034713508106e-06 -5.23876347444496e-06  -6.8034713508106e-06 -5.23876347444496e-06  -0.986017375227455 0.0834533561470971 
24.9625  -0.985970979903379 0.0913998719001733  -4.02712621714996e-06 -3.89280273014335e-05  -4.02712621714996e-06 -3.89280273014335e-05  -0.985760188648281 0.0927742018850405 
27.45625  -0.984008444778267 0.10266182633029  5.43423622974586e-07 -1.26985952544387e-05  5.43423622974586e-07 -1.26985952544387e-05  -0.988822276464094 0.100435688481902 
29.95  -0.983190915675891 0.11056981392439  -2.19864788827798e-05 -6.01558574291762e-05  -2.19864788827798e-05 -6.01558574291762e-05  -0.986508396608628 0.110673238636831 
32.44375  -0.977773516571757 0.1198081681438  -1.01652202016691e-05 -6.80783263750378e-05  -1.01652202016691e-05 -6.80783263750378e-05  -0.985234907316822 0.119429966959111 
34.9375  -0.979814697489124 0.130954258390649  -3.73769276741906e-05 -8.23594506383987e-05  -3.73769276741906e-05 -8.23594506383987e-05  -0.985732344769873 0.128179568344174 
37.43125  -0.970633042350511 0.134656481639941  -1.80423868411075e-05 -8.22834786362374e-05  -1.80423868411075e-05 -8.22834786362374e-05  -0.979638152834831 0.140129579962194 
39.925  -0.972315282276858 0.144969770906849  -2.99929686841969e-05 -0.000120426071502025  -2.99929686841969e-05 -0.000120426071502025  -0.98115028213491 0.149001301288127 
42.41875  -0.970586950002354 0.153213855900101  -3.78528316907586e-05 -0.000152196596519922  -3.78528316907586e-05 -0.000152196596519922  -0.97952416443526 0.15739820262798 
44.9125  -0.969787572271516 0.161323658172453  -1.42477541124329e-05 -0.000134612081944781  -1.42477541124329e-05 -0.000134612081944781  -0.977643274529467 0.165305066029454 
47.40625  -0.967958826802669 0.171419156726621  -5.78694438839571e-05 -0.000178532948780729  -5.78694438839571e-05 -0.000178532948780729  -0.976274979776702 0.174473971126758 
49.9  -0.966494231573986 0.179537949979981  -5.56107965913842e-05 -0.000194304465475314  -5.56107965913842e-05 -0.000194304465475314  -0.974304265199377 0.183512622014369 
52.39375  -0.964623004315723 0.188947949276116  -7.2775281378085e-05 -0.000242672266424428  -7.2775281378085e-05 -0.000242672266424428  -0.972359908668647 0.192144671086558 
54.8875  -0.962479779259914 0.198685203685009  -9.30683136531531e-05 -0.000286281244527865  -9.30683136531531e-05 -0.000286281244527865  -0.969841579834093 0.201480289275383 
57.38125  -0.961218929110397 0.207562266543015  -9.23826327003571e-05 -0.000332190663210156  -9.23826327003571e-05 -0.000332190663210156  -0.96844395532652 0.209674515210992 
59.875  -0.958603551724702 0.215648356923956  -0.000100517418469216 -0.000348254701637425  -0.000100517418469216 -0.000348254701637425  -0.966190242857677 0.217581338425697 
62.36875  -0.956869629234246 0.225423259765103  -0.000131253045794003 -0.000402957015822113  -0.000131253045794003 -0.000402957015822113  -0.964533569120449 0.227001315481582 
64.8625  -0.954951299323343 0.234240373895985  -0.000147252503497422 -0.000455343199641564  -0.000147252503497422 -0.000455343199641564  -0.962975523538922 0.23588909979214 
67.35625  -0.952777855017502 0.24333299585107  -0.000188921399823546 -0.000489379240922914  -0.000188921399823546 -0.000489379240922914  -0.960459841716246 0.244329898438851 
69.85  -0.950328562356477 0.252252771908111  -0.00019947396456404 -0.000577142571363566  -0.00019947396456404 -0.000577142571363566  -0.958198203149335 0.25311241639178 
72.34375  -0.947530924424929 0.260888464545334  -0.000237667374872277 -0.000637238080602469  -0.000237667374872277 -0.000637238080602469  -0.955644241764729 0.262240125877499 
74.8375  -0.944939218419461 0.270209491214014  -0.000239293565098763 -0.000688375163693171  -0.000239293565098763 -0.000688375163693171  -0.952791803324719 0.271087143401518 
77.33125  -0.942380692404722 0.278701240735303  -0.000281919743802696 -0.000736585431120257  -0.000281919743802696 -0.000736585431120257  -0.950087757794339 0.279482107020426 
79.825  -0.939426738684599 0.287185419694196  -0.000304763256165143 -0.00082367587134115  -0.000304763256165143 -0.00082367587134115  -0.947450645394608 0.288190511406444 
82.31875  -0.936444255184269 0.295902006286386  -0.000365798827649693 -0.000906914122295293  -0.000365798827649693 -0.000906914122295293  -0.944541189283053 0.296781160460566 
84.8125  -0.933563121828192 0.304550408207285  -0.000403102591239673 -0.00097231608062023  -0.000403102591239673 -0.00097231608062023  -0.941448907125169 0.305339374997478 
87.30625  -0.930310894520997 0.312757646480098  -0.000454708137345646 -0.00106398695643222  -0.000454708137345646 -0.00106398695643222  -0.938561370909166 0.314239949896101 
89.8  -0.927353876497347 0.321463846288384  -0.000510699561911196 -0.00113186409459481  -0.000510699561911196 -0.00113186409459481  -0.935426417328671 0.322862578073841 
92.29375  -0.924074807257214 0.330266744755027  -0.000545400040529258 -0.00123650855186715  -0.000545400040529258 -0.00123650855186715  -0.932172956533766 0.331232541772699 
94.7875  -0.920166216950763 0.339419164523741  -0.000616023053953705 -0.00135223907322655  -0.000616023053953705 -0.00135223907322655  -0.929521572973806 0.339664086500068 
97.28125  -0.917046264202081 0.347449566617203  -0.00068985045627728 -0.00143084693431175  -0.00068985045627728 -0.00143084693431175  -0.925352397625695 0.348606175016889 
99.775  -0.913762259817507 0.355793292418721  -0.000749464955645832 -0.00155146325836123  -0.000749464955645832 -0.00155146325836123  -0.921726532889193 0.357248801441699 
102.26875  -0.910158316113487 0.364044654841985  -0.000816497751114581 -0.00166886255279194  -0.000816497751114581 -0.00166886255279194  -0.918485050376213 0.365116318765179 
104.7625  -0.906131170512123 0.372147956000091  -0.000888826052346333 -0.0017928464984853  -0.000888826052346333 -0.0017928464984853  -0.914528348099934 0.373804306675989 
107.25625  -0.902325357445071 0.380818986031728  -0.000980171698742507 -0.00191906799329479  -0.000980171698742507 -0.00191906799329479  -0.910839340874688 0.382456007362566 
109.75  -0.898751372181223 0.388990582330032  -0.00107020481469643 -0.00204026053359082  -0.00107020481469643 -0.00204026053359082  -0.907138466322237 0.3911305932803 
112.24375  -0.894772335188981 0.397443002051471  -0.00113113539616695 -0.00216446058573274  -0.00113113539616695 -0.00216446058573274  -0.903697452556979 0.399319652648754 
114.7375  -0.890590679204157 0.405506763280802  -0.00125261752560768 -0.0023041354962036  -0.00125261752560768 -0.0023041354962036  -0.89945945311299 0.407723376219069 
117.23125  -0.886687159154609 0.413785433595539  -0.00137478414040426 -0.00245125253213598  -0.00137478414040426 -0.00245125253213598  -0.895815444779963 0.416196942417594 
119.725  -0.882312707277071 0.422314932458054  -0.00150497306231208 -0.00264582053743951  -0.00150497306231208 -0.00264582053743951  -0.891886749284118 0.424526428819371 
122.21875  -0.879003721658392 0.429450325514478  -0.00164568514470325 -0.00282838237176585  -0.00164568514470325 -0.00282838237176585  -0.887719373450975 0.432274153172451 
124.7125  -0.875171679495355 0.438118947510556  -0.00176863471385727 -0.00296947613500847  -0.00176863471385727 -0.00296947613500847  -0.884222677641881 0.440433404021556 
127.20625  -0.87084735947649 0.446139282195614  -0.00181479903698128 -0.00302024134560907  -0.00181479903698128 -0.00302024134560907  -0.880254277294619 0.448735289701035 
129.7  -0.866149725359535 0.454142440031532  -0.00207390051360962 -0.00325778685314472  -0.00207390051360962 -0.00325778685314472  -0.876029947672312 0.456964618270359 
132.19375  -0.861709006926178 0.462388790842264  -0.00221695784258178 -0.00344030289246486  -0.00221695784258178 -0.00344030289246486  -0.871220711777998 0.465306869110286 
134.6875  -0.856726624499156 0.470332679762373  -0.00229238924186363 -0.0036444742038327  -0.00229238924186363 -0.0036444742038327  -0.866751058358842 0.473100669171306 
137.18125  -0.852369861634378 0.478166108368486  -0.00245837764574535 -0.00384545988305617  -0.00245837764574535 -0.00384545988305617  -0.862172487025924 0.481746505063978 
139.675  -0.847445893589886 0.486152846940546  -0.00273215457654682 -0.00405343803077501  -0.00273215457654682 -0.00405343803077501  -0.857567391499476 0.489611470415972 
142.16875  -0.842641793435997 0.493990258860031  -0.0028518032572671 -0.00422214521003152  -0.0028518032572671 -0.00422214521003152  -0.852613796680937 0.497775964037256 
144.6625  -0.837896942122795 0.501726883690379  -0.00305555588390755 -0.00441216527643366  -0.00305555588390755 -0.00441216527643366  -0.847830917116769 0.505733219323689 
147.15625  -0.832665701149781 0.509400037782026  -0.00334223628363856 -0.00467320887074282  -0.00334223628363856 -0.00467320887074282  -0.843186620448705 0.513581549751025 
149.65  -0.827708931322063 0.517548022837497  -0.00351741759849235 -0.00486088197240509  -0.00351741759849235 -0.00486088197240509  -0.83808527866649 0.521087974126071 
152.14375  -0.822650717032514 0.525199020789921  -0.00379491338866963 -0.00510057826850761  -0.00379491338866963 -0.00510057826850761  -0.83326598842774 0.528661201406232 
154.6375  -0.817517235025086 0.533069167780042  -0.00398287344604197 -0.00531218938697635  -0.00398287344604197 -0.00531218938697635  -0.828000789933449 0.536786807868851 
157.13125  -0.812382301844569 0.540590713320889  -0.00417815490474229 -0.00551288527158096  -0.00417815490474229 -0.00551288527158096  -0.822470448762545 0.54492057659562 
159.625  -0.806757504914381 0.548287034821294  -0.00449516610651713 -0.00581146452620575  -0.00449516610651713 -0.00581146452620575  -0.817157575053428 0.552611463603412 
162.11875  -0.801388428747139 0.555703594526251  -0.00483155079386511 -0.00597548723119202  -0.00483155079386511 -0.00597548723119202  -0.811860065634412 0.559907601064378 
164.6125  -0.796107330982003 0.563077654620761  -0.00514998585673667 -0.00625607050325288  -0.00514998585673667 -0.00625607050325288  -0.806212782492215 0.567355709366297 
167.10625  -0.790634254306389 0.571479996916086  -0.00545961942759469 -0.00651189287840727  -0.00545961942759469 -0.00651189287840727  -0.800429970245196 0.575186047367598 
169.6  -0.785242742613304 0.578439891111128  -0.00577912743306005 -0.006777091114946  -0.00577912743306005 -0.006777091114946  -0.795171755325214 0.58287448308732 
172.09375  -0.77961176956952 0.586075188886682  -0.00603259802669931 -0.00703858180859259  -0.00603259802669931 -0.00703858180859259  -0.789320298513664 0.59029705808028 
174.5875  -0.773642870206584 0.593132166941128  -0.00642071054314792 -0.00739428285349586  -0.00642071054314792 -0.00739428285349586  -0.78372212665829 0.597436161073169 
177.08125  -0.768000763195546 0.600766529250614  -0.0068483996724521 -0.00764313553628441  -0.0068483996724521 -0.00764313553628441  -0.777598321298155 0.604850302949419 
179.575  -0.76164139000174 0.608925729556588  -0.00713488728291116 -0.00788554559787098  -0.00713488728291116 -0.00788554559787098  -0.772032100253817 0.612017326030667 
182.06875  -0.75592881030443 0.61558451172283  -0.00763793520714589 -0.00817560287247449  -0.00763793520714589 -0.00817560287247449  -0.765275835322073 0.619507901400053 
184.5625  -0.74960048240598 0.623010699614819  -0.00800637955866026 -0.00862502525032575  -0.00800637955866026 -0.00862502525032575  -0.759272130394628 0.626668016274099 
187.05625  -0.743700482060979 0.630052022662082  -0.00843839802535922 -0.00884667677786037  -0.00843839802535922 -0.00884667677786037  -0.753145262752462 0.633631388650252 
189.55  -0.737474744040877 0.637541588481867  -0.00891977934975887 -0.00899027580267528  -0.00891977934975887 -0.00899027580267528  -0.746032097704864 0.641648601411669 
192.04375  -0.731031555036712 0.644601905655554  -0.00933061299872574 -0.0094217348297939  -0.00933061299872574 -0.0094217348297939  -0.740083034263143 0.648472738490191 
194.5375  -0.724559629846776 0.652153688406902  -0.00989587598080295 -0.00973397318687296  -0.00989587598080295 -0.00973397318687296  -0.733618037499461 0.655475434132629 
197.03125  -0.718242478937261 0.65907133873315  -0.0102956252518323 -0.00995405254389229  -0.0102956252518323 -0.00995405254389229  -0.727018638454122 0.66225415585906 
199.525  -0.711407660908251 0.66677941353955  -0.0109571142019039 -0.0103828755404951  -0.0109571142019039 -0.0103828755404951  -0.72018236134481 0.669590626657124 
202.01875  -0.704909104267444 0.673735252301703  -0.0114398127837913 -0.0106543180126918  -0.0114398127837913 -0.0106543180126918  -0.713586426728213 0.676411272283998 
204.5125  -0.697819125353984 0.680324458626718  -0.0120332203046327 -0.0109973100128103  -0.0120332203046327 -0.0109973100128103  -0.706316789137692 0.683182143486545 
207.00625  -0.690661676816492 0.687709717302  -0.012636403525367 -0.0113009571336168  -0.012636403525367 -0.0113009571336168  -0.699449731782874 0.690079435893423 
209.5  -0.683342423383829 0.694846551416849  -0.0132970454944956 -0.0115421221900752  -0.0132970454944956 -0.0115421221900752  -0.692171925911595 0.696956337245965 
211.99375  -0.676760752623147 0.701496351811425  -0.0139449186657226 -0.0119769960346718  -0.0139449186657226 -0.0119769960346718  -0.685307567239418 0.70356644574673 
214.4875  -0.669420217880351 0.707830317040954  -0.0145639245139088 -0.0122424752317892  -0.0145639245139088 -0.0122424752317892  -0.678015891934965 0.710280854555648 
216.98125  -0.662028225977656 0.715205847419814  -0.0153361942345985 -0.0125767745505113  -0.0153361942345985 -0.0125767745505113  -0.670661799487444 0.717018680078872 
219.475  -0.654293363190691 0.721971303786281  -0.0159881057252454 -0.0128541744861739  -0.0159881057252454 -0.0128541744861739  -0.663426263634231 0.723510788169108 
221.96875  -0.646712198166071 0.728302478675572  -0.0168160733233809 -0.0132141753231714  -0.0168160733233809 -0.0132141753231714  -0.656030766032597 0.730256043887727 
224.4625  -0.638887595721334 0.735239935780743  -0.017632231404536 -0.0135519256614011  -0.017632231404536 -0.0135519256614011  -0.648520913713344 0.736540177100695 
226.95625  -0.631182402960294 0.741830665336263  -0.0183765239110198 -0.0138495118933291  -0.0183765239110198 -0.0138495118933291  -0.641003979172436 0.742773347452945 
229.45  -0.623215808700376 0.748502486026917  -0.0192671729284815 -0.0141932085189298  -0.0192671729284815 -0.0141932085189298  -0.632940136507286 0.749794266647892 
231.94375  -0.615356849440629 0.754906974118958  -0.0200733285141866 -0.0144968707697739  -0.0200733285141866 -0.0144968707697739  -0.625163978773691 0.75622019251166 
234.4375  -0.606995942825854 0.761410660237876  -0.0210113856030387 -0.0147738507524012  -0.0210113856030387 -0.0147738507524012  -0.617271853758126 0.762389624977319 
236.93125  -0.59883377347378 0.767473773245984  -0.0219140917251821 -0.0151338829915946  -0.0219140917251821 -0.0151338829915946  -0.609333160822343 0.768809268832048 
239.425  -0.590265663299549 0.773842213659763  -0.0228642964282296 -0.0154211918051092  -0.0228642964282296 -0.0154211918051092  -0.601200171470523 0.774827640809913 
241.91875  -0.581735807143446 0.779999622375526  -0.0239384479511742 -0.0157702354801415  -0.0239384479511742 -0.0157702354801415  -0.593349102654167 0.781107998905236 
244.4125  -0.573415974353789 0.785797639858211  -0.0249927025343161 -0.0160359200724149  -0.0249927025343161 -0.0160359200724149  -0.584685980798959 0.787462838650211 
246.90625  -0.564492749739599 0.792002286971482  -0.0260051246985116 -0.0163979675343932  -0.0260051246985116 -0.0163979675343932  -0.576357487743217 0.793575458173956 
249.4  -0.55603413284046 0.797599392108977  -0.0270846504460156 -0.0165969274569603  -0.0270846504460156 -0.0165969274569603  -0.567915269533465 0.799609952443422 
251.89375  -0.546903214875094 0.803331899777608  -0.0282389508512605 -0.0169070224779375  -0.0282389508512605 -0.0169070224779375  -0.559360530289694 0.80549886259645 
254.3875  -0.537344921307231 0.809062899839585  -0.0293820967064303 -0.0170723846835687  -0.0293820967064303 -0.0170723846835687  -0.550465467334237 0.811767706981618 
256.88125  -0.528323932824968 0.814306359941666  -0.0306413286356731 -0.0174607380171554  -0.0306413286356731 -0.0174607380171554  -0.541430914138362 0.817480419154741 
259.375  -0.519135074555854 0.820151387958047  -0.0319074710857838 -0.0176311384573063  -0.0319074710857838 -0.0176311384573063  -0.532654867894607 0.823333631156768 
261.86875  -0.510065146943449 0.825679478455175  -0.033276782198263 -0.0179566888995057  -0.033276782198263 -0.0179566888995057  -0.523650872995168 0.828976998989812 
264.3625  -0.500615828235051 0.83145642840766  -0.0344880705901178 -0.0181194703526869  -0.0344880705901178 -0.0181194703526869  -0.514631805332258 0.834782310963495 
266.85625  -0.491215362283223 0.836365324934794  -0.0359696035291238 -0.0184050554858079  -0.0359696035291238 -0.0184050554858079  -0.504851783049241 0.839863800538789 
269.35  -0.481650045811992 0.841573069972844  -0.037282546380634 -0.018580344170652  -0.037282546380634 -0.018580344170652  -0.495766449073248 0.845592301001995 
271.84375  -0.471832789317974 0.846569270090227  -0.038799960668857 -0.0187668201038526  -0.038799960668857 -0.0187668201038526  -0.486185906690627 0.851157567699798 
274.3375  -0.462397152052814 0.851917208381822  -0.0402469710222101 -0.0189298521676067  -0.0402469710222101 -0.0189298521676067  -0.476760026316161 0.856147872501977 
276.83125  -0.452347588996676 0.856108987058047  -0.0418164982923672 -0.0190799293628231  -0.0418164982923672 -0.0190799293628231  -0.467003451966236 0.860939163946965 
279.325  -0.442547943329658 0.860319347121494  -0.043400122985272 -0.0192460339803223  -0.043400122985272 -0.0192460339803223  -0.457243408822996 0.866343471333721 
281.81875  -0.432390582045983 0.865592428434821  -0.0451256371807757 -0.0192344514267505  -0.0451256371807757 -0.0192344514267505  -0.447324444250434 0.871807422776775 
284.3125  -0.422415708808426 0.869766225573956  -0.0467704723347679 -0.0193453264309426  -0.0467704723347679 -0.0193453264309426  -0.437502106805451 0.876394006177829 
286.80625  -0.411591487926784 0.874332640395053  -0.0485359751200908 -0.0194945056682631  -0.0485359751200908 -0.0194945056682631  -0.426828604313879 0.881318106047917 
289.3  -0.401407130422978 0.87865157073119  -0.050397045013153 -0.0194630880426711  -0.050397045013153 -0.0194630880426711  -0.416885925694621 0.886249439396147 
291.79375  -0.390474658618649 0.883009590820342  -0.0521747447831411 -0.0194190305681893  -0.0521747447831411 -0.0194190305681893  -0.405963867958146 0.890981145799174 
