! Matrix data file written by TouchstoneData, EPCOS AG
! FILENAME: "AB75A.WB.1.pli.snp"
! COMMENT: "(TS/AB75A.WB.1.s4p)"
! INFO: nport=4, nfreq=1601
! DATE: "Fri Sep  6 13:50:22 2013"
! USER: "BengChuan Ng"
!
! port | pin | signal
! -----|-----|--------
!   1  |  1  | input
!   2  |  2  | coupling
!   3  |  3  | coupling
!   4  |  4  | output
! --------------------
! 
# MHZ S RI R 50
! freq  reS11 imS11  reS12 imS12  reS13 imS13  reS14 imS14  ...
100  0.753559065718731 -0.508380693731501  0.251283397128879 0.320266930596702  -0.0169095109157019 0.0331760232523553  -0.011719313941477 -0.000565621236629009 
 0.251283397128879 0.320266930596702  0.664304726294075 -0.596458404980112  0.112580262500512 0.114127258680169  -0.0191955211366059 0.0484109613222166 
 -0.0169095109157019 0.0331760232523553  0.112580262500512 0.114127258680169  0.490797710624543 -0.663759316003326  0.390539412276067 0.353316235767708 
 -0.011719313941477 -0.000565621236629009  -0.0191955211366059 0.0484109613222166  0.390539412276067 0.353316235767708  0.632674637186832 -0.56798044700037 
101.1875  0.749740810384463 -0.510783877056374  0.254994137322775 0.322018684602353  -0.0168077734886448 0.0337436827309708  -0.0119325792846343 -0.000464313094584054 
 0.254994137322775 0.322018684602353  0.659285935033013 -0.598362498703381  0.113593925081538 0.114180382023013  -0.019021763430253 0.0493006044388166 
 -0.0168077734886448 0.0337436827309708  0.113593925081538 0.114180382023013  0.484178639083012 -0.664170474219451  0.395253687404549 0.353382542625447 
 -0.0119325792846343 -0.000464313094584054  -0.019021763430253 0.0493006044388166  0.395253687404549 0.353382542625447  0.627421713593805 -0.570149149979197 
102.375  0.745662947225122 -0.514671623132802  0.259622184153436 0.322767215422925  -0.0168888927856714 0.0346614946242935  -0.0123326322618556 -0.000447028076146679 
 0.259622184153436 0.322767215422925  0.654031601334239 -0.602307708420297  0.115290348363092 0.114115772990599  -0.0187243021229745 0.0503479825626147 
 -0.0168888927856714 0.0346614946242935  0.115290348363092 0.114115772990599  0.478217845739325 -0.666951171506937  0.400593347012757 0.35291846096101 
 -0.0123326322618556 -0.000447028076146679  -0.0187243021229745 0.0503479825626147  0.400593347012757 0.35291846096101  0.622404586233656 -0.572387211138733 
103.5625  0.741177748048987 -0.518155821875871  0.263897727193074 0.323587118772674  -0.0166240276131535 0.0352698696791736  -0.0126940949689139 -0.000299772471851628 
 0.263897727193074 0.323587118772674  0.648144745562716 -0.605937526034614  0.116717851747735 0.114058791508102  -0.0185003620767775 0.0514158896605284 
 -0.0166240276131535 0.0352698696791736  0.116717851747735 0.114058791508102  0.47128981776802 -0.669093700244843  0.405846903685374 0.352338191202027 
 -0.0126940949689139 -0.000299772471851628  -0.0185003620767775 0.0514158896605284  0.405846903685374 0.352338191202027  0.617442955635922 -0.574966190099339 
104.75  0.736785031437615 -0.521732087119978  0.267934833618872 0.324413943385632  -0.0166136150389381 0.0357822354689418  -0.012950357939581 -0.000118890476010138 
 0.267934833618872 0.324413943385632  0.642700638567734 -0.609343361815616  0.118159332157366 0.113927940595523  -0.0182273841416695 0.0523045993783564 
 -0.0166136150389381 0.0357822354689418  0.118159332157366 0.113927940595523  0.464325657096212 -0.670753605827036  0.411017362908011 0.351305702710286 
 -0.012950357939581 -0.000118890476010138  -0.0182273841416695 0.0523045993783564  0.411017362908011 0.351305702710286  0.611784294442514 -0.577241848815628 
105.9375  0.732277365375178 -0.525217598557207  0.272199854521893 0.325019925521326  -0.0163783593792487 0.0367357113005278  -0.013360189318207 -4.50181065407754e-05 
 0.272199854521893 0.325019925521326  0.636819249417915 -0.612687557757215  0.119378087506724 0.113590611563776  -0.0178343596093912 0.0532979982464981 
 -0.0163783593792487 0.0367357113005278  0.119378087506724 0.113590611563776  0.457235322273086 -0.672775984350439  0.416139224149241 0.350149687487508 
 -0.013360189318207 -4.50181065407754e-05  -0.0178343596093912 0.0532979982464981  0.416139224149241 0.350149687487508  0.606165951629723 -0.579726190699235 
107.125  0.727652396146266 -0.528886409635782  0.276474606214454 0.325808359906029  -0.0163632385278007 0.0374379629645563  -0.013717477021529 0.000156345526478738 
 0.276474606214454 0.325808359906029  0.631269004178637 -0.61590992155813  0.120730176637219 0.113444516718448  -0.0174600897740901 0.0542500329703848 
 -0.0163632385278007 0.0374379629645563  0.120730176637219 0.113444516718448  0.450668400383996 -0.674305837279477  0.421346139746124 0.349002422849249 
 -0.013717477021529 0.000156345526478738  -0.0174600897740901 0.0542500329703848  0.421346139746124 0.349002422849249  0.600657093003613 -0.581944106445522 
108.3125  0.723142730909881 -0.531899145291728  0.280614682947764 0.326393768245665  -0.0161629189473357 0.0381602362459769  -0.0140071993808855 0.000267389812539444 
 0.280614682947764 0.326393768245665  0.625651538425611 -0.618916560378636  0.121934568840617 0.113236440633664  -0.0172125837036878 0.0550855826939304 
 -0.0161629189473357 0.0381602362459769  0.121934568840617 0.113236440633664  0.443956034035394 -0.675803697114168  0.425712824600793 0.347958925173559 
 -0.0140071993808855 0.000267389812539444  -0.0172125837036878 0.0550855826939304  0.425712824600793 0.347958925173559  0.59508734174296 -0.583510790037015 
109.5  0.718703898371818 -0.53529522990498  0.284841483945808 0.326966337910066  -0.0159555754598104 0.0387109039266743  -0.0143884620378482 0.000418940902555358 
 0.284841483945808 0.326966337910066  0.619670725247059 -0.622327364726767  0.123474647649276 0.113131828134509  -0.0169026767912242 0.0561719312298055 
 -0.0159555754598104 0.0387109039266743  0.123474647649276 0.113131828134509  0.437201722063147 -0.677272535144952  0.430590668559772 0.346850368031242 
 -0.0143884620378482 0.000418940902555358  -0.0169026767912242 0.0561719312298055  0.430590668559772 0.346850368031242  0.590006907763414 -0.585597140623335 
110.6875  0.714640986032935 -0.538336550102411  0.288921782857854 0.327797657636199  -0.0158473509333661 0.0394811677557621  -0.014725268710604 0.000584708258971827 
 0.288921782857854 0.327797657636199  0.614509709652799 -0.625013481454303  0.124328669492863 0.112815682085259  -0.0164639505879361 0.0570523540780277 
 -0.0158473509333661 0.0394811677557621  0.124328669492863 0.112815682085259  0.431656311624201 -0.678252806471022  0.43533920667891 0.346246907588056 
 -0.014725268710604 0.000584708258971827  -0.0164639505879361 0.0570523540780277  0.43533920667891 0.346246907588056  0.585145018491395 -0.587510364448872 
111.875  0.710280499803745 -0.541398334007896  0.293161769748628 0.328100031530931  -0.0158557930367393 0.0401627340604376  -0.0150960093010397 0.000810574292233665 
 0.293161769748628 0.328100031530931  0.60887573936368 -0.627878910528884  0.125588017466949 0.112833671217369  -0.0162353649348226 0.0578108033156731 
 -0.0158557930367393 0.0401627340604376  0.125588017466949 0.112833671217369  0.425170271975089 -0.679967724958537  0.440171549280621 0.344992941763879 
 -0.0150960093010397 0.000810574292233665  -0.0162353649348226 0.0578108033156731  0.440171549280621 0.344992941763879  0.580156697830015 -0.589309965656229 
113.0625  0.706019936181252 -0.544621183572097  0.297271073694309 0.328473746299036  -0.0155592368370745 0.0408655882021436  -0.0156440913252082 0.000862854907340037 
 0.297271073694309 0.328473746299036  0.603255621130163 -0.630924870114258  0.12663581892195 0.112647655133394  -0.0157698270161863 0.058837480329271 
 -0.0155592368370745 0.0408655882021436  0.12663581892195 0.112647655133394  0.41892036785004 -0.681531011855209  0.444757264267015 0.343873733299248 
 -0.0156440913252082 0.000862854907340037  -0.0157698270161863 0.058837480329271  0.444757264267015 0.343873733299248  0.57518247184042 -0.591279934457302 
114.25  0.701812206516194 -0.547578185404732  0.301171562686243 0.328958645908699  -0.0155211248254261 0.0415077014408993  -0.0159850271251571 0.00114327004050609 
 0.301171562686243 0.328958645908699  0.597920806982995 -0.63384212233064  0.127794554555817 0.112413391712244  -0.0154560563970833 0.05969567023253 
 -0.0155211248254261 0.0415077014408993  0.127794554555817 0.112413391712244  0.412499188643669 -0.682829171402667  0.44937947408408 0.342674011411838 
 -0.0159850271251571 0.00114327004050609  -0.0154560563970833 0.05969567023253  0.44937947408408 0.342674011411838  0.57004816286843 -0.593130829044967 
115.4375  0.697092934869211 -0.550733432246413  0.305296006562009 0.329276754850761  -0.0152628922747925 0.0420460537576008  -0.0164308783322979 0.00140981644127698 
 0.305296006562009 0.329276754850761  0.592148624507873 -0.636765717288658  0.128833802170273 0.112247518719936  -0.0150323800972425 0.0605543792763816 
 -0.0152628922747925 0.0420460537576008  0.128833802170273 0.112247518719936  0.405879688157147 -0.683680531455349  0.453787383642735 0.340909107077901 
 -0.0164308783322979 0.00140981644127698  -0.0150323800972425 0.0605543792763816  0.453787383642735 0.340909107077901  0.564800637177378 -0.594342160387383 
116.625  0.692639019662216 -0.553654903721674  0.309417216625017 0.329621918690816  -0.0151298596941002 0.0426986698580656  -0.0167511486639195 0.00159634387199711 
 0.309417216625017 0.329621918690816  0.586554218658541 -0.639313509773167  0.12980085070914 0.111980029267973  -0.0146356597593016 0.0613448830687911 
 -0.0151298596941002 0.0426986698580656  0.12980085070914 0.111980029267973  0.400107404555455 -0.684914315433871  0.458128495612767 0.339725349672702 
 -0.0167511486639195 0.00159634387199711  -0.0146356597593016 0.0613448830687911  0.458128495612767 0.339725349672702  0.55960438647452 -0.596050574204571 
117.8125  0.688320267279486 -0.556481859560116  0.313487740819722 0.32955161343297  -0.0150382743665469 0.043459322450821  -0.0172028070725409 0.00192127018896832 
 0.313487740819722 0.32955161343297  0.580774532098191 -0.641715913621775  0.130960629811133 0.111785438627923  -0.01421354036344 0.0621095665463309 
 -0.0150382743665469 0.043459322450821  0.130960629811133 0.111785438627923  0.39368266693306 -0.686450453242373  0.462581494067544 0.3382463689628 
 -0.0172028070725409 0.00192127018896832  -0.01421354036344 0.0621095665463309  0.462581494067544 0.3382463689628  0.554496135132744 -0.597590663941132 
119  0.682429898410282 -0.557585388837018  0.316523299047812 0.329719164789197  -0.015030135780154 0.0441904944176156  -0.0174013814644383 0.00185260619338702 
 0.316523299047812 0.329719164789197  0.574271001541582 -0.64193121538986  0.131934999459375 0.110826723753736  -0.0140119720443333 0.0627801484764054 
 -0.015030135780154 0.0441904944176156  0.131934999459375 0.110826723753736  0.386880694494431 -0.684874024140485  0.466307553539941 0.337629419804936 
 -0.0174013814644383 0.00185260619338702  -0.0140119720443333 0.0627801484764054  0.466307553539941 0.337629419804936  0.548650651306325 -0.597861060870263 
120.1875  0.679573202080935 -0.561807927874232  0.321429389600771 0.330392596970525  -0.0147360974412299 0.0446439697821213  -0.018056433000355 0.00240944653825313 
 0.321429389600771 0.330392596970525  0.570494858185791 -0.646356943153881  0.132762541022424 0.111575570798714  -0.01347825913788 0.0638100160737135 
 -0.0147360974412299 0.0446439697821213  0.132762541022424 0.111575570798714  0.382051903647841 -0.687879973115117  0.471123893057973 0.335490204369691 
 -0.018056433000355 0.00240944653825313  -0.01347825913788 0.0638100160737135  0.471123893057973 0.335490204369691  0.54472806106959 -0.600014445662078 
121.375  0.674950984537919 -0.564485519967835  0.325356096876858 0.3301340987263  -0.0146752430032463 0.0453397202046887  -0.018285508498944 0.00272522661241757 
 0.325356096876858 0.3301340987263  0.564953958182469 -0.648917949202842  0.134013265321887 0.111433093699813  -0.0133840914888849 0.0647538104260827 
 -0.0146752430032463 0.0453397202046887  0.134013265321887 0.111433093699813  0.375836049216301 -0.688677011667351  0.475356847084027 0.333982975719314 
 -0.018285508498944 0.00272522661241757  -0.0133840914888849 0.0647538104260827  0.475356847084027 0.333982975719314  0.539854773885693 -0.60173333137083 
122.5625  0.670840458075625 -0.567407456318638  0.329216072208647 0.330337149892772  -0.0144853416689442 0.0459999781046385  -0.018747219277568 0.00305055619618208 
 0.329216072208647 0.330337149892772  0.55962701734095 -0.651562584694175  0.134896660553783 0.11134894440956  -0.0129114007927998 0.0655519998248022 
 -0.0144853416689442 0.0459999781046385  0.134896660553783 0.11134894440956  0.369745855347801 -0.6898629166673  0.479709995761771 0.332460775675243 
 -0.018747219277568 0.00305055619618208  -0.0129114007927998 0.0655519998248022  0.479709995761771 0.332460775675243  0.534892000407078 -0.60329314630791 
123.75  0.666330802767262 -0.569946319876533  0.333177208385022 0.330364979554942  -0.0143049226207656 0.0466204006523018  -0.019144422509398 0.00344685872824817 
 0.333177208385022 0.330364979554942  0.553826123097314 -0.654030918772119  0.135930158567094 0.111291323747223  -0.0124632753311852 0.0663524521454685 
 -0.0143049226207656 0.0466204006523018  0.135930158567094 0.111291323747223  0.36375219575357 -0.69069234411611  0.483773892469089 0.330829591514141 
 -0.019144422509398 0.00344685872824817  -0.0124632753311852 0.0663524521454685  0.483773892469089 0.330829591514141  0.530072815967263 -0.604509256574634 
124.9375  0.662216565957529 -0.572444217126902  0.337064019008709 0.330388925977704  -0.0142802494326287 0.0473550950019243  -0.019537674033144 0.00375103395731102 
 0.337064019008709 0.330388925977704  0.548640340536054 -0.656210422589464  0.136832816423124 0.111158837298424  -0.0121664858745489 0.0673670558343155 
 -0.0142802494326287 0.0473550950019243  0.136832816423124 0.111158837298424  0.358218800915037 -0.691121698150365  0.487766702058905 0.329131397975303 
 -0.019537674033144 0.00375103395731102  -0.0121664858745489 0.0673670558343155  0.487766702058905 0.329131397975303  0.525405281309068 -0.605415655894889 
126.125  0.657655036036662 -0.574914725874722  0.340872821968835 0.330129633664133  -0.0140769187325019 0.047991829773539  -0.0199203537992324 0.00426547170828617 
 0.340872821968835 0.330129633664133  0.542823483266189 -0.658023021241898  0.137871385240865 0.111183744948515  -0.0118435834198603 0.0680027541709702 
 -0.0140769187325019 0.047991829773539  0.137871385240865 0.111183744948515  0.352054845545254 -0.691973010475875  0.491953001386805 0.327514462238586 
 -0.0199203537992324 0.00426547170828617  -0.0118435834198603 0.0680027541709702  0.491953001386805 0.327514462238586  0.520397665536417 -0.606576570308247 
127.3125  0.653122497737012 -0.577317940107343  0.344835652557446 0.329994731685312  -0.0139766782167637 0.0486112229230939  -0.0202529190272785 0.00460082546718102 
 0.344835652557446 0.329994731685312  0.537277059642529 -0.660532748042351  0.138867001158262 0.111108438572401  -0.0114517602969285 0.0690433256394038 
 -0.0139766782167637 0.0486112229230939  0.138867001158262 0.111108438572401  0.346205637604272 -0.692562996044953  0.495919131373123 0.325792136609677 
 -0.0202529190272785 0.00460082546718102  -0.0114517602969285 0.0690433256394038  0.495919131373123 0.325792136609677  0.515700469963577 -0.607978579196674 
128.5  0.648705588946515 -0.579878337050077  0.34844154098216 0.329996523419144  -0.01388709940023 0.0492885788661429  -0.0205685458268026 0.00495757416888851 
 0.34844154098216 0.329996523419144  0.531925306984605 -0.661661761329312  0.139538384061264 0.111019579103018  -0.011188214977365 0.069734833302533 
 -0.01388709940023 0.0492885788661429  0.139538384061264 0.111019579103018  0.34036854955832 -0.692552485388325  0.49967490793555 0.32425159885705 
 -0.0205685458268026 0.00495757416888851  -0.011188214977365 0.069734833302533  0.49967490793555 0.32425159885705  0.510975281423659 -0.609053721283261 
129.6875  0.64479386651844 -0.582225224009626  0.352398248129499 0.329922637114341  -0.0137503277166699 0.0501864323050164  -0.0209295185779238 0.00541427250358703 
 0.352398248129499 0.329922637114341  0.527501156535894 -0.663880570144082  0.140799963066931 0.111007955325644  -0.0107814702590024 0.0707439818334578 
 -0.0137503277166699 0.0501864323050164  0.140799963066931 0.111007955325644  0.335342737197874 -0.69375932511886  0.503659221445844 0.322731914993572 
 -0.0209295185779238 0.00541427250358703  -0.0107814702590024 0.0707439818334578  0.503659221445844 0.322731914993572  0.506946777321575 -0.6101733534221 
130.875  0.640930925800305 -0.584216102347786  0.355839237619206 0.32984313896291  -0.013673167320813 0.0507772704469432  -0.0211808238545524 0.00589779268048401 
 0.355839237619206 0.32984313896291  0.522745655080308 -0.665616857801551  0.141896479436695 0.111199210036991  -0.0104184792867668 0.0716457016565658 
 -0.013673167320813 0.0507772704469432  0.141896479436695 0.111199210036991  0.329600746590281 -0.694055797661845  0.507607981835306 0.320894901163078 
 -0.0211808238545524 0.00589779268048401  -0.0104184792867668 0.0716457016565658  0.507607981835306 0.320894901163078  0.502106035280001 -0.61131349142766 
132.0625  0.636608808925381 -0.586242641938072  0.359799338800518 0.329336277334741  -0.0135238485499934 0.051559395972893  -0.0215293963904524 0.00633197392485216 
 0.359799338800518 0.329336277334741  0.516815742867465 -0.667495403063221  0.143046914754668 0.111001743626351  -0.0098899769614014 0.072588398267845 
 -0.0135238485499934 0.051559395972893  0.143046914754668 0.111001743626351  0.324124679160112 -0.694398070043197  0.511305346923325 0.318989077238327 
 -0.0215293963904524 0.00633197392485216  -0.0098899769614014 0.072588398267845  0.511305346923325 0.318989077238327  0.497583078982502 -0.612197026856603 
133.25  0.631903076932624 -0.58869971222538  0.363590081135765 0.329078727788453  -0.0132827491259326 0.052337087215422  -0.0217500793984442 0.00670929562761018 
 0.363590081135765 0.329078727788453  0.511294357973241 -0.6695616649223  0.144137932160513 0.110762223120778  -0.00949651145225917 0.0734298912822882 
 -0.0132827491259326 0.052337087215422  0.144137932160513 0.110762223120778  0.318378389985698 -0.694612525167853  0.514922105175347 0.317182472603186 
 -0.0217500793984442 0.00670929562761018  -0.00949651145225917 0.0734298912822882  0.514922105175347 0.317182472603186  0.493121817064092 -0.613199066709686 
134.4375  0.627348002893051 -0.591249999706496  0.367489451469475 0.328708356170529  -0.0130756440527469 0.0531727904560879  -0.0220210777931336 0.00712516055866802 
 0.367489451469475 0.328708356170529  0.505967329259259 -0.671870320182314  0.145310290671715 0.11076362947865  -0.00899836584367124 0.0745492940403592 
 -0.0130756440527469 0.0531727904560879  0.145310290671715 0.11076362947865  0.313086771193925 -0.695290182782499  0.51866043867213 0.315425050870771 
 -0.0220210777931336 0.00712516055866802  -0.00899836584367124 0.0745492940403592  0.51866043867213 0.315425050870771  0.4885354760348 -0.614236758120751 
135.625  0.623736866757207 -0.593242459084648  0.371189522502989 0.328451319349861  -0.0129204418250525 0.0540237620508057  -0.0222709949958668 0.00754490251943446 
 0.371189522502989 0.328451319349861  0.500872332516399 -0.673532151036446  0.146383050306271 0.110723601864684  -0.00856285208400439 0.0754988957992778 
 -0.0129204418250525 0.0540237620508057  0.146383050306271 0.110723601864684  0.308127288009004 -0.69538462091064  0.522257329343882 0.313762511248496 
 -0.0222709949958668 0.00754490251943446  -0.00856285208400439 0.0754988957992778  0.522257329343882 0.313762511248496  0.48461530143785 -0.614933205791175 
136.8125  0.619119298395637 -0.595323531975765  0.374747410873454 0.327778026161297  -0.0126399362391965 0.0547531039077953  -0.0223500684818163 0.00808178751572814 
