! Matrix data file written by TouchstoneData, EPCOS AG
! FILENAME: "AA47A_3_PCB04_V3_10nH_2.4nH_2.4nH_10nH_NB.snp"
! COMMENT: "(TS/AA47A_3_PCB04_V3_10nH_2.4nH_2.4nH_10nH_N"
! INFO: nport=2, nfreq=1601
! DATE: "Tue Jan 15 09:08:04 2013"
! USER: "Wee Chuan Tay"
!
! port | pin | signal
! -----|-----|--------
!   1  |  9  |  Input
!   2  |  6  |  Output
! --------------------
! 
# MHZ S RI R 50
! freq  reS11 imS11  reS21 imS21  reS12 imS12  reS22 imS22
2100  -0.0502950199152077 -0.0335271651346104  0.863661598484544 0.18987485986859  0.863661598484544 0.18987485986859  0.0805920840215339 0.00474668093375574 
2100.25  -0.0503184624082681 -0.0330935875487998  0.864162890969591 0.188909039025793  0.864162890969591 0.188909039025793  0.0802431618872859 0.00481243172622134 
2100.5  -0.0503715086870069 -0.032913993871307  0.864272431181915 0.187660505297313  0.864272431181915 0.187660505297313  0.0802267292792656 0.00501693343125576 
2100.75  -0.0504474239593189 -0.0327177365520821  0.864538737894354 0.186547997333031  0.864538737894354 0.186547997333031  0.0800508747407327 0.00511767638050071 
2101  -0.0504930160135594 -0.0324795909450996  0.864741628945839 0.185423418883475  0.864741628945839 0.185423418883475  0.0797920749872609 0.00519483002423065 
2101.25  -0.0504550349193068 -0.0321050057671531  0.865072432260355 0.184439524360528  0.865072432260355 0.184439524360528  0.0797619592542681 0.00526699658649822 
2101.5  -0.0505112431867071 -0.0320600877845381  0.86523993364829 0.183173424838033  0.86523993364829 0.183173424838033  0.0795530833428682 0.00544391770198334 
2101.75  -0.050733905475858 -0.0315885353365268  0.865761839137266 0.182034833970152  0.865761839137266 0.182034833970152  0.0796098795683069 0.00572786193538335 
2102  -0.0508967099806465 -0.0314505327012306  0.865880245896407 0.18087556595141  0.865880245896407 0.18087556595141  0.0794563066918737 0.00576919379947762 
2102.25  -0.0509364581729064 -0.0311221179251809  0.866208036982812 0.179721903714306  0.866208036982812 0.179721903714306  0.0793716036167869 0.00566745615076488 
2102.5  -0.0510493513264549 -0.0309768683272757  0.866573791748389 0.178540059432683  0.866573791748389 0.178540059432683  0.0793469239097191 0.0058928909351841 
2102.75  -0.0511532665403805 -0.0306839913462087  0.866706685623777 0.177535026644353  0.866706685623777 0.177535026644353  0.0791456303197935 0.00596332837733104 
2103  -0.0511286871165825 -0.0304397259264698  0.867036323640224 0.176458588963168  0.867036323640224 0.176458588963168  0.0790025890443063 0.00596004777824461 
2103.25  -0.0512442943585192 -0.0300329124854336  0.867341502937151 0.175295203689599  0.867341502937151 0.175295203689599  0.0788902752202034 0.00611413035454828 
2103.5  -0.0512163436072757 -0.0298716094473897  0.867696168191507 0.174071505207137  0.867696168191507 0.174071505207137  0.0788174889349954 0.00628433390333894 
2103.75  -0.0513159851513864 -0.0295160506190554  0.867927286026507 0.172971575389454  0.867927286026507 0.172971575389454  0.0787827158736655 0.00632336418821555 
2104  -0.0513157765819989 -0.0293568308831425  0.868269132242492 0.171853214957705  0.868269132242492 0.171853214957705  0.0787680753547726 0.00625356135339353 
2104.25  -0.0512970683951783 -0.0287763038504477  0.868616898200651 0.170670032972395  0.868616898200651 0.170670032972395  0.0784757918714701 0.00635484102572097 
2104.5  -0.0514933531546771 -0.0285674620346404  0.868836665956746 0.169495605077865  0.868836665956746 0.169495605077865  0.0783633038946489 0.00640107886084014 
2104.75  -0.0516531962803345 -0.0281845037930225  0.86902531785111 0.168198587369399  0.86902531785111 0.168198587369399  0.0783673624383813 0.00657559100933236 
2105  -0.0516555579477688 -0.0278469310737758  0.86944590398505 0.166980333942844  0.86944590398505 0.166980333942844  0.0782287040389761 0.00659480729529718 
2105.25  -0.0517261422049375 -0.0276363966865198  0.869626520735191 0.165696422165738  0.869626520735191 0.165696422165738  0.0782166528189447 0.00669050415486928 
2105.5  -0.0516669013334196 -0.0273189064339781  0.869973952744192 0.164606443556982  0.869973952744192 0.164606443556982  0.0779911054917624 0.00674449712753931 
2105.75  -0.0516805709994911 -0.0269358104526604  0.870191840434694 0.163348949501642  0.870191840434694 0.163348949501642  0.0778551917382685 0.00678945436582392 
2106  -0.051671864656644 -0.0267415078821687  0.870412128836594 0.162145787914529  0.870412128836594 0.162145787914529  0.0778208590054113 0.00685445774038657 
2106.25  -0.0517836636720023 -0.0264801354591894  0.87063568815543 0.160844182772302  0.87063568815543 0.160844182772302  0.0776375252145599 0.00682632483880577 
2106.5  -0.0518644188019115 -0.026103438366585  0.870814159903494 0.159656875817952  0.870814159903494 0.159656875817952  0.0774946428133006 0.00704515243243926 
2106.75  -0.0519237388632403 -0.0258936322249512  0.871039174481706 0.158310549080796  0.871039174481706 0.158310549080796  0.0772313244457579 0.00710786024833576 
2107  -0.0519227922299861 -0.0257282694380111  0.871451192553081 0.157134234202526  0.871451192553081 0.157134234202526  0.0771711249093469 0.00732271771716394 
2107.25  -0.0518085703766678 -0.0252803746397479  0.871664616882359 0.155899658386473  0.871664616882359 0.155899658386473  0.0771226434952719 0.00742148274202587 
2107.5  -0.0518379446800602 -0.0249377652329229  0.871809613834116 0.154613276206268  0.871809613834116 0.154613276206268  0.0768270429944986 0.00730871903671872 
2107.75  -0.0518149292264755 -0.0247919481462698  0.871995878049951 0.153417166564742  0.871995878049951 0.153417166564742  0.0767825021858469 0.00760032601634341 
2108  -0.051870204022374 -0.0244165847101096  0.872224024829077 0.152061284961902  0.872224024829077 0.152061284961902  0.0766533144801093 0.00752775739177051 
2108.25  -0.051905119644397 -0.0239936276406734  0.872345230141874 0.151041167719343  0.872345230141874 0.151041167719343  0.076439535876535 0.00782100743178086 
2108.5  -0.0519498797961144 -0.0237511909179905  0.872729577590554 0.149805557106466  0.872729577590554 0.149805557106466  0.0763019532206432 0.0079988475739448 
2108.75  -0.0519007933501782 -0.0235157949121023  0.87280745579588 0.148455931371898  0.87280745579588 0.148455931371898  0.0762498013631957 0.00812958667297819 
2109  -0.0518962318458084 -0.0233712886256837  0.873123233114033 0.147173689409276  0.873123233114033 0.147173689409276  0.076038410505453 0.00824637251444371 
2109.25  -0.0518526367297649 -0.022911283557659  0.873201121778654 0.145966427749645  0.873201121778654 0.145966427749645  0.0759492636938798 0.00827902247956341 
2109.5  -0.0518050261709393 -0.0226821144366933  0.873584792883323 0.144779380065394  0.873584792883323 0.144779380065394  0.0759187299035359 0.00850431554983138 
2109.75  -0.0516321275842336 -0.0226051246539595  0.873742684075653 0.143638911979879  0.873742684075653 0.143638911979879  0.0757170555056202 0.00867619209420616 
2110  -0.0516990407059184 -0.0222752652370033  0.873792366358169 0.142312035014047  0.873792366358169 0.142312035014047  0.0755814080040212 0.00870090723292358 
2110.25  -0.0518344999782033 -0.0219093891224463  0.873980456111912 0.141083790754945  0.873980456111912 0.141083790754945  0.0755432967267241 0.00878164681707548 
2110.5  -0.0517650038801061 -0.0218371880198916  0.874173134247123 0.139648347583257  0.874173134247123 0.139648347583257  0.0754971798978888 0.0090444034113571 
2110.75  -0.0517482690908323 -0.021324672818849  0.874434078055724 0.138648372799391  0.874434078055724 0.138648372799391  0.075355997546262 0.00934614377221136 
2111  -0.0516873744407171 -0.0211197704734555  0.874673924704162 0.137301047740323  0.874673924704162 0.137301047740323  0.0753410251067442 0.00942362078111094 
2111.25  -0.0516942724745996 -0.0209329660108446  0.87470615320672 0.136098068312775  0.87470615320672 0.136098068312775  0.0752638781918291 0.00947196844527458 
2111.5  -0.051723494212549 -0.0206385940361689  0.874946581491889 0.134698446824779  0.874946581491889 0.134698446824779  0.0752747745338033 0.0096244040103424 
2111.75  -0.0518764858510321 -0.0203979603786433  0.875250495541321 0.133526390424079  0.875250495541321 0.133526390424079  0.0752837573491497 0.00966886204445898 
2112  -0.0519478819515442 -0.0200655219658438  0.875262407283112 0.132167807135712  0.875262407283112 0.132167807135712  0.0751731284682329 0.00986587984942356 
2112.25  -0.0518723589017665 -0.0198437368744625  0.875370562983174 0.130993481042591  0.875370562983174 0.130993481042591  0.0752601736093128 0.0100054491559766 
2112.5  -0.0519358297205289 -0.0195390043617349  0.875428037120818 0.129725337885167  0.875428037120818 0.129725337885167  0.0751044714123492 0.0100983725276089 
2112.75  -0.0517715097852327 -0.0192838416313711  0.87567173544637 0.128414861751527  0.87567173544637 0.128414861751527  0.0750971504747168 0.0101161207991328 
2113  -0.0517645109290644 -0.0190759590312983  0.875757577412353 0.127177668166905  0.875757577412353 0.127177668166905  0.075083324318565 0.0104677632528909 
2113.25  -0.0518321306072808 -0.0187932566409257  0.875912967623656 0.1258763241925  0.875912967623656 0.1258763241925  0.0749179587868259 0.0104427383608717 
2113.5  -0.0518531005295615 -0.0184570241245711  0.87625628132962 0.124568145644778  0.87625628132962 0.124568145644778  0.0750245914898704 0.0105251660395411 
2113.75  -0.051920552113901 -0.0180918680918352  0.876155600240698 0.123527887199867  0.876155600240698 0.123527887199867  0.0749652248212227 0.0105317882896764 
2114  -0.0518633504080799 -0.017886176969947  0.876376363878497 0.122284588748007  0.876376363878497 0.122284588748007  0.0750682301696305 0.0107529385875648 
2114.25  -0.0518405460775002 -0.0176672266189035  0.876481769966038 0.120990713855147  0.876481769966038 0.120990713855147  0.0748561507724646 0.0108244200804423 
2114.5  -0.0517681436519049 -0.017383057703042  0.876698212159304 0.119803938469771  0.876698212159304 0.119803938469771  0.0748277773655117 0.0108601683831309 
2114.75  -0.051850941560552 -0.0172023722744501  0.876718811745975 0.11847971178627  0.876718811745975 0.11847971178627  0.0749062642203213 0.0109350350423821 
2115  -0.051900598575113 -0.0169156511109954  0.876914519924255 0.11746060765539  0.876914519924255 0.11746060765539  0.0747670096579714 0.0110424305050006 
2115.25  -0.0517598752820108 -0.0167005757633159  0.877064313900893 0.116292551419663  0.877064313900893 0.116292551419663  0.0747113038504924 0.0110551015343343 
2115.5  -0.0519000011764163 -0.0163706435668555  0.877184742186246 0.114900055966255  0.877184742186246 0.114900055966255  0.0746291740127724 0.0110446622020523 
2115.75  -0.05185738766919 -0.0161355746872946  0.877314091908434 0.113723852523404  0.877314091908434 0.113723852523404  0.0745364592786319 0.0109575462533294 
2116  -0.0519461488287233 -0.0159030878502748  0.87748241734789 0.11243186418059  0.87748241734789 0.11243186418059  0.074402901669724 0.0111903592178351 
2116.25  -0.051938829919203 -0.0158464536605333  0.877734286728773 0.111225020265749  0.877734286728773 0.111225020265749  0.0743819722911633 0.0112732605212389 
2116.5  -0.0521347491128085 -0.0155678855106397  0.877867961233482 0.110102398932291  0.877867961233482 0.110102398932291  0.0742225379167833 0.0112274608654488 
2116.75  -0.0520002357327268 -0.0152974814949494  0.878155530831342 0.108869335284128  0.878155530831342 0.108869335284128  0.0742000604374535 0.0113645899394937 
2117  -0.0521132642941331 -0.0149435744971929  0.878213234633878 0.107536478554464  0.878213234633878 0.107536478554464  0.0740861267108366 0.0113016911701495 
2117.25  -0.0521437558369157 -0.0146905527138608  0.878548367078854 0.106335959230037  0.878548367078854 0.106335959230037  0.0738238312763126 0.011453297524736 
2117.5  -0.0521564028215786 -0.0145817084220316  0.878776364404263 0.104941355573166  0.878776364404263 0.104941355573166  0.073849301249312 0.0114710162775828 
2117.75  -0.0523502952087526 -0.0141787137544392  0.878931207994089 0.103811197293284  0.878931207994089 0.103811197293284  0.0737040254494373 0.0116324305668519 
2118  -0.052458746142891 -0.0138573757757353  0.879068139909326 0.102453436054785  0.879068139909326 0.102453436054785  0.0735062578462945 0.0116923810735952 
2118.25  -0.0524691150101064 -0.0136048030029652  0.879276504193615 0.101281002176956  0.879276504193615 0.101281002176956  0.0735049031825429 0.0117088793830859 
2118.5  -0.0524816372075736 -0.0132955853725187  0.87954207227983 0.0998725758758476  0.87954207227983 0.0998725758758476  0.0733645542483444 0.0118826048131014 
2118.75  -0.0526294107508474 -0.0130788430803639  0.879646199933108 0.0987468646911535  0.879646199933108 0.0987468646911535  0.0731421592682329 0.0119943113886844 
2119  -0.0526142307508847 -0.0127211782436613  0.87992051556067 0.0972670244710237  0.87992051556067 0.0972670244710237  0.0730399572467682 0.0120543692012574 
2119.25  -0.0528094664731461 -0.0123501614256667  0.880073538264683 0.0959527758853456  0.880073538264683 0.0959527758853456  0.0728091936127796 0.0121988238209001 
2119.5  -0.0527217833847251 -0.0121056324803192  0.880316430726706 0.0945386751366791  0.880316430726706 0.0945386751366791  0.0728147911751215 0.012169227633606 
2119.75  -0.0526524898714444 -0.0117394360369037  0.880540935834982 0.0932811999707534  0.880540935834982 0.0932811999707534  0.0726509776681632 0.0123162510601411 
2120  -0.0527637576280804 -0.0112204245697222  0.880615140162711 0.0917964086064768  0.880615140162711 0.0917964086064768  0.0725149450377318 0.0125220081873811 
2120.25  -0.0527056578117186 -0.0108248327561581  0.880780085207371 0.0905859055568168  0.880780085207371 0.0905859055568168  0.0723746059966092 0.0125903459750609 
2120.5  -0.052807092815354 -0.0107389139698659  0.880847786895821 0.0890742680495625  0.880847786895821 0.0890742680495625  0.0721926880657576 0.0126077593154853 
2120.75  -0.0527888921949182 -0.010260021860396  0.880866525427503 0.0876618374619684  0.880866525427503 0.0876618374619684  0.0721040781665673 0.0127631129440203 
2121  -0.0528929682621468 -0.00986734340128448  0.880972340319899 0.0862564633320125  0.880972340319899 0.0862564633320125  0.0720533541874213 0.0129999819387741 
2121.25  -0.0527781459806443 -0.00948305775002194  0.881093664877805 0.0850300222636194  0.881093664877805 0.0850300222636194  0.0720601794215541 0.0130578395652725 
2121.5  -0.0527568886990082 -0.00915211680004466  0.881162064272917 0.0835058374349256  0.881162064272917 0.0835058374349256  0.0718274153901805 0.0131935874794037 
2121.75  -0.0526837765002024 -0.00872139627939104  0.881203030274293 0.0821488124063337  0.881203030274293 0.0821488124063337  0.0717313849544658 0.013363255811058 
2122  -0.0527581083291456 -0.00840434088509218  0.881304506339931 0.0808047560301201  0.881304506339931 0.0808047560301201  0.0716115830905317 0.0134552579591557 
2122.25  -0.0525252386822534 -0.00815326085226568  0.881308376521394 0.0793912209359898  0.881308376521394 0.0793912209359898  0.0715954626572852 0.0135521878097785 
2122.5  -0.0525543457883887 -0.00767223101803538  0.881253307972739 0.0779777422763537  0.881253307972739 0.0779777422763537  0.0715050089808846 0.0138969057762961 
2122.75  -0.0524771097366167 -0.00741159826394642  0.88133730064674 0.0767470981056353  0.88133730064674 0.0767470981056353  0.071403502903536 0.0141688264479016 
2123  -0.0522957817376627 -0.00709772348126396  0.881378483477209 0.0753368563873316  0.881378483477209 0.0753368563873316  0.0712250933370168 0.0141814989685593 
2123.25  -0.0523306844119997 -0.00673725132448932  0.881315557251177 0.074008609729161  0.881315557251177 0.074008609729161  0.0711917629845971 0.0143830619466306 
2123.5  -0.0522280701355756 -0.00632552260248513  0.881316730609372 0.0727448488063571  0.881316730609372 0.0727448488063571  0.0712179131318245 0.0145098126199919 
2123.75  -0.0523392608185905 -0.00605820112917938  0.881263676397807 0.0714438285356413  0.881263676397807 0.0714438285356413  0.0710306998781789 0.0147474439143031 
2124  -0.0522544195112947 -0.00567966415055524  0.881257291106135 0.0701447516041355  0.881257291106135 0.0701447516041355  0.0710361969078822 0.0149284370031007 
2124.25  -0.0521104320251991 -0.00536222000384933  0.881330358460649 0.0688536996466027  0.881330358460649 0.0688536996466027  0.0709167759704875 0.0151264753391362 
2124.5  -0.0521071160987051 -0.00517942277284204  0.881256765902867 0.0675034574043073  0.881256765902867 0.0675034574043073  0.0709817372832773 0.0153814197949376 
2124.75  -0.0519626854808392 -0.00475005156264457  0.881271154261253 0.0661688244657597  0.881271154261253 0.0661688244657597  0.0707988435013808 0.0153969224733488 
2125  -0.0518669268691698 -0.00444374875175744  0.881392493261671 0.0648192239739016  0.881392493261671 0.0648192239739016  0.0708890947279345 0.0155953449256581 
2125.25  -0.0518613988040461 -0.00415413551652229  0.881369232550855 0.0636014219363164  0.881369232550855 0.0636014219363164  0.0708387159993738 0.0156942294991828 
2125.5  -0.0517831693007825 -0.00402223074641721  0.881385140559775 0.0623813129168118  0.881385140559775 0.0623813129168118  0.0708824783342816 0.0156793987113037 
2125.75  -0.0517999722132317 -0.00363408483071076  0.881451558630181 0.0610744990318203  0.881451558630181 0.0610744990318203  0.0707488790269697 0.0160367052460646 
2126  -0.0517201128123093 -0.0032125992897611  0.881500713345788 0.059722181843985  0.881500713345788 0.059722181843985  0.0707201483592002 0.0161851580120779 
2126.25  -0.0515804106001468 -0.00286461445749318  0.881519890191824 0.0585199850247957  0.881519890191824 0.0585199850247957  0.0706937672792164 0.0161829596791285 
2126.5  -0.0515600868900986 -0.00262749522733562  0.881452966361921 0.057124818820089  0.881452966361921 0.057124818820089  0.0707571269571012 0.0163113888574619 
2126.75  -0.0514854767139249 -0.00224887658703546  0.881517817350938 0.0559110789441195  0.881517817350938 0.0559110789441195  0.0707992728239587 0.0165278279179416 
2127  -0.0513279781865637 -0.00183401625632699  0.881706233087051 0.054626609391424  0.881706233087051 0.054626609391424  0.070679941847552 0.0166552357268269 
2127.25  -0.0512229681923421 -0.00173609865916021  0.881615210104771 0.0532839274056608  0.881615210104771 0.0532839274056608  0.0706880086045974 0.0167819799608194 
2127.5  -0.0510635629895242 -0.00128981558971302  0.88158515256009 0.0519707905006446  0.88158515256009 0.0519707905006446  0.0706398196770402 0.0168924344820163 
2127.75  -0.0509909785154621 -0.00102688608191906  0.881765028936559 0.0507246346915151  0.881765028936559 0.0507246346915151  0.070656954480896 0.0169436537263251 
2128  -0.0507753015577196 -0.000824388171431966  0.881753544049529 0.049284630692948  0.881753544049529 0.049284630692948  0.0706541950786305 0.0171656515296309 
2128.25  -0.0507115023263408 -0.000487481082613634  0.881765488339429 0.0479638172971716  0.881765488339429 0.0479638172971716  0.0706563856818621 0.0172473853127941 
2128.5  -0.0505301839368198 -0.00012822431793531  0.881738367230939 0.0467301215210122  0.881738367230939 0.0467301215210122  0.0705857278452198 0.0172415806044266 
2128.75  -0.0503996283429888 7.66417892432602e-05  0.881844428800949 0.0452963544438184  0.881844428800949 0.0452963544438184  0.0707041127420409 0.0173014264721733 
2129  -0.0503202103778032 0.000364204945587434  0.881698901364324 0.0440661483073412  0.881698901364324 0.0440661483073412  0.0705712508815747 0.0174937295954173 
2129.25  -0.0502092335754985 0.000655636518901198  0.881689630813089 0.0426940833156594  0.881689630813089 0.0426940833156594  0.0705882641306832 0.0174920378355299 
2129.5  -0.0501950701995971 0.00083671981596326  0.88174542505759 0.0415653282701745  0.88174542505759 0.0415653282701745  0.0705812862816593 0.0176553884791126 
2129.75  -0.0499319677591781 0.00102890957011532  0.881822772663593 0.0400415906385218  0.881822772663593 0.0400415906385218  0.07059792235085 0.0177125022566834 
