! Matrix data file written by TouchstoneData, EPCOS AG
! FILENAME: "newformat_LZ68A_2_NB.s4p"
! COMMENT: "(LZ68A_2_NB.s4p) EPCOS AG 12.10.2011 14:58:1"
! INFO: nport=4, nfreq=1601
! DATE: "Wed Oct 12 15:07:57 2011"
! USER: "Daniel Harbusch"
!
! port | pin | signal
! -----|-----|--------
!   1  |  4  |  out
!   2  |  3  |  coupling
!   3  |  2  |  coupling
!   4  |  1  |  in
! --------------------
! 
# MHZ S MA R 50
! freq  magS11 angS11  magS12 angS12  magS13 angS13  magS14 angS14  ...
1.500000E+03  4.335134E-01 -1.217081E+02  8.596945E-01 -3.588370E+01  5.137752E-03 -8.292701E+01  1.550428E-02 -9.216144E+00 
8.588658E-01 -3.590946E+01  4.341516E-01 -1.297781E+02  2.076378E-02 1.189572E+02  3.244604E-03 -9.155575E+01 
5.140131E-03 -8.282340E+01  2.074212E-02 1.189826E+02  4.757905E-01 -1.328357E+02  8.311129E-01 -3.637513E+01 
1.548592E-02 -9.156892E+00  3.252874E-03 -9.162716E+01  8.317164E-01 -3.636077E+01  4.728968E-01 -1.215960E+02 
1.500094E+03  4.333778E-01 -1.217692E+02  8.598377E-01 -3.592537E+01  5.145214E-03 -8.304421E+01  1.550085E-02 -9.250701E+00 
8.590510E-01 -3.595461E+01  4.340882E-01 -1.297943E+02  2.078645E-02 1.189583E+02  3.236907E-03 -9.170557E+01 
5.141712E-03 -8.309261E+01  2.076762E-02 1.189950E+02  4.757177E-01 -1.328740E+02  8.310495E-01 -3.638967E+01 
1.549848E-02 -9.224542E+00  3.242514E-03 -9.169557E+01  8.315821E-01 -3.637582E+01  4.728635E-01 -1.216521E+02 
1.500188E+03  4.332147E-01 -1.218172E+02  8.599126E-01 -3.595764E+01  5.138750E-03 -8.314583E+01  1.547001E-02 -9.312187E+00 
8.590566E-01 -3.598434E+01  4.339187E-01 -1.297972E+02  2.080338E-02 1.189663E+02  3.235974E-03 -9.173308E+01 
5.143764E-03 -8.321172E+01  2.078068E-02 1.189908E+02  4.755604E-01 -1.328996E+02  8.309430E-01 -3.640047E+01 
1.547830E-02 -9.305427E+00  3.241933E-03 -9.178281E+01  8.314437E-01 -3.638693E+01  4.727991E-01 -1.217045E+02 
1.500281E+03  4.330505E-01 -1.218763E+02  8.600560E-01 -3.599875E+01  5.139367E-03 -8.337344E+01  1.549822E-02 -9.424925E+00 
8.592204E-01 -3.602817E+01  4.337800E-01 -1.298127E+02  2.080358E-02 1.189105E+02  3.235775E-03 -9.158866E+01 
5.143469E-03 -8.334904E+01  2.080045E-02 1.189499E+02  4.754201E-01 -1.329312E+02  8.308647E-01 -3.641648E+01 
1.548992E-02 -9.347851E+00  3.228482E-03 -9.180509E+01  8.314279E-01 -3.639859E+01  4.727911E-01 -1.217528E+02 
1.500375E+03  4.328623E-01 -1.219337E+02  8.600703E-01 -3.603658E+01  5.140801E-03 -8.341356E+01  1.549156E-02 -9.633228E+00 
8.593355E-01 -3.606107E+01  4.336316E-01 -1.298098E+02  2.081579E-02 1.189660E+02  3.240447E-03 -9.182881E+01 
5.146701E-03 -8.338503E+01  2.078806E-02 1.189642E+02  4.753222E-01 -1.329472E+02  8.308959E-01 -3.642802E+01 
1.548861E-02 -9.440104E+00  3.236217E-03 -9.183891E+01  8.313517E-01 -3.641194E+01  4.727888E-01 -1.217973E+02 
1.500469E+03  4.326611E-01 -1.219844E+02  8.602092E-01 -3.607483E+01  5.141953E-03 -8.356105E+01  1.550632E-02 -9.581330E+00 
8.593238E-01 -3.610279E+01  4.334580E-01 -1.298192E+02  2.081261E-02 1.189612E+02  3.239196E-03 -9.201350E+01 
5.140852E-03 -8.359399E+01  2.078406E-02 1.189624E+02  4.751883E-01 -1.329673E+02  8.307997E-01 -3.644648E+01 
1.549099E-02 -9.504820E+00  3.238324E-03 -9.195439E+01  8.312665E-01 -3.642756E+01  4.727682E-01 -1.218486E+02 
1.500562E+03  4.324648E-01 -1.220390E+02  8.601959E-01 -3.611674E+01  5.142721E-03 -8.378910E+01  1.550214E-02 -9.622550E+00 
8.593986E-01 -3.613710E+01  4.333481E-01 -1.298137E+02  2.082966E-02 1.189611E+02  3.237242E-03 -9.225642E+01 
5.144908E-03 -8.373522E+01  2.080769E-02 1.190136E+02  4.751067E-01 -1.329864E+02  8.307479E-01 -3.646354E+01 
1.548869E-02 -9.588747E+00  3.234380E-03 -9.222295E+01  8.312332E-01 -3.644231E+01  4.727867E-01 -1.218980E+02 
1.500656E+03  4.322080E-01 -1.220948E+02  8.602173E-01 -3.615625E+01  5.141589E-03 -8.394134E+01  1.550296E-02 -9.706336E+00 
8.593687E-01 -3.617948E+01  4.331749E-01 -1.298274E+02  2.084174E-02 1.189944E+02  3.229047E-03 -9.233255E+01 
5.145440E-03 -8.396811E+01  2.079923E-02 1.189927E+02  4.749886E-01 -1.330111E+02  8.306691E-01 -3.648157E+01 
1.548452E-02 -9.631466E+00  3.231151E-03 -9.240376E+01  8.311703E-01 -3.646117E+01  4.727737E-01 -1.219463E+02 
1.500750E+03  4.319704E-01 -1.221385E+02  8.602082E-01 -3.619348E+01  5.142857E-03 -8.414863E+01  1.546519E-02 -9.764002E+00 
8.594243E-01 -3.621334E+01  4.330276E-01 -1.298273E+02  2.085785E-02 1.189881E+02  3.220076E-03 -9.231170E+01 
5.151606E-03 -8.408382E+01  2.083005E-02 1.190000E+02  4.749531E-01 -1.330317E+02  8.306030E-01 -3.650130E+01 
1.547902E-02 -9.736961E+00  3.225966E-03 -9.245062E+01  8.310660E-01 -3.647775E+01  4.727612E-01 -1.219968E+02 
1.500844E+03  4.317323E-01 -1.221943E+02  8.601504E-01 -3.623409E+01  5.157450E-03 -8.429835E+01  1.549109E-02 -9.856298E+00 
8.594997E-01 -3.625622E+01  4.328998E-01 -1.298298E+02  2.086158E-02 1.190143E+02  3.224041E-03 -9.266891E+01 
5.158287E-03 -8.440251E+01  2.083712E-02 1.190175E+02  4.748652E-01 -1.330563E+02  8.304851E-01 -3.651923E+01 
1.546746E-02 -9.838196E+00  3.216748E-03 -9.271964E+01  8.309365E-01 -3.649594E+01  4.727991E-01 -1.220522E+02 
1.500938E+03  4.314194E-01 -1.222336E+02  8.600946E-01 -3.626897E+01  5.145697E-03 -8.462666E+01  1.544830E-02 -9.915903E+00 
8.594649E-01 -3.629336E+01  4.327186E-01 -1.298337E+02  2.087560E-02 1.189937E+02  3.209450E-03 -9.253559E+01 
5.142265E-03 -8.449496E+01  2.085262E-02 1.190312E+02  4.747840E-01 -1.330899E+02  8.303764E-01 -3.653994E+01 
1.546449E-02 -9.859716E+00  3.218837E-03 -9.260832E+01  8.308926E-01 -3.651748E+01  4.728105E-01 -1.221099E+02 
1.501031E+03  4.311654E-01 -1.222715E+02  8.601144E-01 -3.630767E+01  5.140300E-03 -8.464066E+01  1.546843E-02 -9.952268E+00 
8.594242E-01 -3.633063E+01  4.325325E-01 -1.298280E+02  2.088512E-02 1.190363E+02  3.213236E-03 -9.274364E+01 
5.139262E-03 -8.473905E+01  2.086345E-02 1.189899E+02  4.746309E-01 -1.331173E+02  8.302244E-01 -3.655343E+01 
1.545801E-02 -9.940771E+00  3.216680E-03 -9.277677E+01  8.306381E-01 -3.652514E+01  4.727031E-01 -1.221635E+02 
1.501125E+03  4.309164E-01 -1.223123E+02  8.600604E-01 -3.634608E+01  5.137624E-03 -8.479856E+01  1.546289E-02 -1.003957E+01 
8.593486E-01 -3.636693E+01  4.323620E-01 -1.298168E+02  2.090230E-02 1.189990E+02  3.206128E-03 -9.273152E+01 
5.130568E-03 -8.479718E+01  2.087392E-02 1.190260E+02  4.744449E-01 -1.331451E+02  8.300874E-01 -3.656518E+01 
1.544874E-02 -9.984401E+00  3.206311E-03 -9.297240E+01  8.305250E-01 -3.653819E+01  4.725856E-01 -1.222278E+02 
1.501219E+03  4.305881E-01 -1.223418E+02  8.599820E-01 -3.638187E+01  5.126685E-03 -8.494488E+01  1.543634E-02 -1.016620E+01 
8.592418E-01 -3.639976E+01  4.321721E-01 -1.298050E+02  2.090581E-02 1.190168E+02  3.206755E-03 -9.281210E+01 
5.126518E-03 -8.498766E+01  2.088949E-02 1.190502E+02  4.741795E-01 -1.331649E+02  8.299320E-01 -3.657098E+01 
1.544346E-02 -1.003811E+01  3.206627E-03 -9.275238E+01  8.303648E-01 -3.654346E+01  4.724212E-01 -1.222843E+02 
1.501312E+03  4.303284E-01 -1.223679E+02  8.598405E-01 -3.641967E+01  5.124183E-03 -8.510335E+01  1.546582E-02 -1.017625E+01 
8.592129E-01 -3.644487E+01  4.321237E-01 -1.297922E+02  2.091756E-02 1.189986E+02  3.206418E-03 -9.277905E+01 
5.120114E-03 -8.505555E+01  2.088993E-02 1.190446E+02  4.739478E-01 -1.331783E+02  8.299316E-01 -3.657649E+01 
1.543661E-02 -1.011238E+01  3.206841E-03 -9.286979E+01  8.303401E-01 -3.654860E+01  4.721929E-01 -1.223348E+02 
1.501406E+03  4.300968E-01 -1.223905E+02  8.597356E-01 -3.645513E+01  5.117772E-03 -8.524518E+01  1.545178E-02 -1.019129E+01 
8.590505E-01 -3.647555E+01  4.320575E-01 -1.297741E+02  2.092721E-02 1.190337E+02  3.207075E-03 -9.291080E+01 
5.114650E-03 -8.514352E+01  2.090888E-02 1.190363E+02  4.737057E-01 -1.331835E+02  8.299122E-01 -3.658482E+01 
1.542342E-02 -1.014103E+01  3.199069E-03 -9.297531E+01  8.303855E-01 -3.655385E+01  4.719999E-01 -1.223768E+02 
1.501500E+03  4.299484E-01 -1.224024E+02  8.596240E-01 -3.648345E+01  5.119988E-03 -8.532864E+01  1.544959E-02 -1.025022E+01 
8.589523E-01 -3.651093E+01  4.321109E-01 -1.297668E+02  2.092524E-02 1.189951E+02  3.203269E-03 -9.295327E+01 
5.115369E-03 -8.540641E+01  2.090004E-02 1.190676E+02  4.735847E-01 -1.331894E+02  8.300369E-01 -3.659981E+01 
1.544058E-02 -1.017970E+01  3.201423E-03 -9.284832E+01  8.304971E-01 -3.656498E+01  4.718775E-01 -1.224097E+02 
1.501594E+03  4.298372E-01 -1.224238E+02  8.594918E-01 -3.651522E+01  5.125526E-03 -8.544201E+01  1.544678E-02 -1.028015E+01 
8.588330E-01 -3.653874E+01  4.321589E-01 -1.297563E+02  2.093477E-02 1.189866E+02  3.209438E-03 -9.287067E+01 
5.125131E-03 -8.539294E+01  2.089110E-02 1.190504E+02  4.734787E-01 -1.331992E+02  8.300651E-01 -3.661284E+01 
1.542182E-02 -1.023334E+01  3.205030E-03 -9.287409E+01  8.304158E-01 -3.658017E+01  4.717153E-01 -1.224484E+02 
1.501688E+03  4.297603E-01 -1.224416E+02  8.593620E-01 -3.654355E+01  5.117001E-03 -8.560020E+01  1.542177E-02 -1.033621E+01 
8.587288E-01 -3.656439E+01  4.321925E-01 -1.297516E+02  2.094120E-02 1.190277E+02  3.208849E-03 -9.288318E+01 
5.109101E-03 -8.566132E+01  2.092083E-02 1.190198E+02  4.732907E-01 -1.332087E+02  8.299903E-01 -3.662799E+01 
1.542782E-02 -1.029704E+01  3.206993E-03 -9.287771E+01  8.303887E-01 -3.659670E+01  4.715886E-01 -1.224959E+02 
1.501781E+03  4.297002E-01 -1.224564E+02  8.592515E-01 -3.657053E+01  5.108301E-03 -8.577284E+01  1.540210E-02 -1.045053E+01 
8.585155E-01 -3.659024E+01  4.322242E-01 -1.297470E+02  2.094857E-02 1.190311E+02  3.211489E-03 -9.303314E+01 
5.101070E-03 -8.585233E+01  2.094141E-02 1.189984E+02  4.731371E-01 -1.332174E+02  8.300402E-01 -3.664016E+01 
1.542773E-02 -1.032255E+01  3.224106E-03 -9.304494E+01  8.304071E-01 -3.660646E+01  4.714547E-01 -1.225347E+02 
1.501875E+03  4.297085E-01 -1.224765E+02  8.591195E-01 -3.659226E+01  5.099488E-03 -8.570820E+01  1.540680E-02 -1.048271E+01 
8.585070E-01 -3.661067E+01  4.323599E-01 -1.297529E+02  2.095860E-02 1.190427E+02  3.214849E-03 -9.307545E+01 
5.102352E-03 -8.576646E+01  2.093844E-02 1.190405E+02  4.729646E-01 -1.332162E+02  8.300598E-01 -3.664774E+01 
1.542161E-02 -1.037127E+01  3.214746E-03 -9.308217E+01  8.304641E-01 -3.661549E+01  4.713077E-01 -1.225727E+02 
1.501969E+03  4.297197E-01 -1.224916E+02  8.590115E-01 -3.660595E+01  5.100689E-03 -8.588473E+01  1.543458E-02 -1.046800E+01 
8.583920E-01 -3.663262E+01  4.324714E-01 -1.297624E+02  2.095678E-02 1.190221E+02  3.233152E-03 -9.301985E+01 
5.108574E-03 -8.588545E+01  2.092816E-02 1.190917E+02  4.727957E-01 -1.332223E+02  8.300610E-01 -3.666057E+01 
1.541994E-02 -1.041166E+01  3.220049E-03 -9.302452E+01  8.304828E-01 -3.663368E+01  4.711293E-01 -1.226170E+02 
1.502062E+03  4.299549E-01 -1.225230E+02  8.591078E-01 -3.662637E+01  5.095705E-03 -8.583830E+01  1.543934E-02 -1.048990E+01 
8.584524E-01 -3.664931E+01  4.326125E-01 -1.297788E+02  2.096855E-02 1.190650E+02  3.239458E-03 -9.330809E+01 
5.094219E-03 -8.603045E+01  2.093648E-02 1.190811E+02  4.726172E-01 -1.332241E+02  8.300795E-01 -3.667581E+01 
1.541807E-02 -1.042851E+01  3.233705E-03 -9.314411E+01  8.304963E-01 -3.664644E+01  4.709128E-01 -1.226552E+02 
1.502156E+03  4.300560E-01 -1.225593E+02  8.591482E-01 -3.663974E+01  5.099324E-03 -8.600584E+01  1.544487E-02 -1.052189E+01 
8.584697E-01 -3.666156E+01  4.326675E-01 -1.297987E+02  2.096977E-02 1.191031E+02  3.241865E-03 -9.339593E+01 
5.100936E-03 -8.605111E+01  2.095833E-02 1.190606E+02  4.724655E-01 -1.332246E+02  8.301642E-01 -3.669003E+01 
1.542890E-02 -1.046844E+01  3.239039E-03 -9.346361E+01  8.305072E-01 -3.665778E+01  4.706949E-01 -1.226848E+02 
1.502250E+03  4.302211E-01 -1.226064E+02  8.592792E-01 -3.666387E+01  5.104982E-03 -8.606197E+01  1.544274E-02 -1.059720E+01 
8.586081E-01 -3.668432E+01  4.327200E-01 -1.298233E+02  2.098861E-02 1.190860E+02  3.241061E-03 -9.350012E+01 
5.104712E-03 -8.602001E+01  2.095043E-02 1.191271E+02  4.723260E-01 -1.332271E+02  8.302186E-01 -3.670710E+01 
1.543280E-02 -1.053726E+01  3.236999E-03 -9.377072E+01  8.306377E-01 -3.667470E+01  4.705557E-01 -1.227204E+02 
1.502344E+03  4.303112E-01 -1.226644E+02  8.594018E-01 -3.669015E+01  5.101159E-03 -8.609968E+01  1.544896E-02 -1.062823E+01 
8.587103E-01 -3.670219E+01  4.326902E-01 -1.298573E+02  2.100144E-02 1.191260E+02  3.243035E-03 -9.368827E+01 
5.098369E-03 -8.618098E+01  2.097904E-02 1.191032E+02  4.721875E-01 -1.332280E+02  8.303257E-01 -3.672237E+01 
1.543346E-02 -1.059169E+01  3.243424E-03 -9.384901E+01  8.307503E-01 -3.668808E+01  4.703395E-01 -1.227507E+02 
1.502438E+03  4.304072E-01 -1.227202E+02  8.595202E-01 -3.671424E+01  5.102364E-03 -8.626080E+01  1.545696E-02 -1.066447E+01 
8.589470E-01 -3.673059E+01  4.326293E-01 -1.298841E+02  2.101273E-02 1.190980E+02  3.240642E-03 -9.374342E+01 
5.104765E-03 -8.623331E+01  2.098374E-02 1.190995E+02  4.720588E-01 -1.332225E+02  8.304110E-01 -3.673625E+01 
1.544471E-02 -1.061995E+01  3.232267E-03 -9.386874E+01  8.308650E-01 -3.670052E+01  4.701404E-01 -1.227666E+02 
1.502531E+03  4.304912E-01 -1.227812E+02  8.597653E-01 -3.673887E+01  5.103483E-03 -8.625682E+01  1.547131E-02 -1.069748E+01 
8.590560E-01 -3.675929E+01  4.325397E-01 -1.299116E+02  2.100096E-02 1.190882E+02  3.241875E-03 -9.373778E+01 
5.101950E-03 -8.628000E+01  2.100188E-02 1.190678E+02  4.719682E-01 -1.332083E+02  8.305437E-01 -3.674763E+01 
1.545492E-02 -1.065101E+01  3.245397E-03 -9.371096E+01  8.310037E-01 -3.671417E+01  4.699586E-01 -1.227842E+02 
1.502625E+03  4.304882E-01 -1.228403E+02  8.599466E-01 -3.676987E+01  5.100131E-03 -8.635064E+01  1.545294E-02 -1.078263E+01 
8.592739E-01 -3.678396E+01  4.325025E-01 -1.299372E+02  2.100409E-02 1.191177E+02  3.261978E-03 -9.395163E+01 
5.100548E-03 -8.631055E+01  2.098045E-02 1.191574E+02  4.718610E-01 -1.332068E+02  8.306808E-01 -3.677265E+01 
1.546391E-02 -1.070167E+01  3.254150E-03 -9.382236E+01  8.310727E-01 -3.673354E+01  4.697965E-01 -1.227982E+02 
1.502719E+03  4.305352E-01 -1.229084E+02  8.600802E-01 -3.680266E+01  5.108858E-03 -8.641595E+01  1.547564E-02 -1.085707E+01 
8.595251E-01 -3.681700E+01  4.324494E-01 -1.299624E+02  2.101883E-02 1.191305E+02  3.271961E-03 -9.400973E+01 
5.106847E-03 -8.640542E+01  2.099250E-02 1.191593E+02  4.717979E-01 -1.332035E+02  8.308155E-01 -3.679224E+01 
1.546039E-02 -1.078263E+01  3.255138E-03 -9.416653E+01  8.311557E-01 -3.675094E+01  4.696814E-01 -1.228199E+02 
1.502812E+03  4.305684E-01 -1.229677E+02  8.603198E-01 -3.683498E+01  5.110925E-03 -8.639804E+01  1.546466E-02 -1.086399E+01 
8.596632E-01 -3.684818E+01  4.323127E-01 -1.299940E+02  2.102916E-02 1.191527E+02  3.261941E-03 -9.425721E+01 
5.104774E-03 -8.644413E+01  2.099518E-02 1.191522E+02  4.716881E-01 -1.331974E+02  8.309787E-01 -3.681280E+01 
1.548148E-02 -1.086700E+01  3.259794E-03 -9.438094E+01  8.313733E-01 -3.677437E+01  4.695980E-01 -1.228334E+02 
1.502906E+03  4.305509E-01 -1.230292E+02  8.604106E-01 -3.686500E+01  5.123303E-03 -8.662660E+01  1.550150E-02 -1.098418E+01 
8.598373E-01 -3.688111E+01  4.322265E-01 -1.300190E+02  2.103360E-02 1.191695E+02  3.271221E-03 -9.431373E+01 
5.123389E-03 -8.654419E+01  2.100104E-02 1.191202E+02  4.716791E-01 -1.331834E+02  8.311558E-01 -3.683652E+01 
1.548488E-02 -1.093561E+01  3.267792E-03 -9.453542E+01  8.314162E-01 -3.680080E+01  4.694550E-01 -1.228429E+02 
1.503000E+03  4.306061E-01 -1.231002E+02  8.606589E-01 -3.689801E+01  5.133393E-03 -8.670679E+01  1.549789E-02 -1.105084E+01 
8.600373E-01 -3.691522E+01  4.320719E-01 -1.300423E+02  2.102964E-02 1.191644E+02  3.274984E-03 -9.456282E+01 
5.123914E-03 -8.661446E+01  2.102600E-02 1.192114E+02  4.716318E-01 -1.331726E+02  8.311672E-01 -3.686164E+01 
1.548130E-02 -1.100057E+01  3.275247E-03 -9.445147E+01  8.315261E-01 -3.682899E+01  4.694379E-01 -1.228581E+02 
1.503094E+03  4.305157E-01 -1.231698E+02  8.607982E-01 -3.693460E+01  5.127404E-03 -8.686420E+01  1.550879E-02 -1.115037E+01 
8.601668E-01 -3.694506E+01  4.318559E-01 -1.300645E+02  2.104135E-02 1.191505E+02  3.280002E-03 -9.460051E+01 
5.127466E-03 -8.678958E+01  2.101393E-02 1.191660E+02  4.716277E-01 -1.331667E+02  8.312445E-01 -3.688641E+01 
1.549344E-02 -1.107517E+01  3.277469E-03 -9.475511E+01  8.315698E-01 -3.684978E+01  4.693997E-01 -1.228734E+02 
1.503188E+03  4.305041E-01 -1.232451E+02  8.609846E-01 -3.697123E+01  5.126456E-03 -8.685359E+01  1.550214E-02 -1.116873E+01 
8.603760E-01 -3.698726E+01  4.316828E-01 -1.300852E+02  2.103971E-02 1.191808E+02  3.288428E-03 -9.490775E+01 
5.127536E-03 -8.691728E+01  2.102321E-02 1.192186E+02  4.716107E-01 -1.331669E+02  8.313100E-01 -3.691169E+01 
1.550319E-02 -1.113367E+01  3.284766E-03 -9.489951E+01  8.316350E-01 -3.687203E+01  4.693988E-01 -1.228902E+02 
1.503281E+03  4.304485E-01 -1.233078E+02  8.611315E-01 -3.700729E+01  5.127355E-03 -8.692640E+01  1.550007E-02 -1.135161E+01 
8.605415E-01 -3.701689E+01  4.315079E-01 -1.300993E+02  2.106029E-02 1.191761E+02  3.281716E-03 -9.505935E+01 
5.131380E-03 -8.684423E+01  2.103250E-02 1.191927E+02  4.714633E-01 -1.331549E+02  8.312795E-01 -3.692944E+01 
1.551083E-02 -1.120635E+01  3.290879E-03 -9.499947E+01  8.317327E-01 -3.689535E+01  4.693686E-01 -1.229070E+02 
1.503375E+03  4.303398E-01 -1.233740E+02  8.613297E-01 -3.704490E+01  5.132835E-03 -8.696913E+01  1.553255E-02 -1.135150E+01 
8.606648E-01 -3.705882E+01  4.313312E-01 -1.301161E+02  2.106747E-02 1.191814E+02  3.288847E-03 -9.510811E+01 
5.143356E-03 -8.696826E+01  2.104566E-02 1.192193E+02  4.714261E-01 -1.331463E+02  8.313988E-01 -3.695731E+01 
1.552149E-02 -1.127657E+01  3.284051E-03 -9.512281E+01  8.317974E-01 -3.691815E+01  4.693457E-01 -1.229218E+02 
1.503469E+03  4.302360E-01 -1.234421E+02  8.614385E-01 -3.708041E+01  5.140278E-03 -8.702530E+01  1.553821E-02 -1.140712E+01 
8.608989E-01 -3.710040E+01  4.312346E-01 -1.301288E+02  2.106797E-02 1.191944E+02  3.290658E-03 -9.519488E+01 
5.142546E-03 -8.710534E+01  2.105440E-02 1.192141E+02  4.714251E-01 -1.331292E+02  8.315186E-01 -3.697684E+01 
1.551834E-02 -1.138550E+01  3.289290E-03 -9.507830E+01  8.318706E-01 -3.693870E+01  4.693358E-01 -1.229294E+02 
1.503562E+03  4.301506E-01 -1.235036E+02  8.615491E-01 -3.711795E+01  5.148565E-03 -8.713684E+01  1.554844E-02 -1.151660E+01 
8.609492E-01 -3.713129E+01  4.310221E-01 -1.301397E+02  2.106432E-02 1.192217E+02  3.310780E-03 -9.530106E+01 
5.154183E-03 -8.715788E+01  2.104614E-02 1.192579E+02  4.714087E-01 -1.331108E+02  8.316260E-01 -3.700325E+01 
1.553282E-02 -1.144917E+01  3.294606E-03 -9.521138E+01  8.319262E-01 -3.696331E+01  4.693058E-01 -1.229424E+02 
1.503656E+03  4.300779E-01 -1.235758E+02  8.617002E-01 -3.716283E+01  5.154399E-03 -8.719097E+01  1.551439E-02 -1.161426E+01 
8.611389E-01 -3.717476E+01  4.308648E-01 -1.301554E+02  2.107000E-02 1.192403E+02  3.303000E-03 -9.543638E+01 
5.157443E-03 -8.724049E+01  2.105472E-02 1.192862E+02  4.714949E-01 -1.330927E+02  8.317502E-01 -3.702830E+01 
1.553588E-02 -1.153138E+01  3.309312E-03 -9.548346E+01  8.320542E-01 -3.699038E+01  4.693568E-01 -1.229472E+02 
1.503750E+03  4.300043E-01 -1.236436E+02  8.618554E-01 -3.719954E+01  5.166324E-03 -8.733365E+01  1.555676E-02 -1.170459E+01 
8.613313E-01 -3.721551E+01  4.307830E-01 -1.301628E+02  2.108292E-02 1.192513E+02  3.316596E-03 -9.556976E+01 
5.162736E-03 -8.719958E+01  2.105703E-02 1.193035E+02  4.716158E-01 -1.330833E+02  8.318145E-01 -3.705893E+01 
1.554806E-02 -1.165408E+01  3.308671E-03 -9.555283E+01  8.320770E-01 -3.702046E+01  4.694605E-01 -1.229601E+02 
1.503844E+03  4.298783E-01 -1.237094E+02  8.619139E-01 -3.724374E+01  5.186382E-03 -8.733751E+01  1.556866E-02 -1.177873E+01 
8.613330E-01 -3.725174E+01  4.305900E-01 -1.301663E+02  2.107453E-02 1.192916E+02  3.326658E-03 -9.572567E+01 
5.178828E-03 -8.719424E+01  2.106799E-02 1.192796E+02  4.717253E-01 -1.330742E+02  8.318391E-01 -3.708799E+01 
1.556324E-02 -1.173430E+01  3.317796E-03 -9.580381E+01  8.321411E-01 -3.704867E+01  4.696707E-01 -1.229741E+02 
1.503938E+03  4.297980E-01 -1.237851E+02  8.620011E-01 -3.728637E+01  5.192750E-03 -8.749452E+01  1.556373E-02 -1.189766E+01 
