! Matrix data file written by TouchstoneData, EPCOS AG
! FILENAME: "newformat_LZ68A_4_NB.s2p"
! COMMENT: "(LZ68A_4_NB.s2p) EPCOS AG 21.09.2011 16:07:1"
! INFO: nport=2, nfreq=1601
! DATE: "Fri Sep 23 09:06:06 2011"
! USER: "Daniel Harbusch"
!
! port | pin | signal
! -----|-----|--------
!   1  |  1  |  IN
!   2  |  4  |  OUT
! --------------------
! 
# MHZ S MA R 50
! freq  magS11 angS11  magS21 angS21  magS12 angS12  magS22 angS22
1.500000E+03  2.457025E-01 6.799838E+01  8.906648E-01 1.707589E+02  8.904370E-01 1.708063E+02  2.431026E-01 8.870465E+01 
1.500094E+03  2.457770E-01 6.788120E+01  8.904518E-01 1.706806E+02  8.902528E-01 1.707345E+02  2.435902E-01 8.862901E+01 
1.500188E+03  2.459113E-01 6.780537E+01  8.905253E-01 1.706113E+02  8.901863E-01 1.706628E+02  2.439195E-01 8.857302E+01 
1.500281E+03  2.461116E-01 6.772669E+01  8.902272E-01 1.705412E+02  8.902645E-01 1.705980E+02  2.445224E-01 8.850994E+01 
1.500375E+03  2.461795E-01 6.763297E+01  8.899659E-01 1.704629E+02  8.899257E-01 1.705286E+02  2.450666E-01 8.845180E+01 
1.500469E+03  2.462495E-01 6.752195E+01  8.898650E-01 1.703859E+02  8.895638E-01 1.704468E+02  2.457519E-01 8.835318E+01 
1.500562E+03  2.463978E-01 6.743587E+01  8.895347E-01 1.703096E+02  8.895034E-01 1.703669E+02  2.463479E-01 8.824035E+01 
1.500656E+03  2.465248E-01 6.732463E+01  8.891783E-01 1.702596E+02  8.890176E-01 1.702922E+02  2.468670E-01 8.820182E+01 
1.500750E+03  2.464343E-01 6.727134E+01  8.889577E-01 1.701718E+02  8.886620E-01 1.702304E+02  2.474348E-01 8.808564E+01 
1.500844E+03  2.464293E-01 6.719273E+01  8.886797E-01 1.701159E+02  8.885434E-01 1.701675E+02  2.479469E-01 8.800691E+01 
1.500938E+03  2.465418E-01 6.710414E+01  8.886128E-01 1.700369E+02  8.883400E-01 1.700934E+02  2.485964E-01 8.792636E+01 
1.501031E+03  2.466553E-01 6.702615E+01  8.880449E-01 1.699802E+02  8.881067E-01 1.700222E+02  2.490057E-01 8.786672E+01 
1.501125E+03  2.466153E-01 6.692967E+01  8.879564E-01 1.699076E+02  8.876178E-01 1.699536E+02  2.497071E-01 8.775280E+01 
1.501219E+03  2.466397E-01 6.684317E+01  8.875518E-01 1.698288E+02  8.874511E-01 1.698888E+02  2.502734E-01 8.764040E+01 
1.501312E+03  2.464200E-01 6.676963E+01  8.870559E-01 1.697717E+02  8.868530E-01 1.698125E+02  2.508992E-01 8.752395E+01 
1.501406E+03  2.463632E-01 6.672456E+01  8.867450E-01 1.697169E+02  8.867781E-01 1.697592E+02  2.514781E-01 8.736556E+01 
1.501500E+03  2.461066E-01 6.673769E+01  8.864185E-01 1.696762E+02  8.861690E-01 1.697121E+02  2.520821E-01 8.723130E+01 
1.501594E+03  2.459810E-01 6.673422E+01  8.863402E-01 1.696106E+02  8.861530E-01 1.696535E+02  2.524684E-01 8.707161E+01 
1.501688E+03  2.460495E-01 6.674030E+01  8.862589E-01 1.695560E+02  8.859446E-01 1.696078E+02  2.529603E-01 8.690374E+01 
1.501781E+03  2.460166E-01 6.676725E+01  8.859005E-01 1.695083E+02  8.857536E-01 1.695609E+02  2.532440E-01 8.675743E+01 
1.501875E+03  2.461035E-01 6.680816E+01  8.857762E-01 1.694629E+02  8.856768E-01 1.695100E+02  2.535195E-01 8.661303E+01 
1.501969E+03  2.463436E-01 6.682159E+01  8.856369E-01 1.694117E+02  8.856087E-01 1.694487E+02  2.535959E-01 8.645445E+01 
1.502062E+03  2.466256E-01 6.687420E+01  8.856147E-01 1.693733E+02  8.856886E-01 1.694063E+02  2.536157E-01 8.633252E+01 
1.502156E+03  2.469639E-01 6.689628E+01  8.857529E-01 1.693095E+02  8.858788E-01 1.693501E+02  2.538076E-01 8.619749E+01 
1.502250E+03  2.472581E-01 6.692793E+01  8.859730E-01 1.692457E+02  8.859342E-01 1.693000E+02  2.539228E-01 8.607966E+01 
1.502344E+03  2.477504E-01 6.696715E+01  8.862770E-01 1.691956E+02  8.859289E-01 1.692290E+02  2.541497E-01 8.598966E+01 
1.502438E+03  2.482667E-01 6.698239E+01  8.861185E-01 1.691251E+02  8.862221E-01 1.691679E+02  2.542047E-01 8.589591E+01 
1.502531E+03  2.488614E-01 6.698790E+01  8.863050E-01 1.690761E+02  8.863212E-01 1.691040E+02  2.542085E-01 8.582113E+01 
1.502625E+03  2.492391E-01 6.698000E+01  8.866048E-01 1.689936E+02  8.864551E-01 1.690332E+02  2.544839E-01 8.572758E+01 
1.502719E+03  2.498210E-01 6.693623E+01  8.866606E-01 1.689117E+02  8.866474E-01 1.689520E+02  2.545246E-01 8.564659E+01 
1.502812E+03  2.502582E-01 6.692796E+01  8.868098E-01 1.688537E+02  8.865854E-01 1.688856E+02  2.545761E-01 8.558157E+01 
1.502906E+03  2.509909E-01 6.691012E+01  8.867875E-01 1.687892E+02  8.867408E-01 1.688099E+02  2.545692E-01 8.553822E+01 
1.503000E+03  2.515647E-01 6.688969E+01  8.869700E-01 1.687122E+02  8.869910E-01 1.687310E+02  2.546884E-01 8.545958E+01 
1.503094E+03  2.521568E-01 6.686252E+01  8.871105E-01 1.686338E+02  8.869437E-01 1.686536E+02  2.547496E-01 8.542814E+01 
1.503188E+03  2.528710E-01 6.681948E+01  8.871179E-01 1.685436E+02  8.871416E-01 1.685883E+02  2.549432E-01 8.539857E+01 
1.503281E+03  2.534352E-01 6.674121E+01  8.872757E-01 1.684671E+02  8.873034E-01 1.684902E+02  2.551826E-01 8.536925E+01 
1.503375E+03  2.541747E-01 6.668986E+01  8.873740E-01 1.683821E+02  8.874889E-01 1.684032E+02  2.554881E-01 8.535867E+01 
1.503469E+03  2.547173E-01 6.660824E+01  8.873313E-01 1.682906E+02  8.873275E-01 1.683229E+02  2.557930E-01 8.533947E+01 
1.503562E+03  2.551041E-01 6.653651E+01  8.870504E-01 1.682123E+02  8.872631E-01 1.682397E+02  2.560474E-01 8.528757E+01 
1.503656E+03  2.556107E-01 6.647664E+01  8.871808E-01 1.681394E+02  8.869776E-01 1.681687E+02  2.564318E-01 8.524205E+01 
1.503750E+03  2.561638E-01 6.640012E+01  8.869857E-01 1.680663E+02  8.871500E-01 1.680924E+02  2.566517E-01 8.519107E+01 
1.503844E+03  2.568019E-01 6.634613E+01  8.871747E-01 1.679857E+02  8.871633E-01 1.680244E+02  2.569509E-01 8.516984E+01 
1.503938E+03  2.572691E-01 6.628656E+01  8.871633E-01 1.679064E+02  8.870100E-01 1.679428E+02  2.572837E-01 8.511756E+01 
1.504031E+03  2.579571E-01 6.621412E+01  8.871764E-01 1.678339E+02  8.872523E-01 1.678487E+02  2.577012E-01 8.508745E+01 
1.504125E+03  2.585248E-01 6.613770E+01  8.871831E-01 1.677492E+02  8.872346E-01 1.677649E+02  2.580641E-01 8.505368E+01 
1.504219E+03  2.590990E-01 6.606578E+01  8.869334E-01 1.676576E+02  8.871702E-01 1.676818E+02  2.583513E-01 8.500893E+01 
1.504312E+03  2.596504E-01 6.598032E+01  8.871728E-01 1.675693E+02  8.871898E-01 1.675997E+02  2.588307E-01 8.496355E+01 
1.504406E+03  2.602593E-01 6.589139E+01  8.870108E-01 1.674857E+02  8.870005E-01 1.675174E+02  2.591896E-01 8.492795E+01 
1.504500E+03  2.608481E-01 6.576906E+01  8.870462E-01 1.673910E+02  8.869957E-01 1.674216E+02  2.596081E-01 8.487877E+01 
1.504594E+03  2.613901E-01 6.567420E+01  8.871459E-01 1.673025E+02  8.871750E-01 1.673432E+02  2.599426E-01 8.483955E+01 
1.504688E+03  2.619024E-01 6.559003E+01  8.867911E-01 1.672167E+02  8.869333E-01 1.672708E+02  2.603880E-01 8.477994E+01 
1.504781E+03  2.623516E-01 6.548281E+01  8.868108E-01 1.671336E+02  8.868993E-01 1.671763E+02  2.608765E-01 8.476426E+01 
1.504875E+03  2.629695E-01 6.537417E+01  8.869121E-01 1.670366E+02  8.870374E-01 1.670786E+02  2.613415E-01 8.469637E+01 
1.504969E+03  2.635061E-01 6.527532E+01  8.866291E-01 1.669482E+02  8.869372E-01 1.669955E+02  2.619201E-01 8.464414E+01 
1.505062E+03  2.639759E-01 6.517203E+01  8.863968E-01 1.668600E+02  8.865677E-01 1.668982E+02  2.623693E-01 8.459143E+01 
1.505156E+03  2.643666E-01 6.506487E+01  8.862022E-01 1.667659E+02  8.865040E-01 1.668202E+02  2.629164E-01 8.450399E+01 
1.505250E+03  2.648209E-01 6.496939E+01  8.861383E-01 1.666792E+02  8.862366E-01 1.667253E+02  2.634176E-01 8.443039E+01 
1.505344E+03  2.651861E-01 6.486591E+01  8.859461E-01 1.666011E+02  8.857592E-01 1.666526E+02  2.638727E-01 8.437250E+01 
1.505438E+03  2.654105E-01 6.477523E+01  8.855411E-01 1.665234E+02  8.854962E-01 1.665665E+02  2.642031E-01 8.429006E+01 
1.505531E+03  2.658294E-01 6.470312E+01  8.854719E-01 1.664336E+02  8.855407E-01 1.664977E+02  2.647345E-01 8.420103E+01 
1.505625E+03  2.661998E-01 6.460918E+01  8.852877E-01 1.663492E+02  8.853381E-01 1.663997E+02  2.650995E-01 8.410764E+01 
1.505719E+03  2.665637E-01 6.457325E+01  8.849560E-01 1.662771E+02  8.850608E-01 1.663384E+02  2.655979E-01 8.402224E+01 
1.505812E+03  2.669940E-01 6.449323E+01  8.850496E-01 1.661888E+02  8.849554E-01 1.662471E+02  2.660180E-01 8.390457E+01 
1.505906E+03  2.673681E-01 6.448832E+01  8.848067E-01 1.661072E+02  8.848556E-01 1.661923E+02  2.663336E-01 8.378274E+01 
1.506000E+03  2.679564E-01 6.442838E+01  8.847525E-01 1.660447E+02  8.847702E-01 1.660855E+02  2.665219E-01 8.369633E+01 
1.506094E+03  2.685996E-01 6.439553E+01  8.844534E-01 1.659701E+02  8.848759E-01 1.660226E+02  2.665778E-01 8.362450E+01 
1.506188E+03  2.691248E-01 6.436747E+01  8.844786E-01 1.658779E+02  8.848723E-01 1.659464E+02  2.666804E-01 8.356655E+01 
1.506281E+03  2.699252E-01 6.428186E+01  8.846001E-01 1.657877E+02  8.849618E-01 1.658546E+02  2.668417E-01 8.350934E+01 
1.506375E+03  2.705554E-01 6.421500E+01  8.846908E-01 1.657046E+02  8.848403E-01 1.657611E+02  2.671484E-01 8.346323E+01 
1.506469E+03  2.713044E-01 6.412993E+01  8.848559E-01 1.656152E+02  8.848453E-01 1.656783E+02  2.674199E-01 8.342980E+01 
1.506562E+03  2.720320E-01 6.404121E+01  8.845837E-01 1.655168E+02  8.846599E-01 1.655793E+02  2.677281E-01 8.338112E+01 
1.506656E+03  2.727207E-01 6.392278E+01  8.846574E-01 1.654055E+02  8.846218E-01 1.654817E+02  2.681761E-01 8.333684E+01 
1.506750E+03  2.733868E-01 6.382517E+01  8.842183E-01 1.653230E+02  8.842216E-01 1.653788E+02  2.683559E-01 8.330055E+01 
1.506844E+03  2.741188E-01 6.373014E+01  8.842648E-01 1.652328E+02  8.842182E-01 1.653109E+02  2.687921E-01 8.325679E+01 
1.506938E+03  2.747077E-01 6.361430E+01  8.838798E-01 1.651474E+02  8.841514E-01 1.652036E+02  2.690438E-01 8.319989E+01 
1.507031E+03  2.754490E-01 6.350848E+01  8.836672E-01 1.650685E+02  8.840872E-01 1.651146E+02  2.694239E-01 8.318580E+01 
1.507125E+03  2.760360E-01 6.339601E+01  8.835034E-01 1.649623E+02  8.837701E-01 1.650261E+02  2.697811E-01 8.313799E+01 
1.507219E+03  2.767158E-01 6.327216E+01  8.832877E-01 1.648812E+02  8.834987E-01 1.649431E+02  2.701759E-01 8.310917E+01 
1.507312E+03  2.772667E-01 6.314003E+01  8.833606E-01 1.647951E+02  8.832726E-01 1.648420E+02  2.706248E-01 8.306645E+01 
1.507406E+03  2.778984E-01 6.302411E+01  8.832481E-01 1.647057E+02  8.833831E-01 1.647424E+02  2.710341E-01 8.302494E+01 
1.507500E+03  2.784890E-01 6.290332E+01  8.832764E-01 1.646108E+02  8.832114E-01 1.646484E+02  2.716435E-01 8.295844E+01 
1.507594E+03  2.789928E-01 6.280678E+01  8.830888E-01 1.645097E+02  8.830563E-01 1.645623E+02  2.720856E-01 8.290388E+01 
1.507688E+03  2.796124E-01 6.267969E+01  8.827785E-01 1.644156E+02  8.828659E-01 1.644592E+02  2.723739E-01 8.286758E+01 
1.507781E+03  2.801370E-01 6.258138E+01  8.824979E-01 1.643089E+02  8.825568E-01 1.643721E+02  2.727905E-01 8.279382E+01 
1.507875E+03  2.807515E-01 6.244939E+01  8.822633E-01 1.642158E+02  8.826442E-01 1.642749E+02  2.730917E-01 8.273839E+01 
1.507969E+03  2.811687E-01 6.235161E+01  8.821739E-01 1.641306E+02  8.819644E-01 1.641815E+02  2.735489E-01 8.270012E+01 
1.508062E+03  2.815594E-01 6.220481E+01  8.816306E-01 1.640356E+02  8.818366E-01 1.640667E+02  2.738660E-01 8.266726E+01 
1.508156E+03  2.821630E-01 6.211123E+01  8.814941E-01 1.639380E+02  8.816109E-01 1.639689E+02  2.742806E-01 8.262684E+01 
1.508250E+03  2.826087E-01 6.204147E+01  8.811002E-01 1.638518E+02  8.811865E-01 1.638916E+02  2.747541E-01 8.261452E+01 
1.508344E+03  2.831799E-01 6.195150E+01  8.810205E-01 1.637547E+02  8.808825E-01 1.637943E+02  2.753494E-01 8.257158E+01 
1.508438E+03  2.836861E-01 6.189573E+01  8.804976E-01 1.636747E+02  8.805652E-01 1.637051E+02  2.757996E-01 8.255293E+01 
1.508531E+03  2.843246E-01 6.181767E+01  8.800564E-01 1.635724E+02  8.802600E-01 1.636135E+02  2.762883E-01 8.251038E+01 
1.508625E+03  2.850824E-01 6.173355E+01  8.797600E-01 1.634898E+02  8.799875E-01 1.635209E+02  2.768394E-01 8.247074E+01 
1.508719E+03  2.859743E-01 6.168314E+01  8.794302E-01 1.634093E+02  8.795187E-01 1.634486E+02  2.774940E-01 8.241017E+01 
1.508812E+03  2.867695E-01 6.158583E+01  8.791306E-01 1.633272E+02  8.792081E-01 1.633729E+02  2.781231E-01 8.236112E+01 
1.508906E+03  2.876924E-01 6.145341E+01  8.788783E-01 1.632593E+02  8.790413E-01 1.632748E+02  2.786988E-01 8.229631E+01 
1.509000E+03  2.887252E-01 6.135632E+01  8.786111E-01 1.631695E+02  8.786796E-01 1.632126E+02  2.793053E-01 8.221251E+01 
1.509094E+03  2.896697E-01 6.120236E+01  8.787311E-01 1.630986E+02  8.787137E-01 1.631292E+02  2.799986E-01 8.212640E+01 
1.509188E+03  2.904604E-01 6.105964E+01  8.785597E-01 1.630019E+02  8.786958E-01 1.630458E+02  2.805644E-01 8.203530E+01 
1.509281E+03  2.913995E-01 6.087374E+01  8.787661E-01 1.629153E+02  8.787958E-01 1.629421E+02  2.810645E-01 8.193992E+01 
1.509375E+03  2.921308E-01 6.070218E+01  8.785721E-01 1.628245E+02  8.785962E-01 1.628655E+02  2.815711E-01 8.186144E+01 
1.509469E+03  2.928547E-01 6.055458E+01  8.785243E-01 1.627326E+02  8.785801E-01 1.627545E+02  2.819487E-01 8.175386E+01 
1.509562E+03  2.935486E-01 6.037503E+01  8.785374E-01 1.626319E+02  8.784776E-01 1.626670E+02  2.824487E-01 8.168068E+01 
1.509656E+03  2.941715E-01 6.021265E+01  8.782424E-01 1.625196E+02  8.782787E-01 1.625662E+02  2.828055E-01 8.157958E+01 
1.509750E+03  2.948124E-01 6.003552E+01  8.781871E-01 1.624253E+02  8.780761E-01 1.624583E+02  2.831947E-01 8.150813E+01 
1.509844E+03  2.955401E-01 5.987508E+01  8.779340E-01 1.623202E+02  8.779764E-01 1.623626E+02  2.835506E-01 8.142854E+01 
1.509938E+03  2.961964E-01 5.969657E+01  8.775857E-01 1.622162E+02  8.776579E-01 1.622569E+02  2.839575E-01 8.134915E+01 
1.510031E+03  2.967015E-01 5.954009E+01  8.773664E-01 1.621175E+02  8.772694E-01 1.621495E+02  2.844058E-01 8.130083E+01 
1.510125E+03  2.974466E-01 5.935646E+01  8.772632E-01 1.620254E+02  8.773343E-01 1.620440E+02  2.848005E-01 8.124511E+01 
1.510219E+03  2.978442E-01 5.919927E+01  8.769591E-01 1.619089E+02  8.769423E-01 1.619527E+02  2.853508E-01 8.115987E+01 
1.510312E+03  2.984900E-01 5.904037E+01  8.765586E-01 1.618196E+02  8.765963E-01 1.618479E+02  2.857518E-01 8.110961E+01 
1.510406E+03  2.990163E-01 5.886920E+01  8.764272E-01 1.616991E+02  8.763159E-01 1.617385E+02  2.862236E-01 8.102347E+01 
1.510500E+03  2.995455E-01 5.868752E+01  8.760892E-01 1.616109E+02  8.759873E-01 1.616320E+02  2.866037E-01 8.097395E+01 
1.510594E+03  3.000797E-01 5.852580E+01  8.757667E-01 1.615074E+02  8.756694E-01 1.615325E+02  2.871250E-01 8.088754E+01 
1.510688E+03  3.006137E-01 5.836384E+01  8.754376E-01 1.613979E+02  8.753790E-01 1.614357E+02  2.876997E-01 8.080704E+01 
1.510781E+03  3.011335E-01 5.821226E+01  8.749571E-01 1.612967E+02  8.748883E-01 1.613257E+02  2.881695E-01 8.072367E+01 
1.510875E+03  3.016544E-01 5.806904E+01  8.745999E-01 1.611941E+02  8.747057E-01 1.612242E+02  2.886806E-01 8.063659E+01 
1.510969E+03  3.022666E-01 5.788130E+01  8.744789E-01 1.610857E+02  8.743603E-01 1.611130E+02  2.891131E-01 8.055073E+01 
1.511062E+03  3.028214E-01 5.773948E+01  8.738625E-01 1.609916E+02  8.737650E-01 1.610105E+02  2.895298E-01 8.050087E+01 
1.511156E+03  3.032657E-01 5.759079E+01  8.734209E-01 1.608819E+02  8.732853E-01 1.609201E+02  2.899235E-01 8.039733E+01 
1.511250E+03  3.038465E-01 5.743171E+01  8.728635E-01 1.607963E+02  8.729362E-01 1.608149E+02  2.902626E-01 8.033274E+01 
1.511344E+03  3.043473E-01 5.724522E+01  8.725712E-01 1.606786E+02  8.724351E-01 1.607190E+02  2.905775E-01 8.026653E+01 
1.511438E+03  3.048182E-01 5.706659E+01  8.722779E-01 1.605968E+02  8.720822E-01 1.606264E+02  2.911229E-01 8.019382E+01 
1.511531E+03  3.053271E-01 5.693496E+01  8.716072E-01 1.604968E+02  8.715917E-01 1.605236E+02  2.914760E-01 8.013510E+01 
1.511625E+03  3.057500E-01 5.674844E+01  8.714113E-01 1.603879E+02  8.711419E-01 1.604264E+02  2.919940E-01 8.005883E+01 
1.511719E+03  3.064434E-01 5.659755E+01  8.708983E-01 1.602843E+02  8.708548E-01 1.603101E+02  2.924930E-01 7.998732E+01 
1.511812E+03  3.069017E-01 5.645631E+01  8.706303E-01 1.601808E+02  8.705490E-01 1.602216E+02  2.928886E-01 7.991771E+01 
1.511906E+03  3.073637E-01 5.626863E+01  8.699418E-01 1.600903E+02  8.700266E-01 1.601150E+02  2.932830E-01 7.986261E+01 
1.512000E+03  3.079359E-01 5.610906E+01  8.694986E-01 1.600011E+02  8.693414E-01 1.600330E+02  2.937094E-01 7.979503E+01 
1.512094E+03  3.084526E-01 5.592220E+01  8.689704E-01 1.598904E+02  8.689606E-01 1.599194E+02  2.941197E-01 7.970803E+01 
1.512188E+03  3.088398E-01 5.574482E+01  8.682437E-01 1.598080E+02  8.683954E-01 1.598313E+02  2.943751E-01 7.966610E+01 
1.512281E+03  3.092730E-01 5.557341E+01  8.679336E-01 1.597220E+02  8.677794E-01 1.597430E+02  2.949293E-01 7.962637E+01 
1.512375E+03  3.096861E-01 5.538834E+01  8.675148E-01 1.596311E+02  8.674238E-01 1.596403E+02  2.953940E-01 7.958299E+01 
1.512469E+03  3.100604E-01 5.523805E+01  8.671007E-01 1.595191E+02  8.670352E-01 1.595546E+02  2.960968E-01 7.951092E+01 
1.512562E+03  3.104815E-01 5.506608E+01  8.667534E-01 1.594275E+02  8.665334E-01 1.594585E+02  2.967211E-01 7.947425E+01 
1.512656E+03  3.108044E-01 5.491222E+01  8.661262E-01 1.593379E+02  8.659811E-01 1.593621E+02  2.972315E-01 7.938479E+01 
1.512750E+03  3.112148E-01 5.473527E+01  8.658481E-01 1.592455E+02  8.656090E-01 1.592710E+02  2.977666E-01 7.932519E+01 
1.512844E+03  3.114993E-01 5.457124E+01  8.652741E-01 1.591573E+02  8.649951E-01 1.591831E+02  2.983109E-01 7.926920E+01 
1.512938E+03  3.118791E-01 5.442568E+01  8.647125E-01 1.590666E+02  8.649199E-01 1.590901E+02  2.988784E-01 7.919841E+01 
1.513031E+03  3.121762E-01 5.427137E+01  8.644777E-01 1.589577E+02  8.644562E-01 1.590014E+02  2.995216E-01 7.910386E+01 
1.513125E+03  3.126824E-01 5.413499E+01  8.636785E-01 1.588748E+02  8.637724E-01 1.589054E+02  3.000099E-01 7.902217E+01 
1.513219E+03  3.131263E-01 5.395254E+01  8.636694E-01 1.587794E+02  8.633876E-01 1.588125E+02  3.006610E-01 7.893635E+01 
1.513312E+03  3.133345E-01 5.380350E+01  8.628938E-01 1.586769E+02  8.626352E-01 1.587159E+02  3.010939E-01 7.885371E+01 
1.513406E+03  3.136961E-01 5.365171E+01  8.624216E-01 1.585879E+02  8.623324E-01 1.586255E+02  3.017454E-01 7.877419E+01 
1.513500E+03  3.140400E-01 5.349241E+01  8.621172E-01 1.585054E+02  8.618537E-01 1.585324E+02  3.022857E-01 7.868801E+01 
1.513594E+03  3.144011E-01 5.333575E+01  8.613220E-01 1.584143E+02  8.613406E-01 1.584429E+02  3.026994E-01 7.859706E+01 
1.513688E+03  3.145736E-01 5.316043E+01  8.610277E-01 1.583149E+02  8.608896E-01 1.583405E+02  3.032255E-01 7.851954E+01 
1.513781E+03  3.148267E-01 5.301735E+01  8.606658E-01 1.582284E+02  8.604849E-01 1.582596E+02  3.037836E-01 7.843314E+01 
1.513875E+03  3.151739E-01 5.290823E+01  8.602132E-01 1.581440E+02  8.599869E-01 1.581782E+02  3.044215E-01 7.834396E+01 
1.513969E+03  3.153986E-01 5.274521E+01  8.597790E-01 1.580467E+02  8.595525E-01 1.580686E+02  3.048311E-01 7.823642E+01 
1.514062E+03  3.158158E-01 5.262932E+01  8.589844E-01 1.579218E+02  8.586899E-01 1.579655E+02  3.055543E-01 7.808852E+01 
1.514156E+03  3.161950E-01 5.248873E+01  8.585124E-01 1.578318E+02  8.583025E-01 1.578726E+02  3.059062E-01 7.798908E+01 
1.514250E+03  3.164957E-01 5.235092E+01  8.579317E-01 1.577527E+02  8.576814E-01 1.577720E+02  3.062585E-01 7.790938E+01 
1.514344E+03  3.169630E-01 5.223638E+01  8.575593E-01 1.576551E+02  8.574720E-01 1.576958E+02  3.066683E-01 7.777134E+01 
1.514438E+03  3.174505E-01 5.211669E+01  8.570775E-01 1.575789E+02  8.568730E-01 1.576135E+02  3.068375E-01 7.771425E+01 
1.514531E+03  3.179100E-01 5.194899E+01  8.566308E-01 1.574972E+02  8.564332E-01 1.575313E+02  3.071273E-01 7.766116E+01 
1.514625E+03  3.182233E-01 5.181140E+01  8.562967E-01 1.574085E+02  8.560401E-01 1.574412E+02  3.075946E-01 7.760813E+01 
1.514719E+03  3.186521E-01 5.168177E+01  8.558551E-01 1.573328E+02  8.558676E-01 1.573592E+02  3.080369E-01 7.754438E+01 
1.514812E+03  3.189339E-01 5.155934E+01  8.555507E-01 1.572488E+02  8.550518E-01 1.572837E+02  3.086444E-01 7.746902E+01 
1.514906E+03  3.193603E-01 5.141550E+01  8.550830E-01 1.571391E+02  8.548825E-01 1.571916E+02  3.089534E-01 7.735966E+01 
