! Matrix data file written by TouchstoneData, EPCOS AG
! FILENAME: "newformat_LZ68A_2_WB.s4p"
! COMMENT: "(LZ68A_2_WB.s4p) EPCOS AG 12.10.2011 14:58:1"
! INFO: nport=4, nfreq=1601
! DATE: "Wed Oct 12 15:07:54 2011"
! USER: "Daniel Harbusch"
!
! port | pin | signal
! -----|-----|--------
!   1  |  4  |  out
!   2  |  3  |  coupling
!   3  |  2  |  coupling
!   4  |  1  |  in
! --------------------
! 
# MHZ S MA R 50
! freq  magS11 angS11  magS12 angS12  magS13 angS13  magS14 angS14  ...
5.000000E+02  6.247258E-01 -6.219401E+01  7.691439E-01 2.095846E+01  5.683308E-03 6.625752E+01  5.110097E-03 1.202117E+02 
7.683188E-01 2.097980E+01  6.221407E-01 -7.395289E+01  8.609879E-03 5.036873E+01  5.809200E-03 6.668758E+01 
5.672198E-03 6.620787E+01  8.593270E-03 5.033568E+01  5.948349E-01 -7.405121E+01  7.864858E-01 2.074388E+01 
5.099501E-03 1.203418E+02  5.804391E-03 6.671244E+01  7.869735E-01 2.074315E+01  5.989190E-01 -6.203863E+01 
5.012500E+02  6.242236E-01 -6.227704E+01  7.698755E-01 2.086234E+01  5.638871E-03 6.665079E+01  5.088013E-03 1.207064E+02 
7.692506E-01 2.087894E+01  6.216257E-01 -7.403354E+01  8.584766E-03 5.144135E+01  5.765645E-03 6.695380E+01 
5.635228E-03 6.662098E+01  8.584577E-03 5.144983E+01  5.944490E-01 -7.416754E+01  7.875945E-01 2.062980E+01 
5.088429E-03 1.207265E+02  5.769357E-03 6.704654E+01  7.879169E-01 2.064776E+01  5.982780E-01 -6.210902E+01 
5.025000E+02  6.236912E-01 -6.235657E+01  7.704273E-01 2.076291E+01  5.670592E-03 6.657008E+01  5.089312E-03 1.206078E+02 
7.698774E-01 2.077586E+01  6.208869E-01 -7.411200E+01  8.620818E-03 5.138341E+01  5.812014E-03 6.702766E+01 
5.671702E-03 6.671597E+01  8.619635E-03 5.146857E+01  5.938211E-01 -7.427832E+01  7.881592E-01 2.051241E+01 
5.095242E-03 1.205853E+02  5.811268E-03 6.707703E+01  7.883911E-01 2.053055E+01  5.975432E-01 -6.219366E+01 
5.037500E+02  6.230853E-01 -6.242487E+01  7.707368E-01 2.068334E+01  5.676799E-03 6.680242E+01  5.121102E-03 1.203681E+02 
7.702436E-01 2.068153E+01  6.200249E-01 -7.417628E+01  8.645081E-03 5.152195E+01  5.804864E-03 6.711841E+01 
5.675051E-03 6.680835E+01  8.655337E-03 5.154659E+01  5.932954E-01 -7.438357E+01  7.886306E-01 2.042030E+01 
5.113088E-03 1.204245E+02  5.797442E-03 6.709485E+01  7.886882E-01 2.044294E+01  5.968393E-01 -6.225119E+01 
5.050000E+02  6.225670E-01 -6.251305E+01  7.710272E-01 2.060246E+01  5.681764E-03 6.627173E+01  5.158925E-03 1.203271E+02 
7.707828E-01 2.060780E+01  6.193215E-01 -7.424927E+01  8.628589E-03 5.170794E+01  5.809580E-03 6.664561E+01 
5.675664E-03 6.632524E+01  8.622449E-03 5.169001E+01  5.924764E-01 -7.448903E+01  7.891703E-01 2.032704E+01 
5.158866E-03 1.203882E+02  5.814448E-03 6.666624E+01  7.891583E-01 2.035629E+01  5.963879E-01 -6.234012E+01 
5.062500E+02  6.220926E-01 -6.259603E+01  7.714940E-01 2.048808E+01  5.688382E-03 6.657902E+01  5.158102E-03 1.199304E+02 
7.713407E-01 2.055159E+01  6.187674E-01 -7.433729E+01  8.669450E-03 5.165912E+01  5.833156E-03 6.706022E+01 
5.689909E-03 6.655655E+01  8.675531E-03 5.156478E+01  5.918011E-01 -7.459420E+01  7.898500E-01 2.024477E+01 
5.150838E-03 1.200072E+02  5.835002E-03 6.693983E+01  7.896758E-01 2.024689E+01  5.958359E-01 -6.243245E+01 
5.075000E+02  6.216050E-01 -6.268438E+01  7.721695E-01 2.039510E+01  5.733074E-03 6.620569E+01  5.192549E-03 1.201561E+02 
7.716302E-01 2.045585E+01  6.183043E-01 -7.445460E+01  8.693409E-03 5.160893E+01  5.862562E-03 6.670483E+01 
5.723628E-03 6.637094E+01  8.683536E-03 5.167671E+01  5.911367E-01 -7.469647E+01  7.900455E-01 2.015434E+01 
5.201434E-03 1.201130E+02  5.857894E-03 6.667392E+01  7.902306E-01 2.016162E+01  5.951035E-01 -6.251891E+01 
5.087500E+02  6.206795E-01 -6.277899E+01  7.721455E-01 2.035109E+01  5.758022E-03 6.573826E+01  5.234246E-03 1.194458E+02 
7.715065E-01 2.037369E+01  6.170251E-01 -7.454524E+01  8.700682E-03 5.117796E+01  5.897473E-03 6.621930E+01 
5.748307E-03 6.572664E+01  8.707019E-03 5.120373E+01  5.897751E-01 -7.482910E+01  7.898913E-01 2.006242E+01 
5.220531E-03 1.194416E+02  5.900508E-03 6.612392E+01  7.901311E-01 2.010762E+01  5.939728E-01 -6.261332E+01 
5.100000E+02  6.199829E-01 -6.282482E+01  7.733193E-01 2.030339E+01  5.693873E-03 6.582701E+01  5.197985E-03 1.195965E+02 
7.726895E-01 2.030264E+01  6.168438E-01 -7.457914E+01  8.605934E-03 5.149564E+01  5.841206E-03 6.633822E+01 
5.698954E-03 6.593324E+01  8.606803E-03 5.157556E+01  5.892494E-01 -7.487981E+01  7.911055E-01 1.998743E+01 
5.202737E-03 1.195700E+02  5.844827E-03 6.635453E+01  7.913256E-01 2.002518E+01  5.932418E-01 -6.263203E+01 
5.112500E+02  6.192496E-01 -6.290875E+01  7.738234E-01 2.020826E+01  5.717630E-03 6.595848E+01  5.247969E-03 1.193004E+02 
7.731250E-01 2.019858E+01  6.162357E-01 -7.468323E+01  8.652319E-03 5.182231E+01  5.855553E-03 6.636631E+01 
5.713176E-03 6.602101E+01  8.657373E-03 5.183091E+01  5.885245E-01 -7.500770E+01  7.916570E-01 1.988536E+01 
5.239152E-03 1.192358E+02  5.863520E-03 6.628302E+01  7.918359E-01 1.992673E+01  5.924928E-01 -6.267480E+01 
5.125000E+02  6.185881E-01 -6.297552E+01  7.742711E-01 2.013581E+01  5.739042E-03 6.601489E+01  5.263169E-03 1.194128E+02 
7.734266E-01 2.011478E+01  6.155511E-01 -7.477026E+01  8.677826E-03 5.189687E+01  5.862860E-03 6.631412E+01 
5.731732E-03 6.604721E+01  8.682672E-03 5.188070E+01  5.877981E-01 -7.512944E+01  7.920991E-01 1.979875E+01 
5.262988E-03 1.193644E+02  5.873177E-03 6.636031E+01  7.922901E-01 1.982124E+01  5.917098E-01 -6.273604E+01 
5.137500E+02  6.177142E-01 -6.307468E+01  7.742796E-01 2.004480E+01  5.762594E-03 6.562817E+01  5.272926E-03 1.193946E+02 
7.737889E-01 2.002363E+01  6.147704E-01 -7.485534E+01  8.653101E-03 5.194166E+01  5.907896E-03 6.604001E+01 
5.749346E-03 6.566055E+01  8.646654E-03 5.190303E+01  5.868428E-01 -7.525157E+01  7.920831E-01 1.970278E+01 
5.270343E-03 1.192942E+02  5.905862E-03 6.610371E+01  7.925874E-01 1.971957E+01  5.908199E-01 -6.280923E+01 
5.150000E+02  6.172546E-01 -6.315619E+01  7.748872E-01 1.995655E+01  5.758643E-03 6.583439E+01  5.297997E-03 1.188780E+02 
7.742769E-01 1.993602E+01  6.141685E-01 -7.492836E+01  8.696700E-03 5.188050E+01  5.896240E-03 6.623880E+01 
5.743745E-03 6.581546E+01  8.688346E-03 5.188328E+01  5.862242E-01 -7.534871E+01  7.927544E-01 1.960469E+01 
5.298400E-03 1.188909E+02  5.897031E-03 6.621947E+01  7.931131E-01 1.963527E+01  5.903317E-01 -6.289849E+01 
5.162500E+02  6.170918E-01 -6.325038E+01  7.758082E-01 1.985149E+01  5.785303E-03 6.562930E+01  5.318498E-03 1.186788E+02 
7.750361E-01 1.983303E+01  6.138077E-01 -7.503084E+01  8.719423E-03 5.189698E+01  5.941648E-03 6.616979E+01 
5.776925E-03 6.575853E+01  8.719180E-03 5.193135E+01  5.858213E-01 -7.545645E+01  7.936555E-01 1.949134E+01 
5.324152E-03 1.188623E+02  5.929997E-03 6.623891E+01  7.937982E-01 1.953300E+01  5.900054E-01 -6.299956E+01 
5.175000E+02  6.163508E-01 -6.333378E+01  7.760653E-01 1.975728E+01  5.834629E-03 6.498660E+01  5.385358E-03 1.185280E+02 
7.752976E-01 1.976077E+01  6.129383E-01 -7.511677E+01  8.719689E-03 5.137812E+01  5.985341E-03 6.546550E+01 
5.836730E-03 6.512003E+01  8.724371E-03 5.141275E+01  5.850183E-01 -7.556474E+01  7.938332E-01 1.941353E+01 
5.378899E-03 1.186046E+02  5.989008E-03 6.545987E+01  7.939737E-01 1.944285E+01  5.892178E-01 -6.307525E+01 
5.187500E+02  6.156085E-01 -6.339296E+01  7.765725E-01 1.969509E+01  5.761431E-03 6.509241E+01  5.327186E-03 1.181264E+02 
7.758766E-01 1.970371E+01  6.121984E-01 -7.518551E+01  8.637064E-03 5.182190E+01  5.921745E-03 6.551686E+01 
5.771736E-03 6.517602E+01  8.648866E-03 5.189147E+01  5.844443E-01 -7.564574E+01  7.944364E-01 1.935021E+01 
5.326771E-03 1.182056E+02  5.914084E-03 6.538425E+01  7.944061E-01 1.937265E+01  5.883903E-01 -6.314483E+01 
5.200000E+02  6.149958E-01 -6.347044E+01  7.771270E-01 1.959356E+01  5.770304E-03 6.516129E+01  5.372728E-03 1.181753E+02 
7.765614E-01 1.961592E+01  6.116396E-01 -7.527864E+01  8.670190E-03 5.206513E+01  5.926129E-03 6.553691E+01 
5.766140E-03 6.522154E+01  8.671737E-03 5.206528E+01  5.839970E-01 -7.575295E+01  7.949760E-01 1.926463E+01 
5.363629E-03 1.181960E+02  5.923654E-03 6.553507E+01  7.949518E-01 1.927652E+01  5.877159E-01 -6.321794E+01 
5.212500E+02  6.143597E-01 -6.354530E+01  7.775498E-01 1.950748E+01  5.779217E-03 6.519161E+01  5.388232E-03 1.179530E+02 
7.767637E-01 1.952679E+01  6.109361E-01 -7.535366E+01  8.690351E-03 5.228654E+01  5.941532E-03 6.546595E+01 
5.782022E-03 6.526618E+01  8.681641E-03 5.232438E+01  5.833644E-01 -7.585036E+01  7.953150E-01 1.917227E+01 
5.376163E-03 1.181471E+02  5.938536E-03 6.551169E+01  7.953909E-01 1.917647E+01  5.870560E-01 -6.327591E+01 
5.225000E+02  6.137932E-01 -6.363190E+01  7.780217E-01 1.942777E+01  5.807180E-03 6.507725E+01  5.421278E-03 1.179482E+02 
7.773268E-01 1.943717E+01  6.104233E-01 -7.543264E+01  8.719410E-03 5.211290E+01  5.952654E-03 6.539639E+01 
5.801964E-03 6.511324E+01  8.721511E-03 5.216215E+01  5.828645E-01 -7.596837E+01  7.956605E-01 1.907469E+01 
5.414604E-03 1.179635E+02  5.954326E-03 6.536886E+01  7.958090E-01 1.907758E+01  5.865319E-01 -6.334907E+01 
5.237500E+02  6.132095E-01 -6.371301E+01  7.785072E-01 1.934745E+01  5.831470E-03 6.491555E+01  5.421780E-03 1.177820E+02 
7.778407E-01 1.933451E+01  6.099183E-01 -7.551660E+01  8.705147E-03 5.218146E+01  5.983677E-03 6.524830E+01 
5.833219E-03 6.501267E+01  8.703581E-03 5.216700E+01  5.822978E-01 -7.607815E+01  7.960734E-01 1.897373E+01 
5.417573E-03 1.177445E+02  5.984498E-03 6.526189E+01  7.962951E-01 1.898289E+01  5.858759E-01 -6.342065E+01 
5.250000E+02  6.126358E-01 -6.379996E+01  7.789732E-01 1.925820E+01  5.813858E-03 6.478511E+01  5.478658E-03 1.175148E+02 
7.783376E-01 1.923960E+01  6.093065E-01 -7.561485E+01  8.754902E-03 5.231445E+01  5.980210E-03 6.519624E+01 
5.812882E-03 6.481239E+01  8.754032E-03 5.233103E+01  5.816047E-01 -7.618750E+01  7.965291E-01 1.887874E+01 
5.466309E-03 1.176999E+02  5.974149E-03 6.521894E+01  7.967362E-01 1.888191E+01  5.851778E-01 -6.349774E+01 
5.262500E+02  6.120334E-01 -6.390015E+01  7.791208E-01 1.915593E+01  5.882883E-03 6.449033E+01  5.494345E-03 1.172474E+02 
7.785388E-01 1.914927E+01  6.083757E-01 -7.572388E+01  8.762255E-03 5.199780E+01  6.033950E-03 6.491956E+01 
5.875548E-03 6.466822E+01  8.764051E-03 5.203518E+01  5.806123E-01 -7.632573E+01  7.967285E-01 1.878045E+01 
5.488019E-03 1.174227E+02  6.041157E-03 6.490670E+01  7.969432E-01 1.878878E+01  5.844834E-01 -6.359092E+01 
5.275000E+02  6.112873E-01 -6.396542E+01  7.798572E-01 1.910032E+01  5.816817E-03 6.427492E+01  5.475758E-03 1.171409E+02 
7.793463E-01 1.909791E+01  6.075286E-01 -7.575577E+01  8.665179E-03 5.218035E+01  5.990629E-03 6.467172E+01 
5.809932E-03 6.452313E+01  8.670964E-03 5.219130E+01  5.796673E-01 -7.636181E+01  7.977291E-01 1.872697E+01 
5.468848E-03 1.171758E+02  5.994190E-03 6.470751E+01  7.978851E-01 1.874402E+01  5.836312E-01 -6.363150E+01 
5.287500E+02  6.109808E-01 -6.405151E+01  7.805434E-01 1.899536E+01  5.811091E-03 6.433790E+01  5.511031E-03 1.168179E+02 
7.801680E-01 1.897354E+01  6.072124E-01 -7.586121E+01  8.713242E-03 5.241389E+01  5.977168E-03 6.484026E+01 
5.810614E-03 6.443989E+01  8.714748E-03 5.245206E+01  5.791590E-01 -7.647772E+01  7.985528E-01 1.860548E+01 
5.508803E-03 1.169475E+02  5.980771E-03 6.474255E+01  7.983892E-01 1.864131E+01  5.832407E-01 -6.371074E+01 
5.300000E+02  6.109002E-01 -6.415277E+01  7.814567E-01 1.889026E+01  5.857651E-03 6.439204E+01  5.516447E-03 1.169819E+02 
7.809898E-01 1.884337E+01  6.070436E-01 -7.597979E+01  8.718741E-03 5.255207E+01  6.023863E-03 6.456272E+01 
5.853283E-03 6.439471E+01  8.725444E-03 5.259142E+01  5.789946E-01 -7.661294E+01  7.994889E-01 1.849083E+01 
5.510579E-03 1.170593E+02  6.014889E-03 6.454706E+01  7.991542E-01 1.851931E+01  5.832709E-01 -6.381627E+01 
5.312500E+02  6.099674E-01 -6.419088E+01  7.814498E-01 1.882659E+01  5.852612E-03 6.441910E+01  5.535912E-03 1.164271E+02 
7.809654E-01 1.880373E+01  6.059955E-01 -7.603436E+01  8.739986E-03 5.241073E+01  6.022945E-03 6.472365E+01 
5.849827E-03 6.446700E+01  8.744682E-03 5.250100E+01  5.781538E-01 -7.670844E+01  7.993768E-01 1.842834E+01 
5.542827E-03 1.164940E+02  6.029645E-03 6.469615E+01  7.992087E-01 1.845144E+01  5.822498E-01 -6.383847E+01 
5.325000E+02  6.091550E-01 -6.423918E+01  7.816785E-01 1.876025E+01  5.863266E-03 6.430051E+01  5.554315E-03 1.165772E+02 
7.812247E-01 1.874644E+01  6.051782E-01 -7.610333E+01  8.771430E-03 5.247954E+01  6.042478E-03 6.471385E+01 
5.867747E-03 6.442082E+01  8.769813E-03 5.255243E+01  5.773271E-01 -7.680370E+01  7.994666E-01 1.836146E+01 
5.561285E-03 1.165949E+02  6.047246E-03 6.471384E+01  7.993888E-01 1.837249E+01  5.813282E-01 -6.388170E+01 
5.337500E+02  6.083793E-01 -6.432397E+01  7.820844E-01 1.867419E+01  5.895817E-03 6.400815E+01  5.603170E-03 1.165253E+02 
7.814869E-01 1.868041E+01  6.043731E-01 -7.618097E+01  8.765935E-03 5.272030E+01  6.053078E-03 6.448845E+01 
5.879778E-03 6.408905E+01  8.759240E-03 5.268849E+01  5.764938E-01 -7.690207E+01  7.997782E-01 1.828284E+01 
5.591443E-03 1.166700E+02  6.061018E-03 6.447837E+01  7.997253E-01 1.829858E+01  5.806315E-01 -6.394478E+01 
5.350000E+02  6.077448E-01 -6.440548E+01  7.825065E-01 1.857688E+01  5.929178E-03 6.394371E+01  5.626238E-03 1.162931E+02 
7.819755E-01 1.859514E+01  6.038369E-01 -7.627897E+01  8.799453E-03 5.231929E+01  6.101089E-03 6.427868E+01 
5.921487E-03 6.399597E+01  8.798354E-03 5.235519E+01  5.757098E-01 -7.702545E+01  8.002937E-01 1.818312E+01 
5.622322E-03 1.163287E+02  6.095793E-03 6.421263E+01  8.000729E-01 1.821158E+01  5.800454E-01 -6.402577E+01 
5.362500E+02  6.071166E-01 -6.449161E+01  7.830622E-01 1.850573E+01  5.890880E-03 6.354503E+01  5.602092E-03 1.159631E+02 
7.825593E-01 1.852374E+01  6.033228E-01 -7.636748E+01  8.676553E-03 5.258866E+01  6.063054E-03 6.389744E+01 
5.881253E-03 6.360118E+01  8.673928E-03 5.250762E+01  5.750262E-01 -7.711889E+01  8.009543E-01 1.811414E+01 
5.590391E-03 1.160421E+02  6.056155E-03 6.384317E+01  8.006306E-01 1.812890E+01  5.796750E-01 -6.411150E+01 
5.375000E+02  6.063128E-01 -6.454490E+01  7.834789E-01 1.842210E+01  5.878566E-03 6.347311E+01  5.654762E-03 1.159301E+02 
7.830269E-01 1.843468E+01  6.026085E-01 -7.643071E+01  8.723298E-03 5.283060E+01  6.059603E-03 6.389622E+01 
5.878611E-03 6.366417E+01  8.732143E-03 5.277829E+01  5.743347E-01 -7.721582E+01  8.014292E-01 1.802453E+01 
5.636466E-03 1.160036E+02  6.060909E-03 6.384403E+01  8.011308E-01 1.806357E+01  5.789325E-01 -6.416900E+01 
5.387500E+02  6.056390E-01 -6.460646E+01  7.837663E-01 1.833601E+01  5.906789E-03 6.386015E+01  5.641683E-03 1.158057E+02 
7.834340E-01 1.833895E+01  6.019797E-01 -7.650606E+01  8.734034E-03 5.294518E+01  6.074591E-03 6.407640E+01 
5.894787E-03 6.391877E+01  8.747429E-03 5.293139E+01  5.736922E-01 -7.731843E+01  8.017491E-01 1.794166E+01 
5.644867E-03 1.157630E+02  6.074958E-03 6.407193E+01  8.016492E-01 1.797407E+01  5.782761E-01 -6.423817E+01 
5.400000E+02  6.051103E-01 -6.467682E+01  7.841514E-01 1.825758E+01  5.906233E-03 6.364117E+01  5.676489E-03 1.156772E+02 
7.839655E-01 1.824638E+01  6.014662E-01 -7.658981E+01  8.769295E-03 5.291756E+01  6.083906E-03 6.389383E+01 
5.903001E-03 6.371373E+01  8.762721E-03 5.291772E+01  5.732193E-01 -7.743213E+01  8.022627E-01 1.786781E+01 
5.677663E-03 1.156452E+02  6.082120E-03 6.391771E+01  8.022296E-01 1.788346E+01  5.777701E-01 -6.430788E+01 
5.412500E+02  6.045237E-01 -6.474413E+01  7.847112E-01 1.818253E+01  5.919933E-03 6.356127E+01  5.714250E-03 1.154475E+02 
7.843870E-01 1.817074E+01  6.007697E-01 -7.667120E+01  8.801723E-03 5.308494E+01  6.098229E-03 6.390837E+01 
5.909971E-03 6.363054E+01  8.805970E-03 5.312259E+01  5.725923E-01 -7.752320E+01  8.026990E-01 1.778330E+01 
5.706696E-03 1.155035E+02  6.093539E-03 6.376911E+01  8.026570E-01 1.780592E+01  5.771926E-01 -6.438258E+01 
5.425000E+02  6.038666E-01 -6.483419E+01  7.852516E-01 1.809456E+01  5.956583E-03 6.326016E+01  5.709638E-03 1.154115E+02 
7.850413E-01 1.808750E+01  6.001660E-01 -7.677546E+01  8.792239E-03 5.298141E+01  6.150717E-03 6.364183E+01 
5.955995E-03 6.350098E+01  8.790922E-03 5.291991E+01  5.720200E-01 -7.761477E+01  8.030920E-01 1.768486E+01 
5.716578E-03 1.154860E+02  6.139271E-03 6.362771E+01  8.029851E-01 1.771315E+01  5.765648E-01 -6.446686E+01 
5.437500E+02  6.033078E-01 -6.492026E+01  7.858231E-01 1.800027E+01  5.966867E-03 6.336345E+01  5.760263E-03 1.150338E+02 
7.853630E-01 1.800367E+01  5.994290E-01 -7.688687E+01  8.824950E-03 5.283811E+01  6.152864E-03 6.366238E+01 
5.966797E-03 6.339208E+01  8.821257E-03 5.287163E+01  5.714918E-01 -7.772934E+01  8.031788E-01 1.758314E+01 
5.760332E-03 1.150926E+02  6.153514E-03 6.358465E+01  8.032708E-01 1.760442E+01  5.760002E-01 -6.456204E+01 
5.450000E+02  6.023759E-01 -6.499867E+01  7.863477E-01 1.794103E+01  5.925692E-03 6.271469E+01  5.751251E-03 1.147495E+02 
7.858850E-01 1.795454E+01  5.983587E-01 -7.695630E+01  8.744930E-03 5.280018E+01  6.120394E-03 6.304921E+01 
5.933149E-03 6.281828E+01  8.744901E-03 5.284062E+01  5.705363E-01 -7.782084E+01  8.035375E-01 1.754325E+01 
5.732562E-03 1.149246E+02  6.117794E-03 6.302491E+01  8.037258E-01 1.752446E+01  5.749517E-01 -6.463199E+01 
5.462500E+02  6.017710E-01 -6.506194E+01  7.871011E-01 1.782665E+01  5.972624E-03 6.304891E+01  5.757903E-03 1.148069E+02 
7.865188E-01 1.784451E+01  5.979983E-01 -7.706276E+01  8.752908E-03 5.306885E+01  6.148036E-03 6.337726E+01 
5.971736E-03 6.319665E+01  8.753131E-03 5.312907E+01  5.703298E-01 -7.795786E+01  8.043037E-01 1.744084E+01 
5.742407E-03 1.148622E+02  6.146127E-03 6.337140E+01  8.044296E-01 1.737196E+01  5.744323E-01 -6.470144E+01 
5.475000E+02  6.011742E-01 -6.509790E+01  7.874876E-01 1.775739E+01  5.939400E-03 6.277501E+01  5.809567E-03 1.146057E+02 
7.868785E-01 1.777395E+01  5.973424E-01 -7.713612E+01  8.806238E-03 5.320403E+01  6.122648E-03 6.314050E+01 
5.943922E-03 6.291077E+01  8.785217E-03 5.335926E+01  5.698344E-01 -7.802521E+01  8.045795E-01 1.734574E+01 
5.792463E-03 1.145956E+02  6.121432E-03 6.315244E+01  8.046228E-01 1.733057E+01  5.738281E-01 -6.473112E+01 
5.487500E+02  6.007322E-01 -6.517018E+01  7.878160E-01 1.766718E+01  5.956617E-03 6.313492E+01  5.817812E-03 1.144522E+02 
7.875243E-01 1.770040E+01  5.968856E-01 -7.722356E+01  8.829074E-03 5.329020E+01  6.148804E-03 6.338292E+01 
5.963963E-03 6.319824E+01  8.813438E-03 5.327221E+01  5.693320E-01 -7.810727E+01  8.052052E-01 1.726291E+01 
5.809154E-03 1.144322E+02  6.152331E-03 6.340856E+01  8.049753E-01 1.728338E+01  5.732745E-01 -6.480022E+01 
5.500000E+02  6.004061E-01 -6.525633E+01  7.882806E-01 1.758500E+01  6.001850E-03 6.269134E+01  5.839550E-03 1.145927E+02 
7.880132E-01 1.761472E+01  5.962578E-01 -7.732221E+01  8.808366E-03 5.349463E+01  6.171364E-03 6.303742E+01 
5.993018E-03 6.277341E+01  8.797568E-03 5.348293E+01  5.685588E-01 -7.820417E+01  8.057779E-01 1.717552E+01 
5.826854E-03 1.145987E+02  6.170750E-03 6.302182E+01  8.055766E-01 1.720692E+01  5.726554E-01 -6.488345E+01 
5.512500E+02  5.998125E-01 -6.532054E+01  7.886315E-01 1.750744E+01  6.001115E-03 6.261058E+01  5.885800E-03 1.141946E+02 
7.883666E-01 1.752907E+01  5.955975E-01 -7.741256E+01  8.854348E-03 5.343692E+01  6.177452E-03 6.294397E+01 
5.988390E-03 6.268538E+01  8.852586E-03 5.350752E+01  5.677199E-01 -7.830733E+01  8.061600E-01 1.708049E+01 
5.886262E-03 1.143789E+02  6.187184E-03 6.282717E+01  8.060789E-01 1.712436E+01  5.718804E-01 -6.495996E+01 
5.525000E+02  5.990788E-01 -6.539517E+01  7.888905E-01 1.742692E+01  6.043914E-03 6.265273E+01  5.873282E-03 1.141350E+02 
7.884700E-01 1.743876E+01  5.946809E-01 -7.750648E+01  8.840065E-03 5.317386E+01  6.239783E-03 6.311354E+01 
6.044193E-03 6.276301E+01  8.828912E-03 5.318471E+01  5.668342E-01 -7.840115E+01  8.063873E-01 1.699695E+01 
5.853515E-03 1.142102E+02  6.233003E-03 6.304700E+01  8.065372E-01 1.704085E+01  5.711743E-01 -6.503449E+01 
5.537500E+02  5.983131E-01 -6.546868E+01  7.891571E-01 1.734962E+01  6.010344E-03 6.171535E+01  5.893099E-03 1.136100E+02 
