! Matrix data file written by TouchstoneData, EPCOS AG
! FILENAME: "newformat_LZ68A_4_WB.s2p"
! COMMENT: "(LZ68A_4_WB.s2p) EPCOS AG 21.09.2011 16:07:1"
! INFO: nport=2, nfreq=1601
! DATE: "Fri Sep 23 09:06:14 2011"
! USER: "Daniel Harbusch"
!
! port | pin | signal
! -----|-----|--------
!   1  |  1  |  IN
!   2  |  4  |  OUT
! --------------------
! 
# MHZ S MA R 50
! freq  magS11 angS11  magS21 angS21  magS12 angS12  magS22 angS22
1.000000E+02  9.843597E-01 1.615322E+02  1.122409E-03 -1.124900E+02  1.128602E-03 -1.139302E+02  9.840966E-01 1.616593E+02 
1.018125E+02  9.843913E-01 1.612270E+02  1.200231E-03 -1.125071E+02  1.166965E-03 -1.133146E+02  9.839172E-01 1.613017E+02 
1.036250E+02  9.842795E-01 1.608912E+02  1.255328E-03 -1.144289E+02  1.265125E-03 -1.139831E+02  9.837772E-01 1.609578E+02 
1.054375E+02  9.839453E-01 1.605340E+02  1.329539E-03 -1.152906E+02  1.323405E-03 -1.133146E+02  9.836813E-01 1.606288E+02 
1.072500E+02  9.833610E-01 1.602142E+02  1.360562E-03 -1.134781E+02  1.387897E-03 -1.137631E+02  9.836641E-01 1.602959E+02 
1.090625E+02  9.838644E-01 1.598637E+02  1.428949E-03 -1.166583E+02  1.441756E-03 -1.141069E+02  9.833686E-01 1.599432E+02 
1.108750E+02  9.838773E-01 1.595155E+02  1.515674E-03 -1.141797E+02  1.502284E-03 -1.137584E+02  9.828405E-01 1.595748E+02 
1.126875E+02  9.837931E-01 1.591991E+02  1.616532E-03 -1.146322E+02  1.600819E-03 -1.158075E+02  9.828917E-01 1.592316E+02 
1.145000E+02  9.840879E-01 1.588594E+02  1.680384E-03 -1.151323E+02  1.699933E-03 -1.157976E+02  9.832686E-01 1.589246E+02 
1.163125E+02  9.839319E-01 1.585066E+02  1.797055E-03 -1.157514E+02  1.755720E-03 -1.160249E+02  9.831260E-01 1.586145E+02 
1.181250E+02  9.841064E-01 1.581789E+02  1.821950E-03 -1.157872E+02  1.851870E-03 -1.157283E+02  9.831017E-01 1.582924E+02 
1.199375E+02  9.843640E-01 1.578649E+02  1.931926E-03 -1.162144E+02  1.928453E-03 -1.167884E+02  9.828520E-01 1.579393E+02 
1.217500E+02  9.840279E-01 1.575141E+02  2.015402E-03 -1.165365E+02  2.028426E-03 -1.165877E+02  9.831108E-01 1.575947E+02 
1.235625E+02  9.838396E-01 1.571726E+02  2.116584E-03 -1.168656E+02  2.103055E-03 -1.168924E+02  9.827977E-01 1.572600E+02 
1.253750E+02  9.838371E-01 1.568311E+02  2.213331E-03 -1.166502E+02  2.208700E-03 -1.174474E+02  9.831579E-01 1.569123E+02 
1.271875E+02  9.838151E-01 1.564915E+02  2.303636E-03 -1.168477E+02  2.306873E-03 -1.177084E+02  9.830271E-01 1.565484E+02 
1.290000E+02  9.837590E-01 1.561496E+02  2.419120E-03 -1.180533E+02  2.387025E-03 -1.175848E+02  9.827840E-01 1.561943E+02 
1.308125E+02  9.843116E-01 1.558163E+02  2.499437E-03 -1.184475E+02  2.500204E-03 -1.183912E+02  9.825619E-01 1.558483E+02 
1.326250E+02  9.840255E-01 1.554873E+02  2.594620E-03 -1.184234E+02  2.604364E-03 -1.181978E+02  9.823653E-01 1.555476E+02 
1.344375E+02  9.838413E-01 1.551260E+02  2.713476E-03 -1.187078E+02  2.707588E-03 -1.189795E+02  9.822611E-01 1.552085E+02 
1.362500E+02  9.835217E-01 1.547770E+02  2.821408E-03 -1.193122E+02  2.813585E-03 -1.188015E+02  9.822613E-01 1.548675E+02 
1.380625E+02  9.838824E-01 1.544754E+02  2.920341E-03 -1.195154E+02  2.930411E-03 -1.191890E+02  9.824042E-01 1.545420E+02 
1.398750E+02  9.838220E-01 1.541183E+02  3.052913E-03 -1.194863E+02  3.066529E-03 -1.198723E+02  9.827957E-01 1.542016E+02 
1.416875E+02  9.837848E-01 1.537311E+02  3.195485E-03 -1.198161E+02  3.164107E-03 -1.199500E+02  9.824015E-01 1.538389E+02 
1.435000E+02  9.836616E-01 1.534062E+02  3.320492E-03 -1.200274E+02  3.273203E-03 -1.206500E+02  9.823174E-01 1.535024E+02 
1.453125E+02  9.833460E-01 1.530936E+02  3.431787E-03 -1.204617E+02  3.437676E-03 -1.206998E+02  9.824502E-01 1.531776E+02 
1.471250E+02  9.835563E-01 1.527739E+02  3.599022E-03 -1.210488E+02  3.569233E-03 -1.208230E+02  9.822954E-01 1.528581E+02 
1.489375E+02  9.836474E-01 1.524086E+02  3.725209E-03 -1.211256E+02  3.704163E-03 -1.213032E+02  9.823765E-01 1.524770E+02 
1.507500E+02  9.837628E-01 1.520654E+02  3.855210E-03 -1.215811E+02  3.840172E-03 -1.218130E+02  9.825115E-01 1.521332E+02 
1.525625E+02  9.835264E-01 1.517184E+02  3.977817E-03 -1.219133E+02  3.959990E-03 -1.222271E+02  9.825060E-01 1.518020E+02 
1.543750E+02  9.837604E-01 1.513874E+02  4.142851E-03 -1.224066E+02  4.141409E-03 -1.220404E+02  9.821222E-01 1.514498E+02 
1.561875E+02  9.837433E-01 1.510430E+02  4.299846E-03 -1.223422E+02  4.272806E-03 -1.228548E+02  9.816424E-01 1.511511E+02 
1.580000E+02  9.834941E-01 1.506995E+02  4.448461E-03 -1.229728E+02  4.430178E-03 -1.225328E+02  9.818892E-01 1.507963E+02 
1.598125E+02  9.831637E-01 1.503546E+02  4.619276E-03 -1.232257E+02  4.610158E-03 -1.231323E+02  9.818622E-01 1.504532E+02 
1.616250E+02  9.839148E-01 1.500525E+02  4.790356E-03 -1.235539E+02  4.782067E-03 -1.237570E+02  9.826599E-01 1.501471E+02 
1.634375E+02  9.836522E-01 1.497089E+02  4.909129E-03 -1.239310E+02  4.940483E-03 -1.238214E+02  9.820364E-01 1.497841E+02 
1.652500E+02  9.833596E-01 1.493314E+02  5.084890E-03 -1.239909E+02  5.092492E-03 -1.243460E+02  9.816557E-01 1.494228E+02 
1.670625E+02  9.834127E-01 1.489683E+02  5.266548E-03 -1.243660E+02  5.262796E-03 -1.247157E+02  9.818174E-01 1.490779E+02 
1.688750E+02  9.829029E-01 1.486309E+02  5.435294E-03 -1.248314E+02  5.430416E-03 -1.248507E+02  9.820157E-01 1.487404E+02 
1.706875E+02  9.820596E-01 1.482885E+02  5.606900E-03 -1.251723E+02  5.610580E-03 -1.250924E+02  9.814268E-01 1.483905E+02 
1.725000E+02  9.822315E-01 1.479933E+02  5.834152E-03 -1.256733E+02  5.801676E-03 -1.255524E+02  9.813344E-01 1.480836E+02 
1.743125E+02  9.820015E-01 1.476605E+02  5.992982E-03 -1.258496E+02  5.993201E-03 -1.261335E+02  9.809786E-01 1.477292E+02 
1.761250E+02  9.823547E-01 1.472731E+02  6.199801E-03 -1.260362E+02  6.182149E-03 -1.260766E+02  9.817243E-01 1.473728E+02 
1.779375E+02  9.827585E-01 1.468190E+02  6.392631E-03 -1.267194E+02  6.408913E-03 -1.263893E+02  9.816650E-01 1.468765E+02 
1.797500E+02  9.826445E-01 1.465659E+02  6.597695E-03 -1.268912E+02  6.593840E-03 -1.270135E+02  9.815633E-01 1.466778E+02 
1.815625E+02  9.823762E-01 1.462680E+02  6.816215E-03 -1.269113E+02  6.811377E-03 -1.273683E+02  9.813424E-01 1.463956E+02 
1.833750E+02  9.820151E-01 1.459457E+02  7.048259E-03 -1.273655E+02  7.019066E-03 -1.274817E+02  9.814018E-01 1.460519E+02 
1.851875E+02  9.822623E-01 1.456048E+02  7.261784E-03 -1.276392E+02  7.229363E-03 -1.278738E+02  9.816925E-01 1.456814E+02 
1.870000E+02  9.826978E-01 1.452302E+02  7.462661E-03 -1.280593E+02  7.459321E-03 -1.282520E+02  9.816865E-01 1.453521E+02 
1.888125E+02  9.823850E-01 1.448852E+02  7.698628E-03 -1.283618E+02  7.714094E-03 -1.285436E+02  9.812875E-01 1.449780E+02 
1.906250E+02  9.825505E-01 1.445165E+02  7.938915E-03 -1.288043E+02  7.939621E-03 -1.288008E+02  9.822508E-01 1.446316E+02 
1.924375E+02  9.816254E-01 1.441710E+02  8.142687E-03 -1.292079E+02  8.177256E-03 -1.291915E+02  9.805174E-01 1.443082E+02 
1.942500E+02  9.802757E-01 1.438235E+02  8.395879E-03 -1.291197E+02  8.387725E-03 -1.295330E+02  9.779051E-01 1.440883E+02 
1.960625E+02  9.817256E-01 1.434788E+02  8.652876E-03 -1.298047E+02  8.641535E-03 -1.296920E+02  9.800868E-01 1.436241E+02 
1.978750E+02  9.819290E-01 1.431280E+02  8.937206E-03 -1.301851E+02  8.900751E-03 -1.303639E+02  9.804926E-01 1.432190E+02 
1.996875E+02  9.816222E-01 1.427975E+02  9.209532E-03 -1.306705E+02  9.179402E-03 -1.305402E+02  9.803384E-01 1.428654E+02 
2.015000E+02  9.815327E-01 1.424315E+02  9.445802E-03 -1.308043E+02  9.421845E-03 -1.307248E+02  9.797508E-01 1.424859E+02 
2.033125E+02  9.812250E-01 1.420759E+02  9.728877E-03 -1.311495E+02  9.691272E-03 -1.313420E+02  9.794856E-01 1.421536E+02 
2.051250E+02  9.815710E-01 1.417022E+02  9.963930E-03 -1.314855E+02  9.966309E-03 -1.313553E+02  9.792349E-01 1.418247E+02 
2.069375E+02  9.814225E-01 1.413481E+02  1.021943E-02 -1.319907E+02  1.023380E-02 -1.318010E+02  9.790004E-01 1.414855E+02 
2.087500E+02  9.806238E-01 1.410902E+02  1.051962E-02 -1.322709E+02  1.051417E-02 -1.322036E+02  9.804394E-01 1.411922E+02 
2.105625E+02  9.803340E-01 1.408004E+02  1.085200E-02 -1.323707E+02  1.084838E-02 -1.325528E+02  9.815086E-01 1.408788E+02 
2.123750E+02  9.809439E-01 1.403280E+02  1.114422E-02 -1.329070E+02  1.112335E-02 -1.328706E+02  9.793921E-01 1.404823E+02 
2.141875E+02  9.804186E-01 1.399702E+02  1.140095E-02 -1.331836E+02  1.144173E-02 -1.334173E+02  9.791171E-01 1.401979E+02 
2.160000E+02  9.800261E-01 1.396267E+02  1.175821E-02 -1.336828E+02  1.172197E-02 -1.336020E+02  9.794448E-01 1.397946E+02 
2.178125E+02  9.796511E-01 1.392591E+02  1.206074E-02 -1.335541E+02  1.205276E-02 -1.337817E+02  9.796041E-01 1.394421E+02 
2.196250E+02  9.798128E-01 1.389306E+02  1.236546E-02 -1.342043E+02  1.237930E-02 -1.342957E+02  9.798372E-01 1.390856E+02 
2.214375E+02  9.795311E-01 1.385931E+02  1.270552E-02 -1.345064E+02  1.270224E-02 -1.345378E+02  9.795658E-01 1.387416E+02 
2.232500E+02  9.795390E-01 1.382294E+02  1.304414E-02 -1.348159E+02  1.308566E-02 -1.350374E+02  9.792334E-01 1.383920E+02 
2.250625E+02  9.809530E-01 1.378551E+02  1.338657E-02 -1.352413E+02  1.339132E-02 -1.351904E+02  9.787626E-01 1.380369E+02 
2.268750E+02  9.809933E-01 1.375119E+02  1.372815E-02 -1.353867E+02  1.375855E-02 -1.354850E+02  9.786733E-01 1.377016E+02 
2.286875E+02  9.796192E-01 1.371442E+02  1.410652E-02 -1.359378E+02  1.409672E-02 -1.358985E+02  9.790190E-01 1.373229E+02 
2.305000E+02  9.799355E-01 1.367868E+02  1.446740E-02 -1.363512E+02  1.444572E-02 -1.363304E+02  9.792776E-01 1.369664E+02 
2.323125E+02  9.793969E-01 1.364367E+02  1.478775E-02 -1.366374E+02  1.479891E-02 -1.365807E+02  9.790892E-01 1.366486E+02 
2.341250E+02  9.800957E-01 1.362938E+02  1.517444E-02 -1.367405E+02  1.518907E-02 -1.367422E+02  9.791814E-01 1.364425E+02 
2.359375E+02  9.794593E-01 1.357749E+02  1.559503E-02 -1.372863E+02  1.557350E-02 -1.372289E+02  9.785378E-01 1.359182E+02 
2.377500E+02  9.794828E-01 1.353644E+02  1.595314E-02 -1.375504E+02  1.597011E-02 -1.378214E+02  9.784094E-01 1.355771E+02 
2.395625E+02  9.791625E-01 1.350068E+02  1.637636E-02 -1.381143E+02  1.635694E-02 -1.381443E+02  9.782779E-01 1.352081E+02 
2.413750E+02  9.794668E-01 1.345904E+02  1.677018E-02 -1.384427E+02  1.675451E-02 -1.385366E+02  9.784622E-01 1.347852E+02 
2.431875E+02  9.794903E-01 1.342095E+02  1.720128E-02 -1.388142E+02  1.719509E-02 -1.388894E+02  9.784612E-01 1.344317E+02 
2.450000E+02  9.792579E-01 1.338679E+02  1.761872E-02 -1.391396E+02  1.761907E-02 -1.391362E+02  9.783286E-01 1.341039E+02 
2.468125E+02  9.796029E-01 1.335221E+02  1.804235E-02 -1.394638E+02  1.805930E-02 -1.395124E+02  9.784397E-01 1.337381E+02 
2.486250E+02  9.791285E-01 1.331900E+02  1.853503E-02 -1.398691E+02  1.848395E-02 -1.396721E+02  9.784835E-01 1.334019E+02 
2.504375E+02  9.789507E-01 1.328177E+02  1.892796E-02 -1.402200E+02  1.891520E-02 -1.402401E+02  9.778031E-01 1.330523E+02 
2.522500E+02  9.789226E-01 1.324602E+02  1.937698E-02 -1.405090E+02  1.934345E-02 -1.404703E+02  9.780423E-01 1.327095E+02 
2.540625E+02  9.789933E-01 1.321075E+02  1.984465E-02 -1.409187E+02  1.985673E-02 -1.409590E+02  9.779616E-01 1.323595E+02 
2.558750E+02  9.787326E-01 1.317349E+02  2.030186E-02 -1.413420E+02  2.030964E-02 -1.412537E+02  9.781095E-01 1.319882E+02 
2.576875E+02  9.785480E-01 1.313872E+02  2.079555E-02 -1.414813E+02  2.078609E-02 -1.416162E+02  9.777705E-01 1.316436E+02 
2.595000E+02  9.782223E-01 1.310127E+02  2.126676E-02 -1.419059E+02  2.125193E-02 -1.419750E+02  9.777555E-01 1.312623E+02 
2.613125E+02  9.785229E-01 1.306336E+02  2.177433E-02 -1.422728E+02  2.176094E-02 -1.423380E+02  9.777005E-01 1.309002E+02 
2.631250E+02  9.781137E-01 1.302654E+02  2.231129E-02 -1.426233E+02  2.225715E-02 -1.426833E+02  9.777597E-01 1.305286E+02 
2.649375E+02  9.782552E-01 1.298894E+02  2.276908E-02 -1.430495E+02  2.279375E-02 -1.430331E+02  9.776967E-01 1.301513E+02 
2.667500E+02  9.781654E-01 1.295106E+02  2.328976E-02 -1.433731E+02  2.329547E-02 -1.434523E+02  9.772112E-01 1.297656E+02 
2.685625E+02  9.781353E-01 1.291503E+02  2.380460E-02 -1.438219E+02  2.381554E-02 -1.437940E+02  9.769247E-01 1.294402E+02 
2.703750E+02  9.784850E-01 1.287905E+02  2.437597E-02 -1.440625E+02  2.438324E-02 -1.440864E+02  9.771829E-01 1.290775E+02 
2.721875E+02  9.783935E-01 1.284177E+02  2.492260E-02 -1.445595E+02  2.493994E-02 -1.445246E+02  9.768953E-01 1.286989E+02 
2.740000E+02  9.781556E-01 1.280262E+02  2.544831E-02 -1.448794E+02  2.545750E-02 -1.448980E+02  9.769368E-01 1.283627E+02 
2.758125E+02  9.778558E-01 1.276952E+02  2.608404E-02 -1.451489E+02  2.603384E-02 -1.451807E+02  9.768091E-01 1.279954E+02 
2.776250E+02  9.776239E-01 1.273288E+02  2.666694E-02 -1.455502E+02  2.660454E-02 -1.456071E+02  9.768020E-01 1.276149E+02 
2.794375E+02  9.775667E-01 1.269428E+02  2.724920E-02 -1.458285E+02  2.723123E-02 -1.459541E+02  9.766053E-01 1.272461E+02 
2.812500E+02  9.775722E-01 1.265683E+02  2.782896E-02 -1.463105E+02  2.779574E-02 -1.462821E+02  9.761849E-01 1.268562E+02 
2.830625E+02  9.774307E-01 1.261853E+02  2.842429E-02 -1.467141E+02  2.841853E-02 -1.467297E+02  9.762224E-01 1.264734E+02 
2.848750E+02  9.776547E-01 1.257894E+02  2.903916E-02 -1.470837E+02  2.905548E-02 -1.470748E+02  9.760907E-01 1.261262E+02 
2.866875E+02  9.772691E-01 1.254407E+02  2.968665E-02 -1.473917E+02  2.968120E-02 -1.473365E+02  9.760505E-01 1.257577E+02 
2.885000E+02  9.774066E-01 1.250538E+02  3.034091E-02 -1.477873E+02  3.030336E-02 -1.477261E+02  9.761808E-01 1.253817E+02 
2.903125E+02  9.773050E-01 1.246968E+02  3.101850E-02 -1.481994E+02  3.098617E-02 -1.481540E+02  9.763340E-01 1.250137E+02 
2.921250E+02  9.776755E-01 1.242809E+02  3.166550E-02 -1.485457E+02  3.165621E-02 -1.486317E+02  9.763304E-01 1.246048E+02 
2.939375E+02  9.773396E-01 1.238664E+02  3.233446E-02 -1.489534E+02  3.231469E-02 -1.489719E+02  9.760777E-01 1.242216E+02 
2.957500E+02  9.768950E-01 1.235055E+02  3.303331E-02 -1.492967E+02  3.299328E-02 -1.493421E+02  9.759173E-01 1.238541E+02 
2.975625E+02  9.767745E-01 1.231112E+02  3.372425E-02 -1.496972E+02  3.369773E-02 -1.497491E+02  9.759055E-01 1.234632E+02 
2.993750E+02  9.766098E-01 1.227310E+02  3.443654E-02 -1.500946E+02  3.440335E-02 -1.501316E+02  9.760322E-01 1.230933E+02 
3.011875E+02  9.765236E-01 1.223553E+02  3.513569E-02 -1.504255E+02  3.513739E-02 -1.505268E+02  9.758644E-01 1.227317E+02 
3.030000E+02  9.764983E-01 1.219635E+02  3.588350E-02 -1.508585E+02  3.588863E-02 -1.508992E+02  9.756946E-01 1.223261E+02 
3.048125E+02  9.762505E-01 1.215970E+02  3.662962E-02 -1.512698E+02  3.663180E-02 -1.512623E+02  9.752512E-01 1.219382E+02 
3.066250E+02  9.763484E-01 1.211739E+02  3.742905E-02 -1.516241E+02  3.735568E-02 -1.516706E+02  9.753522E-01 1.215674E+02 
3.084375E+02  9.760645E-01 1.208023E+02  3.817257E-02 -1.519754E+02  3.816543E-02 -1.520396E+02  9.753370E-01 1.211994E+02 
3.102500E+02  9.760036E-01 1.204179E+02  3.893810E-02 -1.524139E+02  3.892096E-02 -1.523922E+02  9.749973E-01 1.207978E+02 
3.120625E+02  9.754330E-01 1.200141E+02  3.972858E-02 -1.527800E+02  3.970124E-02 -1.528097E+02  9.746211E-01 1.203977E+02 
3.138750E+02  9.754801E-01 1.196473E+02  4.049947E-02 -1.531183E+02  4.052300E-02 -1.531263E+02  9.744888E-01 1.200322E+02 
3.156875E+02  9.757330E-01 1.192445E+02  4.135865E-02 -1.534619E+02  4.137269E-02 -1.535347E+02  9.745355E-01 1.196363E+02 
3.175000E+02  9.754156E-01 1.188541E+02  4.217107E-02 -1.539386E+02  4.218358E-02 -1.539279E+02  9.742951E-01 1.192387E+02 
3.193125E+02  9.749456E-01 1.184664E+02  4.301902E-02 -1.543409E+02  4.304394E-02 -1.543084E+02  9.742434E-01 1.188401E+02 
3.211250E+02  9.752934E-01 1.180198E+02  4.389999E-02 -1.547813E+02  4.392540E-02 -1.547888E+02  9.740946E-01 1.184066E+02 
3.229375E+02  9.749604E-01 1.176391E+02  4.478413E-02 -1.551290E+02  4.473000E-02 -1.551277E+02  9.742383E-01 1.180094E+02 
3.247500E+02  9.746861E-01 1.172820E+02  4.567515E-02 -1.555522E+02  4.564988E-02 -1.555210E+02  9.736004E-01 1.176261E+02 
3.265625E+02  9.744745E-01 1.168807E+02  4.661175E-02 -1.558799E+02  4.652379E-02 -1.558947E+02  9.736793E-01 1.172424E+02 
3.283750E+02  9.743934E-01 1.164706E+02  4.748999E-02 -1.562809E+02  4.743998E-02 -1.563243E+02  9.731816E-01 1.168418E+02 
3.301875E+02  9.742465E-01 1.160738E+02  4.837585E-02 -1.566541E+02  4.841464E-02 -1.567159E+02  9.727272E-01 1.164552E+02 
3.320000E+02  9.743978E-01 1.156543E+02  4.939106E-02 -1.571051E+02  4.938664E-02 -1.571185E+02  9.729252E-01 1.160310E+02 
3.338125E+02  9.738313E-01 1.152463E+02  5.032483E-02 -1.575167E+02  5.033236E-02 -1.575099E+02  9.729852E-01 1.156526E+02 
3.356250E+02  9.733760E-01 1.148487E+02  5.130950E-02 -1.579126E+02  5.127805E-02 -1.579309E+02  9.732379E-01 1.152496E+02 
3.374375E+02  9.732490E-01 1.144631E+02  5.229478E-02 -1.582938E+02  5.229892E-02 -1.583145E+02  9.729354E-01 1.148664E+02 
3.392500E+02  9.732349E-01 1.140504E+02  5.328629E-02 -1.587863E+02  5.330121E-02 -1.588018E+02  9.725369E-01 1.144525E+02 
3.410625E+02  9.729147E-01 1.135929E+02  5.433819E-02 -1.591332E+02  5.431791E-02 -1.592074E+02  9.721058E-01 1.140112E+02 
3.428750E+02  9.729919E-01 1.132007E+02  5.542496E-02 -1.595530E+02  5.537928E-02 -1.595651E+02  9.721568E-01 1.136060E+02 
3.446875E+02  9.728559E-01 1.128041E+02  5.646112E-02 -1.599549E+02  5.642011E-02 -1.599977E+02  9.719771E-01 1.131689E+02 
3.465000E+02  9.729063E-01 1.123789E+02  5.748738E-02 -1.603474E+02  5.749602E-02 -1.604149E+02  9.715389E-01 1.127493E+02 
3.483125E+02  9.722223E-01 1.119590E+02  5.857625E-02 -1.607840E+02  5.852566E-02 -1.608138E+02  9.711018E-01 1.123657E+02 
3.501250E+02  9.719447E-01 1.115212E+02  5.972659E-02 -1.612276E+02  5.968291E-02 -1.612519E+02  9.713787E-01 1.119332E+02 
3.519375E+02  9.718104E-01 1.111154E+02  6.083188E-02 -1.616478E+02  6.077618E-02 -1.616875E+02  9.709766E-01 1.115425E+02 
3.537500E+02  9.702622E-01 1.107641E+02  6.181705E-02 -1.619521E+02  6.182865E-02 -1.620053E+02  9.693219E-01 1.112017E+02 
3.555625E+02  9.707324E-01 1.102841E+02  6.308938E-02 -1.624212E+02  6.309115E-02 -1.624620E+02  9.705180E-01 1.107541E+02 
3.573750E+02  9.717293E-01 1.098079E+02  6.433381E-02 -1.629116E+02  6.431953E-02 -1.629364E+02  9.709874E-01 1.102801E+02 
3.591875E+02  9.715248E-01 1.093910E+02  6.554195E-02 -1.633453E+02  6.553710E-02 -1.633632E+02  9.710333E-01 1.098531E+02 
3.610000E+02  9.711027E-01 1.090061E+02  6.672826E-02 -1.637518E+02  6.665832E-02 -1.637552E+02  9.706011E-01 1.094567E+02 
3.628125E+02  9.710898E-01 1.085913E+02  6.797955E-02 -1.641726E+02  6.793700E-02 -1.642014E+02  9.700449E-01 1.090360E+02 
3.646250E+02  9.704918E-01 1.081684E+02  6.922643E-02 -1.645615E+02  6.917373E-02 -1.645946E+02  9.693828E-01 1.086084E+02 
3.664375E+02  9.702372E-01 1.077804E+02  7.045577E-02 -1.649366E+02  7.043428E-02 -1.649565E+02  9.684434E-01 1.082513E+02 
3.682500E+02  9.700399E-01 1.072914E+02  7.174634E-02 -1.654140E+02  7.176302E-02 -1.654305E+02  9.691277E-01 1.077588E+02 
3.700625E+02  9.699064E-01 1.068282E+02  7.307704E-02 -1.659556E+02  7.307116E-02 -1.659703E+02  9.687397E-01 1.072385E+02 
3.718750E+02  9.699023E-01 1.064340E+02  7.440757E-02 -1.663453E+02  7.442784E-02 -1.663314E+02  9.687944E-01 1.068716E+02 
3.736875E+02  9.697320E-01 1.059864E+02  7.585096E-02 -1.667673E+02  7.582957E-02 -1.667882E+02  9.691001E-01 1.064276E+02 
3.755000E+02  9.695960E-01 1.055504E+02  7.716555E-02 -1.672059E+02  7.711124E-02 -1.672574E+02  9.686838E-01 1.060036E+02 
3.773125E+02  9.695021E-01 1.050834E+02  7.865094E-02 -1.676373E+02  7.857355E-02 -1.676760E+02  9.684128E-01 1.055538E+02 
3.791250E+02  9.693079E-01 1.046327E+02  8.002893E-02 -1.681333E+02  8.001984E-02 -1.681490E+02  9.686156E-01 1.051257E+02 
3.809375E+02  9.687275E-01 1.042010E+02  8.144117E-02 -1.685577E+02  8.143999E-02 -1.685451E+02  9.680908E-01 1.047015E+02 
3.827500E+02  9.686075E-01 1.037259E+02  8.293630E-02 -1.689803E+02  8.295120E-02 -1.690361E+02  9.678453E-01 1.042367E+02 
