! Matrix data file written by TouchstoneData, EPCOS AG
! FILENAME: "AB75A_12_WB.pli.snp"
! COMMENT: "(TS/AB75A_12_WB.s2p) Epcos AG 8/29/2013 10:2"
! INFO: nport=2, nfreq=1601
! DATE: "Fri Sep  6 13:22:49 2013"
! USER: "BengChuan Ng"
!
! port | pin | signal
! -----|-----|--------
!   1  |  1  | input
!   2  |  2  | output
! --------------------
! 
# MHZ S RI R 50
! freq  reS11 imS11  reS21 imS21  reS12 imS12  reS22 imS22
100  0.757641949268645 -0.640323068011898  0.000345525234058812 0.000264992831978324  0.000345525234058812 0.000264992831978324  0.623632275149005 -0.770862783569491 
101.1875  0.753681266632557 -0.645747812623115  0.000368805259357442 0.000277869989193073  0.000368805259357442 0.000277869989193073  0.615751565860943 -0.776115179616772 
102.375  0.747902375140754 -0.652211986802677  0.0003353614444837 0.000248869737348183  0.0003353614444837 0.000248869737348183  0.607612593023145 -0.781873636587503 
103.5625  0.741688724615043 -0.659023969654316  0.000313404619528475 0.000221525097605018  0.000313404619528475 0.000221525097605018  0.600328442367432 -0.788724085528329 
104.75  0.736016280912368 -0.665346526353766  0.000408434272393689 0.000339110253932816  0.000408434272393689 0.000339110253932816  0.592226416462439 -0.795349700221187 
105.9375  0.730703601572566 -0.670382810306573  0.000395096347237032 0.000209505142315069  0.000395096347237032 0.000209505142315069  0.583753298504567 -0.800935557299829 
107.125  0.724999307989541 -0.675815447135197  0.000385138269530078 0.000361598728603986  0.000385138269530078 0.000361598728603986  0.575178031244025 -0.806237895756433 
108.3125  0.719143366922968 -0.682003854058817  0.00047597581478953 0.000333541358048529  0.00047597581478953 0.000333541358048529  0.566673778256923 -0.81214373609354 
109.5  0.713281575274042 -0.688038895869778  0.000497481594837469 0.000366705677384397  0.000497481594837469 0.000366705677384397  0.558362633812384 -0.81776165465106 
110.6875  0.70775740520839 -0.693666727507366  0.000581964200749773 0.000351255970978858  0.000581964200749773 0.000351255970978858  0.549923461378929 -0.822820772090733 
111.875  0.70185700928417 -0.699344631604146  0.000592926965925426 0.000428647992468989  0.000592926965925426 0.000428647992468989  0.54176551050698 -0.827787774143847 
113.0625  0.695689291713098 -0.704730749895779  0.000465845745988523 0.000283452104563788  0.000465845745988523 0.000283452104563788  0.533363675677524 -0.833430325911608 
114.25  0.689628746474512 -0.709945427616189  0.000644247288021354 0.000400319244988938  0.000644247288021354 0.000400319244988938  0.524199772153059 -0.839300225198518 
115.4375  0.68343539445791 -0.715499691981646  0.000529105696855392 0.000393148104982433  0.000529105696855392 0.000393148104982433  0.515268044181177 -0.844230679619486 
116.625  0.677986214177499 -0.721693293653422  0.000575893975936951 0.000387677500752405  0.000575893975936951 0.000387677500752405  0.507354741394433 -0.849278283807843 
117.8125  0.671435824913666 -0.727022963452593  0.000647931557611783 0.00048160522891069  0.000647931557611783 0.00048160522891069  0.498939312212316 -0.854373250539222 
119  0.664198078230231 -0.729764830896616  0.00101976310629449 5.72898631982883e-05  0.00101976310629449 5.72898631982883e-05  0.489805956179928 -0.858264027986138 
120.1875  0.65878407468669 -0.73654924420234  0.000619907975101525 0.000426381029632368  0.000619907975101525 0.000426381029632368  0.482319008396525 -0.86285963793908 
121.375  0.653193727879664 -0.741873357816042  0.000958488211473521 0.000467096746087254  0.000958488211473521 0.000467096746087254  0.473509013834965 -0.867514154089609 
122.5625  0.64756296703717 -0.747365834995339  0.000882861851087758 0.00041040100811748  0.000882861851087758 0.00041040100811748  0.464598036831869 -0.871968037495059 
123.75  0.641042359846987 -0.753076620317304  0.00081246509077208 0.00050929754447927  0.00081246509077208 0.00050929754447927  0.455661865512106 -0.876107046493324 
124.9375  0.635198821427117 -0.757900361535695  0.00104888470514351 0.000394622585912947  0.00104888470514351 0.000394622585912947  0.446574316983429 -0.879623927241037 
126.125  0.628240530024286 -0.762727346549683  0.000953530843865664 0.000585166086206076  0.000953530843865664 0.000585166086206076  0.437743455603604 -0.884719170669462 
127.3125  0.621518983010856 -0.767421728716418  0.000997066530304935 0.00057636063144436  0.000997066530304935 0.00057636063144436  0.428856989508779 -0.889032604757758 
128.5  0.615464369248071 -0.772556024185233  0.00100755644093239 0.000499886380890587  0.00100755644093239 0.000499886380890587  0.420027348564322 -0.892023138135216 
129.6875  0.609369520062991 -0.777730192324146  0.00111941697087468 0.000466192112441675  0.00111941697087468 0.000466192112441675  0.411395136981188 -0.895750551898636 
130.875  0.603074568962398 -0.782165071808349  0.00116579222195775 0.000621433080470828  0.00116579222195775 0.000621433080470828  0.402261259145338 -0.900210952167586 
132.0625  0.597042403269712 -0.786898858172013  0.00119421730085572 0.00057712993040198  0.00119421730085572 0.00057712993040198  0.393491306449195 -0.904454303393672 
133.25  0.590246512891954 -0.791454306637958  0.00128585789665924 0.000591895624723246  0.00128585789665924 0.000591895624723246  0.38407636557066 -0.90793196195794 
134.4375  0.58311762042729 -0.796504623407506  0.00131483618905084 0.000562241567304327  0.00131483618905084 0.000562241567304327  0.374453633168559 -0.911714650253225 
135.625  0.5766268967716 -0.800838772077426  0.00141497239621849 0.000552656567707882  0.00141497239621849 0.000552656567707882  0.366104924025837 -0.915002424690123 
136.8125  0.569110494086836 -0.805636604852745  0.00154880463134523 0.00074384439196599  0.00154880463134523 0.00074384439196599  0.357075726682833 -0.918340034358713 
138  0.563176826899328 -0.809079273187748  0.0015707301418763 0.000533687345355226  0.0015707301418763 0.000533687345355226  0.348256464978296 -0.921732174263491 
139.1875  0.556976737837598 -0.813978995595764  0.00149737359218141 0.0006036073488621  0.00149737359218141 0.0006036073488621  0.339519690879001 -0.924423485060237 
140.375  0.550721576305924 -0.818390372840231  0.00177390027732133 0.000654057222784487  0.00177390027732133 0.000654057222784487  0.329796614125463 -0.927349392249752 
141.5625  0.54458116504975 -0.822974433725286  0.00180285810864721 0.000586852448532117  0.00180285810864721 0.000586852448532117  0.320322271429813 -0.929893821619982 
142.75  0.537737431833164 -0.827341078063284  0.0018563172300438 0.000633955034788043  0.0018563172300438 0.000633955034788043  0.311626388763818 -0.932930406988661 
143.9375  0.530435830725246 -0.831252379281842  0.00185399603024197 0.000659189556379205  0.00185399603024197 0.000659189556379205  0.303115034741536 -0.935912460069047 
145.125  0.523434857245823 -0.83563942838582  0.00202162503160121 0.000682268758639784  0.00202162503160121 0.000682268758639784  0.293686086505037 -0.938481094523291 
146.3125  0.51635715681123 -0.839161174087668  0.00216880196963321 0.00061384133663911  0.00216880196963321 0.00061384133663911  0.283471750553601 -0.941104662000486 
147.5  0.509571267843691 -0.843554097046461  0.00220128692880135 0.000608649134759509  0.00220128692880135 0.000608649134759509  0.274509761565188 -0.943254645550756 
148.6875  0.502866088653959 -0.846591430041001  0.00221315361055816 0.000710921495355278  0.00221315361055816 0.000710921495355278  0.265798778413704 -0.946457517459238 
149.875  0.496178818688573 -0.850771208173498  0.00241588135272406 0.000743125891141211  0.00241588135272406 0.000743125891141211  0.256502154368824 -0.948764133572145 
151.0625  0.489192026695778 -0.85445798466788  0.00248236806779296 0.000713866016720057  0.00248236806779296 0.000713866016720057  0.247218650946499 -0.950989697759528 
152.25  0.482282311503718 -0.859060590773292  0.00254570493828509 0.000769212550505162  0.00254570493828509 0.000769212550505162  0.237976518293931 -0.952821525107718 
153.4375  0.474830257935605 -0.86282275746469  0.00265249121261775 0.000762939231487244  0.00265249121261775 0.000762939231487244  0.228562354427636 -0.955225406718222 
154.625  0.467785630482282 -0.866570314118627  0.00276292305149122 0.000676417801554556  0.00276292305149122 0.000676417801554556  0.218997269806426 -0.957228854430498 
155.8125  0.461347448755584 -0.868719968225753  0.00282568133708719 0.000558344789998796  0.00282568133708719 0.000558344789998796  0.209789106768956 -0.958781023017883 
157  0.454910674675934 -0.873109764325541  0.00289931636721381 0.000623883511855303  0.00289931636721381 0.000623883511855303  0.200610846773676 -0.960547814402505 
158.1875  0.447134534146674 -0.876879608364674  0.00310537276883511 0.000737198251799296  0.00310537276883511 0.000737198251799296  0.191663552660163 -0.962408559694299 
159.375  0.440094310015554 -0.880774063412762  0.00315518112077031 0.000806164689931783  0.00315518112077031 0.000806164689931783  0.182820551364445 -0.963460406836437 
160.5625  0.432559886173924 -0.884155730854994  0.00328559626771737 0.000690390723445418  0.00328559626771737 0.000690390723445418  0.173359552310028 -0.965328639631157 
161.75  0.425547473880376 -0.887784515329121  0.00345582675837762 0.000801009623500681  0.00345582675837762 0.000801009623500681  0.163435830829219 -0.966980330811283 
162.9375  0.417606177617699 -0.890959792235692  0.00358840034495623 0.000744825477737121  0.00358840034495623 0.000744825477737121  0.154140639287924 -0.968595945992453 
164.125  0.410142916560495 -0.893658206601828  0.00381129755091287 0.000806712545298688  0.00381129755091287 0.000806712545298688  0.144206668182714 -0.969711149128585 
165.3125  0.402818670662246 -0.896817559662205  0.00388928545369343 0.000661162680759834  0.00388928545369343 0.000661162680759834  0.135157160841143 -0.969702468502844 
166.5  0.395863739187667 -0.900191417227006  0.00409215256160184 0.000751003776131923  0.00409215256160184 0.000751003776131923  0.126487915872907 -0.970551411177781 
167.6875  0.388719314269037 -0.903368560125949  0.00419058230994976 0.000650695263716014  0.00419058230994976 0.000650695263716014  0.117076960734619 -0.971572571772498 
168.875  0.381571549378201 -0.906502922052062  0.00425409604303608 0.000704599008654551  0.00425409604303608 0.000704599008654551  0.106961281253251 -0.972785415871199 
170.0625  0.374241052269002 -0.909494132391781  0.00443911678773967 0.000672519994135409  0.00443911678773967 0.000672519994135409  0.0975808426456421 -0.974172284787365 
171.25  0.366375880678799 -0.912679400546252  0.00465657356743521 0.000595193342133758  0.00465657356743521 0.000595193342133758  0.0880518500832005 -0.975034931689127 
172.4375  0.35883917724155 -0.91516706749294  0.00477111539549237 0.000516146425475032  0.00477111539549237 0.000516146425475032  0.0787357559143981 -0.975516214091458 
173.625  0.349755842935372 -0.917005132516582  0.00506332233854938 0.000642675636902298  0.00506332233854938 0.000642675636902298  0.0690442920948954 -0.976251559253852 
174.8125  0.344363527631307 -0.920513003198154  0.00504232665932956 0.000587155447840009  0.00504232665932956 0.000587155447840009  0.0602614306719401 -0.97684304488081 
176  0.336851580170094 -0.922903828988816  0.00531387762948463 0.000564978161489513  0.00531387762948463 0.000564978161489513  0.0512124539519739 -0.977287676163994 
177.1875  0.328769528337983 -0.925112566086316  0.00556866781161862 0.000410084866688336  0.00556866781161862 0.000410084866688336  0.0409483671088393 -0.97664356886371 
178.375  0.321136617893288 -0.927778927785109  0.00563690299832789 0.000517820386828002  0.00563690299832789 0.000517820386828002  0.0315391512242855 -0.976385192117408 
179.5625  0.314383156955853 -0.930796950655277  0.00594793695230046 0.000437118247972978  0.00594793695230046 0.000437118247972978  0.0231005819880696 -0.977112839137451 
180.75  0.307318827432079 -0.933539045320744  0.00607039995853865 0.000406880728208196  0.00607039995853865 0.000406880728208196  0.0139231050037287 -0.977281070764608 
181.9375  0.29925872034511 -0.935747738599103  0.00637663331832655 0.000352930020018355  0.00637663331832655 0.000352930020018355  0.00463658499747015 -0.976906220357142 
183.125  0.291411122709871 -0.938010210545781  0.00641888231760415 0.000291607934245994  0.00641888231760415 0.000291607934245994  -0.00554920272578778 -0.976946552087695 
184.3125  0.28341942248282 -0.939934891145282  0.00686708304251711 0.000195561521053002  0.00686708304251711 0.000195561521053002  -0.0145368206863143 -0.976611138429836 
185.5  0.276035681013254 -0.943286827784437  0.0069514562521269 0.000153553846101504  0.0069514562521269 0.000153553846101504  -0.0239068854961163 -0.976456209948922 
186.6875  0.268294121811152 -0.946429662730453  0.00724503030556237 0.0001927539680578  0.00724503030556237 0.0001927539680578  -0.032806404626018 -0.975608850883243 
187.875  0.259423232380898 -0.948118277620345  0.00738927213892284 1.2115854224919e-05  0.00738927213892284 1.2115854224919e-05  -0.0436803315449278 -0.975436258182108 
189.0625  0.251182828638565 -0.949799868859013  0.0076504209575759 -8.47035438577093e-05  0.0076504209575759 -8.47035438577093e-05  -0.05365080033869 -0.974438312042552 
190.25  0.24344946865391 -0.951911925742031  0.00791901308430297 -5.90014939131844e-05  0.00791901308430297 -5.90014939131844e-05  -0.0632948373461657 -0.973907568035945 
191.4375  0.23583131586837 -0.95349483813511  0.00807245811175452 -0.000246399536608061  0.00807245811175452 -0.000246399536608061  -0.0724625032822501 -0.972599583705099 
192.625  0.228877808222918 -0.954482390436035  0.00832203605255357 -0.00019540085469386  0.00832203605255357 -0.00019540085469386  -0.0812792821397138 -0.971334524526707 
193.8125  0.220957808101923 -0.956072462016767  0.00862496448239536 -0.000258643870799862  0.00862496448239536 -0.000258643870799862  -0.0905043882292354 -0.970789658430333 
195  0.212723788489155 -0.958076233827509  0.00891952581868186 -0.000411472022407356  0.00891952581868186 -0.000411472022407356  -0.100261040130971 -0.969400833508989 
196.1875  0.204504581864148 -0.959946022885571  0.00918096315639366 -0.000535369393989409  0.00918096315639366 -0.000535369393989409  -0.10926966916758 -0.967716337763994 
197.375  0.196077349722584 -0.961694244582162  0.00954269239554656 -0.000604604439994864  0.00954269239554656 -0.000604604439994864  -0.118768063139564 -0.966337253530181 
198.5625  0.187755251668734 -0.962846139695397  0.00985054009749509 -0.000758824160521536  0.00985054009749509 -0.000758824160521536  -0.128251565199969 -0.964911879187253 
199.75  0.179505221536809 -0.964079317514162  0.0100169893268389 -0.000896746859688296  0.0100169893268389 -0.000896746859688296  -0.13780545873283 -0.963512276522275 
200.9375  0.171402747317973 -0.964973781669152  0.01039536245425 -0.000921927138497855  0.01039536245425 -0.000921927138497855  -0.14746596571449 -0.961330761455591 
202.125  0.163996574590422 -0.96631007470546  0.0107124885143062 -0.00107670308735549  0.0107124885143062 -0.00107670308735549  -0.155618613320431 -0.959768527859111 
203.3125  0.156356047094125 -0.967860313955673  0.0109290210923842 -0.00121226416665973  0.0109290210923842 -0.00121226416665973  -0.165573594361405 -0.957989499614326 
204.5  0.148130540734115 -0.969050272607219  0.0113306540373216 -0.0012330768273588  0.0113306540373216 -0.0012330768273588  -0.174273858855859 -0.956497028441892 
205.6875  0.140126883343321 -0.970032382597598  0.0116432660211451 -0.00149353930925091  0.0116432660211451 -0.00149353930925091  -0.183183701973574 -0.95411897314226 
206.875  0.131891189692301 -0.971243173358368  0.0120041374423698 -0.00160982381891846  0.0120041374423698 -0.00160982381891846  -0.192606277345631 -0.952112580235323 
208.0625  0.123777107906671 -0.971552568270202  0.0123140235604014 -0.0018038673272939  0.0123140235604014 -0.0018038673272939  -0.200932765554 -0.949812502665991 
209.25  0.115472817712329 -0.97239414674524  0.0127013866547753 -0.00193967924838229  0.0127013866547753 -0.00193967924838229  -0.210257242573883 -0.948113885280733 
210.4375  0.108550736468533 -0.972494197146195  0.0130501714876376 -0.00211095710901623  0.0130501714876376 -0.00211095710901623  -0.219298020365928 -0.945334126408433 
211.625  0.0992968392936405 -0.973027841076881  0.0133895169030686 -0.00230842822724119  0.0133895169030686 -0.00230842822724119  -0.229029024892709 -0.942243082006952 
212.8125  0.0910660530269012 -0.974199225009629  0.0138148440203265 -0.00259544605954409  0.0138148440203265 -0.00259544605954409  -0.237897699487921 -0.939074390874998 
214  0.0828528743760009 -0.974927667784916  0.014124500284043 -0.00287716187588244  0.014124500284043 -0.00287716187588244  -0.246954425841902 -0.936770519691533 
215.1875  0.0744370236747064 -0.975004787393251  0.0146137297359856 -0.00285634644578189  0.0146137297359856 -0.00285634644578189  -0.255916025010219 -0.933815072323345 
216.375  0.0666186907764851 -0.975181643364885  0.0149411918491962 -0.00321779133673288  0.0149411918491962 -0.00321779133673288  -0.264882787863321 -0.930963195047334 
217.5625  0.0577085591361223 -0.975658618340724  0.0152820259007276 -0.00331414602238355  0.0152820259007276 -0.00331414602238355  -0.274282428500151 -0.928081463286151 
218.75  0.0495136674437589 -0.97577513607181  0.0157190694127045 -0.00358994668478928  0.0157190694127045 -0.00358994668478928  -0.283044806993197 -0.925012568591994 
219.9375  0.0417810709013661 -0.975604231780611  0.0160938847421625 -0.00389454028945255  0.0160938847421625 -0.00389454028945255  -0.292245677725243 -0.921822278657707 
221.125  0.0341760146299734 -0.976067613673826  0.0166157190744411 -0.00412234898245268  0.0166157190744411 -0.00412234898245268  -0.301690506498992 -0.919270829381612 
222.3125  0.025817153660497 -0.976376157766832  0.0169205959936952 -0.00447248488063377  0.0169205959936952 -0.00447248488063377  -0.310199556598824 -0.915672324954574 
223.5  0.0171621311683536 -0.97615722898914  0.0173666761412435 -0.00464088945055621  0.0173666761412435 -0.00464088945055621  -0.319049460248377 -0.912481487610653 
224.6875  0.00912410931274555 -0.975982178974452  0.017859481996353 -0.00507215787438625  0.017859481996353 -0.00507215787438625  -0.327543619619355 -0.90861569767612 
225.875  0.000345203801294785 -0.976328901842577  0.0183957801664268 -0.00529792869833135  0.0183957801664268 -0.00529792869833135  -0.335966648378329 -0.905186528401404 
227.0625  -0.00766376567593694 -0.975898362275345  0.0187390214313496 -0.00566701233488368  0.0187390214313496 -0.00566701233488368  -0.34490448037293 -0.90104022287667 
228.25  -0.0166189938524451 -0.974844471398555  0.0193600427947515 -0.00598634562456085  0.0193600427947515 -0.00598634562456085  -0.354093149739893 -0.896743564025397 
229.4375  -0.0240958972864989 -0.974179051179939  0.0198020393884035 -0.00638485409641273  0.0198020393884035 -0.00638485409641273  -0.361945167542679 -0.892990622257755 
230.625  -0.0331554793155874 -0.974184525417137  0.0201996371279533 -0.00658209111981512  0.0201996371279533 -0.00658209111981512  -0.370975741962637 -0.88932199982201 
231.8125  -0.0432560591572535 -0.973778750057713  0.0206569199350926 -0.00704299355207527  0.0206569199350926 -0.00704299355207527  -0.380963743677179 -0.884984317458919 
233  -0.0467383298324498 -0.972776484831055  0.0212737772008529 -0.00730990438465801  0.0212737772008529 -0.00730990438465801  -0.384832729214593 -0.882111646791154 
234.1875  -0.0581960174853707 -0.971892439467936  0.0216975238231607 -0.00780348788545716  0.0216975238231607 -0.00780348788545716  -0.396273980562929 -0.876993578139763 
235.375  -0.0660865416087293 -0.971231859694001  0.0222425090143396 -0.0082876300669629  0.0222425090143396 -0.0082876300669629  -0.404802444725712 -0.872257041978375 
