! Matrix data file written by TouchstoneData, EPCOS AG
! FILENAME: "b3518_unm3_NB.s4p_newformat"
! COMMENT: "(b3518_unm3_NB.s4p) EPCOS AG 13.01.2011 15:4"
! INFO: nport=4, nfreq=1601
! DATE: "Tue Apr 19 11:14:11 2011"
! USER: "Sergey Rostovtsev"
!
! port | pin | signal
! -----|-----|--------
!   1  |  2  |  GLON IN
!   2  |  3  |  GPS IN
!   3  |  9  |  GLON OUT
!   4  |  6  |  GPS OUT
! --------------------
! 
# MHZ S MA R 50
! freq  magS11 angS11  magS12 angS12  magS13 angS13  magS14 angS14  ...
1.400000E+03  9.308845E-01 -1.234079E+02  1.711533E-02 1.365747E+02  4.716026E-03 -3.778627E+01  2.593542E-03 1.416107E+02 
 1.708806E-02 1.366876E+02  9.400404E-01 -1.344951E+02  2.226221E-03 1.420741E+02  5.624578E-03 -4.891262E+01 
 4.733186E-03 -3.791861E+01  2.226892E-03 1.422245E+02  8.996142E-01 -1.216054E+02  5.034887E-03 1.403115E+02 
 2.586365E-03 1.413062E+02  5.635965E-03 -4.922438E+01  5.027204E-03 1.401932E+02  9.382835E-01 -1.331441E+02 
1.400250E+03  9.309287E-01 -1.234497E+02  1.710043E-02 1.366037E+02  4.723488E-03 -3.787166E+01  2.605701E-03 1.411508E+02 
 1.711730E-02 1.366836E+02  9.400609E-01 -1.345346E+02  2.230672E-03 1.418095E+02  5.640316E-03 -4.901604E+01 
 4.709305E-03 -3.766269E+01  2.220543E-03 1.424483E+02  8.995066E-01 -1.216414E+02  5.032019E-03 1.401774E+02 
 2.584449E-03 1.414263E+02  5.604586E-03 -4.909837E+01  5.019541E-03 1.401770E+02  9.381461E-01 -1.331888E+02 
1.400500E+03  9.308959E-01 -1.234836E+02  1.714686E-02 1.365270E+02  4.715739E-03 -3.770273E+01  2.610266E-03 1.413188E+02 
 1.713663E-02 1.365150E+02  9.400646E-01 -1.345961E+02  2.244713E-03 1.418132E+02  5.633502E-03 -4.909870E+01 
 4.707182E-03 -3.776769E+01  2.229741E-03 1.419282E+02  8.996221E-01 -1.216766E+02  5.027668E-03 1.399614E+02 
 2.582650E-03 1.408959E+02  5.638853E-03 -4.921588E+01  5.036145E-03 1.400027E+02  9.381744E-01 -1.332386E+02 
1.400750E+03  9.310085E-01 -1.235189E+02  1.714690E-02 1.365040E+02  4.712435E-03 -3.797707E+01  2.582608E-03 1.414459E+02 
 1.712263E-02 1.365611E+02  9.399497E-01 -1.346418E+02  2.225156E-03 1.418518E+02  5.666699E-03 -4.930933E+01 
 4.730645E-03 -3.775299E+01  2.221267E-03 1.424408E+02  8.994475E-01 -1.217102E+02  5.044279E-03 1.398910E+02 
 2.602306E-03 1.412668E+02  5.642173E-03 -4.930074E+01  5.034156E-03 1.402543E+02  9.381858E-01 -1.332894E+02 
1.401000E+03  9.309620E-01 -1.235604E+02  1.714326E-02 1.364477E+02  4.730164E-03 -3.796089E+01  2.599753E-03 1.410806E+02 
 1.714614E-02 1.364809E+02  9.401123E-01 -1.346935E+02  2.248026E-03 1.417201E+02  5.640523E-03 -4.917862E+01 
 4.722604E-03 -3.762153E+01  2.237541E-03 1.415758E+02  8.994113E-01 -1.217455E+02  5.036334E-03 1.399201E+02 
 2.599196E-03 1.414369E+02  5.630977E-03 -4.952234E+01  5.021186E-03 1.401019E+02  9.381816E-01 -1.333381E+02 
1.401250E+03  9.310350E-01 -1.235884E+02  1.719215E-02 1.363898E+02  4.688131E-03 -3.790286E+01  2.603927E-03 1.405437E+02 
 1.715073E-02 1.364473E+02  9.400118E-01 -1.347505E+02  2.268524E-03 1.424786E+02  5.677059E-03 -4.942591E+01 
 4.720283E-03 -3.782989E+01  2.246564E-03 1.419631E+02  8.992890E-01 -1.217867E+02  5.043935E-03 1.397703E+02 
 2.613618E-03 1.409963E+02  5.666690E-03 -4.961676E+01  5.046554E-03 1.400451E+02  9.382119E-01 -1.333872E+02 
1.401500E+03  9.312497E-01 -1.236157E+02  1.720237E-02 1.363577E+02  4.728204E-03 -3.776866E+01  2.592426E-03 1.408973E+02 
 1.719126E-02 1.364518E+02  9.400764E-01 -1.348092E+02  2.239152E-03 1.417108E+02  5.643199E-03 -4.958709E+01 
 4.715642E-03 -3.774263E+01  2.232406E-03 1.416609E+02  8.992125E-01 -1.218186E+02  5.060911E-03 1.398714E+02 
 2.595729E-03 1.409369E+02  5.662180E-03 -4.965933E+01  5.054243E-03 1.400179E+02  9.383711E-01 -1.334354E+02 
1.401750E+03  9.311493E-01 -1.236746E+02  1.720850E-02 1.363480E+02  4.746415E-03 -3.790983E+01  2.608623E-03 1.406136E+02 
 1.720950E-02 1.363634E+02  9.401292E-01 -1.348585E+02  2.229344E-03 1.413415E+02  5.671903E-03 -4.953535E+01 
 4.722313E-03 -3.782889E+01  2.231422E-03 1.420738E+02  8.992702E-01 -1.218518E+02  5.010557E-03 1.396882E+02 
 2.580062E-03 1.408737E+02  5.667814E-03 -4.983842E+01  5.044487E-03 1.400422E+02  9.384844E-01 -1.334831E+02 
1.402000E+03  9.313279E-01 -1.237141E+02  1.723175E-02 1.363969E+02  4.726910E-03 -3.805448E+01  2.583032E-03 1.407757E+02 
 1.720351E-02 1.362942E+02  9.400202E-01 -1.349018E+02  2.243357E-03 1.414229E+02  5.672834E-03 -4.974114E+01 
 4.735713E-03 -3.799966E+01  2.243896E-03 1.420530E+02  8.992397E-01 -1.218797E+02  5.066420E-03 1.398945E+02 
 2.605912E-03 1.410089E+02  5.650889E-03 -4.974297E+01  5.042616E-03 1.398200E+02  9.384457E-01 -1.335260E+02 
1.402250E+03  9.312987E-01 -1.237538E+02  1.725229E-02 1.363285E+02  4.724067E-03 -3.790496E+01  2.606370E-03 1.404779E+02 
 1.722042E-02 1.363367E+02  9.399382E-01 -1.349605E+02  2.251485E-03 1.418499E+02  5.654670E-03 -4.976410E+01 
 4.712092E-03 -3.781975E+01  2.236059E-03 1.413678E+02  8.993036E-01 -1.219081E+02  5.052126E-03 1.398913E+02 
 2.592919E-03 1.409010E+02  5.657770E-03 -4.961240E+01  5.052375E-03 1.396459E+02  9.385686E-01 -1.335816E+02 
1.402500E+03  9.315480E-01 -1.237997E+02  1.728531E-02 1.362975E+02  4.719066E-03 -3.808248E+01  2.616041E-03 1.408720E+02 
 1.725466E-02 1.361998E+02  9.399187E-01 -1.350124E+02  2.252950E-03 1.412047E+02  5.676876E-03 -4.967788E+01 
 4.744642E-03 -3.812170E+01  2.226566E-03 1.412969E+02  8.993126E-01 -1.219455E+02  5.053020E-03 1.397622E+02 
 2.612950E-03 1.409971E+02  5.682739E-03 -4.980489E+01  5.050749E-03 1.397550E+02  9.384205E-01 -1.336286E+02 
1.402750E+03  9.315222E-01 -1.238393E+02  1.729550E-02 1.362608E+02  4.719989E-03 -3.784072E+01  2.573034E-03 1.407975E+02 
 1.728265E-02 1.361782E+02  9.398035E-01 -1.350710E+02  2.260781E-03 1.417153E+02  5.681360E-03 -4.963055E+01 
 4.716280E-03 -3.775600E+01  2.257570E-03 1.418575E+02  8.995401E-01 -1.219854E+02  5.061707E-03 1.399708E+02 
 2.604888E-03 1.409792E+02  5.695663E-03 -5.002732E+01  5.061767E-03 1.398634E+02  9.387603E-01 -1.336773E+02 
1.403000E+03  9.314151E-01 -1.238894E+02  1.729730E-02 1.362017E+02  4.731220E-03 -3.781487E+01  2.582616E-03 1.399270E+02 
 1.731341E-02 1.361691E+02  9.398676E-01 -1.351178E+02  2.225988E-03 1.417128E+02  5.674378E-03 -4.986443E+01 
 4.726592E-03 -3.776547E+01  2.241238E-03 1.413552E+02  8.996512E-01 -1.220281E+02  5.052203E-03 1.396400E+02 
 2.586405E-03 1.405036E+02  5.677777E-03 -4.987075E+01  5.054800E-03 1.396254E+02  9.388831E-01 -1.337362E+02 
1.403250E+03  9.313777E-01 -1.239187E+02  1.732102E-02 1.361135E+02  4.734899E-03 -3.765006E+01  2.606846E-03 1.409519E+02 
 1.733147E-02 1.361790E+02  9.396924E-01 -1.351797E+02  2.247955E-03 1.410905E+02  5.684508E-03 -4.972027E+01 
 4.746573E-03 -3.782535E+01  2.240945E-03 1.414869E+02  8.996989E-01 -1.220711E+02  5.079458E-03 1.394162E+02 
 2.617480E-03 1.407130E+02  5.688455E-03 -4.976683E+01  5.068400E-03 1.397755E+02  9.388102E-01 -1.337833E+02 
1.403500E+03  9.315177E-01 -1.239732E+02  1.736289E-02 1.361415E+02  4.764511E-03 -3.773025E+01  2.611523E-03 1.404474E+02 
 1.732788E-02 1.360519E+02  9.395988E-01 -1.352387E+02  2.257231E-03 1.412805E+02  5.701607E-03 -5.005066E+01 
 4.748651E-03 -3.800369E+01  2.276840E-03 1.408882E+02  8.997167E-01 -1.221100E+02  5.058537E-03 1.394893E+02 
 2.626594E-03 1.409763E+02  5.692761E-03 -4.989164E+01  5.080668E-03 1.395420E+02  9.388948E-01 -1.338338E+02 
1.403750E+03  9.316718E-01 -1.240169E+02  1.738729E-02 1.360556E+02  4.757945E-03 -3.778871E+01  2.637921E-03 1.404478E+02 
 1.737566E-02 1.361791E+02  9.397157E-01 -1.352876E+02  2.246657E-03 1.413303E+02  5.703724E-03 -5.000094E+01 
 4.750308E-03 -3.742264E+01  2.254347E-03 1.408602E+02  8.996863E-01 -1.221506E+02  5.078374E-03 1.398118E+02 
 2.617133E-03 1.409159E+02  5.656195E-03 -4.988911E+01  5.090051E-03 1.393540E+02  9.390848E-01 -1.338892E+02 
1.404000E+03  9.315298E-01 -1.240576E+02  1.739520E-02 1.361184E+02  4.753848E-03 -3.776134E+01  2.630972E-03 1.403585E+02 
 1.739290E-02 1.360247E+02  9.396693E-01 -1.353482E+02  2.249479E-03 1.412970E+02  5.683455E-03 -4.992847E+01 
 4.752512E-03 -3.790158E+01  2.240846E-03 1.412940E+02  8.996492E-01 -1.221936E+02  5.065975E-03 1.396198E+02 
 2.630296E-03 1.406010E+02  5.707681E-03 -4.979591E+01  5.096420E-03 1.394247E+02  9.390661E-01 -1.339394E+02 
1.404250E+03  9.315425E-01 -1.241031E+02  1.740169E-02 1.360958E+02  4.766461E-03 -3.773535E+01  2.603962E-03 1.400819E+02 
 1.739293E-02 1.359895E+02  9.397304E-01 -1.354054E+02  2.237010E-03 1.414391E+02  5.710388E-03 -5.017993E+01 
 4.767884E-03 -3.775634E+01  2.252224E-03 1.414180E+02  8.995333E-01 -1.222428E+02  5.063704E-03 1.393066E+02 
 2.619756E-03 1.409836E+02  5.693367E-03 -4.983846E+01  5.077064E-03 1.393318E+02  9.391981E-01 -1.339921E+02 
1.404500E+03  9.316302E-01 -1.241516E+02  1.742047E-02 1.360310E+02  4.765036E-03 -3.737243E+01  2.589318E-03 1.402508E+02 
 1.741956E-02 1.360202E+02  9.396746E-01 -1.354603E+02  2.260113E-03 1.417547E+02  5.700327E-03 -5.020943E+01 
 4.769227E-03 -3.757189E+01  2.272282E-03 1.410704E+02  8.996033E-01 -1.222936E+02  5.069454E-03 1.393284E+02 
 2.614646E-03 1.403901E+02  5.712782E-03 -4.987054E+01  5.097673E-03 1.395489E+02  9.391343E-01 -1.340566E+02 
1.404750E+03  9.318374E-01 -1.241930E+02  1.745602E-02 1.359486E+02  4.779566E-03 -3.793970E+01  2.624103E-03 1.401012E+02 
 1.745598E-02 1.359005E+02  9.398315E-01 -1.355119E+02  2.260375E-03 1.413509E+02  5.708262E-03 -5.030504E+01 
 4.786771E-03 -3.782103E+01  2.261241E-03 1.412031E+02  8.996058E-01 -1.223198E+02  5.082303E-03 1.394120E+02 
 2.614996E-03 1.403686E+02  5.697583E-03 -5.020637E+01  5.088649E-03 1.393595E+02  9.391094E-01 -1.341121E+02 
1.405000E+03  9.318477E-01 -1.242312E+02  1.746744E-02 1.359409E+02  4.801966E-03 -3.770453E+01  2.604011E-03 1.402589E+02 
 1.748165E-02 1.358190E+02  9.398151E-01 -1.355593E+02  2.272239E-03 1.413610E+02  5.712595E-03 -5.020097E+01 
 4.799855E-03 -3.781224E+01  2.260011E-03 1.413089E+02  8.996617E-01 -1.223618E+02  5.076117E-03 1.391994E+02 
 2.600033E-03 1.400263E+02  5.715703E-03 -5.039422E+01  5.111584E-03 1.393067E+02  9.389611E-01 -1.341655E+02 
1.405250E+03  9.319133E-01 -1.242799E+02  1.750515E-02 1.358776E+02  4.800630E-03 -3.757786E+01  2.631156E-03 1.400430E+02 
 1.750617E-02 1.358327E+02  9.397215E-01 -1.356236E+02  2.266087E-03 1.413905E+02  5.722687E-03 -5.033582E+01 
 4.804224E-03 -3.790914E+01  2.260990E-03 1.403969E+02  8.996841E-01 -1.224017E+02  5.124365E-03 1.393174E+02 
 2.618170E-03 1.404711E+02  5.711244E-03 -5.021461E+01  5.073253E-03 1.392811E+02  9.391204E-01 -1.342245E+02 
1.405500E+03  9.320836E-01 -1.243174E+02  1.752606E-02 1.358875E+02  4.772394E-03 -3.752840E+01  2.635818E-03 1.404253E+02 
 1.750388E-02 1.357703E+02  9.397377E-01 -1.356660E+02  2.279930E-03 1.408118E+02  5.729812E-03 -5.032732E+01 
 4.801242E-03 -3.752863E+01  2.271379E-03 1.410698E+02  8.995609E-01 -1.224421E+02  5.071807E-03 1.391507E+02 
 2.614893E-03 1.400237E+02  5.751528E-03 -5.032078E+01  5.087425E-03 1.390302E+02  9.389914E-01 -1.342882E+02 
1.405750E+03  9.322153E-01 -1.243680E+02  1.754953E-02 1.358040E+02  4.827857E-03 -3.782885E+01  2.636998E-03 1.400858E+02 
 1.751242E-02 1.357550E+02  9.396536E-01 -1.357284E+02  2.253661E-03 1.410617E+02  5.743938E-03 -5.039106E+01 
 4.804156E-03 -3.781871E+01  2.250434E-03 1.410491E+02  8.997074E-01 -1.224781E+02  5.087015E-03 1.392091E+02 
 2.636190E-03 1.401831E+02  5.734134E-03 -5.053904E+01  5.094730E-03 1.392588E+02  9.389428E-01 -1.343469E+02 
1.406000E+03  9.322132E-01 -1.244153E+02  1.757193E-02 1.358069E+02  4.830923E-03 -3.792421E+01  2.612072E-03 1.401533E+02 
 1.757841E-02 1.356851E+02  9.397014E-01 -1.357802E+02  2.244214E-03 1.406860E+02  5.741569E-03 -5.018646E+01 
 4.807955E-03 -3.770485E+01  2.251729E-03 1.406464E+02  8.997075E-01 -1.225211E+02  5.098319E-03 1.388390E+02 
 2.597667E-03 1.397958E+02  5.755927E-03 -5.043446E+01  5.082246E-03 1.390501E+02  9.388114E-01 -1.343954E+02 
1.406250E+03  9.322295E-01 -1.244584E+02  1.758546E-02 1.357660E+02  4.857392E-03 -3.747043E+01  2.624999E-03 1.405908E+02 
 1.759691E-02 1.356789E+02  9.397585E-01 -1.358352E+02  2.244770E-03 1.406028E+02  5.748579E-03 -5.046402E+01 
 4.824367E-03 -3.751825E+01  2.271019E-03 1.411628E+02  8.996200E-01 -1.225639E+02  5.084121E-03 1.391190E+02 
 2.623366E-03 1.396859E+02  5.756536E-03 -5.047156E+01  5.121308E-03 1.391250E+02  9.387876E-01 -1.344608E+02 
1.406500E+03  9.323696E-01 -1.244969E+02  1.760198E-02 1.357029E+02  4.856626E-03 -3.790898E+01  2.610518E-03 1.399000E+02 
 1.758993E-02 1.356313E+02  9.398329E-01 -1.358931E+02  2.253313E-03 1.405436E+02  5.726513E-03 -5.044701E+01 
 4.842275E-03 -3.781185E+01  2.237421E-03 1.410846E+02  8.996732E-01 -1.225987E+02  5.103116E-03 1.390852E+02 
 2.621714E-03 1.404536E+02  5.748961E-03 -5.023940E+01  5.121225E-03 1.389629E+02  9.387273E-01 -1.345136E+02 
1.406750E+03  9.322634E-01 -1.245456E+02  1.761209E-02 1.356321E+02  4.878129E-03 -3.768575E+01  2.612342E-03 1.401263E+02 
 1.764411E-02 1.356700E+02  9.397267E-01 -1.359369E+02  2.276750E-03 1.405842E+02  5.737679E-03 -5.054990E+01 
 4.833881E-03 -3.783161E+01  2.246995E-03 1.409676E+02  8.995798E-01 -1.226293E+02  5.114352E-03 1.390573E+02 
 2.640331E-03 1.401369E+02  5.749640E-03 -5.047551E+01  5.093703E-03 1.390566E+02  9.387129E-01 -1.345691E+02 
1.407000E+03  9.325192E-01 -1.245894E+02  1.765792E-02 1.356021E+02  4.846944E-03 -3.772589E+01  2.603958E-03 1.407329E+02 
 1.764711E-02 1.355090E+02  9.397250E-01 -1.360003E+02  2.278541E-03 1.406180E+02  5.766794E-03 -5.034287E+01 
 4.860867E-03 -3.777551E+01  2.248410E-03 1.413005E+02  8.995333E-01 -1.226823E+02  5.117392E-03 1.389329E+02 
 2.606608E-03 1.400969E+02  5.752024E-03 -5.046705E+01  5.116714E-03 1.391139E+02  9.386492E-01 -1.346271E+02 
1.407250E+03  9.326369E-01 -1.246395E+02  1.768570E-02 1.355352E+02  4.853038E-03 -3.778010E+01  2.623978E-03 1.400323E+02 
 1.767939E-02 1.354953E+02  9.396243E-01 -1.360615E+02  2.276968E-03 1.410083E+02  5.736345E-03 -5.078244E+01 
 4.877980E-03 -3.801010E+01  2.268989E-03 1.405922E+02  8.996101E-01 -1.227143E+02  5.103225E-03 1.388150E+02 
 2.636416E-03 1.403727E+02  5.762987E-03 -5.083078E+01  5.120257E-03 1.389162E+02  9.387718E-01 -1.346847E+02 
1.407500E+03  9.326299E-01 -1.246808E+02  1.772758E-02 1.355771E+02  4.877403E-03 -3.800032E+01  2.619941E-03 1.398053E+02 
 1.771657E-02 1.354116E+02  9.396367E-01 -1.361175E+02  2.264203E-03 1.402937E+02  5.766918E-03 -5.054380E+01 
 4.872858E-03 -3.790684E+01  2.255340E-03 1.401545E+02  8.996281E-01 -1.227652E+02  5.121893E-03 1.386604E+02 
 2.626792E-03 1.396429E+02  5.768704E-03 -5.067765E+01  5.145701E-03 1.389163E+02  9.384993E-01 -1.347465E+02 
1.407750E+03  9.325502E-01 -1.247301E+02  1.772144E-02 1.355042E+02  4.876167E-03 -3.799299E+01  2.637845E-03 1.400515E+02 
 1.772016E-02 1.353625E+02  9.396534E-01 -1.361690E+02  2.252564E-03 1.403401E+02  5.770942E-03 -5.046031E+01 
 4.881561E-03 -3.800646E+01  2.248529E-03 1.403826E+02  8.997033E-01 -1.227991E+02  5.108088E-03 1.386161E+02 
 2.650090E-03 1.399948E+02  5.776444E-03 -5.067808E+01  5.105974E-03 1.388528E+02  9.384537E-01 -1.348017E+02 
1.408000E+03  9.328019E-01 -1.247742E+02  1.776942E-02 1.354035E+02  4.896749E-03 -3.779553E+01  2.640610E-03 1.399312E+02 
 1.774590E-02 1.353554E+02  9.396271E-01 -1.362270E+02  2.254683E-03 1.405383E+02  5.778700E-03 -5.085054E+01 
 4.887687E-03 -3.799609E+01  2.243483E-03 1.403950E+02  8.998002E-01 -1.228353E+02  5.117188E-03 1.388908E+02 
 2.637464E-03 1.394352E+02  5.786793E-03 -5.068271E+01  5.114737E-03 1.386908E+02  9.383895E-01 -1.348513E+02 
1.408250E+03  9.328724E-01 -1.248166E+02  1.779437E-02 1.353430E+02  4.923752E-03 -3.806790E+01  2.632380E-03 1.397885E+02 
 1.777194E-02 1.353287E+02  9.396008E-01 -1.362836E+02  2.275270E-03 1.403317E+02  5.804370E-03 -5.078945E+01 
 4.936820E-03 -3.799115E+01  2.261313E-03 1.404609E+02  8.998413E-01 -1.228781E+02  5.126025E-03 1.387022E+02 
 2.634987E-03 1.396857E+02  5.763129E-03 -5.082153E+01  5.122371E-03 1.387868E+02  9.386093E-01 -1.349144E+02 
1.408500E+03  9.327263E-01 -1.248568E+02  1.780764E-02 1.352488E+02  4.913085E-03 -3.787935E+01  2.613204E-03 1.402387E+02 
 1.780760E-02 1.353328E+02  9.395623E-01 -1.363491E+02  2.262218E-03 1.403951E+02  5.804427E-03 -5.098150E+01 
 4.913318E-03 -3.803279E+01  2.274676E-03 1.403621E+02  8.996487E-01 -1.229225E+02  5.125740E-03 1.384553E+02 
 2.642550E-03 1.400547E+02  5.809172E-03 -5.062528E+01  5.139338E-03 1.388227E+02  9.383893E-01 -1.349615E+02 
1.408750E+03  9.328492E-01 -1.249147E+02  1.783248E-02 1.352097E+02  4.922053E-03 -3.805253E+01  2.628726E-03 1.395543E+02 
 1.779786E-02 1.352196E+02  9.394417E-01 -1.364147E+02  2.288818E-03 1.400250E+02  5.797070E-03 -5.094153E+01 
 4.931740E-03 -3.813558E+01  2.270840E-03 1.406854E+02  8.998732E-01 -1.229714E+02  5.103524E-03 1.386127E+02 
 2.629126E-03 1.392968E+02  5.800696E-03 -5.090557E+01  5.132423E-03 1.382182E+02  9.382680E-01 -1.350257E+02 
1.409000E+03  9.326522E-01 -1.249519E+02  1.784442E-02 1.351892E+02  4.947458E-03 -3.825518E+01  2.633925E-03 1.396927E+02 
 1.781853E-02 1.351571E+02  9.393913E-01 -1.364813E+02  2.288035E-03 1.400734E+02  5.819738E-03 -5.076196E+01 
 4.936725E-03 -3.832861E+01  2.263400E-03 1.405816E+02  8.998570E-01 -1.230204E+02  5.134806E-03 1.387122E+02 
 2.624573E-03 1.396865E+02  5.799500E-03 -5.095878E+01  5.135277E-03 1.386713E+02  9.381761E-01 -1.350754E+02 
1.409250E+03  9.326512E-01 -1.250171E+02  1.785204E-02 1.351843E+02  4.925952E-03 -3.821118E+01  2.626288E-03 1.394968E+02 
 1.783682E-02 1.351167E+02  9.392489E-01 -1.365442E+02  2.294610E-03 1.406056E+02  5.818414E-03 -5.102822E+01 
 4.945297E-03 -3.824422E+01  2.257835E-03 1.403288E+02  8.998048E-01 -1.230599E+02  5.117363E-03 1.383952E+02 
 2.634737E-03 1.394468E+02  5.818890E-03 -5.092314E+01  5.131651E-03 1.385565E+02  9.381974E-01 -1.351303E+02 
1.409500E+03  9.327190E-01 -1.250553E+02  1.785894E-02 1.350801E+02  4.943852E-03 -3.822264E+01  2.630677E-03 1.393433E+02 
 1.786111E-02 1.350916E+02  9.391158E-01 -1.366085E+02  2.260474E-03 1.402463E+02  5.804832E-03 -5.098522E+01 
 4.960132E-03 -3.851831E+01  2.280054E-03 1.398855E+02  9.000158E-01 -1.230990E+02  5.126632E-03 1.384396E+02 
 2.603776E-03 1.389420E+02  5.829677E-03 -5.121693E+01  5.135509E-03 1.387459E+02  9.382196E-01 -1.351897E+02 
1.409750E+03  9.328419E-01 -1.250992E+02  1.786390E-02 1.350118E+02  4.976936E-03 -3.861431E+01  2.632990E-03 1.391978E+02 
 1.787770E-02 1.349764E+02  9.389560E-01 -1.366809E+02  2.279348E-03 1.403305E+02  5.841013E-03 -5.109470E+01 
 4.991729E-03 -3.860000E+01  2.238037E-03 1.402944E+02  8.999049E-01 -1.231461E+02  5.140895E-03 1.382499E+02 
 2.630006E-03 1.396465E+02  5.817341E-03 -5.105218E+01  5.139600E-03 1.385596E+02  9.382219E-01 -1.352397E+02 
1.410000E+03  9.326674E-01 -1.251580E+02  1.792247E-02 1.349838E+02  4.973182E-03 -3.855004E+01  2.635389E-03 1.394812E+02 
 1.791674E-02 1.350178E+02  9.388660E-01 -1.367464E+02  2.291371E-03 1.399796E+02  5.831873E-03 -5.103095E+01 
 4.960185E-03 -3.847113E+01  2.267654E-03 1.400466E+02  9.000006E-01 -1.231972E+02  5.126374E-03 1.383624E+02 
 2.623399E-03 1.394867E+02  5.844953E-03 -5.105411E+01  5.122259E-03 1.381232E+02  9.381272E-01 -1.352953E+02 
1.410250E+03  9.327322E-01 -1.252140E+02  1.795747E-02 1.349106E+02  4.973685E-03 -3.875123E+01  2.633532E-03 1.392573E+02 
 1.792250E-02 1.349151E+02  9.388432E-01 -1.368023E+02  2.265662E-03 1.403741E+02  5.847289E-03 -5.117947E+01 
 4.980967E-03 -3.864411E+01  2.273614E-03 1.400205E+02  9.001539E-01 -1.232360E+02  5.164033E-03 1.382266E+02 
 2.607370E-03 1.396456E+02  5.843319E-03 -5.124218E+01  5.135081E-03 1.384739E+02  9.381567E-01 -1.353554E+02 
1.410500E+03  9.327850E-01 -1.252653E+02  1.794145E-02 1.347567E+02  4.968172E-03 -3.874565E+01  2.649146E-03 1.390744E+02 
 1.794349E-02 1.348559E+02  9.385595E-01 -1.368720E+02  2.292885E-03 1.400177E+02  5.844129E-03 -5.118378E+01 
