! Matrix data file written by TouchstoneData, EPCOS AG
! FILENAME: "LQ98_LB_WB.s3p_newformat"
! COMMENT: "(LQ98_LB_WB.s3p)"
! INFO: nport=3, nfreq=1601
! DATE: "Thu Apr  2 15:29:24 2009"
! USER: "Michael Schemies"
!
! port | pin | signal
! -----|-----|--------
!   1  |  9  |  input
!   2  |  1  |  output
!   3  |  2  |  output
! --------------------
!
# MHZ S MA R 50
! freq  magS11 angS11  magS12 angS12  magS13 angS13  ...
5.000000E+01  9.961896E-01 -3.937130E+00  9.836774E-04 8.507078E+01  4.273678E-04 7.680858E+01 
 9.690679E-04 8.533440E+01  1.000000E+00 -2.411840E+00  5.877198E-03 8.618464E+01 
 4.191707E-04 7.658877E+01  5.892802E-03 8.626573E+01  9.917515E-01 -2.511473E+00 
5.184375E+01  9.967610E-01 -4.163953E+00  9.412388E-04 9.125154E+01  5.579653E-04 6.945442E+01 
 9.386108E-04 9.084487E+01  1.000000E+00 -2.571744E+00  5.504635E-03 8.509508E+01 
 5.631955E-04 6.940668E+01  5.509235E-03 8.519499E+01  9.919751E-01 -2.699140E+00 
5.368750E+01  9.973415E-01 -4.374109E+00  1.170083E-03 7.968622E+01  5.721887E-04 6.771515E+01 
 1.167301E-03 7.927069E+01  1.000000E+00 -2.699768E+00  6.107984E-03 8.639983E+01 
 5.716323E-04 6.704928E+01  6.108131E-03 8.650647E+01  9.929177E-01 -2.849724E+00 
5.553125E+01  9.978941E-01 -4.538950E+00  1.139081E-03 8.233140E+01  7.535904E-04 8.663549E+01 
 1.135821E-03 8.192523E+01  1.000000E+00 -2.788811E+00  6.229048E-03 8.561695E+01 
 7.527698E-04 8.647406E+01  6.230771E-03 8.582347E+01  9.928512E-01 -2.930673E+00 
5.737500E+01  9.980827E-01 -4.681595E+00  1.031382E-03 8.866165E+01  5.301846E-04 6.109357E+01 
 1.028226E-03 8.815851E+01  1.000000E+00 -2.914998E+00  6.467409E-03 8.522273E+01 
 5.347156E-04 6.073627E+01  6.464095E-03 8.538741E+01  9.930970E-01 -3.069789E+00 
5.921875E+01  9.983313E-01 -4.865149E+00  1.102150E-03 8.459138E+01  6.512435E-04 8.008582E+01 
 1.101904E-03 8.423927E+01  1.000000E+00 -3.022372E+00  6.927538E-03 8.670685E+01 
 6.489217E-04 7.985095E+01  6.921152E-03 8.684325E+01  9.938169E-01 -3.176730E+00 
6.106250E+01  9.984232E-01 -5.017430E+00  1.166632E-03 8.169687E+01  7.121374E-04 7.870001E+01 
 1.167818E-03 8.142842E+01  1.000000E+00 -3.128426E+00  7.212428E-03 8.720634E+01 
 7.078374E-04 7.873265E+01  7.204562E-03 8.735378E+01  9.940207E-01 -3.302309E+00 
6.290625E+01  9.985111E-01 -5.216895E+00  1.079539E-03 9.573607E+01  7.939738E-04 7.534816E+01 
 1.074884E-03 9.531537E+01  1.000000E+00 -3.229648E+00  7.460398E-03 8.324943E+01 
 7.869397E-04 7.498514E+01  7.449915E-03 8.333322E+01  9.938114E-01 -3.459732E+00 
6.475000E+01  9.983440E-01 -5.277280E+00  1.327010E-03 7.399953E+01  4.954735E-04 7.192772E+01 
 1.327937E-03 7.377686E+01  1.000000E+00 -3.255748E+00  7.525817E-03 8.503660E+01 
 4.907779E-04 7.195936E+01  7.513473E-03 8.518388E+01  9.944078E-01 -3.528312E+00 
6.659375E+01  9.988360E-01 -5.516043E+00  1.046678E-03 8.797769E+01  5.672884E-04 8.882754E+01 
 1.042965E-03 8.780843E+01  1.000000E+00 -3.433765E+00  7.804394E-03 8.478609E+01 
 5.656836E-04 8.860510E+01  7.791410E-03 8.487365E+01  9.947850E-01 -3.671558E+00 
6.843750E+01  9.982996E-01 -5.677796E+00  1.414450E-03 8.564371E+01  7.280013E-04 8.885416E+01 
 1.412278E-03 8.497635E+01  1.000000E+00 -3.478908E+00  7.868751E-03 8.295064E+01 
 7.234724E-04 8.820346E+01  7.852436E-03 8.306780E+01  9.939833E-01 -3.743879E+00 
7.028125E+01  9.985934E-01 -5.913746E+00  1.258183E-03 8.499146E+01  6.968534E-04 8.726200E+01 
 1.251374E-03 8.437270E+01  1.000000E+00 -3.706943E+00  8.175505E-03 8.380977E+01 
 6.944920E-04 8.670329E+01  8.173579E-03 8.390420E+01  9.942500E-01 -3.989455E+00 
7.212500E+01  9.984883E-01 -6.052900E+00  1.453599E-03 8.939713E+01  7.802728E-04 7.677555E+01 
 1.448435E-03 8.899671E+01  1.000000E+00 -3.746676E+00  7.963528E-03 7.820633E+01 
 7.776481E-04 7.618552E+01  7.960376E-03 7.827090E+01  9.938531E-01 -4.044697E+00 
7.396875E+01  9.980960E-01 -6.144113E+00  1.417498E-03 7.785522E+01  6.829346E-04 7.941060E+01 
 1.414087E-03 7.739597E+01  1.000000E+00 -3.810775E+00  8.484771E-03 8.358641E+01 
 6.796675E-04 7.919814E+01  8.471659E-03 8.365313E+01  9.944832E-01 -4.105577E+00 
7.581250E+01  9.982205E-01 -6.342387E+00  1.389086E-03 8.908264E+01  7.517714E-04 9.203333E+01 
 1.386693E-03 8.883453E+01  1.000000E+00 -3.915870E+00  8.281783E-03 8.516254E+01 
 7.484872E-04 9.180223E+01  8.274718E-03 8.514724E+01  9.951509E-01 -4.199796E+00 
7.765625E+01  9.984938E-01 -6.486114E+00  1.508788E-03 8.129503E+01  8.493962E-04 7.014290E+01 
 1.505226E-03 8.090558E+01  1.000000E+00 -4.020859E+00  9.070446E-03 8.284549E+01 
 8.475174E-04 6.959448E+01  9.062392E-03 8.288280E+01  9.947222E-01 -4.360265E+00 
7.950000E+01  9.978738E-01 -6.623628E+00  1.464515E-03 8.623859E+01  8.421277E-04 7.575951E+01 
 1.461553E-03 8.581192E+01  1.000000E+00 -4.085931E+00  8.844275E-03 8.343661E+01 
 8.370210E-04 7.551630E+01  8.832848E-03 8.352004E+01  9.953260E-01 -4.400506E+00 
8.134375E+01  9.970763E-01 -6.755876E+00  1.363010E-03 7.410261E+01  8.512009E-04 9.177393E+01 
 1.358480E-03 7.378550E+01  1.000075E+00 -4.148385E+00  9.463051E-03 8.275521E+01 
 8.534740E-04 9.140995E+01  9.459756E-03 8.292368E+01  9.942256E-01 -4.474873E+00 
8.318750E+01  9.972159E-01 -6.883413E+00  1.552352E-03 7.990190E+01  8.215276E-04 7.593163E+01 
 1.549620E-03 7.956468E+01  1.000068E+00 -4.245626E+00  9.266867E-03 8.428435E+01 
 8.194031E-04 7.571395E+01  9.257436E-03 8.442854E+01  9.950230E-01 -4.577097E+00 
8.503125E+01  9.976207E-01 -7.050223E+00  1.617437E-03 8.514697E+01  8.446757E-04 8.340436E+01 
 1.617578E-03 8.479396E+01  1.000013E+00 -4.419278E+00  9.996076E-03 8.399320E+01 
 8.420733E-04 8.312096E+01  9.984806E-03 8.407190E+01  9.958159E-01 -4.724759E+00 
8.687500E+01  9.977169E-01 -7.232089E+00  1.626681E-03 8.163844E+01  7.562046E-04 8.830469E+01 
 1.625474E-03 8.119967E+01  1.000097E+00 -4.521887E+00  9.901447E-03 8.124732E+01 
 7.536183E-04 8.811257E+01  9.881848E-03 8.131591E+01  9.958446E-01 -4.792771E+00 
8.871875E+01  9.973142E-01 -7.352989E+00  1.657567E-03 8.266507E+01  8.927215E-04 8.321349E+01 
 1.661885E-03 8.251232E+01  1.000064E+00 -4.572394E+00  1.003426E-02 8.362242E+01 
 8.911487E-04 8.290243E+01  1.001477E-02 8.365587E+01  9.961091E-01 -4.862829E+00 
9.056250E+01  9.970034E-01 -7.501806E+00  1.758622E-03 7.960780E+01  8.990339E-04 7.922042E+01 
 1.755130E-03 7.932084E+01  1.000080E+00 -4.666119E+00  1.014878E-02 8.003757E+01 
 8.932728E-04 7.911892E+01  1.013643E-02 8.005298E+01  9.953294E-01 -4.975223E+00 
9.240625E+01  9.964540E-01 -7.690352E+00  1.679853E-03 8.339401E+01  9.905414E-04 8.348907E+01 
 1.677044E-03 8.294105E+01  1.000099E+00 -4.848841E+00  1.028474E-02 8.228085E+01 
 9.900914E-04 8.318740E+01  1.027558E-02 8.240204E+01  9.948755E-01 -5.153228E+00 
9.425000E+01  9.963167E-01 -7.822634E+00  1.767856E-03 8.266134E+01  8.876398E-04 8.435226E+01 
 1.769021E-03 8.242650E+01  9.995216E-01 -4.956390E+00  1.053631E-02 8.159459E+01 
 8.878361E-04 8.419416E+01  1.000053E-02 8.167757E+01  9.951665E-01 -5.182239E+00 
9.609375E+01  9.965524E-01 -7.953911E+00  1.738499E-03 8.160372E+01  9.325219E-04 8.342226E+01 
 1.737870E-03 8.140952E+01  1.000031E+00 -4.995695E+00  1.074261E-02 8.242900E+01 
 9.312797E-04 8.312986E+01  1.072490E-02 8.246495E+01  9.957794E-01 -5.281205E+00 
9.793750E+01  9.972782E-01 -8.064560E+00  1.825302E-03 8.274531E+01  1.008674E-03 8.035057E+01 
 1.825275E-03 8.254608E+01  1.000075E+00 -5.078946E+00  1.108104E-02 8.308350E+01 
 1.007189E-03 8.003336E+01  1.100018E-02 8.306041E+01  9.969142E-01 -5.402670E+00 
9.978125E+01  9.962090E-01 -8.210668E+00  2.032145E-03 8.137411E+01  1.063454E-03 8.000223E+01 
 2.029157E-03 8.120839E+01  9.995592E-01 -5.160596E+00  1.111766E-02 8.135770E+01 
 1.060782E-03 7.971840E+01  1.110553E-02 8.131061E+01  9.957567E-01 -5.492812E+00 
1.016250E+02  9.963952E-01 -8.334421E+00  1.879850E-03 8.021328E+01  9.856670E-04 8.275382E+01 
 1.881380E-03 7.992996E+01  9.992529E-01 -5.253112E+00  1.115199E-02 8.234177E+01 
 9.818396E-04 8.258499E+01  1.113753E-02 8.234917E+01  9.957776E-01 -5.542223E+00 
1.034688E+02  9.961459E-01 -8.527439E+00  1.921093E-03 8.021948E+01  9.934540E-04 7.872836E+01 
 1.924618E-03 7.985067E+01  9.991843E-01 -5.385068E+00  1.169906E-02 8.160869E+01 
 9.906375E-04 7.852611E+01  1.168472E-02 8.163711E+01  9.958668E-01 -5.690541E+00 
1.053125E+02  9.959941E-01 -8.676550E+00  1.990367E-03 8.271059E+01  1.054243E-03 7.876387E+01 
 1.993458E-03 8.243570E+01  9.990712E-01 -5.457854E+00  1.166342E-02 8.093563E+01 
 1.053169E-03 7.854257E+01  1.164625E-02 8.097158E+01  9.957087E-01 -5.775921E+00 
1.071562E+02  9.960345E-01 -8.840373E+00  2.058105E-03 8.155178E+01  1.160014E-03 8.331969E+01 
 2.062243E-03 8.127581E+01  9.991240E-01 -5.568508E+00  1.196203E-02 8.271375E+01 
 1.159653E-03 8.305595E+01  1.193047E-02 8.273858E+01  9.958835E-01 -5.906309E+00 
1.090000E+02  9.955568E-01 -8.952311E+00  2.021084E-03 7.585877E+01  1.085200E-03 8.610469E+01 
 2.019558E-03 7.552094E+01  9.978469E-01 -5.665855E+00  1.219950E-02 8.204852E+01 
 1.087525E-03 8.564593E+01  1.218705E-02 8.201256E+01  9.956535E-01 -5.989655E+00 
1.108438E+02  9.954806E-01 -9.105368E+00  2.062009E-03 8.125506E+01  1.198720E-03 7.499539E+01 
 2.061882E-03 8.074452E+01  9.973299E-01 -5.757155E+00  1.230173E-02 8.102099E+01 
 1.194401E-03 7.463960E+01  1.228502E-02 8.100717E+01  9.954542E-01 -6.081960E+00 
1.126875E+02  9.957030E-01 -9.250849E+00  2.082752E-03 8.315275E+01  1.159341E-03 8.412420E+01 
 2.084798E-03 8.283362E+01  9.970574E-01 -5.875755E+00  1.264675E-02 7.952397E+01 
 1.154452E-03 8.391436E+01  1.263075E-02 7.950308E+01  9.953495E-01 -6.192328E+00 
1.145312E+02  9.957879E-01 -9.407693E+00  2.161768E-03 8.153688E+01  1.121607E-03 7.984433E+01 
 2.161503E-03 8.115065E+01  9.972451E-01 -5.947579E+00  1.239831E-02 8.126945E+01 
 1.117699E-03 7.969264E+01  1.237757E-02 8.119702E+01  9.956738E-01 -6.283717E+00 
1.163750E+02  9.953841E-01 -9.568058E+00  2.184672E-03 8.250199E+01  1.267141E-03 7.814021E+01 
 2.183176E-03 8.220114E+01  9.966714E-01 -6.075055E+00  1.266180E-02 8.098515E+01 
 1.262628E-03 7.788922E+01  1.264565E-02 8.094206E+01  9.952053E-01 -6.395897E+00 
1.182188E+02  9.945444E-01 -9.655886E+00  2.150346E-03 7.501367E+01  1.212415E-03 8.516273E+01 
 2.153939E-03 7.455291E+01  9.960488E-01 -6.131607E+00  1.272821E-02 8.178359E+01 
 1.212070E-03 8.510362E+01  1.271455E-02 8.171017E+01  9.950277E-01 -6.456667E+00 
1.200625E+02  9.952510E-01 -9.819817E+00  2.144956E-03 8.152015E+01  1.216030E-03 8.245668E+01 
 2.147274E-03 8.134019E+01  9.958968E-01 -6.236609E+00  1.328593E-02 8.023497E+01 
 1.215622E-03 8.206101E+01  1.326929E-02 8.014794E+01  9.948455E-01 -6.561281E+00 
1.219062E+02  9.953560E-01 -1.000726E+01  2.242398E-03 8.346307E+01  1.250031E-03 8.374440E+01 
 2.242138E-03 8.306394E+01  9.963339E-01 -6.348381E+00  1.316792E-02 8.164826E+01 
 1.248353E-03 8.334483E+01  1.315141E-02 8.167004E+01  9.954233E-01 -6.674707E+00 
1.237500E+02  9.952605E-01 -1.017201E+01  2.316893E-03 8.191536E+01  1.234409E-03 8.284871E+01 
 2.317164E-03 8.153935E+01  9.958021E-01 -6.478839E+00  1.334761E-02 8.116200E+01 
 1.235759E-03 8.253196E+01  1.332766E-02 8.119686E+01  9.948982E-01 -6.797343E+00 
1.255938E+02  9.952945E-01 -1.031955E+01  2.387466E-03 7.998384E+01  1.295786E-03 7.767868E+01 
 2.387445E-03 7.965043E+01  9.952430E-01 -6.590556E+00  1.385317E-02 8.174058E+01 
 1.291506E-03 7.721400E+01  1.383260E-02 8.173946E+01  9.948050E-01 -6.905030E+00 
1.274375E+02  9.953467E-01 -1.043387E+01  2.176994E-03 7.923668E+01  1.305136E-03 7.423976E+01 
 2.169827E-03 7.881828E+01  9.948365E-01 -6.639580E+00  1.401574E-02 8.110318E+01 
 1.305031E-03 7.388846E+01  1.399508E-02 8.109492E+01  9.944593E-01 -6.970398E+00 
1.292812E+02  9.961384E-01 -1.057037E+01  2.345162E-03 7.961645E+01  1.415631E-03 8.082872E+01 
 2.345345E-03 7.908591E+01  9.952857E-01 -6.687100E+00  1.410267E-02 8.026988E+01 
 1.413055E-03 8.037636E+01  1.408077E-02 8.032355E+01  9.948418E-01 -7.049040E+00 
1.311250E+02  9.961882E-01 -1.070240E+01  2.422084E-03 8.301791E+01  1.378542E-03 8.063595E+01 
 2.418857E-03 8.255783E+01  9.950924E-01 -6.756365E+00  1.433430E-02 8.059846E+01 
 1.379809E-03 8.027641E+01  1.431455E-02 8.062593E+01  9.948098E-01 -7.159191E+00 
1.329688E+02  9.958380E-01 -1.086033E+01  2.479468E-03 7.995565E+01  1.394879E-03 8.030222E+01 
 2.478579E-03 7.967102E+01  9.944688E-01 -6.905673E+00  1.425260E-02 8.104738E+01 
 1.387527E-03 7.987562E+01  1.422220E-02 8.102585E+01  9.946809E-01 -7.249315E+00 
1.348125E+02  9.959655E-01 -1.106054E+01  2.458198E-03 7.832902E+01  1.362010E-03 8.016556E+01 
 2.456547E-03 7.807879E+01  9.941572E-01 -7.090807E+00  1.473125E-02 8.097456E+01 
 1.361094E-03 7.974322E+01  1.469734E-02 8.075886E+01  9.944650E-01 -7.353271E+00 
1.366562E+02  9.958524E-01 -1.110394E+01  2.458661E-03 8.064002E+01  1.354043E-03 7.311320E+01 
 2.464645E-03 8.030069E+01  9.937677E-01 -7.087259E+00  1.453553E-02 8.137770E+01 
 1.352303E-03 7.264609E+01  1.449966E-02 8.114856E+01  9.941461E-01 -7.322287E+00 
1.385000E+02  9.961417E-01 -1.125649E+01  2.524567E-03 7.979746E+01  1.348744E-03 8.019467E+01 
 2.523573E-03 7.944332E+01  9.937963E-01 -7.150581E+00  1.501313E-02 8.075133E+01 
 1.342999E-03 7.976047E+01  1.498664E-02 8.067709E+01  9.941857E-01 -7.479688E+00 
1.403438E+02  9.958401E-01 -1.140986E+01  2.661638E-03 7.997944E+01  1.390587E-03 7.835353E+01 
 2.663672E-03 7.968251E+01  9.936205E-01 -7.258555E+00  1.508494E-02 8.102451E+01 
 1.384995E-03 7.788340E+01  1.505426E-02 8.096879E+01  9.942069E-01 -7.598944E+00 
1.421875E+02  9.963607E-01 -1.150758E+01  2.541249E-03 8.145963E+01  1.383318E-03 7.759181E+01 
 2.536752E-03 8.116590E+01  9.938191E-01 -7.354605E+00  1.549498E-02 8.177476E+01 
 1.383947E-03 7.698518E+01  1.546256E-02 8.172703E+01  9.939719E-01 -7.662255E+00 
1.440312E+02  9.965694E-01 -1.168198E+01  2.607423E-03 7.874350E+01  1.407657E-03 7.794878E+01 
 2.610666E-03 7.849919E+01  9.932682E-01 -7.487581E+00  1.579971E-02 8.114902E+01 
 1.404220E-03 7.749617E+01  1.576541E-02 8.111915E+01  9.936883E-01 -7.784571E+00 
1.458750E+02  9.963653E-01 -1.178875E+01  2.502077E-03 8.176850E+01  1.295393E-03 7.669836E+01 
 2.499039E-03 8.138689E+01  9.932227E-01 -7.506942E+00  1.580076E-02 8.163880E+01 
 1.295084E-03 7.633573E+01  1.576035E-02 8.153652E+01  9.936969E-01 -7.847138E+00 
1.477188E+02  9.967672E-01 -1.195563E+01  2.619533E-03 8.210659E+01  1.477909E-03 8.062842E+01 
 2.622099E-03 8.179897E+01  9.934063E-01 -7.589459E+00  1.596725E-02 8.076745E+01 
 1.471361E-03 8.032430E+01  1.592846E-02 8.063375E+01  9.936549E-01 -7.935019E+00 
1.495625E+02  9.972992E-01 -1.208443E+01  2.745913E-03 8.039032E+01  1.517706E-03 7.898632E+01 
 2.746148E-03 8.007953E+01  9.934616E-01 -7.706114E+00  1.637244E-02 8.081255E+01 
 1.513040E-03 7.847091E+01  1.633227E-02 8.072315E+01  9.937259E-01 -8.043525E+00 
1.514062E+02  9.978837E-01 -1.224700E+01  2.775875E-03 8.053097E+01  1.544427E-03 8.080681E+01 
 2.777348E-03 8.011187E+01  9.934051E-01 -7.826672E+00  1.661328E-02 8.009481E+01 
 1.538644E-03 8.052252E+01  1.657029E-02 8.005237E+01  9.935939E-01 -8.122718E+00 
1.532500E+02  9.973620E-01 -1.241478E+01  2.652067E-03 7.792406E+01  1.438624E-03 8.135365E+01 
 2.658340E-03 7.759506E+01  9.923261E-01 -7.938437E+00  1.697027E-02 7.925492E+01 
 1.434203E-03 8.118703E+01  1.692310E-02 7.918561E+01  9.925458E-01 -8.242599E+00 
1.550938E+02  9.979323E-01 -1.252184E+01  2.722665E-03 8.432539E+01  1.436349E-03 8.225660E+01 
 2.721667E-03 8.412085E+01  9.928949E-01 -7.982970E+00  1.666376E-02 8.033197E+01 
 1.438524E-03 8.192874E+01  1.662201E-02 8.022690E+01  9.932179E-01 -8.272107E+00 
1.569375E+02  9.984601E-01 -1.265448E+01  2.836502E-03 7.954105E+01  1.507200E-03 7.599737E+01 
 2.836714E-03 7.922527E+01  9.934796E-01 -8.060239E+00  1.690277E-02 8.054966E+01 
 1.502785E-03 7.552927E+01  1.685466E-02 8.048762E+01  9.935744E-01 -8.363079E+00 
1.587812E+02  9.992438E-01 -1.279931E+01  2.887918E-03 7.835291E+01  1.479528E-03 8.063935E+01 
 2.889384E-03 7.812183E+01  9.937399E-01 -8.193066E+00  1.713289E-02 8.032578E+01 
 1.472380E-03 8.040722E+01  1.709196E-02 8.025366E+01  9.939097E-01 -8.436311E+00 
1.606250E+02  1.000000E+00 -1.293797E+01  2.916524E-03 7.882585E+01  1.586885E-03 7.977465E+01 
 2.917689E-03 7.849022E+01  9.943457E-01 -8.293681E+00  1.736473E-02 8.049064E+01 
 1.582019E-03 7.952333E+01  1.732140E-02 8.041528E+01  9.943199E-01 -8.511183E+00 
1.624688E+02  9.997693E-01 -1.313106E+01  3.037603E-03 7.852026E+01  1.603853E-03 7.919155E+01 
 3.036035E-03 7.826245E+01  9.934568E-01 -8.364658E+00  1.737535E-02 7.887287E+01 
 1.600596E-03 7.865277E+01  1.732686E-02 7.879500E+01  9.932696E-01 -8.614099E+00 
1.643125E+02  9.993610E-01 -1.325202E+01  3.042051E-03 7.999583E+01  1.695554E-03 8.004356E+01 
 3.042271E-03 7.970085E+01  9.928958E-01 -8.423850E+00  1.785193E-02 8.047599E+01 
 1.687434E-03 7.973902E+01  1.778913E-02 8.036696E+01  9.935275E-01 -8.721407E+00 
1.661562E+02  9.995162E-01 -1.340828E+01  2.950394E-03 7.952626E+01  1.571601E-03 7.989851E+01 
 2.951424E-03 7.916690E+01  9.931225E-01 -8.531147E+00  1.798124E-02 8.056714E+01 
 1.568106E-03 7.945703E+01  1.791312E-02 8.046287E+01  9.935407E-01 -8.836883E+00 
1.680000E+02  1.000000E+00 -1.353608E+01  3.090340E-03 7.940679E+01  1.645484E-03 8.098452E+01 
 3.088035E-03 7.909768E+01  9.933996E-01 -8.650065E+00  1.836596E-02 8.043615E+01 
 1.637548E-03 8.067038E+01  1.829927E-02 8.034992E+01  9.935957E-01 -8.917044E+00 
1.698438E+02  1.000000E+00 -1.368639E+01  3.078604E-03 7.840522E+01  1.682080E-03 7.892803E+01 
 3.078915E-03 7.796574E+01  9.934236E-01 -8.747311E+00  1.861837E-02 7.946064E+01 
 1.677810E-03 7.872423E+01  1.855984E-02 7.942512E+01  9.932849E-01 -9.012945E+00 
1.716875E+02  9.986496E-01 -1.382650E+01  3.156108E-03 7.680885E+01  1.712019E-03 7.645050E+01 
 3.153865E-03 7.646978E+01  9.924820E-01 -8.813249E+00  1.841976E-02 7.935107E+01 
 1.705148E-03 7.607504E+01  1.836480E-02 7.936446E+01  9.918178E-01 -9.072516E+00 
1.735312E+02  1.000000E+00 -1.392126E+01  3.104525E-03 8.006195E+01  1.733413E-03 8.067468E+01 
 3.105660E-03 7.976665E+01  9.929830E-01 -8.879121E+00  1.878115E-02 7.905707E+01 
 1.725266E-03 8.038638E+01  1.872012E-02 7.905167E+01  9.926530E-01 -9.148254E+00 
1.753750E+02  1.000000E+00 -1.413321E+01  3.154703E-03 7.987687E+01  1.758373E-03 7.976187E+01 
 3.154094E-03 7.958847E+01  9.941679E-01 -9.018882E+00  1.884879E-02 7.972756E+01 
 1.757289E-03 7.952019E+01  1.878495E-02 7.965986E+01  9.937709E-01 -9.277887E+00 
1.772188E+02  1.000000E+00 -1.436527E+01  3.250625E-03 7.771891E+01  1.766659E-03 7.730257E+01 
 3.253090E-03 7.753563E+01  9.938441E-01 -9.215467E+00  1.923267E-02 7.968654E+01 
 1.759795E-03 7.697291E+01  1.916273E-02 7.963442E+01  9.941435E-01 -9.460101E+00 
1.790625E+02  1.000000E+00 -1.451192E+01  3.304906E-03 7.790639E+01  1.811947E-03 7.767574E+01 
 3.305267E-03 7.762923E+01  9.941545E-01 -9.291539E+00  1.929017E-02 7.960205E+01 
 1.803417E-03 7.740671E+01  1.922197E-02 7.957473E+01  9.944223E-01 -9.537615E+00 
1.809062E+02  1.000000E+00 -1.457359E+01  3.213895E-03 7.501317E+01  1.815165E-03 7.694402E+01 
 3.215911E-03 7.478235E+01  9.938942E-01 -9.299629E+00  1.931119E-02 7.956955E+01 
 1.808469E-03 7.657278E+01  1.924443E-02 7.953815E+01  9.938086E-01 -9.531302E+00 
1.827500E+02  1.000000E+00 -1.467605E+01  3.220452E-03 7.792675E+01  1.781089E-03 7.781650E+01 
 3.222551E-03 7.761655E+01  9.949479E-01 -9.374791E+00  1.970926E-02 7.949986E+01 
 1.774272E-03 7.744496E+01  1.964253E-02 7.945199E+01  9.951476E-01 -9.552948E+00 
1.845938E+02  1.000000E+00 -1.482285E+01  3.440109E-03 7.802752E+01  1.796351E-03 7.861900E+01 
 3.440994E-03 7.772125E+01  9.953371E-01 -9.503242E+00  1.993116E-02 7.997223E+01 
 1.787309E-03 7.836402E+01  1.985905E-02 7.993837E+01  9.956280E-01 -9.664610E+00 
1.864375E+02  1.000000E+00 -1.499692E+01  3.385472E-03 7.643174E+01  1.867450E-03 7.590381E+01 
 3.383531E-03 7.612556E+01  9.946957E-01 -9.607018E+00  2.031282E-02 7.959969E+01 
