! Matrix data file written by TouchstoneData, EPCOS AG
! FILENAME: "LQ98_UB_NB.s3p_newformat"
! COMMENT: "(LQ98_UB_NB.s3p)"
! INFO: nport=3, nfreq=1601
! DATE: "Thu Apr  2 15:29:34 2009"
! USER: "Michael Schemies"
!
! port | pin | signal
! -----|-----|--------
!   1  |  6  |  input
!   2  |  3  |  output
!   3  |  4  |  output
! --------------------
!
# MHZ S MA R 50
! freq  magS11 angS11  magS12 angS12  magS13 angS13  ...
1.800000E+03  8.731367E-01 -1.314811E+02  2.541970E-02 1.316395E+02  3.578430E-02 1.293671E+02 
 2.532489E-02 1.310457E+02  8.577546E-01 -9.316588E+01  4.243058E-02 7.583198E+01 
 3.580020E-02 1.289612E+02  4.264554E-02 7.598758E+01  8.731556E-01 -9.955354E+01 
1.800188E+03  8.727542E-01 -1.315000E+02  2.530710E-02 1.325118E+02  3.567569E-02 1.291626E+02 
 2.519835E-02 1.319208E+02  8.580934E-01 -9.319644E+01  4.160357E-02 7.496368E+01 
 3.569562E-02 1.287665E+02  4.179698E-02 7.516486E+01  8.741715E-01 -9.956144E+01 
1.800375E+03  8.723367E-01 -1.315111E+02  2.529024E-02 1.333862E+02  3.562008E-02 1.289487E+02 
 2.518076E-02 1.327884E+02  8.584155E-01 -9.322929E+01  4.077545E-02 7.433025E+01 
 3.563302E-02 1.285515E+02  4.096936E-02 7.452490E+01  8.750909E-01 -9.958073E+01 
1.800562E+03  8.720110E-01 -1.315261E+02  2.529746E-02 1.341891E+02  3.554209E-02 1.286694E+02 
 2.518479E-02 1.335775E+02  8.586284E-01 -9.327075E+01  3.994449E-02 7.383886E+01 
 3.555578E-02 1.282531E+02  4.014407E-02 7.401377E+01  8.759666E-01 -9.960284E+01 
1.800750E+03  8.718577E-01 -1.315276E+02  2.535258E-02 1.350366E+02  3.542510E-02 1.284347E+02 
 2.523934E-02 1.344345E+02  8.588219E-01 -9.331326E+01  3.915298E-02 7.352845E+01 
 3.543221E-02 1.280242E+02  3.933788E-02 7.371646E+01  8.767584E-01 -9.963795E+01 
1.800938E+03  8.720332E-01 -1.315272E+02  2.549203E-02 1.358184E+02  3.534005E-02 1.282235E+02 
 2.537992E-02 1.352209E+02  8.590998E-01 -9.335550E+01  3.844365E-02 7.339897E+01 
 3.535551E-02 1.278127E+02  3.863336E-02 7.357978E+01  8.774330E-01 -9.967976E+01 
1.801125E+03  8.723757E-01 -1.315222E+02  2.569075E-02 1.365424E+02  3.524023E-02 1.280597E+02 
 2.558549E-02 1.359380E+02  8.593052E-01 -9.339842E+01  3.784225E-02 7.339499E+01 
 3.525628E-02 1.276513E+02  3.803255E-02 7.357915E+01  8.779094E-01 -9.972838E+01 
1.801312E+03  8.728665E-01 -1.315269E+02  2.595679E-02 1.370539E+02  3.519391E-02 1.279274E+02 
 2.585087E-02 1.364538E+02  8.594216E-01 -9.343820E+01  3.736130E-02 7.341926E+01 
 3.522199E-02 1.275314E+02  3.755204E-02 7.361197E+01  8.782811E-01 -9.977693E+01 
1.801500E+03  8.733215E-01 -1.315311E+02  2.620479E-02 1.374258E+02  3.516386E-02 1.277334E+02 
 2.609753E-02 1.368273E+02  8.593997E-01 -9.348026E+01  3.695353E-02 7.347970E+01 
 3.519709E-02 1.273394E+02  3.713878E-02 7.367375E+01  8.785418E-01 -9.982484E+01 
1.801688E+03  8.736650E-01 -1.315330E+02  2.648089E-02 1.376445E+02  3.515041E-02 1.275467E+02 
 2.637208E-02 1.370584E+02  8.593655E-01 -9.351954E+01  3.666935E-02 7.354753E+01 
 3.518604E-02 1.271591E+02  3.685788E-02 7.374316E+01  8.786948E-01 -9.987544E+01 
1.801875E+03  8.741235E-01 -1.315422E+02  2.669407E-02 1.376972E+02  3.515107E-02 1.272691E+02 
 2.658568E-02 1.370974E+02  8.592145E-01 -9.355179E+01  3.648278E-02 7.346619E+01 
 3.518558E-02 1.268714E+02  3.667665E-02 7.365858E+01  8.787001E-01 -9.991475E+01 
1.802062E+03  8.746598E-01 -1.315545E+02  2.687972E-02 1.377299E+02  3.511486E-02 1.269869E+02 
 2.677427E-02 1.371393E+02  8.590001E-01 -9.357911E+01  3.630748E-02 7.333440E+01 
 3.515443E-02 1.266096E+02  3.649302E-02 7.353094E+01  8.787604E-01 -9.995476E+01 
1.802250E+03  8.751353E-01 -1.315708E+02  2.705171E-02 1.376535E+02  3.509247E-02 1.266767E+02 
 2.694380E-02 1.370625E+02  8.588395E-01 -9.360599E+01  3.623004E-02 7.308896E+01 
 3.513597E-02 1.262981E+02  3.642168E-02 7.328178E+01  8.787300E-01 -9.999144E+01 
1.802438E+03  8.756578E-01 -1.315921E+02  2.716223E-02 1.374940E+02  3.504196E-02 1.263413E+02 
 2.705369E-02 1.368993E+02  8.586541E-01 -9.362377E+01  3.616382E-02 7.265087E+01 
 3.508718E-02 1.259615E+02  3.635939E-02 7.284267E+01  8.785922E-01 -1.000176E+02 
1.802625E+03  8.761343E-01 -1.316134E+02  2.719912E-02 1.372851E+02  3.498967E-02 1.259620E+02 
 2.709453E-02 1.367035E+02  8.584641E-01 -9.363714E+01  3.607878E-02 7.201559E+01 
 3.504432E-02 1.255846E+02  3.627281E-02 7.221281E+01  8.785774E-01 -1.000417E+02 
1.802812E+03  8.765624E-01 -1.316401E+02  2.714639E-02 1.371666E+02  3.485812E-02 1.255640E+02 
 2.704256E-02 1.365915E+02  8.583103E-01 -9.364640E+01  3.588436E-02 7.125346E+01 
 3.491343E-02 1.251877E+02  3.608010E-02 7.144353E+01  8.785522E-01 -1.000588E+02 
1.803000E+03  8.769393E-01 -1.316671E+02  2.709234E-02 1.371776E+02  3.474121E-02 1.252628E+02 
 2.699193E-02 1.365934E+02  8.581875E-01 -9.365448E+01  3.568546E-02 7.045961E+01 
 3.478987E-02 1.248879E+02  3.588227E-02 7.065278E+01  8.785882E-01 -1.000803E+02 
1.803188E+03  8.773427E-01 -1.316984E+02  2.700754E-02 1.371711E+02  3.462083E-02 1.248980E+02 
 2.690346E-02 1.365918E+02  8.581406E-01 -9.365567E+01  3.539775E-02 6.946767E+01 
 3.467677E-02 1.245223E+02  3.559035E-02 6.966475E+01  8.786571E-01 -1.000927E+02 
1.803375E+03  8.776869E-01 -1.317286E+02  2.689722E-02 1.373095E+02  3.445034E-02 1.245461E+02 
 2.679264E-02 1.367211E+02  8.581907E-01 -9.366362E+01  3.502426E-02 6.849678E+01 
 3.450630E-02 1.241774E+02  3.521768E-02 6.868933E+01  8.787546E-01 -1.001056E+02 
1.803562E+03  8.780145E-01 -1.317635E+02  2.677364E-02 1.374786E+02  3.425372E-02 1.242486E+02 
 2.666956E-02 1.368973E+02  8.582157E-01 -9.366549E+01  3.459598E-02 6.736114E+01 
 3.431022E-02 1.238692E+02  3.479193E-02 6.754865E+01  8.789389E-01 -1.001150E+02 
1.803750E+03  8.783489E-01 -1.317976E+02  2.663682E-02 1.377921E+02  3.405977E-02 1.240273E+02 
 2.653490E-02 1.372134E+02  8.584598E-01 -9.367166E+01  3.397371E-02 6.619685E+01 
 3.411525E-02 1.236565E+02  3.416361E-02 6.638974E+01  8.792270E-01 -1.001259E+02 
1.803938E+03  8.786649E-01 -1.318367E+02  2.652051E-02 1.381976E+02  3.387655E-02 1.237844E+02 
 2.641749E-02 1.376193E+02  8.587133E-01 -9.368755E+01  3.327948E-02 6.514500E+01 
 3.393213E-02 1.234022E+02  3.346467E-02 6.533295E+01  8.795408E-01 -1.001418E+02 
1.804125E+03  8.788272E-01 -1.318732E+02  2.643219E-02 1.387698E+02  3.365236E-02 1.235801E+02 
 2.632505E-02 1.381834E+02  8.589265E-01 -9.370619E+01  3.245055E-02 6.418019E+01 
 3.370586E-02 1.232066E+02  3.263205E-02 6.436999E+01  8.799007E-01 -1.001580E+02 
1.804312E+03  8.790358E-01 -1.319125E+02  2.643558E-02 1.393245E+02  3.346699E-02 1.234971E+02 
 2.632808E-02 1.387421E+02  8.590609E-01 -9.372934E+01  3.164799E-02 6.343373E+01 
 3.351767E-02 1.231077E+02  3.182873E-02 6.361801E+01  8.803240E-01 -1.001858E+02 
1.804500E+03  8.791870E-01 -1.319509E+02  2.641825E-02 1.398422E+02  3.329869E-02 1.233399E+02 
 2.631863E-02 1.392568E+02  8.592355E-01 -9.375280E+01  3.081170E-02 6.259628E+01 
 3.335377E-02 1.229606E+02  3.098680E-02 6.278483E+01  8.806176E-01 -1.002103E+02 
1.804688E+03  8.792519E-01 -1.319891E+02  2.645213E-02 1.404600E+02  3.312651E-02 1.232447E+02 
 2.634610E-02 1.398769E+02  8.593400E-01 -9.377915E+01  2.989783E-02 6.194325E+01 
 3.317607E-02 1.228539E+02  3.006128E-02 6.212535E+01  8.810736E-01 -1.002411E+02 
1.804875E+03  8.793761E-01 -1.320299E+02  2.654018E-02 1.410246E+02  3.298786E-02 1.231112E+02 
 2.643228E-02 1.404448E+02  8.594583E-01 -9.381322E+01  2.897884E-02 6.144301E+01 
 3.303478E-02 1.227258E+02  2.914389E-02 6.162199E+01  8.814340E-01 -1.002758E+02 
1.805062E+03  8.794547E-01 -1.320681E+02  2.665052E-02 1.415588E+02  3.282566E-02 1.229773E+02 
 2.654066E-02 1.409719E+02  8.594861E-01 -9.384443E+01  2.807697E-02 6.111542E+01 
 3.287041E-02 1.225828E+02  2.823725E-02 6.128378E+01  8.817774E-01 -1.003122E+02 
1.805250E+03  8.794634E-01 -1.321121E+02  2.679466E-02 1.420037E+02  3.267685E-02 1.228875E+02 
 2.668090E-02 1.414128E+02  8.594581E-01 -9.387347E+01  2.725950E-02 6.087427E+01 
 3.271725E-02 1.224925E+02  2.741085E-02 6.104720E+01  8.820327E-01 -1.003527E+02 
1.805438E+03  8.794679E-01 -1.321547E+02  2.690068E-02 1.423749E+02  3.252922E-02 1.227471E+02 
 2.678626E-02 1.418012E+02  8.594295E-01 -9.390244E+01  2.645004E-02 6.044890E+01 
 3.256488E-02 1.223517E+02  2.659592E-02 6.062459E+01  8.822516E-01 -1.003893E+02 
1.805625E+03  8.794740E-01 -1.321970E+02  2.701464E-02 1.428369E+02  3.236506E-02 1.226447E+02 
 2.689949E-02 1.422498E+02  8.594228E-01 -9.393440E+01  2.554178E-02 6.015789E+01 
 3.240253E-02 1.222354E+02  2.567954E-02 6.032341E+01  8.825286E-01 -1.004313E+02 
1.805812E+03  8.794819E-01 -1.322419E+02  2.717254E-02 1.432421E+02  3.221873E-02 1.225167E+02 
 2.705250E-02 1.426532E+02  8.593867E-01 -9.396271E+01  2.466098E-02 6.003738E+01 
 3.224498E-02 1.221010E+02  2.479695E-02 6.019456E+01  8.826554E-01 -1.004720E+02 
1.806000E+03  8.793647E-01 -1.322813E+02  2.732272E-02 1.435573E+02  3.204449E-02 1.224249E+02 
 2.719476E-02 1.429724E+02  8.593040E-01 -9.399554E+01  2.383260E-02 5.993209E+01 
 3.207044E-02 1.220122E+02  2.396208E-02 6.008401E+01  8.829054E-01 -1.005129E+02 
1.806188E+03  8.792811E-01 -1.323242E+02  2.741756E-02 1.438586E+02  3.188967E-02 1.223473E+02 
 2.728817E-02 1.432670E+02  8.592294E-01 -9.402574E+01  2.300382E-02 5.970122E+01 
 3.191215E-02 1.219232E+02  2.312273E-02 5.985882E+01  8.829870E-01 -1.005550E+02 
1.806375E+03  8.790897E-01 -1.323628E+02  2.750729E-02 1.442907E+02  3.171907E-02 1.222887E+02 
 2.737378E-02 1.437039E+02  8.590824E-01 -9.405634E+01  2.206477E-02 5.947388E+01 
 3.173969E-02 1.218656E+02  2.218774E-02 5.962793E+01  8.831181E-01 -1.005912E+02 
1.806562E+03  8.789500E-01 -1.324026E+02  2.764678E-02 1.447390E+02  3.157818E-02 1.222280E+02 
 2.751358E-02 1.441501E+02  8.590098E-01 -9.408619E+01  2.111684E-02 5.943365E+01 
 3.158749E-02 1.217993E+02  2.122835E-02 5.957377E+01  8.832258E-01 -1.006321E+02 
1.806750E+03  8.788280E-01 -1.324384E+02  2.780780E-02 1.451604E+02  3.141887E-02 1.221453E+02 
 2.766862E-02 1.445692E+02  8.590133E-01 -9.411942E+01  2.011118E-02 5.941696E+01 
 3.142887E-02 1.217181E+02  2.021954E-02 5.956167E+01  8.831994E-01 -1.006730E+02 
1.806938E+03  8.790211E-01 -1.324773E+02  2.797295E-02 1.455476E+02  3.126083E-02 1.221378E+02 
 2.784133E-02 1.449548E+02  8.591569E-01 -9.415579E+01  1.909758E-02 5.964479E+01 
 3.127477E-02 1.217148E+02  1.919685E-02 5.979928E+01  8.831964E-01 -1.007126E+02 
1.807125E+03  8.791091E-01 -1.325206E+02  2.812769E-02 1.459631E+02  3.115537E-02 1.221268E+02 
 2.799059E-02 1.453690E+02  8.592862E-01 -9.419409E+01  1.805342E-02 5.988805E+01 
 3.117945E-02 1.217093E+02  1.815255E-02 6.005002E+01  8.831079E-01 -1.007567E+02 
1.807312E+03  8.793394E-01 -1.325643E+02  2.831774E-02 1.464441E+02  3.108373E-02 1.220566E+02 
 2.818131E-02 1.458473E+02  8.592920E-01 -9.423051E+01  1.691977E-02 6.039405E+01 
 3.110928E-02 1.216292E+02  1.700806E-02 6.057073E+01  8.829571E-01 -1.008001E+02 
1.807500E+03  8.794483E-01 -1.326042E+02  2.851962E-02 1.469434E+02  3.101086E-02 1.218878E+02 
 2.838454E-02 1.463416E+02  8.592944E-01 -9.426676E+01  1.575123E-02 6.128916E+01 
 3.103475E-02 1.214605E+02  1.584181E-02 6.146436E+01  8.826637E-01 -1.008360E+02 
1.807688E+03  8.794758E-01 -1.326432E+02  2.876747E-02 1.474974E+02  3.090757E-02 1.216282E+02 
 2.863564E-02 1.468856E+02  8.591464E-01 -9.430035E+01  1.450060E-02 6.270314E+01 
 3.093631E-02 1.212099E+02  1.458207E-02 6.286606E+01  8.823864E-01 -1.008660E+02 
1.807875E+03  8.795990E-01 -1.326818E+02  2.910347E-02 1.480014E+02  3.075522E-02 1.213515E+02 
 2.896772E-02 1.473989E+02  8.590511E-01 -9.432979E+01  1.326698E-02 6.519885E+01 
 3.079604E-02 1.209417E+02  1.334220E-02 6.538090E+01  8.821637E-01 -1.008914E+02 
1.808062E+03  8.796212E-01 -1.327244E+02  2.944992E-02 1.484760E+02  3.058467E-02 1.210394E+02 
 2.931038E-02 1.478667E+02  8.588434E-01 -9.435252E+01  1.208259E-02 6.867235E+01 
 3.061997E-02 1.206256E+02  1.215659E-02 6.886905E+01  8.818588E-01 -1.009120E+02 
1.808250E+03  8.798322E-01 -1.327643E+02  2.988478E-02 1.489142E+02  3.035745E-02 1.207250E+02 
 2.974133E-02 1.482977E+02  8.586542E-01 -9.437067E+01  1.101706E-02 7.386402E+01 
 3.039829E-02 1.203065E+02  1.108276E-02 7.405830E+01  8.816562E-01 -1.009243E+02 
1.808438E+03  8.800453E-01 -1.328056E+02  3.035681E-02 1.492374E+02  3.008272E-02 1.204126E+02 
 3.021441E-02 1.486186E+02  8.584809E-01 -9.438296E+01  1.018811E-02 8.071889E+01 
 3.013011E-02 1.199870E+02  1.025008E-02 8.088154E+01  8.814784E-01 -1.009300E+02 
1.808625E+03  8.802453E-01 -1.328473E+02  3.088004E-02 1.494353E+02  2.973359E-02 1.201705E+02 
 3.073591E-02 1.488150E+02  8.583666E-01 -9.438555E+01  9.691698E-03 8.910948E+01 
 2.977905E-02 1.197459E+02  9.749156E-03 8.930092E+01  8.814976E-01 -1.009319E+02 
1.808812E+03  8.805554E-01 -1.328853E+02  3.140852E-02 1.494764E+02  2.937250E-02 1.200116E+02 
 3.126549E-02 1.488526E+02  8.583672E-01 -9.438705E+01  9.597113E-03 9.815537E+01 
 2.941325E-02 1.195953E+02  9.653578E-03 9.835288E+01  8.815603E-01 -1.009356E+02 
1.809000E+03  8.807194E-01 -1.329221E+02  3.194423E-02 1.494266E+02  2.894906E-02 1.199415E+02 
 3.179526E-02 1.488026E+02  8.584275E-01 -9.438803E+01  9.894278E-03 1.069038E+02 
 2.899287E-02 1.195365E+02  9.956279E-03 1.071158E+02  8.817558E-01 -1.009372E+02 
1.809188E+03  8.809329E-01 -1.329572E+02  3.246563E-02 1.492151E+02  2.853205E-02 1.200867E+02 
 3.231551E-02 1.485867E+02  8.586355E-01 -9.438783E+01  1.055338E-02 1.144063E+02 
 2.858275E-02 1.196787E+02  1.061531E-02 1.146208E+02  8.820482E-01 -1.009402E+02 
1.809375E+03  8.812302E-01 -1.329940E+02  3.295113E-02 1.489287E+02  2.812988E-02 1.202766E+02 
 3.279988E-02 1.482962E+02  8.589079E-01 -9.438978E+01  1.145956E-02 1.203898E+02 
 2.817700E-02 1.198759E+02  1.153133E-02 1.205996E+02  8.823908E-01 -1.009477E+02 
1.809562E+03  8.814143E-01 -1.330329E+02  3.340475E-02 1.485295E+02  2.771732E-02 1.206220E+02 
 3.324980E-02 1.479070E+02  8.593594E-01 -9.439901E+01  1.256493E-02 1.247629E+02 
 2.777313E-02 1.202351E+02  1.264681E-02 1.249829E+02  8.828638E-01 -1.009596E+02 
1.809750E+03  8.815906E-01 -1.330750E+02  3.378781E-02 1.480823E+02  2.737373E-02 1.211209E+02 
 3.363227E-02 1.474577E+02  8.597315E-01 -9.441320E+01  1.371112E-02 1.276607E+02 
 2.742219E-02 1.207283E+02  1.379411E-02 1.279019E+02  8.833973E-01 -1.009788E+02 
1.809938E+03  8.818233E-01 -1.331190E+02  3.413051E-02 1.476194E+02  2.705653E-02 1.216825E+02 
 3.397618E-02 1.469944E+02  8.601473E-01 -9.443355E+01  1.489617E-02 1.297931E+02 
 2.710194E-02 1.212909E+02  1.499116E-02 1.300373E+02  8.839783E-01 -1.010012E+02 
1.810125E+03  8.819813E-01 -1.331645E+02  3.441163E-02 1.471229E+02  2.681024E-02 1.223802E+02 
 3.424924E-02 1.464952E+02  8.606115E-01 -9.446007E+01  1.607670E-02 1.310608E+02 
 2.685934E-02 1.219813E+02  1.618057E-02 1.312914E+02  8.845934E-01 -1.010355E+02 
1.810312E+03  8.821400E-01 -1.332113E+02  3.464788E-02 1.466685E+02  2.662334E-02 1.230352E+02 
 3.448344E-02 1.460402E+02  8.611578E-01 -9.449388E+01  1.719968E-02 1.318789E+02 
 2.667321E-02 1.226332E+02  1.730963E-02 1.320910E+02  8.851346E-01 -1.010751E+02 
1.810500E+03  8.823239E-01 -1.332637E+02  3.484286E-02 1.461984E+02  2.647157E-02 1.237240E+02 
 3.468175E-02 1.455783E+02  8.616800E-01 -9.453687E+01  1.829200E-02 1.323193E+02 
 2.651821E-02 1.233112E+02  1.840498E-02 1.325185E+02  8.856628E-01 -1.011183E+02 
1.810688E+03  8.824092E-01 -1.333139E+02  3.499068E-02 1.458080E+02  2.637834E-02 1.243924E+02 
 3.483464E-02 1.451778E+02  8.619971E-01 -9.458237E+01  1.930396E-02 1.325571E+02 
 2.641538E-02 1.239730E+02  1.943086E-02 1.327376E+02  8.861239E-01 -1.011673E+02 
1.810875E+03  8.824095E-01 -1.333645E+02  3.512359E-02 1.454488E+02  2.630974E-02 1.250278E+02 
 3.495573E-02 1.448348E+02  8.624361E-01 -9.463387E+01  2.028303E-02 1.325980E+02 
 2.634656E-02 1.246063E+02  2.040807E-02 1.327862E+02  8.866234E-01 -1.012200E+02 
1.811062E+03  8.823925E-01 -1.334119E+02  3.523345E-02 1.451553E+02  2.625168E-02 1.256231E+02 
 3.507428E-02 1.445385E+02  8.627173E-01 -9.468439E+01  2.119282E-02 1.325588E+02 
 2.630154E-02 1.251862E+02  2.132356E-02 1.327348E+02  8.869133E-01 -1.012733E+02 
1.811250E+03  8.823348E-01 -1.334599E+02  3.537133E-02 1.448722E+02  2.621408E-02 1.261806E+02 
 3.520482E-02 1.442604E+02  8.628984E-01 -9.474039E+01  2.208066E-02 1.325121E+02 
 2.624871E-02 1.257282E+02  2.221178E-02 1.326796E+02  8.872511E-01 -1.013295E+02 
1.811438E+03  8.822427E-01 -1.335065E+02  3.546217E-02 1.445916E+02  2.618584E-02 1.267558E+02 
 3.529870E-02 1.439841E+02  8.630901E-01 -9.479630E+01  2.292840E-02 1.323232E+02 
 2.622338E-02 1.263142E+02  2.307058E-02 1.324830E+02  8.875314E-01 -1.013824E+02 
1.811625E+03  8.821962E-01 -1.335561E+02  3.556427E-02 1.443870E+02  2.619881E-02 1.272621E+02 
 3.538994E-02 1.437875E+02  8.630708E-01 -9.485385E+01  2.372245E-02 1.322101E+02 
 2.622292E-02 1.268327E+02  2.386694E-02 1.323662E+02  8.877395E-01 -1.014380E+02 
1.811812E+03  8.821786E-01 -1.336040E+02  3.569203E-02 1.442040E+02  2.619258E-02 1.277891E+02 
 3.551173E-02 1.436132E+02  8.630173E-01 -9.490615E+01  2.454644E-02 1.320572E+02 
 2.621782E-02 1.273419E+02  2.468606E-02 1.321973E+02  8.879134E-01 -1.014922E+02 
1.812000E+03  8.821091E-01 -1.336520E+02  3.582322E-02 1.440345E+02  2.620436E-02 1.282829E+02 
 3.563700E-02 1.434486E+02  8.629861E-01 -9.495425E+01  2.535827E-02 1.318318E+02 
 2.622766E-02 1.278336E+02  2.550790E-02 1.319605E+02  8.880461E-01 -1.015460E+02 
1.812188E+03  8.819929E-01 -1.336987E+02  3.596379E-02 1.438541E+02  2.622635E-02 1.287961E+02 
 3.577715E-02 1.432731E+02  8.629594E-01 -9.500626E+01  2.615939E-02 1.315128E+02 
 2.624379E-02 1.283421E+02  2.630986E-02 1.316336E+02  8.882468E-01 -1.015982E+02 
1.812375E+03  8.818053E-01 -1.337419E+02  3.610575E-02 1.436662E+02  2.626559E-02 1.292780E+02 
 3.591599E-02 1.430927E+02  8.628756E-01 -9.505388E+01  2.692245E-02 1.311584E+02 
 2.628149E-02 1.288138E+02  2.707672E-02 1.312596E+02  8.883330E-01 -1.016534E+02 
1.812562E+03  8.816883E-01 -1.337894E+02  3.625045E-02 1.434672E+02  2.630599E-02 1.297527E+02 
 3.605537E-02 1.428981E+02  8.627290E-01 -9.510168E+01  2.767639E-02 1.307428E+02 
 2.631598E-02 1.292862E+02  2.782852E-02 1.308467E+02  8.884291E-01 -1.017078E+02 
1.812750E+03  8.816462E-01 -1.338353E+02  3.638862E-02 1.432577E+02  2.636762E-02 1.302507E+02 
 3.619341E-02 1.426890E+02  8.626038E-01 -9.514709E+01  2.839777E-02 1.303114E+02 
 2.637179E-02 1.297697E+02  2.854660E-02 1.304051E+02  8.884440E-01 -1.017607E+02 
1.812938E+03  8.817477E-01 -1.338877E+02  3.652327E-02 1.430675E+02  2.643603E-02 1.306714E+02 
 3.633654E-02 1.424742E+02  8.627356E-01 -9.518855E+01  2.912664E-02 1.298632E+02 
 2.645141E-02 1.301896E+02  2.928913E-02 1.299529E+02  8.883887E-01 -1.018109E+02 
1.813125E+03  8.818721E-01 -1.339419E+02  3.667891E-02 1.428419E+02  2.652409E-02 1.311004E+02 
 3.648275E-02 1.422526E+02  8.629467E-01 -9.523304E+01  2.984343E-02 1.293255E+02 
 2.653870E-02 1.306155E+02  3.001223E-02 1.294267E+02  8.882528E-01 -1.018626E+02 
1.813312E+03  8.819742E-01 -1.339954E+02  3.681966E-02 1.426154E+02  2.663170E-02 1.315108E+02 
 3.661860E-02 1.420269E+02  8.631242E-01 -9.527677E+01  3.054607E-02 1.287406E+02 
 2.664872E-02 1.310113E+02  3.071893E-02 1.288351E+02  8.881490E-01 -1.019115E+02 
1.813500E+03  8.820442E-01 -1.340528E+02  3.694161E-02 1.423676E+02  2.673645E-02 1.318427E+02 
 3.674844E-02 1.417821E+02  8.632446E-01 -9.532482E+01  3.123802E-02 1.280423E+02 
 2.675675E-02 1.313700E+02  3.142032E-02 1.281431E+02  8.880220E-01 -1.019537E+02 
1.813688E+03  8.821062E-01 -1.341052E+02  3.705846E-02 1.421526E+02  2.684314E-02 1.321954E+02 
 3.686589E-02 1.415401E+02  8.633410E-01 -9.536644E+01  3.184596E-02 1.272359E+02 
 2.687239E-02 1.317081E+02  3.202788E-02 1.273393E+02  8.879393E-01 -1.019960E+02 
1.813875E+03  8.821318E-01 -1.341577E+02  3.715645E-02 1.419070E+02  2.696818E-02 1.324889E+02 
 3.695881E-02 1.413219E+02  8.634903E-01 -9.541587E+01  3.238900E-02 1.264503E+02 
