! Matrix data file written by TouchstoneData, EPCOS AG
! FILENAME: "LQ71A_UB_2_WB.s3p_newformat"
! COMMENT: "(LQ71A_UB_2_WB.s3p) EPCOS AG 18.03.2009 15:2"
! INFO: nport=3, nfreq=1601
! DATE: "Thu Apr  2 14:33:28 2009"
! USER: "Michael Schemies"
!
! port | pin | signal
! -----|-----|--------
!   1  |  6  |  input
!   2  |  3  |  output
!   3  |  4  |  output
! --------------------
!
# MHZ S MA R 50
! freq  magS11 angS11  magS12 angS12  magS13 angS13  ...
5.000000E+01  9.948173E-01 -6.255162E+00  1.277995E-03 8.505854E+01  1.749266E-03 8.498678E+01 
 1.348855E-03 8.642032E+01  9.947989E-01 -3.784190E+00  2.090629E-03 8.521439E+01 
 1.713345E-03 8.662257E+01  1.967646E-03 8.702255E+01  9.958180E-01 -3.684692E+00 
5.371875E+01  9.963276E-01 -6.962043E+00  1.460575E-03 8.219801E+01  1.916049E-03 8.384766E+01 
 1.474072E-03 8.274131E+01  9.959433E-01 -4.290985E+00  2.264333E-03 8.718768E+01 
 1.927348E-03 8.361178E+01  2.244608E-03 8.810453E+01  9.981588E-01 -4.350635E+00 
5.743750E+01  9.955891E-01 -7.486437E+00  1.575003E-03 7.916064E+01  2.038937E-03 7.968049E+01 
 1.587433E-03 7.869116E+01  9.964001E-01 -4.617856E+00  2.282898E-03 8.736770E+01 
 2.044900E-03 8.009010E+01  2.268653E-03 8.708515E+01  9.976450E-01 -4.701308E+00 
6.115625E+01  9.959184E-01 -7.970237E+00  1.687123E-03 8.278994E+01  2.042372E-03 8.143401E+01 
 1.662984E-03 8.219430E+01  9.965642E-01 -4.962242E+00  2.517610E-03 8.427916E+01 
 2.022259E-03 8.168631E+01  2.528136E-03 8.478150E+01  9.977817E-01 -4.982054E+00 
6.487500E+01  9.954588E-01 -8.367469E+00  1.815368E-03 8.167790E+01  2.223468E-03 8.350525E+01 
 1.839106E-03 8.200309E+01  9.959460E-01 -5.243488E+00  2.529550E-03 8.707835E+01 
 2.219413E-03 8.416331E+01  2.512277E-03 8.673244E+01  9.972936E-01 -5.231694E+00 
6.859375E+01  9.960713E-01 -8.973162E+00  1.866563E-03 8.076778E+01  2.396994E-03 8.052405E+01 
 1.870096E-03 8.141949E+01  9.962137E-01 -5.572904E+00  2.865926E-03 8.481429E+01 
 2.391212E-03 8.052061E+01  2.868362E-03 8.492713E+01  9.977032E-01 -5.564169E+00 
7.231250E+01  9.957362E-01 -9.456025E+00  2.140337E-03 8.203767E+01  2.413775E-03 7.617431E+01 
 2.141983E-03 8.304513E+01  9.950565E-01 -5.862775E+00  3.088782E-03 7.696139E+01 
 2.384989E-03 7.609735E+01  3.119916E-03 7.756224E+01  9.977536E-01 -5.779539E+00 
7.603125E+01  9.957746E-01 -9.938306E+00  2.070073E-03 7.949367E+01  2.466601E-03 7.859853E+01 
 2.036350E-03 7.935875E+01  9.958291E-01 -6.184009E+00  3.132410E-03 8.316007E+01 
 2.480097E-03 7.867639E+01  3.160879E-03 8.309951E+01  9.979619E-01 -6.109593E+00 
7.975000E+01  9.958250E-01 -1.043975E+01  2.189111E-03 7.894430E+01  2.733482E-03 8.151878E+01 
 2.191860E-03 7.891921E+01  9.959798E-01 -6.443613E+00  3.265993E-03 8.088675E+01 
 2.721913E-03 8.146822E+01  3.247755E-03 8.069839E+01  9.972625E-01 -6.387582E+00 
8.346875E+01  9.949482E-01 -1.081523E+01  2.196967E-03 7.596187E+01  2.774688E-03 7.809156E+01 
 2.212307E-03 7.554286E+01  9.963030E-01 -6.648940E+00  3.419144E-03 8.451904E+01 
 2.780782E-03 7.829679E+01  3.429873E-03 8.448626E+01  9.972355E-01 -6.688499E+00 
8.718750E+01  9.952135E-01 -1.135963E+01  2.201948E-03 7.909815E+01  2.894560E-03 7.831789E+01 
 2.254864E-03 7.941846E+01  9.963333E-01 -7.098314E+00  3.624228E-03 8.606034E+01 
 2.875416E-03 7.879279E+01  3.617480E-03 8.647757E+01  9.988063E-01 -6.946499E+00 
9.090625E+01  9.946211E-01 -1.177279E+01  2.281209E-03 7.888147E+01  3.007850E-03 8.235393E+01 
 2.302837E-03 7.907791E+01  9.945473E-01 -7.336411E+00  3.828595E-03 8.536550E+01 
 3.033137E-03 8.255325E+01  3.837244E-03 8.532495E+01  9.977199E-01 -7.177417E+00 
9.462500E+01  9.954316E-01 -1.224777E+01  2.388336E-03 7.825060E+01  3.121924E-03 7.832633E+01 
 2.407719E-03 7.856770E+01  9.955842E-01 -7.583694E+00  4.054755E-03 8.299171E+01 
 3.149250E-03 7.878277E+01  4.028650E-03 8.331863E+01  9.975883E-01 -7.458537E+00 
9.834375E+01  9.958025E-01 -1.272879E+01  2.619415E-03 7.738679E+01  3.287903E-03 7.012363E+01 
 2.594655E-03 7.788673E+01  9.960008E-01 -7.966142E+00  4.173374E-03 8.025706E+01 
 3.312220E-03 7.083896E+01  4.126459E-03 7.995165E+01  9.981939E-01 -7.917429E+00 
1.020625E+02  9.951358E-01 -1.319800E+01  2.605828E-03 7.874262E+01  3.335264E-03 7.867775E+01 
 2.589426E-03 7.858837E+01  9.959225E-01 -8.153871E+00  4.111019E-03 8.140486E+01 
 3.339668E-03 7.837464E+01  4.146624E-03 8.140339E+01  9.974972E-01 -7.997971E+00 
1.057812E+02  9.939141E-01 -1.371781E+01  2.784601E-03 7.821936E+01  3.544163E-03 7.722599E+01 
 2.770691E-03 7.768699E+01  9.958345E-01 -8.459094E+00  4.281312E-03 8.117522E+01 
 3.561284E-03 7.753211E+01  4.293859E-03 8.133611E+01  9.978488E-01 -8.311372E+00 
1.095000E+02  9.943278E-01 -1.410351E+01  2.833797E-03 7.679722E+01  3.661777E-03 7.870045E+01 
 2.799450E-03 7.642126E+01  9.954387E-01 -8.706524E+00  4.347863E-03 8.207701E+01 
 3.668296E-03 7.855738E+01  4.370108E-03 8.216019E+01  9.972873E-01 -8.608991E+00 
1.132188E+02  9.953488E-01 -1.468709E+01  2.924528E-03 7.815208E+01  3.796528E-03 7.650149E+01 
 2.944415E-03 7.718758E+01  9.956000E-01 -9.142057E+00  4.580154E-03 8.137831E+01 
 3.755296E-03 7.639756E+01  4.621428E-03 8.065770E+01  9.974136E-01 -9.063406E+00 
1.169375E+02  9.943889E-01 -1.504851E+01  3.086680E-03 7.639203E+01  4.029682E-03 7.853564E+01 
 3.043846E-03 7.685360E+01  9.953264E-01 -9.351674E+00  4.493014E-03 8.092959E+01 
 4.043580E-03 7.807111E+01  4.482218E-03 8.053208E+01  9.964437E-01 -9.270789E+00 
1.206562E+02  9.940932E-01 -1.552987E+01  3.126040E-03 7.611906E+01  4.075724E-03 7.594025E+01 
 3.123729E-03 7.654629E+01  9.964857E-01 -9.592215E+00  4.968917E-03 7.924195E+01 
 4.043221E-03 7.563800E+01  5.009925E-03 7.917587E+01  9.973474E-01 -9.550468E+00 
1.243750E+02  9.943583E-01 -1.599177E+01  3.282339E-03 7.556873E+01  4.170590E-03 7.608178E+01 
 3.285737E-03 7.584870E+01  9.950368E-01 -9.861001E+00  4.986323E-03 7.984261E+01 
 4.155909E-03 7.634785E+01  4.993206E-03 7.993653E+01  9.975486E-01 -9.886699E+00 
1.280938E+02  9.944707E-01 -1.646724E+01  3.342202E-03 7.335456E+01  4.244743E-03 7.487119E+01 
 3.310772E-03 7.377421E+01  9.956878E-01 -1.014662E+01  5.070286E-03 8.233025E+01 
 4.219231E-03 7.537207E+01  5.093337E-03 8.254246E+01  9.969597E-01 -1.007654E+01 
1.318125E+02  9.933138E-01 -1.689488E+01  3.232796E-03 7.211068E+01  4.229148E-03 7.313006E+01 
 3.236634E-03 7.131997E+01  9.944746E-01 -1.048114E+01  5.338464E-03 8.340038E+01 
 4.227904E-03 7.326148E+01  5.332181E-03 8.348872E+01  9.969508E-01 -1.031492E+01 
1.355312E+02  9.945794E-01 -1.721995E+01  3.451516E-03 7.248721E+01  4.465963E-03 7.212157E+01 
 3.475837E-03 7.186788E+01  9.951616E-01 -1.057835E+01  5.452536E-03 8.381439E+01 
 4.454184E-03 7.182558E+01  5.453538E-03 8.383181E+01  9.970144E-01 -1.059860E+01 
1.392500E+02  9.942695E-01 -1.778449E+01  3.527253E-03 7.576883E+01  4.491799E-03 7.454507E+01 
 3.529107E-03 7.552164E+01  9.947327E-01 -1.099008E+01  5.615436E-03 7.910437E+01 
 4.491969E-03 7.498569E+01  5.638807E-03 7.900006E+01  9.977982E-01 -1.096763E+01 
1.429688E+02  9.932206E-01 -1.820411E+01  3.732198E-03 7.460123E+01  4.414299E-03 7.543961E+01 
 3.762003E-03 7.442822E+01  9.949679E-01 -1.122829E+01  5.624200E-03 7.328552E+01 
 4.380425E-03 7.517038E+01  5.668205E-03 7.334103E+01  9.957468E-01 -1.120179E+01 
1.466875E+02  9.940094E-01 -1.856035E+01  3.748194E-03 7.449813E+01  4.779739E-03 7.397414E+01 
 3.715695E-03 7.484384E+01  9.950388E-01 -1.146741E+01  5.576469E-03 7.632879E+01 
 4.742661E-03 7.416967E+01  5.621687E-03 7.613086E+01  9.956845E-01 -1.133179E+01 
1.504062E+02  9.942211E-01 -1.911093E+01  3.872211E-03 7.317711E+01  4.973221E-03 7.460537E+01 
 3.832741E-03 7.338826E+01  9.957309E-01 -1.186096E+01  5.778799E-03 7.741744E+01 
 4.964158E-03 7.484744E+01  5.788612E-03 7.783910E+01  9.954796E-01 -1.177872E+01 
1.541250E+02  9.937548E-01 -1.953529E+01  3.787500E-03 7.336345E+01  4.841477E-03 7.301340E+01 
 3.797736E-03 7.364485E+01  9.961978E-01 -1.214708E+01  6.170846E-03 7.882556E+01 
 4.819461E-03 7.325227E+01  6.236975E-03 7.879997E+01  9.960046E-01 -1.203590E+01 
1.578438E+02  9.938200E-01 -1.993543E+01  3.906448E-03 7.327802E+01  5.007857E-03 7.338042E+01 
 3.911418E-03 7.351591E+01  9.951558E-01 -1.238345E+01  6.283794E-03 7.852818E+01 
 5.022965E-03 7.335780E+01  6.310342E-03 7.865706E+01  9.969256E-01 -1.231074E+01 
1.615625E+02  9.941147E-01 -2.023416E+01  4.163223E-03 7.106475E+01  5.336625E-03 7.153728E+01 
 4.164478E-03 7.108828E+01  9.962273E-01 -1.251815E+01  6.225163E-03 7.957929E+01 
 5.332804E-03 7.190911E+01  6.233480E-03 7.963756E+01  9.967136E-01 -1.260208E+01 
1.652812E+02  9.930685E-01 -2.083729E+01  4.155600E-03 7.296545E+01  5.338506E-03 7.321571E+01 
 4.184330E-03 7.315223E+01  9.959237E-01 -1.297327E+01  6.445561E-03 7.815045E+01 
 5.333776E-03 7.345893E+01  6.432564E-03 7.787690E+01  9.955244E-01 -1.295989E+01 
1.690000E+02  9.927869E-01 -2.136801E+01  4.307155E-03 7.283149E+01  5.525978E-03 7.214338E+01 
 4.277938E-03 7.293402E+01  9.950482E-01 -1.325715E+01  6.569067E-03 7.694846E+01 
 5.520529E-03 7.207110E+01  6.571948E-03 7.669299E+01  9.955957E-01 -1.317561E+01 
1.727188E+02  9.932376E-01 -2.171014E+01  4.346762E-03 7.190739E+01  5.472159E-03 7.142838E+01 
 4.339411E-03 7.213510E+01  9.946230E-01 -1.350727E+01  6.741110E-03 7.732808E+01 
 5.486544E-03 7.165860E+01  6.776688E-03 7.715557E+01  9.960293E-01 -1.349411E+01 
1.764375E+02  9.936136E-01 -2.206742E+01  4.488670E-03 6.980497E+01  5.725203E-03 7.117661E+01 
 4.477844E-03 6.992571E+01  9.950861E-01 -1.384171E+01  6.859611E-03 7.811455E+01 
 5.720522E-03 7.126464E+01  6.851403E-03 7.821615E+01  9.944721E-01 -1.381055E+01 
1.801562E+02  9.934741E-01 -2.243392E+01  4.437291E-03 6.975011E+01  5.645347E-03 7.043208E+01 
 4.401963E-03 6.958837E+01  9.951927E-01 -1.410404E+01  7.179016E-03 7.774965E+01 
 5.621991E-03 7.051781E+01  7.189796E-03 7.801615E+01  9.948265E-01 -1.406917E+01 
1.838750E+02  9.926644E-01 -2.292531E+01  4.515216E-03 7.163473E+01  5.719956E-03 7.159740E+01 
 4.485259E-03 7.199461E+01  9.944065E-01 -1.439279E+01  7.154537E-03 7.555533E+01 
 5.726524E-03 7.147526E+01  7.151023E-03 7.553641E+01  9.950438E-01 -1.432542E+01 
1.875938E+02  9.934504E-01 -2.339846E+01  4.781849E-03 7.028250E+01  6.071473E-03 7.157361E+01 
 4.781997E-03 7.030652E+01  9.934448E-01 -1.470762E+01  6.889524E-03 7.397227E+01 
 6.058035E-03 7.171911E+01  6.888342E-03 7.412619E+01  9.947671E-01 -1.459279E+01 
1.913125E+02  9.946187E-01 -2.379158E+01  4.731856E-03 7.000473E+01  6.088904E-03 7.042323E+01 
 4.705277E-03 6.986760E+01  9.943840E-01 -1.497191E+01  7.102943E-03 7.438595E+01 
 6.124599E-03 7.026211E+01  7.118838E-03 7.467106E+01  9.956338E-01 -1.486433E+01 
1.950312E+02  9.923736E-01 -2.423779E+01  4.845802E-03 6.933156E+01  6.238864E-03 6.994773E+01 
 4.851476E-03 6.945543E+01  9.937638E-01 -1.536240E+01  7.327351E-03 7.549432E+01 
 6.231633E-03 7.006814E+01  7.349579E-03 7.549562E+01  9.940579E-01 -1.526360E+01 
1.987500E+02  9.925103E-01 -2.469385E+01  4.769897E-03 6.858508E+01  6.154284E-03 6.828573E+01 
 4.754865E-03 6.827746E+01  9.945013E-01 -1.563067E+01  7.738674E-03 7.639581E+01 
 6.151644E-03 6.864663E+01  7.753028E-03 7.641586E+01  9.950282E-01 -1.549232E+01 
2.024688E+02  9.916313E-01 -2.519926E+01  4.853621E-03 6.859057E+01  6.161727E-03 6.771219E+01 
 4.829665E-03 6.824567E+01  9.940510E-01 -1.593738E+01  7.994187E-03 7.578703E+01 
 6.176228E-03 6.799457E+01  8.019402E-03 7.574742E+01  9.955992E-01 -1.581111E+01 
2.061875E+02  9.905503E-01 -2.558263E+01  4.793504E-03 6.672728E+01  6.299059E-03 6.734684E+01 
 4.771922E-03 6.686202E+01  9.933529E-01 -1.613653E+01  8.175635E-03 7.532184E+01 
 6.286594E-03 6.720639E+01  8.180226E-03 7.523053E+01  9.949850E-01 -1.607477E+01 
2.099062E+02  9.928887E-01 -2.599601E+01  5.100391E-03 6.867346E+01  6.466532E-03 7.001462E+01 
 5.065908E-03 6.844317E+01  9.947674E-01 -1.652530E+01  8.007576E-03 7.376552E+01 
 6.455546E-03 7.027383E+01  8.034568E-03 7.351321E+01  9.961504E-01 -1.643013E+01 
2.136250E+02  9.904430E-01 -2.648158E+01  5.284090E-03 6.765326E+01  6.725165E-03 6.757961E+01 
 5.254844E-03 6.782652E+01  9.932679E-01 -1.686498E+01  8.074101E-03 7.357918E+01 
 6.782058E-03 6.786389E+01  8.076553E-03 7.404179E+01  9.946178E-01 -1.668242E+01 
2.173438E+02  9.909487E-01 -2.693179E+01  5.200866E-03 6.768882E+01  6.652170E-03 6.803893E+01 
 5.182606E-03 6.774424E+01  9.932335E-01 -1.709345E+01  8.131142E-03 7.393176E+01 
 6.634805E-03 6.781037E+01  8.167715E-03 7.400039E+01  9.952671E-01 -1.700132E+01 
2.210625E+02  9.911523E-01 -2.742685E+01  5.355688E-03 6.776019E+01  6.851825E-03 6.761731E+01 
 5.360313E-03 6.786230E+01  9.948032E-01 -1.735923E+01  8.346772E-03 7.343896E+01 
 6.860931E-03 6.793425E+01  8.348190E-03 7.354997E+01  9.955331E-01 -1.729201E+01 
2.247812E+02  9.898939E-01 -2.779260E+01  5.384579E-03 6.699397E+01  6.886208E-03 6.653975E+01 
 5.373506E-03 6.755651E+01  9.943656E-01 -1.768461E+01  8.531378E-03 7.282302E+01 
 6.888403E-03 6.641641E+01  8.516216E-03 7.303746E+01  9.958046E-01 -1.760980E+01 
2.285000E+02  9.909179E-01 -2.828126E+01  5.454457E-03 6.751935E+01  7.017142E-03 6.745332E+01 
 5.467515E-03 6.747864E+01  9.930941E-01 -1.801093E+01  8.606305E-03 7.238644E+01 
 6.972900E-03 6.737943E+01  8.613872E-03 7.248336E+01  9.956645E-01 -1.787602E+01 
2.322188E+02  9.883009E-01 -2.870778E+01  5.739618E-03 6.477698E+01  7.360616E-03 6.677487E+01 
 5.740185E-03 6.491947E+01  9.916837E-01 -1.829045E+01  8.340734E-03 7.209879E+01 
 7.370875E-03 6.688191E+01  8.364666E-03 7.205160E+01  9.940392E-01 -1.822412E+01 
2.359375E+02  9.893279E-01 -2.922147E+01  5.592453E-03 6.510285E+01  7.228768E-03 6.687344E+01 
 5.593609E-03 6.547743E+01  9.922151E-01 -1.851747E+01  8.463219E-03 7.134039E+01 
 7.256744E-03 6.705223E+01  8.457880E-03 7.123183E+01  9.939725E-01 -1.848588E+01 
2.396562E+02  9.903776E-01 -2.970750E+01  5.659277E-03 6.429684E+01  7.392270E-03 6.504851E+01 
 5.696078E-03 6.441909E+01  9.921744E-01 -1.887094E+01  8.747037E-03 7.381530E+01 
 7.380123E-03 6.543068E+01  8.756900E-03 7.388998E+01  9.946691E-01 -1.884665E+01 
2.433750E+02  9.876526E-01 -3.015058E+01  5.667697E-03 6.468568E+01  7.237968E-03 6.541565E+01 
 5.644402E-03 6.474277E+01  9.924552E-01 -1.914875E+01  9.211887E-03 7.366086E+01 
 7.263980E-03 6.501289E+01  9.219533E-03 7.356137E+01  9.936003E-01 -1.907755E+01 
2.470938E+02  9.876335E-01 -3.052522E+01  5.710424E-03 6.527591E+01  7.486258E-03 6.433313E+01 
 5.735020E-03 6.507382E+01  9.929276E-01 -1.942111E+01  9.604999E-03 7.154412E+01 
 7.515399E-03 6.425973E+01  9.570248E-03 7.149752E+01  9.940608E-01 -1.938236E+01 
2.508125E+02  9.871489E-01 -3.100403E+01  5.713668E-03 6.418071E+01  7.399715E-03 6.247442E+01 
 5.688579E-03 6.409777E+01  9.917571E-01 -1.966580E+01  9.498673E-03 7.041386E+01 
 7.416999E-03 6.247581E+01  9.518889E-03 7.026385E+01  9.930982E-01 -1.963513E+01 
2.545312E+02  9.871456E-01 -3.141745E+01  5.983790E-03 6.466247E+01  7.612502E-03 6.471397E+01 
 5.962796E-03 6.451325E+01  9.911094E-01 -1.994843E+01  9.184988E-03 6.951480E+01 
 7.641631E-03 6.466416E+01  9.199985E-03 6.947283E+01  9.942348E-01 -1.996227E+01 
2.582500E+02  9.853595E-01 -3.193428E+01  6.295062E-03 6.303181E+01  7.886601E-03 6.260650E+01 
 6.298003E-03 6.262887E+01  9.910564E-01 -2.028061E+01  8.957528E-03 7.045885E+01 
 7.885377E-03 6.278202E+01  8.992768E-03 7.041327E+01  9.930687E-01 -2.008789E+01 
2.619688E+02  9.860855E-01 -3.227685E+01  6.008435E-03 6.231236E+01  7.772976E-03 6.313965E+01 
 5.969396E-03 6.229653E+01  9.925165E-01 -2.045443E+01  9.243163E-03 7.203215E+01 
 7.772641E-03 6.289949E+01  9.249597E-03 7.205808E+01  9.932421E-01 -2.048849E+01 
2.656875E+02  9.863833E-01 -3.275326E+01  6.062344E-03 6.348836E+01  7.739556E-03 6.324329E+01 
 6.053128E-03 6.339450E+01  9.916659E-01 -2.075385E+01  9.474754E-03 7.092477E+01 
 7.724575E-03 6.337466E+01  9.500077E-03 7.107826E+01  9.929349E-01 -2.082726E+01 
2.694062E+02  9.864779E-01 -3.316750E+01  6.036776E-03 6.322804E+01  7.840069E-03 6.290974E+01 
 6.029890E-03 6.323226E+01  9.911524E-01 -2.101582E+01  9.684207E-03 7.025266E+01 
 7.856414E-03 6.302014E+01  9.655341E-03 7.021957E+01  9.919188E-01 -2.113302E+01 
2.731250E+02  9.864400E-01 -3.362406E+01  6.201626E-03 6.351627E+01  8.019924E-03 6.327320E+01 
 6.223229E-03 6.367840E+01  9.909955E-01 -2.128108E+01  9.711634E-03 6.978658E+01 
 8.012034E-03 6.347592E+01  9.707234E-03 6.973056E+01  9.923028E-01 -2.137805E+01 
2.768438E+02  9.841552E-01 -3.406674E+01  6.283345E-03 6.065720E+01  8.167827E-03 6.115823E+01 
 6.274580E-03 6.050951E+01  9.897084E-01 -2.148517E+01  9.739852E-03 7.120302E+01 
 8.148890E-03 6.123597E+01  9.772013E-03 7.129701E+01  9.920033E-01 -2.173093E+01 
2.805625E+02  9.852864E-01 -3.450445E+01  6.346055E-03 6.258680E+01  8.187296E-03 6.227325E+01 
 6.356268E-03 6.252297E+01  9.895528E-01 -2.183079E+01  9.854644E-03 6.955470E+01 
 8.203643E-03 6.227439E+01  9.917047E-03 6.961521E+01  9.922757E-01 -2.200376E+01 
2.842812E+02  9.850323E-01 -3.495409E+01  6.461059E-03 6.143601E+01  8.366221E-03 6.176307E+01 
 6.478580E-03 6.157756E+01  9.891417E-01 -2.214999E+01  9.923124E-03 6.948080E+01 
 8.365092E-03 6.168544E+01  9.963538E-03 6.952757E+01  9.907524E-01 -2.237150E+01 
2.880000E+02  9.845102E-01 -3.532230E+01  6.370788E-03 6.154088E+01  8.191917E-03 6.159313E+01 
 6.375505E-03 6.160672E+01  9.894882E-01 -2.243144E+01  1.020057E-02 6.994030E+01 
 8.154522E-03 6.170369E+01  1.023070E-02 6.996339E+01  9.904524E-01 -2.260275E+01 
2.917188E+02  9.841986E-01 -3.583966E+01  6.552965E-03 6.180414E+01  8.403036E-03 6.167266E+01 
 6.562419E-03 6.185302E+01  9.897598E-01 -2.259816E+01  1.052252E-02 6.917510E+01 
 8.418704E-03 6.177088E+01  1.051874E-02 6.914068E+01  9.911643E-01 -2.291220E+01 
2.954375E+02  9.841647E-01 -3.630452E+01  6.570039E-03 6.088866E+01  8.458800E-03 6.027196E+01 
 6.563763E-03 6.079655E+01  9.889803E-01 -2.292797E+01  1.056225E-02 6.702565E+01 
 8.470446E-03 6.026005E+01  1.057636E-02 6.708888E+01  9.900398E-01 -2.315202E+01 
2.991562E+02  9.849740E-01 -3.670742E+01  6.752298E-03 6.117235E+01  8.616620E-03 6.078770E+01 
 6.783829E-03 6.123664E+01  9.884786E-01 -2.325359E+01  9.998271E-03 6.682649E+01 
 8.620420E-03 6.090424E+01  1.002617E-02 6.670652E+01  9.909037E-01 -2.346136E+01 
3.028750E+02  9.834249E-01 -3.720266E+01  7.043191E-03 5.892419E+01  8.767466E-03 5.908071E+01 
 7.034766E-03 5.887286E+01  9.875417E-01 -2.350014E+01  9.660978E-03 6.804937E+01 
 8.755706E-03 5.925979E+01  9.691133E-03 6.781385E+01  9.896367E-01 -2.376058E+01 
3.065938E+02  9.835496E-01 -3.755641E+01  6.842655E-03 5.796904E+01  8.875341E-03 5.855424E+01 
 6.839686E-03 5.838282E+01  9.887697E-01 -2.369439E+01  1.008729E-02 6.955568E+01 
 8.877054E-03 5.890499E+01  1.011218E-02 6.938251E+01  9.900793E-01 -2.411691E+01 
3.103125E+02  9.832714E-01 -3.805569E+01  6.752133E-03 5.920984E+01  8.721150E-03 5.884210E+01 
 6.750299E-03 5.918351E+01  9.887770E-01 -2.407598E+01  1.054564E-02 6.880173E+01 
 8.693063E-03 5.869487E+01  1.055314E-02 6.874539E+01  9.899617E-01 -2.438491E+01 
3.140312E+02  9.833361E-01 -3.842599E+01  6.681576E-03 5.910244E+01  8.549930E-03 5.911668E+01 
 6.638781E-03 5.918666E+01  9.885802E-01 -2.429358E+01  1.079037E-02 6.655836E+01 
 8.483620E-03 5.917502E+01  1.083108E-02 6.636793E+01  9.903646E-01 -2.460616E+01 
3.177500E+02  9.834453E-01 -3.892647E+01  6.788354E-03 5.900580E+01  8.852676E-03 5.993779E+01 
 6.803914E-03 5.892338E+01  9.884438E-01 -2.463411E+01  1.077799E-02 6.546176E+01 
 8.818893E-03 6.014364E+01  1.080162E-02 6.546264E+01  9.907797E-01 -2.488168E+01 
3.214688E+02  9.822439E-01 -3.938622E+01  6.762289E-03 5.742657E+01  8.950512E-03 5.856164E+01 
 6.771030E-03 5.735532E+01  9.878937E-01 -2.490576E+01  1.071392E-02 6.669980E+01 
 8.941136E-03 5.829298E+01  1.074621E-02 6.635662E+01  9.904350E-01 -2.529301E+01 
3.251875E+02  9.826681E-01 -3.988489E+01  6.928610E-03 5.886094E+01  8.946163E-03 5.823588E+01 
