! Matrix data file written by TouchstoneData, EPCOS AG
! FILENAME: "LQ98_LB_NB.s3p_newformat"
! COMMENT: "(LQ98_LB_NB.s3p)"
! INFO: nport=3, nfreq=1601
! DATE: "Thu Apr  2 15:29:19 2009"
! USER: "Michael Schemies"
!!
! port | pin | signal
! -----|-----|--------
!   1  |  9  |  input
!   2  |  1  |  output
!   3  |  2  |  output
! --------------------

# MHZ S MA R 50
! freq  magS11 angS11  magS12 angS12  magS13 angS13  ...
1.700000E+03  8.816611E-01 -1.300396E+02  2.467693E-02 1.375991E+02  2.698960E-02 1.463720E+02 
 2.461858E-02 1.370957E+02  8.666288E-01 -8.487649E+01  2.312686E-02 1.046173E+02 
 2.701122E-02 1.460347E+02  2.319908E-02 1.047347E+02  9.069078E-01 -8.805447E+01 
1.700188E+03  8.820736E-01 -1.300615E+02  2.446948E-02 1.377519E+02  2.716248E-02 1.462189E+02 
 2.441747E-02 1.372608E+02  8.666117E-01 -8.492922E+01  2.321337E-02 1.050180E+02 
 2.718101E-02 1.458975E+02  2.328717E-02 1.051733E+02  9.068509E-01 -8.810842E+01 
1.700375E+03  8.821747E-01 -1.300957E+02  2.429087E-02 1.380245E+02  2.735743E-02 1.461680E+02 
 2.423248E-02 1.375307E+02  8.666182E-01 -8.497879E+01  2.330393E-02 1.054410E+02 
 2.738016E-02 1.458420E+02  2.337932E-02 1.055920E+02  9.067976E-01 -8.815794E+01 
1.700562E+03  8.822843E-01 -1.301264E+02  2.413535E-02 1.383571E+02  2.758891E-02 1.460535E+02 
 2.408039E-02 1.378629E+02  8.665515E-01 -8.502612E+01  2.339426E-02 1.058729E+02 
 2.761285E-02 1.457248E+02  2.347042E-02 1.060244E+02  9.067956E-01 -8.820706E+01 
1.700750E+03  8.823439E-01 -1.301663E+02  2.403092E-02 1.386600E+02  2.779817E-02 1.459285E+02 
 2.397530E-02 1.381543E+02  8.665362E-01 -8.507794E+01  2.348173E-02 1.063062E+02 
 2.782452E-02 1.455995E+02  2.356563E-02 1.064551E+02  9.067208E-01 -8.825810E+01 
1.700938E+03  8.821290E-01 -1.302008E+02  2.393979E-02 1.389010E+02  2.803225E-02 1.458080E+02 
 2.388096E-02 1.384045E+02  8.665067E-01 -8.512635E+01  2.358013E-02 1.067365E+02 
 2.806102E-02 1.454802E+02  2.366492E-02 1.068867E+02  9.066025E-01 -8.830860E+01 
1.701125E+03  8.819981E-01 -1.302252E+02  2.384179E-02 1.391357E+02  2.827851E-02 1.456464E+02 
 2.378596E-02 1.386410E+02  8.664701E-01 -8.517537E+01  2.367967E-02 1.071737E+02 
 2.831040E-02 1.453256E+02  2.376719E-02 1.073205E+02  9.064975E-01 -8.835891E+01 
1.701312E+03  8.820070E-01 -1.302535E+02  2.373967E-02 1.393141E+02  2.854303E-02 1.454380E+02 
 2.368664E-02 1.388100E+02  8.664380E-01 -8.522756E+01  2.379412E-02 1.076144E+02 
 2.857483E-02 1.451071E+02  2.387720E-02 1.077691E+02  9.064160E-01 -8.841026E+01 
1.701500E+03  8.819029E-01 -1.302879E+02  2.361727E-02 1.395558E+02  2.877565E-02 1.451593E+02 
 2.356434E-02 1.390678E+02  8.664081E-01 -8.527863E+01  2.391228E-02 1.080495E+02 
 2.880583E-02 1.448326E+02  2.399819E-02 1.082065E+02  9.063401E-01 -8.846245E+01 
1.701688E+03  8.817681E-01 -1.303232E+02  2.353048E-02 1.397976E+02  2.899413E-02 1.449278E+02 
 2.347832E-02 1.392921E+02  8.663380E-01 -8.532866E+01  2.404625E-02 1.084858E+02 
 2.902354E-02 1.445968E+02  2.412867E-02 1.086347E+02  9.061991E-01 -8.851453E+01 
1.701875E+03  8.819004E-01 -1.303617E+02  2.342533E-02 1.399996E+02  2.922796E-02 1.446811E+02 
 2.337065E-02 1.395042E+02  8.662223E-01 -8.538131E+01  2.419414E-02 1.089018E+02 
 2.925422E-02 1.443425E+02  2.428037E-02 1.090453E+02  9.061127E-01 -8.856708E+01 
1.702062E+03  8.818256E-01 -1.304183E+02  2.330838E-02 1.402602E+02  2.944898E-02 1.444381E+02 
 2.325803E-02 1.397544E+02  8.661687E-01 -8.543266E+01  2.433864E-02 1.092663E+02 
 2.948086E-02 1.441077E+02  2.442426E-02 1.094130E+02  9.059710E-01 -8.861758E+01 
1.702250E+03  8.814542E-01 -1.304651E+02  2.321397E-02 1.405490E+02  2.968958E-02 1.441799E+02 
 2.316081E-02 1.400463E+02  8.660857E-01 -8.548580E+01  2.448569E-02 1.096248E+02 
 2.972031E-02 1.438472E+02  2.456944E-02 1.097670E+02  9.058758E-01 -8.867068E+01 
1.702438E+03  8.811441E-01 -1.305138E+02  2.313152E-02 1.408303E+02  2.992321E-02 1.439166E+02 
 2.307891E-02 1.403240E+02  8.659838E-01 -8.553641E+01  2.462806E-02 1.099599E+02 
 2.995177E-02 1.435814E+02  2.471000E-02 1.101134E+02  9.057382E-01 -8.872598E+01 
1.702625E+03  8.807390E-01 -1.305564E+02  2.304855E-02 1.411002E+02  3.018233E-02 1.436631E+02 
 2.299359E-02 1.405837E+02  8.658953E-01 -8.558964E+01  2.477472E-02 1.103282E+02 
 3.020758E-02 1.433188E+02  2.485607E-02 1.104697E+02  9.055551E-01 -8.877834E+01 
1.702812E+03  8.803501E-01 -1.306036E+02  2.297881E-02 1.413750E+02  3.046895E-02 1.433421E+02 
 2.292822E-02 1.408580E+02  8.657443E-01 -8.564248E+01  2.493123E-02 1.106471E+02 
 3.048989E-02 1.430038E+02  2.501459E-02 1.108000E+02  9.054209E-01 -8.883284E+01 
1.703000E+03  8.798028E-01 -1.306424E+02  2.291362E-02 1.415446E+02  3.072879E-02 1.429205E+02 
 2.285793E-02 1.410287E+02  8.656246E-01 -8.569513E+01  2.508161E-02 1.109657E+02 
 3.074927E-02 1.425833E+02  2.516258E-02 1.111270E+02  9.052692E-01 -8.888900E+01 
1.703188E+03  8.793751E-01 -1.306794E+02  2.280421E-02 1.416746E+02  3.095315E-02 1.425217E+02 
 2.275287E-02 1.411601E+02  8.655002E-01 -8.574830E+01  2.524472E-02 1.112727E+02 
 3.097309E-02 1.421751E+02  2.532450E-02 1.114310E+02  9.050448E-01 -8.894165E+01 
1.703375E+03  8.789434E-01 -1.307178E+02  2.266531E-02 1.419053E+02  3.117778E-02 1.421102E+02 
 2.261191E-02 1.413888E+02  8.654077E-01 -8.580265E+01  2.539544E-02 1.115782E+02 
 3.119236E-02 1.417760E+02  2.547445E-02 1.117369E+02  9.048145E-01 -8.899722E+01 
1.703562E+03  8.785263E-01 -1.307557E+02  2.253488E-02 1.421581E+02  3.137580E-02 1.417515E+02 
 2.248123E-02 1.416350E+02  8.652571E-01 -8.585605E+01  2.556528E-02 1.118978E+02 
 3.138614E-02 1.414123E+02  2.564183E-02 1.120480E+02  9.046627E-01 -8.905189E+01 
1.703750E+03  8.781060E-01 -1.308102E+02  2.237623E-02 1.424508E+02  3.161599E-02 1.414080E+02 
 2.231843E-02 1.419198E+02  8.650569E-01 -8.591050E+01  2.575133E-02 1.121884E+02 
 3.162200E-02 1.410700E+02  2.582271E-02 1.123490E+02  9.044517E-01 -8.910896E+01 
1.703938E+03  8.773692E-01 -1.308643E+02  2.222551E-02 1.428492E+02  3.188235E-02 1.410213E+02 
 2.217258E-02 1.423187E+02  8.648552E-01 -8.596628E+01  2.594024E-02 1.124379E+02 
 3.188596E-02 1.406928E+02  2.600611E-02 1.126006E+02  9.042133E-01 -8.916548E+01 
1.704125E+03  8.764601E-01 -1.309102E+02  2.209410E-02 1.432866E+02  3.215736E-02 1.405477E+02 
 2.204196E-02 1.427343E+02  8.646339E-01 -8.601954E+01  2.612929E-02 1.126532E+02 
 3.215348E-02 1.402135E+02  2.619467E-02 1.128235E+02  9.039952E-01 -8.922308E+01 
1.704312E+03  8.756204E-01 -1.309511E+02  2.197240E-02 1.436811E+02  3.240558E-02 1.400449E+02 
 2.191644E-02 1.431406E+02  8.644677E-01 -8.607290E+01  2.631700E-02 1.128517E+02 
 3.239437E-02 1.397028E+02  2.637927E-02 1.130260E+02  9.036870E-01 -8.927823E+01 
1.704500E+03  8.743799E-01 -1.309854E+02  2.182233E-02 1.441286E+02  3.262876E-02 1.394883E+02 
 2.177307E-02 1.435860E+02  8.642505E-01 -8.612595E+01  2.651133E-02 1.130213E+02 
 3.261296E-02 1.391559E+02  2.656710E-02 1.132019E+02  9.033712E-01 -8.933597E+01 
1.704688E+03  8.731636E-01 -1.309936E+02  2.167366E-02 1.446552E+02  3.282186E-02 1.389535E+02 
 2.162353E-02 1.441102E+02  8.640102E-01 -8.617999E+01  2.669823E-02 1.131641E+02 
 3.280002E-02 1.386150E+02  2.675166E-02 1.133400E+02  9.031009E-01 -8.939274E+01 
1.704875E+03  8.721936E-01 -1.309970E+02  2.152971E-02 1.452425E+02  3.302295E-02 1.384443E+02 
 2.147803E-02 1.446837E+02  8.637902E-01 -8.623327E+01  2.687910E-02 1.132648E+02 
 3.300358E-02 1.381113E+02  2.693202E-02 1.134502E+02  9.028333E-01 -8.944507E+01 
1.705062E+03  8.710142E-01 -1.310104E+02  2.138987E-02 1.459412E+02  3.322405E-02 1.379031E+02 
 2.134168E-02 1.453854E+02  8.635059E-01 -8.628347E+01  2.705549E-02 1.133562E+02 
 3.320392E-02 1.375614E+02  2.710677E-02 1.135293E+02  9.025576E-01 -8.949759E+01 
1.705250E+03  8.697602E-01 -1.310022E+02  2.130434E-02 1.466810E+02  3.340877E-02 1.373383E+02 
 2.125146E-02 1.461146E+02  8.632651E-01 -8.633526E+01  2.721422E-02 1.134289E+02 
 3.339143E-02 1.369927E+02  2.726601E-02 1.135999E+02  9.022249E-01 -8.954919E+01 
1.705438E+03  8.688013E-01 -1.309999E+02  2.121292E-02 1.473335E+02  3.360867E-02 1.367895E+02 
 2.116129E-02 1.467676E+02  8.629968E-01 -8.638780E+01  2.737901E-02 1.134904E+02 
 3.359390E-02 1.364400E+02  2.743432E-02 1.136675E+02  9.019496E-01 -8.960148E+01 
1.705625E+03  8.674025E-01 -1.309986E+02  2.108618E-02 1.481899E+02  3.381080E-02 1.361229E+02 
 2.103372E-02 1.476231E+02  8.626920E-01 -8.643948E+01  2.752405E-02 1.135109E+02 
 3.379985E-02 1.357682E+02  2.758308E-02 1.136866E+02  9.015322E-01 -8.965226E+01 
1.705812E+03  8.660297E-01 -1.309570E+02  2.104677E-02 1.491940E+02  3.394490E-02 1.354019E+02 
 2.099591E-02 1.486283E+02  8.623508E-01 -8.648961E+01  2.765551E-02 1.135326E+02 
 3.392637E-02 1.350572E+02  2.770921E-02 1.137116E+02  9.011646E-01 -8.970245E+01 
1.706000E+03  8.650185E-01 -1.309114E+02  2.105796E-02 1.501182E+02  3.403310E-02 1.347527E+02 
 2.100349E-02 1.495483E+02  8.620550E-01 -8.653962E+01  2.778655E-02 1.135425E+02 
 3.402396E-02 1.343911E+02  2.784379E-02 1.137137E+02  9.008051E-01 -8.975054E+01 
1.706188E+03  8.639833E-01 -1.308584E+02  2.109572E-02 1.510502E+02  3.410947E-02 1.341238E+02 
 2.103828E-02 1.504851E+02  8.617001E-01 -8.658971E+01  2.790033E-02 1.135551E+02 
 3.410198E-02 1.337677E+02  2.795728E-02 1.137211E+02  9.004458E-01 -8.979925E+01 
1.706375E+03  8.631180E-01 -1.307957E+02  2.115272E-02 1.519980E+02  3.420826E-02 1.334801E+02 
 2.109990E-02 1.514220E+02  8.613252E-01 -8.663798E+01  2.800169E-02 1.135363E+02 
 3.420685E-02 1.331019E+02  2.806166E-02 1.136988E+02  9.000220E-01 -8.984883E+01 
1.706562E+03  8.625344E-01 -1.307106E+02  2.129052E-02 1.529144E+02  3.423592E-02 1.327641E+02 
 2.123540E-02 1.523377E+02  8.609717E-01 -8.668438E+01  2.808983E-02 1.135469E+02 
 3.422849E-02 1.324038E+02  2.814674E-02 1.137180E+02  8.996493E-01 -8.989473E+01 
1.706750E+03  8.622313E-01 -1.306399E+02  2.141087E-02 1.536765E+02  3.424657E-02 1.320916E+02 
 2.135571E-02 1.530907E+02  8.606325E-01 -8.673118E+01  2.818567E-02 1.135679E+02 
 3.424196E-02 1.317239E+02  2.824734E-02 1.137393E+02  8.992242E-01 -8.994159E+01 
1.706938E+03  8.621209E-01 -1.305585E+02  2.155329E-02 1.545060E+02  3.416294E-02 1.314878E+02 
 2.149877E-02 1.539214E+02  8.602590E-01 -8.677742E+01  2.829344E-02 1.135433E+02 
 3.415769E-02 1.311124E+02  2.835329E-02 1.136983E+02  8.987364E-01 -8.998391E+01 
1.707125E+03  8.624527E-01 -1.304940E+02  2.170837E-02 1.552023E+02  3.411752E-02 1.310714E+02 
 2.165478E-02 1.546316E+02  8.598729E-01 -8.682185E+01  2.838986E-02 1.134345E+02 
 3.411540E-02 1.306944E+02  2.844884E-02 1.136065E+02  8.983621E-01 -9.002767E+01 
1.707312E+03  8.626129E-01 -1.304481E+02  2.187957E-02 1.559874E+02  3.416121E-02 1.306024E+02 
 2.182340E-02 1.554207E+02  8.594513E-01 -8.686387E+01  2.844076E-02 1.132692E+02 
 3.415352E-02 1.302234E+02  2.850477E-02 1.134385E+02  8.979596E-01 -9.007029E+01 
1.707500E+03  8.627331E-01 -1.303933E+02  2.209293E-02 1.567505E+02  3.417757E-02 1.300196E+02 
 2.204213E-02 1.561779E+02  8.590866E-01 -8.690322E+01  2.843387E-02 1.131013E+02 
 3.416628E-02 1.296386E+02  2.849790E-02 1.132693E+02  8.974751E-01 -9.010929E+01 
1.707688E+03  8.629327E-01 -1.303419E+02  2.236352E-02 1.573914E+02  3.415223E-02 1.294077E+02 
 2.230537E-02 1.568122E+02  8.587826E-01 -8.694265E+01  2.839191E-02 1.129823E+02 
 3.413934E-02 1.290274E+02  2.845633E-02 1.131434E+02  8.971225E-01 -9.014442E+01 
1.707875E+03  8.633512E-01 -1.302809E+02  2.262821E-02 1.578850E+02  3.404048E-02 1.288324E+02 
 2.257268E-02 1.573099E+02  8.584188E-01 -8.697899E+01  2.832909E-02 1.129082E+02 
 3.402528E-02 1.284485E+02  2.839395E-02 1.130687E+02  8.967675E-01 -9.018186E+01 
1.708062E+03  8.639000E-01 -1.302180E+02  2.289601E-02 1.583877E+02  3.387556E-02 1.283453E+02 
 2.283549E-02 1.578229E+02  8.581714E-01 -8.701986E+01  2.824891E-02 1.128454E+02 
 3.386847E-02 1.279645E+02  2.831323E-02 1.130050E+02  8.964653E-01 -9.021754E+01 
1.708250E+03  8.648257E-01 -1.301560E+02  2.322878E-02 1.586984E+02  3.368885E-02 1.280066E+02 
 2.316631E-02 1.581262E+02  8.578953E-01 -8.705288E+01  2.815716E-02 1.127957E+02 
 3.367272E-02 1.276289E+02  2.822036E-02 1.129522E+02  8.962017E-01 -9.025243E+01 
1.708438E+03  8.660921E-01 -1.301259E+02  2.348296E-02 1.587719E+02  3.354656E-02 1.279221E+02 
 2.341575E-02 1.582167E+02  8.576803E-01 -8.709046E+01  2.802391E-02 1.127024E+02 
 3.353961E-02 1.275305E+02  2.808831E-02 1.128558E+02  8.959477E-01 -9.028985E+01 
1.708625E+03  8.671294E-01 -1.301234E+02  2.365083E-02 1.589781E+02  3.354497E-02 1.277393E+02 
 2.358741E-02 1.584160E+02  8.574900E-01 -8.712750E+01  2.782957E-02 1.126634E+02 
 3.353074E-02 1.273518E+02  2.789103E-02 1.128009E+02  8.957746E-01 -9.032980E+01 
1.708812E+03  8.681926E-01 -1.301198E+02  2.386582E-02 1.591442E+02  3.351225E-02 1.275720E+02 
 2.379479E-02 1.586004E+02  8.573296E-01 -8.716644E+01  2.758362E-02 1.126932E+02 
 3.349305E-02 1.271812E+02  2.764469E-02 1.128336E+02  8.955677E-01 -9.036966E+01 
1.709000E+03  8.690655E-01 -1.301427E+02  2.398167E-02 1.594008E+02  3.354331E-02 1.274199E+02 
 2.391261E-02 1.588432E+02  8.571802E-01 -8.720673E+01  2.728527E-02 1.128240E+02 
 3.352185E-02 1.270482E+02  2.735037E-02 1.129621E+02  8.954383E-01 -9.041442E+01 
1.709188E+03  8.696137E-01 -1.301526E+02  2.418401E-02 1.598506E+02  3.359024E-02 1.271554E+02 
 2.411350E-02 1.593021E+02  8.570545E-01 -8.724963E+01  2.696070E-02 1.131596E+02 
 3.357119E-02 1.267777E+02  2.702082E-02 1.132868E+02  8.952774E-01 -9.046022E+01 
1.709375E+03  8.705041E-01 -1.301508E+02  2.446734E-02 1.600673E+02  3.357273E-02 1.269357E+02 
 2.439554E-02 1.595193E+02  8.570366E-01 -8.729635E+01  2.665543E-02 1.136383E+02 
 3.355173E-02 1.265676E+02  2.671326E-02 1.137654E+02  8.951630E-01 -9.050811E+01 
1.709562E+03  8.713850E-01 -1.301665E+02  2.470866E-02 1.601846E+02  3.357969E-02 1.267584E+02 
 2.463535E-02 1.596469E+02  8.569667E-01 -8.734608E+01  2.636327E-02 1.142636E+02 
 3.355910E-02 1.263846E+02  2.642233E-02 1.143916E+02  8.949917E-01 -9.055943E+01 
1.709750E+03  8.723015E-01 -1.301897E+02  2.491008E-02 1.601638E+02  3.362349E-02 1.266932E+02 
 2.483773E-02 1.596368E+02  8.569276E-01 -8.739981E+01  2.610324E-02 1.149811E+02 
 3.359690E-02 1.263269E+02  2.615895E-02 1.151005E+02  8.948489E-01 -9.061499E+01 
1.709938E+03  8.730126E-01 -1.302233E+02  2.507419E-02 1.602784E+02  3.374907E-02 1.265010E+02 
 2.499955E-02 1.597577E+02  8.568080E-01 -8.745834E+01  2.585635E-02 1.158251E+02 
 3.372297E-02 1.261380E+02  2.591451E-02 1.159347E+02  8.945333E-01 -9.067277E+01 
1.710125E+03  8.738389E-01 -1.302509E+02  2.523793E-02 1.602388E+02  3.380433E-02 1.263534E+02 
 2.515435E-02 1.597139E+02  8.566924E-01 -8.751599E+01  2.566520E-02 1.167324E+02 
 3.377115E-02 1.259875E+02  2.572079E-02 1.168410E+02  8.944004E-01 -9.073461E+01 
1.710312E+03  8.745165E-01 -1.302956E+02  2.531185E-02 1.603591E+02  3.393836E-02 1.261813E+02 
 2.522963E-02 1.598433E+02  8.565464E-01 -8.757578E+01  2.547324E-02 1.177149E+02 
 3.390941E-02 1.258232E+02  2.552473E-02 1.178275E+02  8.940756E-01 -9.079745E+01 
1.710500E+03  8.751751E-01 -1.303358E+02  2.544017E-02 1.605576E+02  3.404977E-02 1.260037E+02 
 2.536052E-02 1.600384E+02  8.563629E-01 -8.763736E+01  2.532426E-02 1.188274E+02 
 3.401259E-02 1.256432E+02  2.537444E-02 1.189223E+02  8.937634E-01 -9.085723E+01 
1.710688E+03  8.758936E-01 -1.303897E+02  2.553076E-02 1.606765E+02  3.421040E-02 1.258975E+02 
 2.544400E-02 1.601697E+02  8.561013E-01 -8.769925E+01  2.520910E-02 1.199473E+02 
 3.416974E-02 1.255497E+02  2.525570E-02 1.200559E+02  8.933450E-01 -9.091993E+01 
1.710875E+03  8.761365E-01 -1.304465E+02  2.564348E-02 1.609937E+02  3.442126E-02 1.256710E+02 
 2.556550E-02 1.604933E+02  8.557973E-01 -8.775270E+01  2.511906E-02 1.212233E+02 
 3.437950E-02 1.253175E+02  2.516861E-02 1.213274E+02  8.930169E-01 -9.097568E+01 
1.711062E+03  8.763218E-01 -1.304954E+02  2.579800E-02 1.611575E+02  3.461738E-02 1.254691E+02 
 2.571310E-02 1.606498E+02  8.554754E-01 -8.780222E+01  2.509128E-02 1.225446E+02 
 3.458037E-02 1.250912E+02  2.514405E-02 1.226469E+02  8.926628E-01 -9.103073E+01 
1.711250E+03  8.766009E-01 -1.305494E+02  2.591274E-02 1.613460E+02  3.484145E-02 1.251111E+02 
 2.582833E-02 1.608291E+02  8.550854E-01 -8.785374E+01  2.510489E-02 1.239655E+02 
 3.480593E-02 1.247368E+02  2.515407E-02 1.240580E+02  8.922412E-01 -9.108333E+01 
1.711438E+03  8.767540E-01 -1.306015E+02  2.600495E-02 1.615519E+02  3.501589E-02 1.248036E+02 
 2.591731E-02 1.610348E+02  8.547445E-01 -8.790340E+01  2.520034E-02 1.254332E+02 
 3.496873E-02 1.244285E+02  2.524904E-02 1.255253E+02  8.918640E-01 -9.113233E+01 
1.711625E+03  8.768894E-01 -1.306480E+02  2.612199E-02 1.618090E+02  3.519209E-02 1.245058E+02 
 2.603745E-02 1.613033E+02  8.543464E-01 -8.795253E+01  2.537370E-02 1.269257E+02 
 3.514876E-02 1.241154E+02  2.542251E-02 1.270110E+02  8.915038E-01 -9.118247E+01 
1.711812E+03  8.771223E-01 -1.306996E+02  2.624256E-02 1.619908E+02  3.535291E-02 1.242846E+02 
 2.615466E-02 1.614867E+02  8.540097E-01 -8.799818E+01  2.566074E-02 1.283588E+02 
 3.530432E-02 1.238855E+02  2.570916E-02 1.284416E+02  8.911914E-01 -9.123103E+01 
1.712000E+03  8.773833E-01 -1.307708E+02  2.625954E-02 1.622159E+02  3.565226E-02 1.241829E+02 
 2.617194E-02 1.617013E+02  8.536765E-01 -8.804338E+01  2.598124E-02 1.295728E+02 
 3.560308E-02 1.237798E+02  2.602931E-02 1.296464E+02  8.908645E-01 -9.128562E+01 
1.712188E+03  8.772424E-01 -1.308419E+02  2.632358E-02 1.627312E+02  3.606588E-02 1.238374E+02 
 2.623541E-02 1.622213E+02  8.532989E-01 -8.808713E+01  2.630404E-02 1.307948E+02 
 3.601690E-02 1.234489E+02  2.635053E-02 1.308788E+02  8.904872E-01 -9.134179E+01 
1.712375E+03  8.769858E-01 -1.308968E+02  2.645566E-02 1.631413E+02  3.637533E-02 1.234270E+02 
 2.637321E-02 1.626276E+02  8.530397E-01 -8.813177E+01  2.671885E-02 1.319157E+02 
 3.632609E-02 1.230235E+02  2.676657E-02 1.320132E+02  8.901784E-01 -9.139567E+01 
1.712562E+03  8.767663E-01 -1.309609E+02  2.655065E-02 1.636171E+02  3.680231E-02 1.229897E+02 
 2.646137E-02 1.630959E+02  8.528443E-01 -8.817907E+01  2.711358E-02 1.329222E+02 
 3.674620E-02 1.225983E+02  2.716249E-02 1.330056E+02  8.898041E-01 -9.145393E+01 
1.712750E+03  8.762939E-01 -1.310130E+02  2.674116E-02 1.642798E+02  3.720934E-02 1.223399E+02 
 2.664479E-02 1.637662E+02  8.525642E-01 -8.822886E+01  2.753475E-02 1.339481E+02 
 3.715328E-02 1.219166E+02  2.757944E-02 1.340230E+02  8.893183E-01 -9.151036E+01 
1.712938E+03  8.760251E-01 -1.310508E+02  2.701788E-02 1.646789E+02  3.750453E-02 1.217051E+02 
 2.692827E-02 1.641634E+02  8.523607E-01 -8.827753E+01  2.804168E-02 1.348634E+02 
 3.744105E-02 1.212889E+02  2.807508E-02 1.349416E+02  8.890122E-01 -9.156996E+01 
1.713125E+03  8.757473E-01 -1.310964E+02  2.721567E-02 1.649666E+02  3.785430E-02 1.211275E+02 
 2.711923E-02 1.644449E+02  8.521740E-01 -8.833116E+01  2.854705E-02 1.355968E+02 
 3.779571E-02 1.207267E+02  2.858941E-02 1.356803E+02  8.886116E-01 -9.163429E+01 
1.713312E+03  8.754075E-01 -1.311495E+02  2.733565E-02 1.653433E+02  3.824943E-02 1.205459E+02 
 2.724453E-02 1.648167E+02  8.519313E-01 -8.839086E+01  2.900149E-02 1.361978E+02 
 3.818303E-02 1.201264E+02  2.903915E-02 1.362746E+02  8.881116E-01 -9.169787E+01 
1.713500E+03  8.747546E-01 -1.312033E+02  2.749938E-02 1.659723E+02  3.876013E-02 1.197823E+02 
 2.740760E-02 1.654510E+02  8.516960E-01 -8.845094E+01  2.939184E-02 1.368905E+02 
 3.869456E-02 1.193755E+02  2.943429E-02 1.369745E+02  8.875669E-01 -9.176791E+01 
1.713688E+03  8.741387E-01 -1.312336E+02  2.776464E-02 1.665595E+02  3.912643E-02 1.188593E+02 
 2.766698E-02 1.660420E+02  8.513737E-01 -8.851096E+01  2.982981E-02 1.376226E+02 
 3.907522E-02 1.184328E+02  2.986920E-02 1.376882E+02  8.868996E-01 -9.182806E+01 
1.713875E+03  8.735546E-01 -1.312661E+02  2.805341E-02 1.671553E+02  3.953129E-02 1.179911E+02 
 2.795939E-02 1.666197E+02  8.510158E-01 -8.856829E+01  3.027089E-02 1.383378E+02 
