! Matrix data file written by TouchstoneData, EPCOS AG
! FILENAME: "newformat_B3519.WB.2.s2p"
! COMMENT: "(B3519.WB.2.s2p)"
! INFO: nport=2, nfreq=1601
! DATE: "Mon Sep  5 10:31:09 2011"
! USER: "Sergey Rostovtsev"
!
! port | pin | signal
! -----|-----|--------
!   1  |  2  |  in
!   2  |  5  |  out
! --------------------
! 
# MHZ S MA R 50
! freq  magS11 angS11  magS21 angS21  magS12 angS12  magS22 angS22
1.000000E+01  9.992604E-01 -7.369483E-01  3.851287E-04 9.584540E+01  3.642312E-04 9.415471E+01  1.000122E+00 -7.405973E-01 
1.374375E+01  1.000558E+00 -1.031110E+00  2.820056E-04 9.091019E+01  2.593039E-04 9.573375E+01  1.000425E+00 -1.080185E+00 
1.748750E+01  1.000800E+00 -1.347121E+00  3.078269E-04 8.671718E+01  3.363170E-04 9.540273E+01  1.000710E+00 -1.361820E+00 
2.123125E+01  1.000709E+00 -1.637342E+00  2.852685E-04 8.952303E+01  2.814173E-04 9.206394E+01  1.001061E+00 -1.634028E+00 
2.497500E+01  1.000298E+00 -1.971541E+00  3.240705E-04 8.145128E+01  3.048829E-04 7.557587E+01  1.001248E+00 -2.036826E+00 
2.871875E+01  1.000846E+00 -2.201433E+00  5.135362E-04 9.054008E+01  5.009147E-04 9.358357E+01  1.000858E+00 -2.221465E+00 
3.246250E+01  1.000129E+00 -2.477746E+00  4.999772E-04 8.200583E+01  4.936146E-04 8.122613E+01  1.001271E+00 -2.481526E+00 
3.620625E+01  9.999658E-01 -2.757275E+00  7.222662E-04 9.012675E+01  6.773182E-04 8.925849E+01  1.000582E+00 -2.837981E+00 
3.995000E+01  9.999445E-01 -3.071654E+00  7.036956E-04 8.866080E+01  7.018770E-04 8.673343E+01  1.000666E+00 -3.103500E+00 
4.369375E+01  1.000421E+00 -3.343797E+00  7.295065E-04 8.803229E+01  7.350408E-04 9.049079E+01  1.000824E+00 -3.436164E+00 
4.743750E+01  9.997278E-01 -3.607168E+00  6.953215E-04 8.578606E+01  7.162111E-04 8.519414E+01  1.000781E+00 -3.665690E+00 
5.118125E+01  9.999427E-01 -3.881771E+00  7.884420E-04 8.499021E+01  7.755190E-04 8.487284E+01  1.000513E+00 -3.945575E+00 
5.492500E+01  9.998903E-01 -4.168228E+00  8.738085E-04 8.589989E+01  8.731219E-04 8.595259E+01  1.000179E+00 -4.216973E+00 
5.866875E+01  9.996624E-01 -4.411236E+00  9.134612E-04 8.616184E+01  9.171612E-04 8.640167E+01  1.000280E+00 -4.475784E+00 
6.241250E+01  9.991412E-01 -4.764246E+00  8.529915E-04 8.547672E+01  8.143125E-04 8.625682E+01  9.997032E-01 -4.883330E+00 
6.615625E+01  9.995692E-01 -4.993566E+00  9.689210E-04 9.191840E+01  9.728445E-04 9.112430E+01  9.993770E-01 -5.107686E+00 
6.990000E+01  9.992061E-01 -5.294639E+00  1.137231E-03 8.847425E+01  1.155045E-03 8.871221E+01  1.000072E+00 -5.418343E+00 
7.364375E+01  9.989666E-01 -5.562187E+00  1.235409E-03 8.523669E+01  1.221663E-03 8.623488E+01  1.000239E+00 -5.675581E+00 
7.738750E+01  9.990025E-01 -5.870629E+00  1.192963E-03 8.267664E+01  1.179159E-03 8.355771E+01  9.999191E-01 -5.961488E+00 
8.113125E+01  9.984381E-01 -6.133945E+00  1.231551E-03 8.542053E+01  1.248435E-03 8.366615E+01  9.994273E-01 -6.208305E+00 
8.487500E+01  9.987445E-01 -6.431596E+00  1.383724E-03 8.139073E+01  1.362250E-03 8.256710E+01  1.000149E+00 -6.538382E+00 
8.861875E+01  9.988170E-01 -6.711103E+00  1.388784E-03 8.275255E+01  1.402008E-03 8.223747E+01  9.997780E-01 -6.786122E+00 
9.236250E+01  9.982894E-01 -6.983070E+00  1.407559E-03 8.191375E+01  1.426923E-03 8.188252E+01  9.999136E-01 -7.145020E+00 
9.610625E+01  9.981081E-01 -7.267149E+00  1.519225E-03 8.217937E+01  1.509305E-03 8.173433E+01  9.995906E-01 -7.411134E+00 
9.985000E+01  9.983067E-01 -7.522479E+00  1.612200E-03 8.232933E+01  1.596280E-03 8.185685E+01  9.994730E-01 -7.624894E+00 
1.035938E+02  9.984032E-01 -7.813212E+00  1.626581E-03 8.260545E+01  1.638390E-03 8.256828E+01  9.994828E-01 -7.934660E+00 
1.073375E+02  9.981677E-01 -8.099115E+00  1.668504E-03 8.052669E+01  1.676372E-03 8.102979E+01  9.986454E-01 -8.257454E+00 
1.110812E+02  9.983734E-01 -8.385088E+00  1.714784E-03 8.111972E+01  1.738215E-03 7.967335E+01  9.988304E-01 -8.534563E+00 
1.148250E+02  9.979772E-01 -8.656798E+00  1.806324E-03 8.091074E+01  1.783869E-03 8.060053E+01  9.987301E-01 -8.823235E+00 
1.185687E+02  9.977376E-01 -8.928679E+00  1.915530E-03 7.971464E+01  1.940662E-03 8.068206E+01  9.983939E-01 -9.074351E+00 
1.223125E+02  9.977800E-01 -9.210208E+00  1.882428E-03 8.027941E+01  1.904247E-03 8.040089E+01  9.989688E-01 -9.340335E+00 
1.260563E+02  9.972644E-01 -9.489101E+00  1.965220E-03 8.175672E+01  1.977770E-03 8.235390E+01  9.982543E-01 -9.639935E+00 
1.298000E+02  9.975536E-01 -9.767518E+00  2.048711E-03 8.023489E+01  2.055167E-03 8.061170E+01  9.980866E-01 -9.968220E+00 
1.335437E+02  9.974086E-01 -1.006953E+01  2.093771E-03 7.914364E+01  2.104418E-03 7.958085E+01  9.982237E-01 -1.020767E+01 
1.372875E+02  9.973786E-01 -1.031693E+01  2.097890E-03 7.941823E+01  2.111768E-03 7.969651E+01  9.983606E-01 -1.047960E+01 
1.410312E+02  9.976291E-01 -1.060392E+01  2.236298E-03 7.914791E+01  2.229002E-03 8.063528E+01  9.979549E-01 -1.074797E+01 
1.447750E+02  9.969813E-01 -1.084342E+01  2.320080E-03 7.980604E+01  2.310916E-03 7.964418E+01  9.979201E-01 -1.106341E+01 
1.485188E+02  9.970790E-01 -1.112713E+01  2.287279E-03 7.821132E+01  2.288551E-03 7.818247E+01  9.980910E-01 -1.130190E+01 
1.522625E+02  9.967751E-01 -1.141839E+01  2.440613E-03 7.805685E+01  2.424302E-03 7.845229E+01  9.971142E-01 -1.159310E+01 
1.560062E+02  9.970149E-01 -1.170145E+01  2.365658E-03 7.868233E+01  2.382036E-03 7.869933E+01  9.975964E-01 -1.188930E+01 
1.597500E+02  9.969790E-01 -1.199649E+01  2.477251E-03 7.796226E+01  2.484297E-03 7.749588E+01  9.974728E-01 -1.218951E+01 
1.634938E+02  9.968406E-01 -1.226305E+01  2.558186E-03 7.690004E+01  2.568984E-03 7.695793E+01  9.974857E-01 -1.241212E+01 
1.672375E+02  9.966717E-01 -1.254435E+01  2.564163E-03 7.725996E+01  2.566945E-03 7.709489E+01  9.974932E-01 -1.271735E+01 
1.709812E+02  9.962351E-01 -1.276904E+01  2.635114E-03 7.607231E+01  2.634281E-03 7.607857E+01  9.969428E-01 -1.297919E+01 
1.747250E+02  9.962390E-01 -1.310105E+01  2.714512E-03 7.685025E+01  2.700655E-03 7.709076E+01  9.975429E-01 -1.331508E+01 
1.784688E+02  9.964722E-01 -1.337973E+01  2.752828E-03 7.549745E+01  2.748624E-03 7.493005E+01  9.968657E-01 -1.359080E+01 
1.822125E+02  9.962996E-01 -1.360728E+01  2.822006E-03 7.645862E+01  2.808117E-03 7.680522E+01  9.971138E-01 -1.380677E+01 
1.859563E+02  9.962856E-01 -1.391166E+01  2.881291E-03 7.569498E+01  2.874649E-03 7.599032E+01  9.973846E-01 -1.409205E+01 
1.897000E+02  9.960696E-01 -1.414663E+01  2.901834E-03 7.591603E+01  2.888236E-03 7.607265E+01  9.970068E-01 -1.432571E+01 
1.934437E+02  9.959313E-01 -1.444425E+01  2.955895E-03 7.544204E+01  2.969944E-03 7.523753E+01  9.970536E-01 -1.466523E+01 
1.971875E+02  9.956028E-01 -1.472220E+01  3.139833E-03 7.370485E+01  3.121488E-03 7.375886E+01  9.965024E-01 -1.492629E+01 
2.009313E+02  9.960272E-01 -1.497859E+01  3.103237E-03 7.581460E+01  3.095834E-03 7.546613E+01  9.968489E-01 -1.520272E+01 
2.046750E+02  9.959818E-01 -1.525804E+01  3.120995E-03 7.441622E+01  3.144740E-03 7.430313E+01  9.968026E-01 -1.548265E+01 
2.084187E+02  9.958845E-01 -1.549809E+01  3.183864E-03 7.442384E+01  3.205719E-03 7.440791E+01  9.967605E-01 -1.578315E+01 
2.121625E+02  9.960765E-01 -1.580291E+01  3.252565E-03 7.413809E+01  3.250225E-03 7.455508E+01  9.966831E-01 -1.608161E+01 
2.159062E+02  9.958901E-01 -1.605951E+01  3.322547E-03 7.478852E+01  3.336423E-03 7.397172E+01  9.965775E-01 -1.631371E+01 
2.196500E+02  9.957665E-01 -1.633155E+01  3.369641E-03 7.376096E+01  3.378286E-03 7.457800E+01  9.965115E-01 -1.661140E+01 
2.233938E+02  9.949710E-01 -1.657580E+01  3.446968E-03 7.305800E+01  3.458021E-03 7.332401E+01  9.953679E-01 -1.681885E+01 
2.271375E+02  9.954550E-01 -1.686137E+01  3.455326E-03 7.338882E+01  3.463992E-03 7.344718E+01  9.964187E-01 -1.712641E+01 
2.308812E+02  9.954388E-01 -1.712333E+01  3.605210E-03 7.299674E+01  3.572375E-03 7.248845E+01  9.967041E-01 -1.744139E+01 
2.346250E+02  9.957905E-01 -1.736542E+01  3.595294E-03 7.227543E+01  3.617534E-03 7.244598E+01  9.963898E-01 -1.771255E+01 
2.383688E+02  9.954875E-01 -1.768544E+01  3.612399E-03 7.244268E+01  3.614366E-03 7.263892E+01  9.961249E-01 -1.800166E+01 
2.421125E+02  9.948968E-01 -1.790806E+01  3.724091E-03 7.250467E+01  3.741162E-03 7.242721E+01  9.957668E-01 -1.828170E+01 
2.458562E+02  9.950321E-01 -1.819950E+01  3.737654E-03 7.118161E+01  3.718670E-03 7.133546E+01  9.960438E-01 -1.855769E+01 
2.496000E+02  9.952682E-01 -1.852069E+01  3.823000E-03 7.144506E+01  3.830816E-03 7.134261E+01  9.956139E-01 -1.890608E+01 
2.533438E+02  9.953725E-01 -1.877794E+01  3.855674E-03 7.093707E+01  3.867332E-03 7.089157E+01  9.957858E-01 -1.909417E+01 
2.570875E+02  9.949624E-01 -1.905992E+01  3.872513E-03 7.098070E+01  3.849584E-03 7.130084E+01  9.959538E-01 -1.942140E+01 
2.608313E+02  9.948788E-01 -1.930419E+01  3.946953E-03 7.013734E+01  3.934270E-03 7.029262E+01  9.950980E-01 -1.965175E+01 
2.645750E+02  9.951156E-01 -1.963158E+01  4.015641E-03 7.023226E+01  4.003794E-03 6.999380E+01  9.954991E-01 -1.998041E+01 
2.683188E+02  9.945875E-01 -1.991638E+01  4.080967E-03 7.024757E+01  4.080185E-03 7.022233E+01  9.949022E-01 -2.027485E+01 
2.720625E+02  9.951718E-01 -2.018190E+01  4.143681E-03 7.019864E+01  4.153660E-03 7.000970E+01  9.956011E-01 -2.054880E+01 
2.758062E+02  9.948670E-01 -2.050994E+01  4.149130E-03 6.896293E+01  4.156454E-03 6.958260E+01  9.952312E-01 -2.084125E+01 
2.795500E+02  9.947044E-01 -2.074798E+01  4.183250E-03 6.887325E+01  4.201105E-03 6.898222E+01  9.951552E-01 -2.109350E+01 
2.832937E+02  9.947300E-01 -2.105095E+01  4.222165E-03 6.897112E+01  4.230306E-03 6.876169E+01  9.950750E-01 -2.140997E+01 
2.870375E+02  9.938438E-01 -2.130898E+01  4.354490E-03 6.833902E+01  4.351200E-03 6.848745E+01  9.946252E-01 -2.164824E+01 
2.907812E+02  9.943858E-01 -2.159888E+01  4.362272E-03 6.831498E+01  4.366277E-03 6.803422E+01  9.947672E-01 -2.194021E+01 
2.945250E+02  9.936499E-01 -2.193424E+01  4.399630E-03 6.745009E+01  4.405335E-03 6.732403E+01  9.932264E-01 -2.231016E+01 
2.982688E+02  9.940119E-01 -2.217632E+01  4.456608E-03 6.756746E+01  4.457086E-03 6.770580E+01  9.944648E-01 -2.254943E+01 
3.020125E+02  9.939848E-01 -2.248993E+01  4.499753E-03 6.689784E+01  4.505876E-03 6.697781E+01  9.945214E-01 -2.288178E+01 
3.057563E+02  9.938739E-01 -2.275946E+01  4.567517E-03 6.715641E+01  4.591767E-03 6.686582E+01  9.944638E-01 -2.312426E+01 
3.095000E+02  9.938314E-01 -2.304829E+01  4.624463E-03 6.673550E+01  4.639381E-03 6.654279E+01  9.944559E-01 -2.337607E+01 
3.132437E+02  9.934530E-01 -2.334350E+01  4.669676E-03 6.685573E+01  4.726746E-03 6.700883E+01  9.937760E-01 -2.367760E+01 
3.169875E+02  9.937003E-01 -2.360512E+01  4.704614E-03 6.622280E+01  4.716550E-03 6.612535E+01  9.943720E-01 -2.400718E+01 
3.207312E+02  9.938030E-01 -2.388339E+01  4.775663E-03 6.575000E+01  4.765618E-03 6.613592E+01  9.944771E-01 -2.430082E+01 
3.244750E+02  9.935968E-01 -2.415499E+01  4.788571E-03 6.571743E+01  4.809385E-03 6.560443E+01  9.940735E-01 -2.457034E+01 
3.282188E+02  9.934834E-01 -2.443802E+01  4.878906E-03 6.540905E+01  4.891380E-03 6.548478E+01  9.938728E-01 -2.485710E+01 
3.319625E+02  9.931341E-01 -2.468971E+01  4.903951E-03 6.538388E+01  4.938148E-03 6.517434E+01  9.938670E-01 -2.512447E+01 
3.357063E+02  9.936457E-01 -2.498424E+01  4.975447E-03 6.442423E+01  4.966428E-03 6.478815E+01  9.937923E-01 -2.540305E+01 
3.394500E+02  9.927819E-01 -2.529076E+01  5.013887E-03 6.434154E+01  4.999300E-03 6.452714E+01  9.926953E-01 -2.564933E+01 
3.431938E+02  9.930549E-01 -2.552384E+01  5.079286E-03 6.411036E+01  5.051661E-03 6.407696E+01  9.937226E-01 -2.596955E+01 
3.469375E+02  9.931001E-01 -2.582629E+01  5.136010E-03 6.382100E+01  5.113519E-03 6.416253E+01  9.934328E-01 -2.629170E+01 
3.506812E+02  9.930492E-01 -2.607092E+01  5.124590E-03 6.406375E+01  5.149499E-03 6.376955E+01  9.934517E-01 -2.654573E+01 
3.544250E+02  9.929753E-01 -2.633564E+01  5.189450E-03 6.336509E+01  5.171806E-03 6.357903E+01  9.934669E-01 -2.686002E+01 
3.581687E+02  9.924401E-01 -2.660176E+01  5.227687E-03 6.306177E+01  5.256473E-03 6.298694E+01  9.928621E-01 -2.708875E+01 
3.619125E+02  9.928948E-01 -2.689075E+01  5.316955E-03 6.275095E+01  5.298441E-03 6.298291E+01  9.931415E-01 -2.737087E+01 
3.656562E+02  9.924250E-01 -2.720063E+01  5.326158E-03 6.217056E+01  5.338765E-03 6.227848E+01  9.920238E-01 -2.771372E+01 
3.694000E+02  9.927706E-01 -2.739781E+01  5.395166E-03 6.243108E+01  5.402741E-03 6.240655E+01  9.925869E-01 -2.790024E+01 
3.731438E+02  9.923115E-01 -2.767922E+01  5.422742E-03 6.210692E+01  5.429616E-03 6.222538E+01  9.922121E-01 -2.819549E+01 
3.768875E+02  9.920223E-01 -2.794667E+01  5.507945E-03 6.175549E+01  5.487057E-03 6.190096E+01  9.917560E-01 -2.836591E+01 
3.806313E+02  9.923804E-01 -2.821716E+01  5.514577E-03 6.177734E+01  5.517842E-03 6.201412E+01  9.925350E-01 -2.867530E+01 
3.843750E+02  9.913566E-01 -2.843822E+01  5.565277E-03 6.168984E+01  5.573011E-03 6.163114E+01  9.919245E-01 -2.885745E+01 
3.881187E+02  9.920513E-01 -2.871996E+01  5.594591E-03 6.100858E+01  5.607308E-03 6.112524E+01  9.925887E-01 -2.916883E+01 
3.918625E+02  9.925236E-01 -2.904262E+01  5.661422E-03 6.057021E+01  5.663512E-03 6.059335E+01  9.926141E-01 -2.950319E+01 
3.956062E+02  9.924263E-01 -2.929011E+01  5.691725E-03 6.071404E+01  5.720780E-03 6.068537E+01  9.925738E-01 -2.974250E+01 
3.993500E+02  9.919678E-01 -2.956592E+01  5.704685E-03 6.001655E+01  5.694760E-03 6.012921E+01  9.924648E-01 -3.002838E+01 
4.030938E+02  9.917691E-01 -2.982969E+01  5.776428E-03 6.001368E+01  5.776364E-03 6.005077E+01  9.921199E-01 -3.025665E+01 
4.068375E+02  9.917294E-01 -3.010863E+01  5.844076E-03 5.978453E+01  5.851462E-03 5.940356E+01  9.919073E-01 -3.049785E+01 
4.105813E+02  9.906515E-01 -3.036790E+01  5.844830E-03 5.938131E+01  5.845945E-03 5.941143E+01  9.909604E-01 -3.079925E+01 
4.143250E+02  9.912128E-01 -3.060960E+01  5.934879E-03 5.913005E+01  5.973612E-03 5.909775E+01  9.919791E-01 -3.105814E+01 
4.180688E+02  9.911187E-01 -3.089638E+01  5.951958E-03 5.835175E+01  5.952281E-03 5.846055E+01  9.921895E-01 -3.137192E+01 
4.218125E+02  9.912020E-01 -3.113515E+01  6.001864E-03 5.831939E+01  5.985726E-03 5.853885E+01  9.916753E-01 -3.152489E+01 
4.255562E+02  9.909718E-01 -3.141039E+01  6.034459E-03 5.857329E+01  6.042256E-03 5.860681E+01  9.918035E-01 -3.177814E+01 
4.293000E+02  9.904059E-01 -3.167949E+01  6.050465E-03 5.818261E+01  6.088369E-03 5.828075E+01  9.915383E-01 -3.206708E+01 
4.330437E+02  9.909708E-01 -3.192596E+01  6.137937E-03 5.782316E+01  6.177264E-03 5.795924E+01  9.916296E-01 -3.229496E+01 
4.367875E+02  9.903503E-01 -3.224215E+01  6.173370E-03 5.748390E+01  6.192893E-03 5.800687E+01  9.912002E-01 -3.260445E+01 
4.405312E+02  9.908842E-01 -3.246624E+01  6.195077E-03 5.747416E+01  6.209311E-03 5.724900E+01  9.913434E-01 -3.284965E+01 
4.442750E+02  9.908142E-01 -3.277423E+01  6.270360E-03 5.688269E+01  6.274705E-03 5.734342E+01  9.914403E-01 -3.310089E+01 
4.480188E+02  9.906668E-01 -3.307408E+01  6.286780E-03 5.685338E+01  6.282387E-03 5.694882E+01  9.912412E-01 -3.342109E+01 
4.517625E+02  9.908623E-01 -3.334050E+01  6.328177E-03 5.625967E+01  6.335636E-03 5.626553E+01  9.914262E-01 -3.372692E+01 
4.555063E+02  9.897341E-01 -3.361192E+01  6.403016E-03 5.646385E+01  6.402151E-03 5.643417E+01  9.905938E-01 -3.395089E+01 
4.592500E+02  9.904521E-01 -3.389099E+01  6.432459E-03 5.596811E+01  6.427514E-03 5.612843E+01  9.910001E-01 -3.425290E+01 
4.629937E+02  9.901178E-01 -3.416833E+01  6.456686E-03 5.579624E+01  6.459307E-03 5.584059E+01  9.911424E-01 -3.456506E+01 
4.667375E+02  9.900521E-01 -3.440776E+01  6.532760E-03 5.559871E+01  6.536236E-03 5.558636E+01  9.905894E-01 -3.476387E+01 
4.704812E+02  9.903570E-01 -3.467088E+01  6.553262E-03 5.503432E+01  6.567899E-03 5.491993E+01  9.905756E-01 -3.506847E+01 
4.742250E+02  9.901415E-01 -3.490948E+01  6.578773E-03 5.489501E+01  6.584394E-03 5.494864E+01  9.906910E-01 -3.532176E+01 
4.779688E+02  9.900588E-01 -3.519098E+01  6.609848E-03 5.461545E+01  6.615970E-03 5.478494E+01  9.903602E-01 -3.558283E+01 
4.817125E+02  9.891840E-01 -3.547247E+01  6.641121E-03 5.415432E+01  6.647893E-03 5.422352E+01  9.895454E-01 -3.592827E+01 
4.854563E+02  9.895809E-01 -3.573134E+01  6.725447E-03 5.402603E+01  6.720626E-03 5.398248E+01  9.902552E-01 -3.617381E+01 
4.892000E+02  9.897951E-01 -3.600002E+01  6.762633E-03 5.386363E+01  6.765096E-03 5.390121E+01  9.896559E-01 -3.646611E+01 
4.929438E+02  9.896628E-01 -3.625406E+01  6.785380E-03 5.341696E+01  6.785169E-03 5.369388E+01  9.895839E-01 -3.669480E+01 
4.966875E+02  9.892512E-01 -3.653987E+01  6.825811E-03 5.304846E+01  6.847242E-03 5.313648E+01  9.894695E-01 -3.700137E+01 
5.004312E+02  9.890373E-01 -3.682825E+01  6.845306E-03 5.311872E+01  6.846940E-03 5.315207E+01  9.889827E-01 -3.727693E+01 
5.041750E+02  9.893188E-01 -3.709416E+01  6.911668E-03 5.276377E+01  6.907201E-03 5.254943E+01  9.892406E-01 -3.757616E+01 
5.079187E+02  9.891858E-01 -3.738765E+01  6.954722E-03 5.246697E+01  6.952183E-03 5.237865E+01  9.894762E-01 -3.791683E+01 
5.116625E+02  9.888706E-01 -3.763283E+01  6.948610E-03 5.218078E+01  6.946172E-03 5.232679E+01  9.892474E-01 -3.809437E+01 
5.154062E+02  9.890814E-01 -3.793376E+01  6.979489E-03 5.178038E+01  6.994354E-03 5.182902E+01  9.889081E-01 -3.839827E+01 
5.191500E+02  9.886603E-01 -3.819410E+01  7.031376E-03 5.150222E+01  7.036852E-03 5.163501E+01  9.886715E-01 -3.868136E+01 
5.228937E+02  9.885408E-01 -3.845203E+01  7.039305E-03 5.128879E+01  7.042370E-03 5.150087E+01  9.888940E-01 -3.894171E+01 
5.266375E+02  9.874891E-01 -3.871325E+01  7.092383E-03 5.106604E+01  7.126979E-03 5.107275E+01  9.874435E-01 -3.915916E+01 
5.303813E+02  9.881284E-01 -3.898354E+01  7.155607E-03 5.072345E+01  7.155422E-03 5.080990E+01  9.887293E-01 -3.948664E+01 
5.341250E+02  9.877130E-01 -3.927297E+01  7.170938E-03 5.036269E+01  7.177836E-03 5.050528E+01  9.887428E-01 -3.972587E+01 
5.378687E+02  9.874958E-01 -3.949316E+01  7.188110E-03 5.019121E+01  7.187520E-03 5.007395E+01  9.887964E-01 -4.000168E+01 
5.416125E+02  9.878616E-01 -3.979414E+01  7.275823E-03 5.006391E+01  7.244146E-03 4.990937E+01  9.887821E-01 -4.026727E+01 
5.453563E+02  9.877683E-01 -4.000575E+01  7.302160E-03 4.992840E+01  7.273517E-03 4.984783E+01  9.885389E-01 -4.051949E+01 
5.491000E+02  9.878839E-01 -4.029161E+01  7.317229E-03 4.934339E+01  7.339438E-03 4.943819E+01  9.885180E-01 -4.079630E+01 
5.528438E+02  9.875540E-01 -4.057826E+01  7.341381E-03 4.946481E+01  7.353195E-03 4.948319E+01  9.881073E-01 -4.105864E+01 
5.565875E+02  9.873973E-01 -4.084124E+01  7.366573E-03 4.874242E+01  7.394447E-03 4.892851E+01  9.883465E-01 -4.132134E+01 
5.603312E+02  9.872100E-01 -4.110661E+01  7.404725E-03 4.867848E+01  7.417788E-03 4.882638E+01  9.879453E-01 -4.161850E+01 
5.640750E+02  9.871951E-01 -4.135001E+01  7.418489E-03 4.856790E+01  7.434909E-03 4.846134E+01  9.881393E-01 -4.184853E+01 
5.678188E+02  9.871660E-01 -4.164617E+01  7.461441E-03 4.797488E+01  7.472630E-03 4.811228E+01  9.878101E-01 -4.209937E+01 
5.715625E+02  9.863717E-01 -4.189557E+01  7.490163E-03 4.786345E+01  7.483221E-03 4.804375E+01  9.869333E-01 -4.234078E+01 
5.753062E+02  9.865857E-01 -4.216773E+01  7.540901E-03 4.770482E+01  7.551374E-03 4.762770E+01  9.873911E-01 -4.264677E+01 
5.790500E+02  9.866347E-01 -4.244978E+01  7.576684E-03 4.740886E+01  7.583734E-03 4.752276E+01  9.872181E-01 -4.292858E+01 
5.827938E+02  9.863128E-01 -4.268362E+01  7.613874E-03 4.711469E+01  7.606600E-03 4.694701E+01  9.873578E-01 -4.315105E+01 
5.865375E+02  9.865745E-01 -4.295983E+01  7.621731E-03 4.671571E+01  7.638882E-03 4.675734E+01  9.871320E-01 -4.346785E+01 
5.902812E+02  9.865302E-01 -4.321912E+01  7.656355E-03 4.673419E+01  7.652257E-03 4.667951E+01  9.870858E-01 -4.371808E+01 
5.940250E+02  9.863790E-01 -4.352063E+01  7.689702E-03 4.631005E+01  7.674055E-03 4.631045E+01  9.872687E-01 -4.400019E+01 
