! Matrix data file written by TouchstoneData, EPCOS AG
! FILENAME: "LY41A_1_WB.s3p_newformat"
! COMMENT: "(LY41A_1_WB.s3p) EPCOS AG 06.10.10 15:55:02"
! INFO: nport=3, nfreq=1601
! DATE: "Tue Feb  1 13:03:19 2011"
! USER: "Sergey Rostovtsev"
!
! port | pin | signal
! -----|-----|--------
!   1  |  2  |  in
!   2  |  4  |  out
!   3  |  6  |  out
! --------------------
! 
# MHZ S MA R 50
! freq  magS11 angS11  magS12 angS12  magS13 angS13  ...
1.000000E+02  9.955019E-01 -1.285642E+01  1.149204E-03 7.725705E+01  1.375616E-03 7.805806E+01 
 1.151725E-03 7.900140E+01  9.957799E-01 -5.938815E+00  1.654427E-03 8.188489E+01 
 1.429988E-03 7.791703E+01  1.673477E-03 8.238296E+01  9.979811E-01 -5.711465E+00 
1.036875E+02  9.959566E-01 -1.337163E+01  1.203908E-03 7.750229E+01  1.409540E-03 7.844887E+01 
 1.196826E-03 7.713708E+01  9.954000E-01 -6.078533E+00  1.701323E-03 8.478828E+01 
 1.423229E-03 7.814682E+01  1.705960E-03 8.424767E+01  9.969843E-01 -5.980195E+00 
1.073750E+02  9.964713E-01 -1.376883E+01  1.197519E-03 7.611751E+01  1.416438E-03 7.745268E+01 
 1.189177E-03 7.573961E+01  9.951590E-01 -6.301271E+00  1.888511E-03 8.158593E+01 
 1.387514E-03 7.806070E+01  1.889853E-03 8.203132E+01  9.973409E-01 -6.149955E+00 
1.110625E+02  9.960694E-01 -1.422850E+01  1.196589E-03 7.767659E+01  1.485126E-03 7.787249E+01 
 1.197110E-03 7.730701E+01  9.958604E-01 -6.523070E+00  1.890876E-03 8.219080E+01 
 1.505311E-03 7.862257E+01  1.916102E-03 8.217400E+01  9.980285E-01 -6.387619E+00 
1.147500E+02  9.953828E-01 -1.472491E+01  1.272640E-03 7.725062E+01  1.503927E-03 7.689481E+01 
 1.256878E-03 7.702653E+01  9.953387E-01 -6.785405E+00  1.983855E-03 8.191382E+01 
 1.539793E-03 7.772868E+01  2.000649E-03 8.209758E+01  9.979706E-01 -6.638079E+00 
1.184375E+02  9.954607E-01 -1.520730E+01  1.319043E-03 7.799568E+01  1.599536E-03 7.833335E+01 
 1.322912E-03 7.885048E+01  9.948656E-01 -6.939655E+00  2.036899E-03 8.394127E+01 
 1.620949E-03 7.893032E+01  2.040308E-03 8.438768E+01  9.973810E-01 -6.840075E+00 
1.221250E+02  9.951756E-01 -1.564779E+01  1.357366E-03 7.784349E+01  1.667400E-03 7.548711E+01 
 1.341445E-03 7.864862E+01  9.960614E-01 -7.150528E+00  2.147591E-03 8.290510E+01 
 1.667902E-03 7.630953E+01  2.160483E-03 8.396161E+01  9.972465E-01 -7.028611E+00 
1.258125E+02  9.946321E-01 -1.609100E+01  1.424379E-03 7.614123E+01  1.703624E-03 7.699502E+01 
 1.432324E-03 7.681458E+01  9.962853E-01 -7.379485E+00  2.068868E-03 8.328275E+01 
 1.658499E-03 7.637732E+01  2.078429E-03 8.343537E+01  9.970182E-01 -7.258726E+00 
1.295000E+02  9.943288E-01 -1.652846E+01  1.459767E-03 7.557793E+01  1.767860E-03 7.635841E+01 
 1.477971E-03 7.553818E+01  9.955652E-01 -7.597866E+00  2.185443E-03 8.223474E+01 
 1.795708E-03 7.728122E+01  2.211908E-03 8.183406E+01  9.970938E-01 -7.461231E+00 
1.331875E+02  9.939003E-01 -1.698412E+01  1.546527E-03 7.632640E+01  1.824907E-03 7.609839E+01 
 1.554566E-03 7.616106E+01  9.943734E-01 -7.874497E+00  2.405840E-03 8.330338E+01 
 1.808774E-03 7.560989E+01  2.409755E-03 8.400347E+01  9.962413E-01 -7.753479E+00 
1.368750E+02  9.935850E-01 -1.746452E+01  1.538224E-03 7.412528E+01  1.867452E-03 7.495972E+01 
 1.554734E-03 7.459785E+01  9.951937E-01 -7.962514E+00  2.308650E-03 8.109255E+01 
 1.880391E-03 7.524152E+01  2.315928E-03 8.121282E+01  9.967373E-01 -7.954004E+00 
1.405625E+02  9.949083E-01 -1.793284E+01  1.526258E-03 7.475434E+01  1.842516E-03 7.557300E+01 
 1.519183E-03 7.598017E+01  9.960156E-01 -8.225685E+00  2.375670E-03 8.037963E+01 
 1.884394E-03 7.595458E+01  2.397492E-03 8.040366E+01  9.969066E-01 -8.175487E+00 
1.442500E+02  9.938852E-01 -1.840054E+01  1.600109E-03 7.528283E+01  1.945111E-03 7.681819E+01 
 1.605701E-03 7.528722E+01  9.952441E-01 -8.352849E+00  2.439979E-03 8.189637E+01 
 1.944051E-03 7.622242E+01  2.453151E-03 8.210928E+01  9.971371E-01 -8.277004E+00 
1.479375E+02  9.935704E-01 -1.891111E+01  1.668313E-03 7.491827E+01  2.018072E-03 7.560900E+01 
 1.649424E-03 7.460131E+01  9.953239E-01 -8.582022E+00  2.498679E-03 8.111334E+01 
 1.991054E-03 7.490309E+01  2.530908E-03 8.139958E+01  9.970468E-01 -8.564071E+00 
1.516250E+02  9.939886E-01 -1.934867E+01  1.755003E-03 7.339812E+01  2.031575E-03 7.336793E+01 
 1.770438E-03 7.315694E+01  9.949938E-01 -8.807339E+00  2.546441E-03 8.077350E+01 
 2.041884E-03 7.406284E+01  2.575913E-03 8.050768E+01  9.964026E-01 -8.747148E+00 
1.553125E+02  9.934274E-01 -1.986509E+01  1.753921E-03 7.169886E+01  2.129655E-03 7.118295E+01 
 1.740094E-03 7.104841E+01  9.959029E-01 -9.069651E+00  2.648024E-03 8.124550E+01 
 2.125028E-03 7.196361E+01  2.649329E-03 8.180965E+01  9.965469E-01 -8.954564E+00 
1.590000E+02  9.931566E-01 -2.026643E+01  1.751215E-03 7.231889E+01  2.096024E-03 7.287087E+01 
 1.728489E-03 7.213797E+01  9.963694E-01 -9.265909E+00  2.715983E-03 8.087864E+01 
 2.097026E-03 7.322168E+01  2.722376E-03 8.065752E+01  9.965845E-01 -9.216579E+00 
1.626875E+02  9.936763E-01 -2.072221E+01  1.874655E-03 6.946932E+01  2.225593E-03 7.103643E+01 
 1.869155E-03 6.925857E+01  9.972275E-01 -9.439068E+00  2.776395E-03 8.161930E+01 
 2.232159E-03 7.061438E+01  2.763756E-03 8.153494E+01  9.972418E-01 -9.407768E+00 
1.663750E+02  9.929367E-01 -2.117299E+01  1.821697E-03 6.957521E+01  2.204660E-03 7.232737E+01 
 1.830217E-03 6.957047E+01  9.955470E-01 -9.663752E+00  2.837541E-03 8.101485E+01 
 2.197841E-03 7.246097E+01  2.844250E-03 8.098993E+01  9.960613E-01 -9.637031E+00 
1.700625E+02  9.926978E-01 -2.156699E+01  1.826222E-03 7.133852E+01  2.234720E-03 7.174727E+01 
 1.825378E-03 7.155759E+01  9.946892E-01 -9.790660E+00  2.839746E-03 8.106060E+01 
 2.216609E-03 7.171684E+01  2.843646E-03 8.144614E+01  9.953092E-01 -9.765559E+00 
1.737500E+02  9.934301E-01 -2.206428E+01  1.864395E-03 7.259640E+01  2.186619E-03 7.340970E+01 
 1.866966E-03 7.217191E+01  9.950403E-01 -1.002583E+01  2.987442E-03 7.897459E+01 
 2.193867E-03 7.288504E+01  2.967945E-03 7.906782E+01  9.953010E-01 -9.994440E+00 
1.774375E+02  9.937951E-01 -2.263077E+01  1.898279E-03 7.286478E+01  2.288393E-03 7.373288E+01 
 1.891350E-03 7.261811E+01  9.951622E-01 -1.040956E+01  3.083450E-03 7.852428E+01 
 2.297197E-03 7.363690E+01  3.084931E-03 7.869190E+01  9.957343E-01 -1.037212E+01 
1.811250E+02  9.938042E-01 -2.296437E+01  1.945215E-03 7.135009E+01  2.350483E-03 7.141160E+01 
 1.947574E-03 7.136275E+01  9.949764E-01 -1.045221E+01  3.144501E-03 7.930130E+01 
 2.350261E-03 7.171326E+01  3.126306E-03 7.928675E+01  9.965744E-01 -1.039188E+01 
1.848125E+02  9.941812E-01 -2.350252E+01  1.968434E-03 7.171621E+01  2.359977E-03 7.161045E+01 
 1.985382E-03 7.121467E+01  9.945880E-01 -1.065729E+01  3.177605E-03 7.895449E+01 
 2.371391E-03 7.178428E+01  3.191893E-03 7.886675E+01  9.958905E-01 -1.064722E+01 
1.885000E+02  9.937247E-01 -2.390204E+01  2.060196E-03 7.181499E+01  2.487875E-03 7.162448E+01 
 2.059424E-03 7.199583E+01  9.956819E-01 -1.082341E+01  3.148185E-03 7.841137E+01 
 2.483710E-03 7.134639E+01  3.153192E-03 7.805658E+01  9.962953E-01 -1.083951E+01 
1.921875E+02  9.932052E-01 -2.447217E+01  2.075419E-03 7.112537E+01  2.510288E-03 7.077124E+01 
 2.074590E-03 7.099116E+01  9.950981E-01 -1.113810E+01  3.202389E-03 7.891859E+01 
 2.521519E-03 7.117922E+01  3.189308E-03 7.889527E+01  9.959612E-01 -1.112813E+01 
1.958750E+02  9.914754E-01 -2.486722E+01  2.129713E-03 7.030072E+01  2.568479E-03 7.124018E+01 
 2.148116E-03 7.018277E+01  9.937284E-01 -1.132295E+01  3.254488E-03 7.956260E+01 
 2.586062E-03 7.145035E+01  3.255342E-03 7.932247E+01  9.954964E-01 -1.124419E+01 
1.995625E+02  9.932280E-01 -2.537111E+01  2.156471E-03 7.014696E+01  2.596289E-03 7.101317E+01 
 2.187757E-03 7.055863E+01  9.951112E-01 -1.154890E+01  3.336855E-03 7.826595E+01 
 2.587749E-03 7.087404E+01  3.339741E-03 7.844508E+01  9.964711E-01 -1.146780E+01 
2.032500E+02  9.921875E-01 -2.591316E+01  2.181752E-03 7.024796E+01  2.612941E-03 7.005606E+01 
 2.183349E-03 7.047963E+01  9.947578E-01 -1.180881E+01  3.422764E-03 7.833502E+01 
 2.631377E-03 6.958848E+01  3.431491E-03 7.816469E+01  9.956732E-01 -1.171575E+01 
2.069375E+02  9.921631E-01 -2.630458E+01  2.232447E-03 6.936203E+01  2.668684E-03 6.927458E+01 
 2.232155E-03 6.944447E+01  9.948554E-01 -1.190387E+01  3.488487E-03 7.812445E+01 
 2.659199E-03 6.930998E+01  3.484977E-03 7.831265E+01  9.951938E-01 -1.182073E+01 
2.106250E+02  9.933855E-01 -2.668236E+01  2.289558E-03 7.002146E+01  2.716543E-03 7.001104E+01 
 2.277495E-03 7.023338E+01  9.952328E-01 -1.208418E+01  3.519217E-03 7.760704E+01 
 2.718138E-03 7.024182E+01  3.519042E-03 7.735499E+01  9.953823E-01 -1.194270E+01 
2.143125E+02  9.917399E-01 -2.731288E+01  2.411749E-03 6.784794E+01  2.855631E-03 6.877661E+01 
 2.394358E-03 6.759290E+01  9.939011E-01 -1.245151E+01  3.535225E-03 7.805085E+01 
 2.827272E-03 6.921867E+01  3.520078E-03 7.808292E+01  9.955742E-01 -1.228748E+01 
2.180000E+02  9.902485E-01 -2.773778E+01  2.405714E-03 6.444567E+01  2.865066E-03 6.602551E+01 
 2.381823E-03 6.498393E+01  9.927275E-01 -1.264216E+01  3.649300E-03 7.841572E+01 
 2.881340E-03 6.682974E+01  3.648585E-03 7.819287E+01  9.958553E-01 -1.248912E+01 
2.216875E+02  9.907306E-01 -2.810201E+01  2.387870E-03 6.532222E+01  2.857900E-03 6.651892E+01 
 2.382690E-03 6.508999E+01  9.923184E-01 -1.281959E+01  3.704613E-03 7.725119E+01 
 2.836681E-03 6.682252E+01  3.721117E-03 7.724785E+01  9.952821E-01 -1.263339E+01 
2.253750E+02  9.922659E-01 -2.854703E+01  2.319617E-03 6.373803E+01  2.809830E-03 6.455190E+01 
 2.326826E-03 6.360344E+01  9.943408E-01 -1.302233E+01  3.799168E-03 7.771668E+01 
 2.818166E-03 6.477580E+01  3.789461E-03 7.779315E+01  9.968337E-01 -1.277029E+01 
2.290625E+02  9.914249E-01 -2.903590E+01  2.336601E-03 6.492328E+01  2.819716E-03 6.702807E+01 
 2.327580E-03 6.461688E+01  9.941872E-01 -1.322942E+01  3.862483E-03 7.713387E+01 
 2.815406E-03 6.672036E+01  3.838796E-03 7.716330E+01  9.964452E-01 -1.303834E+01 
2.327500E+02  9.897305E-01 -2.891500E+01  2.388269E-03 6.669296E+01  2.908591E-03 6.713047E+01 
 2.396640E-03 6.672946E+01  9.927616E-01 -1.291779E+01  3.899898E-03 7.673095E+01 
 2.883702E-03 6.723922E+01  3.911661E-03 7.699972E+01  9.945693E-01 -1.262711E+01 
2.364375E+02  9.912421E-01 -2.986374E+01  2.377252E-03 6.611873E+01  2.909870E-03 6.737744E+01 
 2.391498E-03 6.634423E+01  9.928112E-01 -1.368965E+01  3.917501E-03 7.604527E+01 
 2.894635E-03 6.725286E+01  3.959159E-03 7.627808E+01  9.960684E-01 -1.340815E+01 
2.401250E+02  9.911460E-01 -3.030545E+01  2.476499E-03 6.712392E+01  2.972943E-03 6.726340E+01 
 2.459648E-03 6.621236E+01  9.911526E-01 -1.386876E+01  3.969763E-03 7.664564E+01 
 2.973252E-03 6.755819E+01  4.001895E-03 7.643250E+01  9.946787E-01 -1.356327E+01 
2.438125E+02  9.913919E-01 -3.070947E+01  2.451358E-03 6.646574E+01  3.015820E-03 6.643335E+01 
 2.450285E-03 6.590407E+01  9.925555E-01 -1.416971E+01  4.028468E-03 7.586706E+01 
 3.003836E-03 6.652841E+01  4.046421E-03 7.600528E+01  9.954192E-01 -1.384547E+01 
2.475000E+02  9.909408E-01 -3.116883E+01  2.518506E-03 6.676037E+01  3.058161E-03 6.769554E+01 
 2.539996E-03 6.737484E+01  9.925240E-01 -1.435039E+01  4.084271E-03 7.542513E+01 
 3.053028E-03 6.704264E+01  4.111641E-03 7.495639E+01  9.950654E-01 -1.409699E+01 
2.511875E+02  9.908295E-01 -3.163965E+01  2.540053E-03 6.527529E+01  3.100246E-03 6.533421E+01 
 2.548617E-03 6.562956E+01  9.929162E-01 -1.454477E+01  4.133880E-03 7.606576E+01 
 3.114588E-03 6.547590E+01  4.130956E-03 7.567322E+01  9.952022E-01 -1.425895E+01 
2.548750E+02  9.912967E-01 -3.207002E+01  2.601336E-03 6.572403E+01  3.165096E-03 6.606944E+01 
 2.593696E-03 6.528848E+01  9.920897E-01 -1.477271E+01  4.233085E-03 7.543284E+01 
 3.181563E-03 6.636989E+01  4.234608E-03 7.550129E+01  9.948785E-01 -1.450019E+01 
2.585625E+02  9.902614E-01 -3.249313E+01  2.685714E-03 6.503037E+01  3.232860E-03 6.598186E+01 
 2.681123E-03 6.500329E+01  9.915366E-01 -1.493598E+01  4.255873E-03 7.544965E+01 
 3.243404E-03 6.563839E+01  4.278103E-03 7.552980E+01  9.942937E-01 -1.469694E+01 
2.622500E+02  9.904873E-01 -3.289239E+01  2.680265E-03 6.457637E+01  3.237579E-03 6.524264E+01 
 2.678302E-03 6.477606E+01  9.924004E-01 -1.520231E+01  4.344420E-03 7.474660E+01 
 3.222620E-03 6.539716E+01  4.364167E-03 7.436850E+01  9.947101E-01 -1.492514E+01 
2.659375E+02  9.908729E-01 -3.338794E+01  2.740353E-03 6.477942E+01  3.317430E-03 6.526221E+01 
 2.710179E-03 6.478152E+01  9.923123E-01 -1.548586E+01  4.411732E-03 7.460520E+01 
 3.307470E-03 6.496875E+01  4.393483E-03 7.468633E+01  9.942692E-01 -1.513618E+01 
2.696250E+02  9.909871E-01 -3.374214E+01  2.740018E-03 6.345781E+01  3.353614E-03 6.397403E+01 
 2.735109E-03 6.342088E+01  9.923103E-01 -1.566725E+01  4.454974E-03 7.475653E+01 
 3.366584E-03 6.388374E+01  4.442516E-03 7.476049E+01  9.938636E-01 -1.532852E+01 
2.733125E+02  9.907943E-01 -3.416138E+01  2.797169E-03 6.421207E+01  3.402229E-03 6.468122E+01 
 2.778097E-03 6.468830E+01  9.917737E-01 -1.589901E+01  4.465206E-03 7.384180E+01 
 3.378938E-03 6.496177E+01  4.490157E-03 7.407700E+01  9.943142E-01 -1.555822E+01 
2.770000E+02  9.890502E-01 -3.462035E+01  2.867230E-03 6.322290E+01  3.454305E-03 6.329187E+01 
 2.861474E-03 6.321238E+01  9.921153E-01 -1.605033E+01  4.540708E-03 7.434435E+01 
 3.469520E-03 6.321928E+01  4.538891E-03 7.429936E+01  9.942028E-01 -1.574454E+01 
2.806875E+02  9.893744E-01 -3.500721E+01  2.893969E-03 6.234003E+01  3.542193E-03 6.336716E+01 
 2.913380E-03 6.262706E+01  9.924455E-01 -1.626671E+01  4.597668E-03 7.382848E+01 
 3.519885E-03 6.346212E+01  4.611371E-03 7.364122E+01  9.935618E-01 -1.595488E+01 
2.843750E+02  9.890143E-01 -3.543689E+01  3.018453E-03 6.036206E+01  3.644474E-03 6.180410E+01 
 3.012950E-03 6.041935E+01  9.918681E-01 -1.649805E+01  4.513775E-03 7.418145E+01 
 3.639873E-03 6.151989E+01  4.526993E-03 7.390571E+01  9.923460E-01 -1.616767E+01 
2.880625E+02  9.902550E-01 -3.576898E+01  2.905634E-03 5.959682E+01  3.547592E-03 6.049270E+01 
 2.894829E-03 5.888945E+01  9.924972E-01 -1.673020E+01  4.669072E-03 7.403992E+01 
 3.526151E-03 6.042161E+01  4.688773E-03 7.420803E+01  9.930260E-01 -1.642305E+01 
2.917500E+02  9.892120E-01 -3.621087E+01  2.832001E-03 5.935478E+01  3.497990E-03 5.980933E+01 
 2.839758E-03 5.871181E+01  9.918403E-01 -1.694554E+01  4.776987E-03 7.347567E+01 
 3.507596E-03 5.999037E+01  4.800639E-03 7.364884E+01  9.932271E-01 -1.659526E+01 
2.954375E+02  9.887438E-01 -3.657553E+01  2.778403E-03 5.993946E+01  3.407039E-03 6.028854E+01 
 2.769086E-03 5.980295E+01  9.921683E-01 -1.711032E+01  4.820022E-03 7.317031E+01 
 3.429105E-03 6.006648E+01  4.819549E-03 7.339363E+01  9.928309E-01 -1.682842E+01 
2.991250E+02  9.896643E-01 -3.702764E+01  2.865697E-03 6.137732E+01  3.499346E-03 6.175033E+01 
 2.866099E-03 6.168229E+01  9.920382E-01 -1.733041E+01  4.850669E-03 7.272123E+01 
 3.492962E-03 6.150924E+01  4.867517E-03 7.289643E+01  9.935564E-01 -1.703968E+01 
3.028125E+02  9.893048E-01 -3.745557E+01  2.942455E-03 6.081787E+01  3.575076E-03 6.131668E+01 
 2.967937E-03 6.083730E+01  9.917406E-01 -1.752292E+01  4.903374E-03 7.298129E+01 
 3.584908E-03 6.125948E+01  4.921958E-03 7.298158E+01  9.936690E-01 -1.722569E+01 
3.065000E+02  9.898735E-01 -3.788812E+01  2.892879E-03 6.095607E+01  3.545031E-03 6.152748E+01 
 2.916315E-03 6.120759E+01  9.919625E-01 -1.775630E+01  4.987883E-03 7.221453E+01 
 3.554895E-03 6.142436E+01  4.986942E-03 7.218635E+01  9.939523E-01 -1.752686E+01 
3.101875E+02  9.896139E-01 -3.835620E+01  2.982927E-03 6.129890E+01  3.648974E-03 6.088733E+01 
 2.988888E-03 6.138814E+01  9.914235E-01 -1.795751E+01  5.011337E-03 7.208327E+01 
 3.661323E-03 6.103585E+01  5.029774E-03 7.192348E+01  9.934374E-01 -1.776427E+01 
3.138750E+02  9.890255E-01 -3.877505E+01  3.001605E-03 6.084903E+01  3.698277E-03 6.069580E+01 
 3.015318E-03 6.053497E+01  9.919367E-01 -1.816131E+01  5.088274E-03 7.230856E+01 
 3.708742E-03 6.077880E+01  5.081904E-03 7.235531E+01  9.935680E-01 -1.791500E+01 
3.175625E+02  9.893337E-01 -3.925271E+01  3.043571E-03 6.038959E+01  3.739508E-03 6.069008E+01 
 3.036343E-03 6.047452E+01  9.922460E-01 -1.839650E+01  5.132215E-03 7.194462E+01 
 3.756947E-03 6.069865E+01  5.155573E-03 7.186813E+01  9.929731E-01 -1.813203E+01 
3.212500E+02  9.894308E-01 -3.964106E+01  3.115837E-03 5.943577E+01  3.794834E-03 5.927793E+01 
 3.107545E-03 5.922542E+01  9.925572E-01 -1.857647E+01  5.183715E-03 7.127016E+01 
 3.802772E-03 5.919652E+01  5.198850E-03 7.140578E+01  9.921598E-01 -1.832403E+01 
3.249375E+02  9.892455E-01 -4.011065E+01  3.098706E-03 5.968367E+01  3.791202E-03 5.956799E+01 
 3.082860E-03 5.969871E+01  9.927301E-01 -1.877626E+01  5.212771E-03 7.078532E+01 
 3.794599E-03 5.925602E+01  5.240979E-03 7.064757E+01  9.940079E-01 -1.852534E+01 
3.286250E+02  9.875857E-01 -4.057175E+01  3.157186E-03 6.084139E+01  3.860627E-03 5.957552E+01 
 3.167343E-03 6.062425E+01  9.912907E-01 -1.896478E+01  5.225642E-03 7.058108E+01 
 3.853085E-03 5.957720E+01  5.244329E-03 7.068350E+01  9.912700E-01 -1.871953E+01 
3.323125E+02  9.888816E-01 -4.096667E+01  3.177481E-03 5.975913E+01  3.856411E-03 5.941734E+01 
 3.156142E-03 5.950990E+01  9.918892E-01 -1.919222E+01  5.303053E-03 7.081285E+01 
 3.842837E-03 5.932636E+01  5.332464E-03 7.079234E+01  9.929264E-01 -1.892088E+01 
3.360000E+02  9.887156E-01 -4.148230E+01  3.252102E-03 5.900982E+01  3.886269E-03 5.916367E+01 
 3.255030E-03 5.898526E+01  9.923938E-01 -1.936015E+01  5.322137E-03 7.049077E+01 
 3.899167E-03 5.902308E+01  5.347457E-03 7.065100E+01  9.931017E-01 -1.912264E+01 
3.396875E+02  9.879484E-01 -4.182959E+01  3.284651E-03 5.800329E+01  3.912223E-03 5.819388E+01 
 3.279398E-03 5.782382E+01  9.916212E-01 -1.950639E+01  5.412019E-03 7.083262E+01 
 3.921877E-03 5.807038E+01  5.408884E-03 7.084177E+01  9.930933E-01 -1.927430E+01 
3.433750E+02  9.872874E-01 -4.234383E+01  3.343227E-03 5.853283E+01  3.993138E-03 5.865564E+01 
 3.326916E-03 5.880992E+01  9.922348E-01 -1.973544E+01  5.442742E-03 6.996158E+01 
 4.012469E-03 5.878850E+01  5.423456E-03 6.984309E+01  9.935951E-01 -1.950337E+01 
3.470625E+02  9.870346E-01 -4.285243E+01  3.407226E-03 5.616350E+01  4.131991E-03 5.763026E+01 
 3.421045E-03 5.597028E+01  9.915419E-01 -1.991750E+01  5.444660E-03 7.039086E+01 
 4.132014E-03 5.769161E+01  5.438508E-03 7.028812E+01  9.932067E-01 -1.975811E+01 
3.507500E+02  9.873273E-01 -4.324374E+01  3.394920E-03 5.425166E+01  4.117367E-03 5.660217E+01 
 3.406509E-03 5.421989E+01  9.924195E-01 -2.014078E+01  5.520628E-03 6.981879E+01 
 4.113480E-03 5.654667E+01  5.523280E-03 7.010515E+01  9.934176E-01 -2.001408E+01 
3.544375E+02  9.858743E-01 -4.367207E+01  3.308579E-03 5.323853E+01  4.081913E-03 5.496306E+01 
 3.299159E-03 5.316484E+01  9.920469E-01 -2.036671E+01  5.571156E-03 7.005326E+01 
 4.096269E-03 5.494989E+01  5.596417E-03 7.013775E+01  9.923257E-01 -2.013087E+01 
3.581250E+02  9.864448E-01 -4.405802E+01  3.173503E-03 5.401529E+01  3.985370E-03 5.510450E+01 
 3.150662E-03 5.401313E+01  9.924266E-01 -2.052523E+01  5.637996E-03 6.983458E+01 
 3.980011E-03 5.507979E+01  5.639120E-03 6.988449E+01  9.927192E-01 -2.028885E+01 
3.618125E+02  9.872882E-01 -4.454763E+01  3.228866E-03 5.498732E+01  3.992127E-03 5.540674E+01 
 3.211138E-03 5.482254E+01  9.922814E-01 -2.073743E+01  5.693964E-03 7.003446E+01 
 4.012293E-03 5.565284E+01  5.703257E-03 6.999354E+01  9.928415E-01 -2.052835E+01 
3.655000E+02  9.867574E-01 -4.503030E+01  3.273247E-03 5.479146E+01  4.062145E-03 5.570744E+01 
 3.311112E-03 5.494387E+01  9.920903E-01 -2.096174E+01  5.792813E-03 6.956639E+01 
 4.062618E-03 5.558850E+01  5.803976E-03 6.940329E+01  9.925314E-01 -2.072254E+01 
3.691875E+02  9.873855E-01 -4.551076E+01  3.331954E-03 5.651447E+01  4.105805E-03 5.643181E+01 
 3.317978E-03 5.606171E+01  9.928161E-01 -2.117825E+01  5.773828E-03 6.890374E+01 
 4.118634E-03 5.662999E+01  5.798818E-03 6.881893E+01  9.928419E-01 -2.097216E+01 
3.728750E+02  9.865228E-01 -4.602220E+01  3.369310E-03 5.602374E+01  4.195911E-03 5.616568E+01 
