! Matrix data file written by TouchstoneData, EPCOS AG
! FILENAME: "LQ71A_LB_2_WB.s3p_newformat"
! COMMENT: "(LQ71A_LB_2_WB.s3p) EPCOS AG 18.03.2009 15:2"
! INFO: nport=3, nfreq=1601
! DATE: "Thu Apr  2 14:33:33 2009"
! USER: "Michael Schemies"
!
! port | pin | signal
! -----|-----|--------
!   1  |  9  |  input
!   2  |  1  |  output
!   3  |  2  |  output
! --------------------
!
# MHZ S MA R 50
! freq  magS11 angS11  magS12 angS12  magS13 angS13  ...
5.000000E+01  9.940819E-01 -8.147429E+00  1.809988E-03 8.263369E+01  1.311054E-03 8.293890E+01 
 1.725017E-03 8.509731E+01  9.939385E-01 -4.275376E+00  2.075466E-03 8.683944E+01 
 1.267029E-03 8.344299E+01  2.073980E-03 8.589037E+01  9.957432E-01 -4.159125E+00 
5.371875E+01  9.954289E-01 -8.982174E+00  1.874953E-03 8.696968E+01  1.420278E-03 8.045495E+01 
 1.866591E-03 8.653955E+01  9.950366E-01 -4.806737E+00  2.312656E-03 8.686811E+01 
 1.382487E-03 8.038446E+01  2.326691E-03 8.596649E+01  9.982042E-01 -4.862060E+00 
5.743750E+01  9.946088E-01 -9.631534E+00  1.981799E-03 8.000647E+01  1.554881E-03 8.292958E+01 
 1.974386E-03 8.022878E+01  9.949437E-01 -5.179727E+00  2.292346E-03 8.411311E+01 
 1.556827E-03 8.281617E+01  2.330954E-03 8.429674E+01  9.979038E-01 -5.254152E+00 
6.115625E+01  9.949127E-01 -1.029922E+01  2.207059E-03 8.168193E+01  1.697741E-03 8.149551E+01 
 2.189156E-03 8.142680E+01  9.953646E-01 -5.568262E+00  2.518988E-03 8.609034E+01 
 1.720450E-03 8.131773E+01  2.545169E-03 8.638095E+01  9.979275E-01 -5.581335E+00 
6.487500E+01  9.937294E-01 -1.082139E+01  2.182258E-03 8.218348E+01  1.746779E-03 7.891230E+01 
 2.206441E-03 8.211352E+01  9.946207E-01 -5.877146E+00  2.734680E-03 8.612006E+01 
 1.741661E-03 8.009156E+01  2.708859E-03 8.604551E+01  9.973658E-01 -5.862970E+00 
6.859375E+01  9.945963E-01 -1.155809E+01  2.382469E-03 8.048398E+01  1.752433E-03 7.840038E+01 
 2.382220E-03 8.073077E+01  9.948746E-01 -6.234083E+00  2.957009E-03 7.937297E+01 
 1.735297E-03 7.848934E+01  2.948963E-03 8.008674E+01  9.976364E-01 -6.219071E+00 
7.231250E+01  9.941533E-01 -1.217089E+01  2.560686E-03 8.004346E+01  1.989504E-03 8.000718E+01 
 2.550696E-03 8.060262E+01  9.938082E-01 -6.539178E+00  2.830845E-03 7.594316E+01 
 1.968428E-03 8.063394E+01  2.835037E-03 7.677433E+01  9.980263E-01 -6.467875E+00 
7.603125E+01  9.944310E-01 -1.277861E+01  2.458875E-03 7.856237E+01  1.800191E-03 7.722256E+01 
 2.480071E-03 7.865873E+01  9.947735E-01 -6.900047E+00  3.042682E-03 8.420688E+01 
 1.834349E-03 7.694074E+01  3.066903E-03 8.297728E+01  9.982513E-01 -6.813847E+00 
7.975000E+01  9.936208E-01 -1.342831E+01  2.732626E-03 7.840880E+01  1.985687E-03 7.668316E+01 
 2.738391E-03 7.871769E+01  9.945010E-01 -7.195025E+00  3.299064E-03 8.356711E+01 
 1.989303E-03 7.782279E+01  3.279593E-03 8.437882E+01  9.976068E-01 -7.130660E+00 
8.346875E+01  9.930349E-01 -1.394236E+01  2.738503E-03 7.590888E+01  2.045918E-03 7.450674E+01 
 2.758315E-03 7.603765E+01  9.951570E-01 -7.453491E+00  3.506110E-03 8.502117E+01 
 2.039256E-03 7.579747E+01  3.479636E-03 8.544692E+01  9.974724E-01 -7.472503E+00 
8.718750E+01  9.930943E-01 -1.465586E+01  2.937929E-03 7.675100E+01  2.207172E-03 7.927793E+01 
 2.923315E-03 7.701396E+01  9.954481E-01 -7.917703E+00  3.672583E-03 8.157611E+01 
 2.175799E-03 7.938999E+01  3.684165E-03 8.189543E+01  9.988256E-01 -7.772589E+00 
9.090625E+01  9.919595E-01 -1.519716E+01  2.999308E-03 7.778641E+01  2.245062E-03 7.690614E+01 
 3.020482E-03 7.815267E+01  9.937993E-01 -8.201314E+00  3.675326E-03 8.234531E+01 
 2.257071E-03 7.701952E+01  3.666935E-03 8.229443E+01  9.977893E-01 -8.049015E+00 
9.462500E+01  9.930711E-01 -1.576474E+01  3.124487E-03 7.767343E+01  2.399331E-03 7.754578E+01 
 3.115652E-03 7.795953E+01  9.947093E-01 -8.489633E+00  3.884604E-03 8.157603E+01 
 2.408334E-03 7.839145E+01  3.871111E-03 8.196130E+01  9.977521E-01 -8.356068E+00 
9.834375E+01  9.936064E-01 -1.642140E+01  3.472192E-03 7.144718E+01  2.493533E-03 7.400302E+01 
 3.453091E-03 7.204456E+01  9.948447E-01 -8.907374E+00  4.099335E-03 8.035953E+01 
 2.473467E-03 7.419068E+01  4.044033E-03 8.013988E+01  9.981232E-01 -8.851241E+00 
1.020625E+02  9.932188E-01 -1.700645E+01  3.379798E-03 7.605161E+01  2.475207E-03 7.774880E+01 
 3.366814E-03 7.673802E+01  9.947691E-01 -9.119182E+00  4.234326E-03 8.166765E+01 
 2.497398E-03 7.716695E+01  4.277527E-03 8.216941E+01  9.975008E-01 -8.983681E+00 
1.057812E+02  9.916110E-01 -1.766955E+01  3.591588E-03 7.511630E+01  2.730798E-03 7.621530E+01 
 3.558542E-03 7.498005E+01  9.949447E-01 -9.457774E+00  4.322085E-03 8.115548E+01 
 2.702352E-03 7.700221E+01  4.365315E-03 8.117037E+01  9.977033E-01 -9.325729E+00 
1.095000E+02  9.918034E-01 -1.819043E+01  3.616802E-03 7.462367E+01  2.694765E-03 7.564117E+01 
 3.615561E-03 7.485453E+01  9.948264E-01 -9.735561E+00  4.451208E-03 8.139116E+01 
 2.674619E-03 7.520481E+01  4.452730E-03 8.110651E+01  9.969466E-01 -9.656746E+00 
1.132188E+02  9.926199E-01 -1.890308E+01  3.803949E-03 7.351275E+01  2.918578E-03 7.423300E+01 
 3.785684E-03 7.331098E+01  9.950422E-01 -1.017995E+01  4.473239E-03 8.014755E+01 
 2.893680E-03 7.418718E+01  4.459652E-03 8.031151E+01  9.973145E-01 -1.012983E+01 
1.169375E+02  9.916051E-01 -1.941670E+01  3.914966E-03 7.367680E+01  2.954505E-03 7.062156E+01 
 3.916773E-03 7.376870E+01  9.949006E-01 -1.040852E+01  4.391077E-03 8.180001E+01 
 2.967989E-03 7.083957E+01  4.408854E-03 8.142543E+01  9.962339E-01 -1.040571E+01 
1.206562E+02  9.915177E-01 -2.000764E+01  4.016871E-03 7.164791E+01  2.958202E-03 7.061896E+01 
 3.989881E-03 7.110251E+01  9.960902E-01 -1.068938E+01  4.720566E-03 8.352652E+01 
 2.926445E-03 7.145667E+01  4.744025E-03 8.334432E+01  9.969126E-01 -1.068930E+01 
1.243750E+02  9.920285E-01 -2.060060E+01  4.083974E-03 7.301920E+01  3.033166E-03 7.189218E+01 
 4.100071E-03 7.354659E+01  9.949273E-01 -1.100387E+01  5.177028E-03 8.203701E+01 
 3.043460E-03 7.227768E+01  5.128233E-03 8.234100E+01  9.970685E-01 -1.104644E+01 
1.280938E+02  9.920831E-01 -2.122017E+01  4.181816E-03 7.378862E+01  3.153164E-03 7.428514E+01 
 4.152657E-03 7.398568E+01  9.959037E-01 -1.131291E+01  5.202734E-03 7.845825E+01 
 3.167110E-03 7.419698E+01  5.170306E-03 7.811246E+01  9.967685E-01 -1.128359E+01 
1.318125E+02  9.913861E-01 -2.179534E+01  4.237870E-03 7.308257E+01  3.125526E-03 7.374093E+01 
 4.264958E-03 7.292790E+01  9.947883E-01 -1.166076E+01  5.140384E-03 7.674146E+01 
 3.141551E-03 7.291934E+01  5.169073E-03 7.679534E+01  9.967835E-01 -1.156263E+01 
1.355312E+02  9.921734E-01 -2.226502E+01  4.464827E-03 7.132315E+01  3.260343E-03 7.123422E+01 
 4.475250E-03 7.098432E+01  9.954958E-01 -1.180224E+01  5.274379E-03 8.120761E+01 
 3.254782E-03 7.097310E+01  5.280077E-03 8.181283E+01  9.972193E-01 -1.186704E+01 
1.392500E+02  9.920225E-01 -2.293381E+01  4.530038E-03 7.197055E+01  3.394374E-03 7.238932E+01 
 4.509537E-03 7.219807E+01  9.952547E-01 -1.224206E+01  5.497588E-03 7.860937E+01 
 3.402474E-03 7.234625E+01  5.531547E-03 7.827736E+01  9.975649E-01 -1.230655E+01 
1.429688E+02  9.913649E-01 -2.350185E+01  4.457436E-03 7.227100E+01  3.438280E-03 7.179399E+01 
 4.436827E-03 7.221737E+01  9.953565E-01 -1.250534E+01  5.659361E-03 7.453806E+01 
 3.417207E-03 7.182496E+01  5.679737E-03 7.445174E+01  9.961702E-01 -1.257866E+01 
1.466875E+02  9.920247E-01 -2.398948E+01  4.677371E-03 7.119278E+01  3.530228E-03 7.228057E+01 
 4.655766E-03 7.154047E+01  9.953301E-01 -1.278515E+01  5.775199E-03 7.784713E+01 
 3.483426E-03 7.156299E+01  5.822919E-03 7.795328E+01  9.962652E-01 -1.273605E+01 
1.504062E+02  9.919073E-01 -2.467684E+01  4.840248E-03 7.185869E+01  3.625728E-03 7.154551E+01 
 4.856143E-03 7.202327E+01  9.961904E-01 -1.322610E+01  5.909850E-03 7.706811E+01 
 3.616878E-03 7.181137E+01  5.912033E-03 7.698582E+01  9.955813E-01 -1.322883E+01 
1.541250E+02  9.920699E-01 -2.521886E+01  4.955151E-03 7.057276E+01  3.626971E-03 6.976787E+01 
 4.927900E-03 7.064452E+01  9.961742E-01 -1.356483E+01  6.076884E-03 7.681510E+01 
 3.614973E-03 7.030144E+01  6.128709E-03 7.687277E+01  9.957911E-01 -1.354030E+01 
1.578438E+02  9.919619E-01 -2.577904E+01  5.079232E-03 7.005814E+01  3.780314E-03 6.988623E+01 
 5.088091E-03 6.979279E+01  9.951782E-01 -1.381002E+01  6.142782E-03 7.748202E+01 
 3.775823E-03 6.976703E+01  6.140064E-03 7.745447E+01  9.969272E-01 -1.384030E+01 
1.615625E+02  9.919626E-01 -2.619124E+01  5.189877E-03 6.730511E+01  3.805002E-03 6.598765E+01 
 5.204734E-03 6.747518E+01  9.960654E-01 -1.397979E+01  6.349964E-03 8.035951E+01 
 3.789866E-03 6.621584E+01  6.400244E-03 8.031286E+01  9.965939E-01 -1.417541E+01 
1.652812E+02  9.911784E-01 -2.693084E+01  5.101573E-03 6.878227E+01  3.824966E-03 6.870512E+01 
 5.100897E-03 6.893520E+01  9.956502E-01 -1.446553E+01  6.605419E-03 7.636206E+01 
 3.840478E-03 6.877370E+01  6.610013E-03 7.644400E+01  9.952679E-01 -1.456289E+01 
1.690000E+02  9.908140E-01 -2.760091E+01  5.472301E-03 6.889596E+01  4.000667E-03 6.877664E+01 
 5.460652E-03 6.895560E+01  9.946697E-01 -1.479095E+01  6.717452E-03 7.397528E+01 
 4.003083E-03 6.878178E+01  6.728371E-03 7.391802E+01  9.952312E-01 -1.482459E+01 
1.727188E+02  9.911890E-01 -2.809311E+01  5.322721E-03 6.819859E+01  4.021985E-03 6.839821E+01 
 5.343334E-03 6.842414E+01  9.942935E-01 -1.507918E+01  6.808504E-03 7.402413E+01 
 4.034251E-03 6.870488E+01  6.820444E-03 7.403810E+01  9.958880E-01 -1.517801E+01 
1.764375E+02  9.916051E-01 -2.857639E+01  5.566524E-03 6.883678E+01  4.118702E-03 6.830325E+01 
 5.571183E-03 6.895232E+01  9.946578E-01 -1.542229E+01  6.603120E-03 7.555350E+01 
 4.139207E-03 6.838566E+01  6.629114E-03 7.531078E+01  9.941600E-01 -1.551733E+01 
1.801562E+02  9.913611E-01 -2.905852E+01  5.549277E-03 6.655598E+01  4.028934E-03 6.758003E+01 
 5.536174E-03 6.662597E+01  9.945420E-01 -1.572601E+01  7.026062E-03 7.692514E+01 
 4.002450E-03 6.762070E+01  7.052214E-03 7.672057E+01  9.944930E-01 -1.581451E+01 
1.838750E+02  9.908324E-01 -2.969438E+01  5.561959E-03 6.671933E+01  4.117346E-03 6.768459E+01 
 5.569193E-03 6.704651E+01  9.939291E-01 -1.604491E+01  7.181500E-03 7.553485E+01 
 4.150562E-03 6.731909E+01  7.195285E-03 7.568044E+01  9.951532E-01 -1.613138E+01 
1.875938E+02  9.911300E-01 -3.032289E+01  5.879441E-03 6.722755E+01  4.366303E-03 6.627444E+01 
 5.873648E-03 6.724515E+01  9.929143E-01 -1.641440E+01  6.899223E-03 7.487811E+01 
 4.380749E-03 6.620768E+01  6.883931E-03 7.491634E+01  9.948805E-01 -1.644868E+01 
1.913125E+02  9.919241E-01 -3.084059E+01  5.849230E-03 6.711952E+01  4.351781E-03 6.644531E+01 
 5.851929E-03 6.716677E+01  9.936439E-01 -1.671880E+01  7.261720E-03 7.462486E+01 
 4.340907E-03 6.648689E+01  7.304927E-03 7.457555E+01  9.959885E-01 -1.674312E+01 
1.950312E+02  9.897020E-01 -3.139934E+01  6.022297E-03 6.623733E+01  4.500658E-03 6.650948E+01 
 6.007263E-03 6.629045E+01  9.928128E-01 -1.715727E+01  7.389958E-03 7.394844E+01 
 4.493010E-03 6.667698E+01  7.394422E-03 7.393164E+01  9.941008E-01 -1.720033E+01 
1.987500E+02  9.900679E-01 -3.197923E+01  6.011409E-03 6.538023E+01  4.479735E-03 6.568348E+01 
 6.003186E-03 6.511712E+01  9.934465E-01 -1.749166E+01  7.522981E-03 7.362957E+01 
 4.502076E-03 6.584346E+01  7.524754E-03 7.353359E+01  9.952833E-01 -1.748455E+01 
2.024688E+02  9.891063E-01 -3.266129E+01  6.155574E-03 6.475991E+01  4.550263E-03 6.449358E+01 
 6.141939E-03 6.485733E+01  9.927500E-01 -1.781027E+01  7.724681E-03 7.399639E+01 
 4.535457E-03 6.469866E+01  7.719574E-03 7.398406E+01  9.957503E-01 -1.785802E+01 
2.061875E+02  9.874878E-01 -3.314538E+01  6.127194E-03 6.363154E+01  4.420839E-03 6.425206E+01 
 6.101326E-03 6.350198E+01  9.918569E-01 -1.807695E+01  8.007990E-03 7.331819E+01 
 4.408619E-03 6.397400E+01  8.025140E-03 7.317643E+01  9.947205E-01 -1.814068E+01 
2.099062E+02  9.900708E-01 -3.370499E+01  6.239182E-03 6.553452E+01  4.704155E-03 6.508053E+01 
 6.214741E-03 6.510414E+01  9.927246E-01 -1.849469E+01  7.840955E-03 7.149622E+01 
 4.678379E-03 6.482170E+01  7.846866E-03 7.145379E+01  9.960519E-01 -1.855970E+01 
2.136250E+02  9.876846E-01 -3.434195E+01  6.626029E-03 6.309898E+01  4.963689E-03 6.298803E+01 
 6.609987E-03 6.283766E+01  9.910719E-01 -1.887692E+01  7.713692E-03 7.159078E+01 
 4.955202E-03 6.297927E+01  7.677734E-03 7.164415E+01  9.943661E-01 -1.885358E+01 
2.173438E+02  9.879145E-01 -3.491251E+01  6.416398E-03 6.129097E+01  4.663484E-03 6.196906E+01 
 6.362176E-03 6.161147E+01  9.906861E-01 -1.910643E+01  7.829263E-03 7.526052E+01 
 4.680483E-03 6.211838E+01  7.824797E-03 7.533339E+01  9.949066E-01 -1.920004E+01 
2.210625E+02  9.876071E-01 -3.554048E+01  6.559939E-03 6.264607E+01  4.777478E-03 6.287523E+01 
 6.511313E-03 6.280226E+01  9.923508E-01 -1.943819E+01  8.120144E-03 7.312685E+01 
 4.792241E-03 6.314084E+01  8.131819E-03 7.312663E+01  9.950123E-01 -1.952738E+01 
2.247812E+02  9.859827E-01 -3.604570E+01  6.558238E-03 6.173807E+01  4.737206E-03 6.320523E+01 
 6.544892E-03 6.203556E+01  9.920007E-01 -1.978574E+01  8.459778E-03 7.173002E+01 
 4.750112E-03 6.333578E+01  8.487159E-03 7.184849E+01  9.952959E-01 -1.986035E+01 
2.285000E+02  9.868189E-01 -3.662836E+01  6.658489E-03 6.292548E+01  4.966782E-03 6.310440E+01 
 6.600685E-03 6.313735E+01  9.908949E-01 -2.010638E+01  8.410410E-03 7.059019E+01 
 4.939915E-03 6.328902E+01  8.403990E-03 7.048944E+01  9.952624E-01 -2.018011E+01 
2.322188E+02  9.843714E-01 -3.719277E+01  6.903499E-03 6.147322E+01  5.150055E-03 5.991216E+01 
 6.876713E-03 6.166316E+01  9.896000E-01 -2.044834E+01  8.069240E-03 7.175166E+01 
 5.201647E-03 5.961079E+01  8.072310E-03 7.151226E+01  9.938368E-01 -2.054813E+01 
2.359375E+02  9.850431E-01 -3.787499E+01  6.759632E-03 6.201885E+01  5.020366E-03 6.197649E+01 
 6.774230E-03 6.221770E+01  9.906373E-01 -2.070076E+01  8.466155E-03 7.037956E+01 
 5.036940E-03 6.132631E+01  8.475020E-03 7.067279E+01  9.938272E-01 -2.086259E+01 
2.396562E+02  9.854065E-01 -3.848828E+01  7.028564E-03 6.113426E+01  5.208528E-03 6.108919E+01 
 7.005960E-03 6.129068E+01  9.907993E-01 -2.111958E+01  8.607266E-03 7.023751E+01 
 5.180360E-03 6.172352E+01  8.601130E-03 7.034627E+01  9.946904E-01 -2.123660E+01 
2.433750E+02  9.834817E-01 -3.903861E+01  6.898801E-03 6.082485E+01  5.153894E-03 6.062334E+01 
 6.932987E-03 6.078733E+01  9.906099E-01 -2.142998E+01  8.677695E-03 6.997455E+01 
 5.172406E-03 6.066159E+01  8.671904E-03 7.012762E+01  9.938682E-01 -2.153653E+01 
2.470938E+02  9.837997E-01 -3.960055E+01  7.079514E-03 6.063304E+01  5.249640E-03 6.066814E+01 
 7.055313E-03 6.051277E+01  9.910200E-01 -2.172831E+01  8.770708E-03 7.011259E+01 
 5.231801E-03 6.103424E+01  8.775690E-03 6.990404E+01  9.943666E-01 -2.189742E+01 
2.508125E+02  9.828137E-01 -4.020222E+01  6.965616E-03 5.956877E+01  5.171789E-03 6.001198E+01 
 6.969090E-03 5.955207E+01  9.899129E-01 -2.202088E+01  9.135638E-03 6.886149E+01 
 5.173175E-03 6.031806E+01  9.103516E-03 6.908146E+01  9.935379E-01 -2.218343E+01 
2.545312E+02  9.821941E-01 -4.075872E+01  7.323022E-03 6.032202E+01  5.426845E-03 5.870824E+01 
 7.292695E-03 6.029393E+01  9.897404E-01 -2.233349E+01  8.712471E-03 6.885277E+01 
 5.396614E-03 5.846060E+01  8.713849E-03 6.886978E+01  9.940624E-01 -2.254960E+01 
2.582500E+02  9.808284E-01 -4.138560E+01  7.457069E-03 5.694184E+01  5.488152E-03 5.627989E+01 
 7.454143E-03 5.667556E+01  9.890915E-01 -2.271670E+01  8.870797E-03 7.069781E+01 
 5.503949E-03 5.621713E+01  8.892448E-03 7.092360E+01  9.928723E-01 -2.271980E+01 
2.619688E+02  9.812255E-01 -4.189026E+01  7.071255E-03 5.879571E+01  5.137903E-03 5.880354E+01 
 7.092886E-03 5.867622E+01  9.905977E-01 -2.290693E+01  9.508377E-03 7.044341E+01 
 5.131339E-03 5.887856E+01  9.497221E-03 7.062916E+01  9.927957E-01 -2.314718E+01 
2.656875E+02  9.811255E-01 -4.250291E+01  7.251300E-03 5.929964E+01  5.418059E-03 5.871432E+01 
 7.263465E-03 5.944378E+01  9.895079E-01 -2.324675E+01  9.830443E-03 6.843307E+01 
 5.421244E-03 5.915084E+01  9.751391E-03 6.843748E+01  9.925135E-01 -2.349826E+01 
2.694062E+02  9.813958E-01 -4.306473E+01  7.382055E-03 5.782273E+01  5.493964E-03 5.810164E+01 
 7.375251E-03 5.793846E+01  9.893163E-01 -2.352672E+01  9.374131E-03 6.563599E+01 
 5.452891E-03 5.793929E+01  9.316361E-03 6.571693E+01  9.913556E-01 -2.382141E+01 
2.731250E+02  9.811807E-01 -4.367098E+01  7.475339E-03 5.783882E+01  5.557477E-03 5.785914E+01 
 7.500433E-03 5.823692E+01  9.893631E-01 -2.382042E+01  8.985834E-03 6.720811E+01 
 5.544377E-03 5.779578E+01  8.993993E-03 6.704347E+01  9.917498E-01 -2.408830E+01 
2.768438E+02  9.789238E-01 -4.422935E+01  7.493112E-03 5.593217E+01  5.500345E-03 5.421407E+01 
 7.477839E-03 5.597910E+01  9.880807E-01 -2.404754E+01  9.287181E-03 6.995935E+01 
 5.477952E-03 5.393629E+01  9.300990E-03 6.998843E+01  9.912500E-01 -2.446037E+01 
2.805625E+02  9.797167E-01 -4.480426E+01  7.558755E-03 5.730772E+01  5.491305E-03 5.633783E+01 
 7.517009E-03 5.712149E+01  9.881864E-01 -2.443349E+01  9.524443E-03 6.861961E+01 
 5.490713E-03 5.640340E+01  9.535199E-03 6.868548E+01  9.918043E-01 -2.476094E+01 
2.842812E+02  9.794301E-01 -4.537771E+01  7.719619E-03 5.657898E+01  5.670749E-03 5.673800E+01 
 7.733675E-03 5.670090E+01  9.880360E-01 -2.476097E+01  9.646548E-03 6.720752E+01 
 5.661475E-03 5.674149E+01  9.678779E-03 6.728604E+01  9.901568E-01 -2.514925E+01 
2.880000E+02  9.790311E-01 -4.587266E+01  7.620762E-03 5.694308E+01  5.595874E-03 5.658469E+01 
 7.604617E-03 5.691193E+01  9.885487E-01 -2.507776E+01  9.555563E-03 6.689447E+01 
 5.589188E-03 5.679851E+01  9.599160E-03 6.678872E+01  9.904093E-01 -2.541934E+01 
2.917188E+02  9.786706E-01 -4.651687E+01  7.768635E-03 5.639284E+01  5.723718E-03 5.579948E+01 
 7.749254E-03 5.660360E+01  9.891855E-01 -2.529221E+01  9.665999E-03 6.741258E+01 
 5.753607E-03 5.589953E+01  9.656205E-03 6.756234E+01  9.913217E-01 -2.575713E+01 
2.954375E+02  9.786507E-01 -4.714757E+01  7.775871E-03 5.525309E+01  5.805811E-03 5.525016E+01 
 7.762714E-03 5.526403E+01  9.882687E-01 -2.565432E+01  9.749568E-03 6.619979E+01 
 5.801071E-03 5.520413E+01  9.769443E-03 6.622077E+01  9.901386E-01 -2.602698E+01 
2.991562E+02  9.789864E-01 -4.767468E+01  7.910737E-03 5.531742E+01  5.847137E-03 5.458985E+01 
 7.908984E-03 5.533650E+01  9.874499E-01 -2.602766E+01  9.778019E-03 6.707411E+01 
 5.818577E-03 5.468099E+01  9.796472E-03 6.696325E+01  9.905981E-01 -2.638745E+01 
3.028750E+02  9.773042E-01 -4.821290E+01  7.785334E-03 5.375824E+01  5.811961E-03 5.298184E+01 
 7.776894E-03 5.370617E+01  9.863160E-01 -2.632676E+01  9.886116E-03 6.643871E+01 
 5.804708E-03 5.302289E+01  9.920807E-03 6.643811E+01  9.897423E-01 -2.671247E+01 
3.065938E+02  9.777691E-01 -4.871385E+01  7.792098E-03 5.529173E+01  5.828288E-03 5.491086E+01 
 7.783674E-03 5.559952E+01  9.877229E-01 -2.655555E+01  1.033492E-02 6.522239E+01 
 5.813513E-03 5.491269E+01  1.035478E-02 6.501875E+01  9.897566E-01 -2.708437E+01 
3.103125E+02  9.779096E-01 -4.935505E+01  7.986330E-03 5.496632E+01  5.970999E-03 5.411120E+01 
 8.003522E-03 5.499697E+01  9.876876E-01 -2.695587E+01  9.893602E-03 6.278350E+01 
 5.961760E-03 5.377558E+01  9.906803E-03 6.284404E+01  9.894491E-01 -2.736060E+01 
3.140312E+02  9.777138E-01 -4.985280E+01  8.115828E-03 5.389415E+01  5.881194E-03 5.221010E+01 
 8.104695E-03 5.387001E+01  9.872544E-01 -2.723114E+01  9.298469E-03 6.435466E+01 
 5.872940E-03 5.233029E+01  9.307822E-03 6.420560E+01  9.897839E-01 -2.762061E+01 
3.177500E+02  9.776053E-01 -5.046068E+01  8.147319E-03 5.318593E+01  5.928612E-03 5.275557E+01 
 8.146941E-03 5.321915E+01  9.866830E-01 -2.761479E+01  9.717954E-03 6.796291E+01 
 5.929870E-03 5.315144E+01  9.729217E-03 6.793982E+01  9.899902E-01 -2.792951E+01 
3.214688E+02  9.768373E-01 -5.102666E+01  8.011324E-03 5.153491E+01  5.740933E-03 5.095453E+01 
 8.001406E-03 5.127934E+01  9.862167E-01 -2.790268E+01  1.042843E-02 6.765624E+01 
 5.763030E-03 5.101334E+01  1.047799E-02 6.736643E+01  9.895547E-01 -2.836186E+01 
3.251875E+02  9.767674E-01 -5.161837E+01  8.024820E-03 5.245363E+01  5.809967E-03 5.329847E+01 
