! Matrix data file written by TouchstoneData, EPCOS AG
! FILENAME: "newformat_B3519.NB.2.s2p"
! COMMENT: "(B3519.NB.2.s2p)"
! INFO: nport=2, nfreq=1601
! DATE: "Mon Sep  5 10:31:02 2011"
! USER: "Sergey Rostovtsev"
!
! port | pin | signal
! -----|-----|--------
!   1  |  2  |  in
!   2  |  5  |  out
! --------------------
! 
# MHZ S MA R 50
! freq  magS11 angS11  magS21 angS21  magS12 angS12  magS22 angS22
1.385500E+03  9.548557E-01 -1.019674E+02  4.693159E-03 -5.966452E+00  4.681626E-03 -6.254699E+00  9.604560E-01 -1.015722E+02 
1.385750E+03  9.549695E-01 -1.020005E+02  4.686850E-03 -6.147463E+00  4.698500E-03 -6.091069E+00  9.603582E-01 -1.015608E+02 
1.386000E+03  9.550788E-01 -1.020219E+02  4.677488E-03 -6.128542E+00  4.691292E-03 -6.026362E+00  9.603443E-01 -1.015926E+02 
1.386250E+03  9.552964E-01 -1.020171E+02  4.682234E-03 -5.810988E+00  4.672278E-03 -5.816015E+00  9.603608E-01 -1.016193E+02 
1.386500E+03  9.555526E-01 -1.020450E+02  4.693956E-03 -5.976434E+00  4.674869E-03 -5.856953E+00  9.603188E-01 -1.015999E+02 
1.386750E+03  9.558797E-01 -1.020615E+02  4.682847E-03 -6.159802E+00  4.677055E-03 -6.024888E+00  9.603479E-01 -1.016798E+02 
1.387000E+03  9.560454E-01 -1.021025E+02  4.686739E-03 -6.057320E+00  4.681616E-03 -5.999804E+00  9.603425E-01 -1.016907E+02 
1.387250E+03  9.562745E-01 -1.021359E+02  4.681631E-03 -5.876917E+00  4.672460E-03 -6.012441E+00  9.603980E-01 -1.017287E+02 
1.387500E+03  9.565103E-01 -1.021492E+02  4.664530E-03 -6.017057E+00  4.671149E-03 -6.105654E+00  9.603127E-01 -1.017661E+02 
1.387750E+03  9.567395E-01 -1.021786E+02  4.678877E-03 -6.011240E+00  4.654939E-03 -6.033595E+00  9.602666E-01 -1.017620E+02 
1.388000E+03  9.569827E-01 -1.022260E+02  4.656666E-03 -5.985107E+00  4.655623E-03 -6.139975E+00  9.603316E-01 -1.017989E+02 
1.388250E+03  9.571560E-01 -1.022674E+02  4.659951E-03 -5.972612E+00  4.660648E-03 -6.034947E+00  9.603382E-01 -1.018462E+02 
1.388500E+03  9.572926E-01 -1.023013E+02  4.667898E-03 -6.093468E+00  4.648873E-03 -5.999044E+00  9.603649E-01 -1.018775E+02 
1.388750E+03  9.574086E-01 -1.023347E+02  4.653717E-03 -6.082866E+00  4.659353E-03 -6.032909E+00  9.602756E-01 -1.019043E+02 
1.389000E+03  9.574787E-01 -1.023725E+02  4.654614E-03 -5.976279E+00  4.642071E-03 -5.734926E+00  9.601798E-01 -1.019430E+02 
1.389250E+03  9.575553E-01 -1.023867E+02  4.652664E-03 -5.944123E+00  4.651142E-03 -6.043346E+00  9.601022E-01 -1.019884E+02 
1.389500E+03  9.577528E-01 -1.024278E+02  4.662558E-03 -6.015390E+00  4.658329E-03 -6.151269E+00  9.599811E-01 -1.020029E+02 
1.389750E+03  9.579795E-01 -1.024787E+02  4.662680E-03 -6.260685E+00  4.646975E-03 -6.110973E+00  9.597970E-01 -1.020788E+02 
1.390000E+03  9.581644E-01 -1.025110E+02  4.640821E-03 -6.264134E+00  4.637659E-03 -6.273870E+00  9.596701E-01 -1.020823E+02 
1.390250E+03  9.582244E-01 -1.025463E+02  4.642155E-03 -6.258118E+00  4.637549E-03 -6.214677E+00  9.595644E-01 -1.020959E+02 
1.390500E+03  9.582559E-01 -1.025771E+02  4.623995E-03 -6.274037E+00  4.630022E-03 -6.238746E+00  9.592837E-01 -1.021193E+02 
1.390750E+03  9.582408E-01 -1.026389E+02  4.643884E-03 -6.322614E+00  4.646418E-03 -6.538617E+00  9.591012E-01 -1.021812E+02 
1.391000E+03  9.582280E-01 -1.026516E+02  4.628125E-03 -6.456689E+00  4.639466E-03 -6.746244E+00  9.589380E-01 -1.022092E+02 
1.391250E+03  9.582149E-01 -1.026918E+02  4.624657E-03 -6.553443E+00  4.602219E-03 -6.588618E+00  9.587397E-01 -1.022161E+02 
1.391500E+03  9.582302E-01 -1.027345E+02  4.612273E-03 -6.483440E+00  4.613950E-03 -6.692766E+00  9.586343E-01 -1.022457E+02 
1.391750E+03  9.583084E-01 -1.027529E+02  4.614006E-03 -6.467655E+00  4.613803E-03 -6.722907E+00  9.585481E-01 -1.022581E+02 
1.392000E+03  9.583010E-01 -1.027966E+02  4.602174E-03 -6.598358E+00  4.605521E-03 -6.694324E+00  9.584075E-01 -1.022506E+02 
1.392250E+03  9.583057E-01 -1.028587E+02  4.611507E-03 -6.543397E+00  4.611857E-03 -6.733146E+00  9.585330E-01 -1.022896E+02 
1.392500E+03  9.583140E-01 -1.029108E+02  4.612934E-03 -6.791572E+00  4.628925E-03 -6.878360E+00  9.586630E-01 -1.022984E+02 
1.392750E+03  9.582920E-01 -1.029294E+02  4.594295E-03 -6.904407E+00  4.598117E-03 -6.956342E+00  9.587553E-01 -1.023181E+02 
1.393000E+03  9.582474E-01 -1.029614E+02  4.581881E-03 -7.081429E+00  4.579585E-03 -6.750389E+00  9.587688E-01 -1.023347E+02 
1.393250E+03  9.582629E-01 -1.030119E+02  4.575873E-03 -7.170690E+00  4.588381E-03 -7.169852E+00  9.589362E-01 -1.023447E+02 
1.393500E+03  9.582323E-01 -1.030576E+02  4.585623E-03 -7.405990E+00  4.557380E-03 -7.218332E+00  9.590522E-01 -1.024080E+02 
1.393750E+03  9.582046E-01 -1.031088E+02  4.575954E-03 -7.241722E+00  4.566005E-03 -7.420597E+00  9.591206E-01 -1.024240E+02 
1.394000E+03  9.581482E-01 -1.031677E+02  4.551348E-03 -7.466397E+00  4.559572E-03 -7.503373E+00  9.592835E-01 -1.024347E+02 
1.394250E+03  9.579601E-01 -1.031879E+02  4.524431E-03 -7.517566E+00  4.532975E-03 -7.772542E+00  9.594457E-01 -1.024592E+02 
1.394500E+03  9.577579E-01 -1.032308E+02  4.518407E-03 -7.653903E+00  4.530507E-03 -7.817292E+00  9.595666E-01 -1.024707E+02 
1.394750E+03  9.575980E-01 -1.032804E+02  4.503536E-03 -7.633503E+00  4.494988E-03 -7.806411E+00  9.597711E-01 -1.025305E+02 
1.395000E+03  9.573783E-01 -1.033480E+02  4.510394E-03 -8.043690E+00  4.507050E-03 -7.834330E+00  9.598675E-01 -1.025253E+02 
1.395250E+03  9.571898E-01 -1.033806E+02  4.471990E-03 -8.016022E+00  4.502009E-03 -7.910793E+00  9.601197E-01 -1.025502E+02 
1.395500E+03  9.567977E-01 -1.034066E+02  4.482663E-03 -7.755750E+00  4.468951E-03 -7.703088E+00  9.603237E-01 -1.026060E+02 
1.395750E+03  9.564875E-01 -1.034402E+02  4.466477E-03 -8.087484E+00  4.473466E-03 -7.930810E+00  9.604578E-01 -1.026305E+02 
1.396000E+03  9.561238E-01 -1.034732E+02  4.436037E-03 -8.065028E+00  4.432528E-03 -7.995181E+00  9.605442E-01 -1.026923E+02 
1.396250E+03  9.558859E-01 -1.035177E+02  4.434106E-03 -8.011300E+00  4.444258E-03 -7.972147E+00  9.606534E-01 -1.027181E+02 
1.396500E+03  9.554330E-01 -1.035579E+02  4.412832E-03 -8.283218E+00  4.418643E-03 -8.163944E+00  9.606725E-01 -1.027526E+02 
1.396750E+03  9.550030E-01 -1.035607E+02  4.405712E-03 -8.143539E+00  4.408089E-03 -7.963794E+00  9.608065E-01 -1.027574E+02 
1.397000E+03  9.547365E-01 -1.035703E+02  4.373813E-03 -8.163328E+00  4.387379E-03 -8.153961E+00  9.608240E-01 -1.027915E+02 
1.397250E+03  9.544037E-01 -1.035909E+02  4.363125E-03 -8.059176E+00  4.357173E-03 -8.052919E+00  9.608128E-01 -1.028410E+02 
1.397500E+03  9.539154E-01 -1.036184E+02  4.349157E-03 -8.154045E+00  4.354783E-03 -8.211507E+00  9.608878E-01 -1.028883E+02 
1.397750E+03  9.537972E-01 -1.036113E+02  4.347024E-03 -8.203052E+00  4.347292E-03 -7.864453E+00  9.608774E-01 -1.029111E+02 
1.398000E+03  9.538311E-01 -1.036151E+02  4.344391E-03 -7.997056E+00  4.338898E-03 -8.160501E+00  9.607343E-01 -1.029332E+02 
1.398250E+03  9.538344E-01 -1.036313E+02  4.318457E-03 -8.248735E+00  4.325111E-03 -8.155124E+00  9.605726E-01 -1.029787E+02 
1.398500E+03  9.537393E-01 -1.036584E+02  4.313470E-03 -8.155536E+00  4.316185E-03 -8.144063E+00  9.604927E-01 -1.030067E+02 
1.398750E+03  9.538264E-01 -1.036665E+02  4.305474E-03 -8.280907E+00  4.306500E-03 -8.318037E+00  9.605223E-01 -1.030574E+02 
1.399000E+03  9.539436E-01 -1.036927E+02  4.279612E-03 -8.131040E+00  4.278030E-03 -8.176881E+00  9.603523E-01 -1.030553E+02 
1.399250E+03  9.538283E-01 -1.037072E+02  4.293553E-03 -8.155175E+00  4.269607E-03 -8.093258E+00  9.603733E-01 -1.031037E+02 
1.399500E+03  9.536771E-01 -1.037145E+02  4.274183E-03 -8.110749E+00  4.247712E-03 -7.884109E+00  9.603722E-01 -1.031647E+02 
1.399750E+03  9.536678E-01 -1.037256E+02  4.249821E-03 -8.207080E+00  4.257295E-03 -8.075217E+00  9.601673E-01 -1.031922E+02 
1.400000E+03  9.537274E-01 -1.037628E+02  4.245622E-03 -8.002976E+00  4.231704E-03 -8.242769E+00  9.600747E-01 -1.032340E+02 
1.400250E+03  9.539936E-01 -1.037779E+02  4.218347E-03 -8.236923E+00  4.213257E-03 -8.083428E+00  9.600076E-01 -1.032538E+02 
1.400500E+03  9.541293E-01 -1.038046E+02  4.222904E-03 -7.849612E+00  4.226745E-03 -7.832944E+00  9.599464E-01 -1.032628E+02 
1.400750E+03  9.542603E-01 -1.038279E+02  4.219115E-03 -7.991900E+00  4.211886E-03 -8.001090E+00  9.601333E-01 -1.033259E+02 
1.401000E+03  9.545588E-01 -1.038843E+02  4.205922E-03 -8.551734E+00  4.211218E-03 -7.983403E+00  9.601855E-01 -1.033655E+02 
1.401250E+03  9.546638E-01 -1.039000E+02  4.196452E-03 -8.070799E+00  4.189351E-03 -8.304753E+00  9.602493E-01 -1.033997E+02 
1.401500E+03  9.548541E-01 -1.039110E+02  4.190884E-03 -8.415116E+00  4.169372E-03 -8.092812E+00  9.602540E-01 -1.034231E+02 
1.401750E+03  9.549961E-01 -1.039427E+02  4.169236E-03 -8.214260E+00  4.177930E-03 -8.062510E+00  9.602778E-01 -1.034639E+02 
1.402000E+03  9.552572E-01 -1.039866E+02  4.155554E-03 -8.305896E+00  4.142181E-03 -8.264153E+00  9.603110E-01 -1.035015E+02 
1.402250E+03  9.554731E-01 -1.040395E+02  4.143980E-03 -8.280501E+00  4.155883E-03 -8.175149E+00  9.604107E-01 -1.035480E+02 
1.402500E+03  9.556767E-01 -1.040926E+02  4.134198E-03 -8.159176E+00  4.136562E-03 -8.220906E+00  9.604787E-01 -1.035921E+02 
1.402750E+03  9.557703E-01 -1.041166E+02  4.105619E-03 -8.245042E+00  4.116602E-03 -8.220585E+00  9.604699E-01 -1.036325E+02 
1.403000E+03  9.558015E-01 -1.041569E+02  4.104431E-03 -8.206990E+00  4.095645E-03 -8.066646E+00  9.603228E-01 -1.036494E+02 
1.403250E+03  9.557943E-01 -1.041815E+02  4.075239E-03 -8.082809E+00  4.095650E-03 -7.881116E+00  9.602505E-01 -1.037111E+02 
1.403500E+03  9.557876E-01 -1.042445E+02  4.062365E-03 -8.105270E+00  4.086384E-03 -7.832424E+00  9.601080E-01 -1.037567E+02 
1.403750E+03  9.558818E-01 -1.042823E+02  4.084332E-03 -8.189200E+00  4.081238E-03 -7.837752E+00  9.599663E-01 -1.037964E+02 
1.404000E+03  9.558637E-01 -1.043192E+02  4.061348E-03 -8.027724E+00  4.069764E-03 -7.495479E+00  9.597520E-01 -1.037955E+02 
1.404250E+03  9.557325E-01 -1.043466E+02  4.044000E-03 -8.002563E+00  4.051061E-03 -7.875040E+00  9.596354E-01 -1.038403E+02 
1.404500E+03  9.556670E-01 -1.043816E+02  4.034852E-03 -8.000627E+00  4.043555E-03 -7.865577E+00  9.594762E-01 -1.038688E+02 
1.404750E+03  9.557119E-01 -1.044352E+02  4.027243E-03 -7.841145E+00  4.032293E-03 -7.882741E+00  9.593389E-01 -1.039322E+02 
1.405000E+03  9.557081E-01 -1.044747E+02  4.024384E-03 -7.817218E+00  4.008835E-03 -7.784416E+00  9.591576E-01 -1.039486E+02 
1.405250E+03  9.557250E-01 -1.044914E+02  4.022305E-03 -7.689953E+00  3.990733E-03 -7.763958E+00  9.590966E-01 -1.039843E+02 
1.405500E+03  9.557024E-01 -1.045319E+02  3.992866E-03 -7.633884E+00  4.027270E-03 -7.823128E+00  9.589530E-01 -1.039720E+02 
1.405750E+03  9.557578E-01 -1.045619E+02  4.004270E-03 -7.584417E+00  4.004237E-03 -7.743694E+00  9.588427E-01 -1.039982E+02 
1.406000E+03  9.556945E-01 -1.045945E+02  3.987274E-03 -7.705739E+00  4.001131E-03 -7.801761E+00  9.589004E-01 -1.040604E+02 
1.406250E+03  9.557470E-01 -1.046392E+02  3.984440E-03 -7.759989E+00  3.978595E-03 -7.448297E+00  9.588721E-01 -1.040862E+02 
1.406500E+03  9.558372E-01 -1.046677E+02  3.978432E-03 -7.590245E+00  3.969840E-03 -7.552035E+00  9.587543E-01 -1.040825E+02 
1.406750E+03  9.558670E-01 -1.046856E+02  3.965620E-03 -7.387320E+00  3.962674E-03 -7.493349E+00  9.587384E-01 -1.041148E+02 
1.407000E+03  9.558930E-01 -1.047247E+02  3.960997E-03 -7.507593E+00  3.985285E-03 -7.496219E+00  9.586615E-01 -1.041350E+02 
1.407250E+03  9.559537E-01 -1.047568E+02  3.966362E-03 -7.685496E+00  3.957899E-03 -7.540237E+00  9.587070E-01 -1.042078E+02 
1.407500E+03  9.559391E-01 -1.048184E+02  3.955384E-03 -7.795403E+00  3.953357E-03 -7.795130E+00  9.587738E-01 -1.042301E+02 
1.407750E+03  9.560658E-01 -1.048532E+02  3.923276E-03 -7.737808E+00  3.949835E-03 -7.850896E+00  9.588665E-01 -1.042728E+02 
1.408000E+03  9.561046E-01 -1.048851E+02  3.947564E-03 -7.767632E+00  3.929010E-03 -7.668010E+00  9.589348E-01 -1.043121E+02 
1.408250E+03  9.561129E-01 -1.049254E+02  3.923555E-03 -7.649688E+00  3.914920E-03 -7.688687E+00  9.589318E-01 -1.043214E+02 
1.408500E+03  9.561754E-01 -1.049651E+02  3.899935E-03 -7.882129E+00  3.902438E-03 -7.797627E+00  9.589933E-01 -1.043513E+02 
1.408750E+03  9.562044E-01 -1.050114E+02  3.914598E-03 -7.866811E+00  3.914210E-03 -7.631325E+00  9.591144E-01 -1.044256E+02 
1.409000E+03  9.562831E-01 -1.050568E+02  3.897892E-03 -8.044781E+00  3.897456E-03 -7.934197E+00  9.591188E-01 -1.044627E+02 
1.409250E+03  9.563279E-01 -1.050706E+02  3.889324E-03 -8.031862E+00  3.853348E-03 -8.175459E+00  9.591737E-01 -1.044823E+02 
1.409500E+03  9.564502E-01 -1.051191E+02  3.892427E-03 -7.753624E+00  3.872062E-03 -7.785978E+00  9.592255E-01 -1.045155E+02 
1.409750E+03  9.564201E-01 -1.051587E+02  3.879469E-03 -7.938733E+00  3.860916E-03 -7.999312E+00  9.593087E-01 -1.045423E+02 
1.410000E+03  9.565229E-01 -1.052215E+02  3.864529E-03 -7.886613E+00  3.872140E-03 -7.907555E+00  9.593423E-01 -1.046013E+02 
1.410250E+03  9.563585E-01 -1.052720E+02  3.866884E-03 -8.056899E+00  3.848878E-03 -8.047017E+00  9.592068E-01 -1.046493E+02 
1.410500E+03  9.562524E-01 -1.053062E+02  3.844081E-03 -8.206290E+00  3.848973E-03 -8.012400E+00  9.591008E-01 -1.046683E+02 
1.410750E+03  9.562444E-01 -1.053396E+02  3.841893E-03 -8.342587E+00  3.832935E-03 -8.159790E+00  9.589881E-01 -1.047269E+02 
1.411000E+03  9.562505E-01 -1.053643E+02  3.820923E-03 -8.216755E+00  3.823899E-03 -8.100670E+00  9.589050E-01 -1.047897E+02 
1.411250E+03  9.562029E-01 -1.054152E+02  3.812128E-03 -8.448356E+00  3.792291E-03 -8.169157E+00  9.588076E-01 -1.048285E+02 
1.411500E+03  9.562359E-01 -1.054754E+02  3.804639E-03 -8.072085E+00  3.799682E-03 -7.993579E+00  9.586717E-01 -1.048690E+02 
1.411750E+03  9.562182E-01 -1.055181E+02  3.786309E-03 -8.115562E+00  3.777920E-03 -8.098631E+00  9.585152E-01 -1.048805E+02 
1.412000E+03  9.561685E-01 -1.055454E+02  3.760116E-03 -8.493226E+00  3.770424E-03 -8.594283E+00  9.583577E-01 -1.049134E+02 
1.412250E+03  9.561604E-01 -1.055811E+02  3.748503E-03 -8.161512E+00  3.738839E-03 -8.316990E+00  9.582647E-01 -1.049502E+02 
1.412500E+03  9.561344E-01 -1.056383E+02  3.743747E-03 -8.350159E+00  3.735099E-03 -8.180546E+00  9.581494E-01 -1.050031E+02 
1.412750E+03  9.561466E-01 -1.056931E+02  3.746684E-03 -8.548991E+00  3.723871E-03 -8.285113E+00  9.580397E-01 -1.050555E+02 
1.413000E+03  9.560813E-01 -1.057485E+02  3.730800E-03 -8.547154E+00  3.699771E-03 -8.375021E+00  9.579176E-01 -1.050852E+02 
1.413250E+03  9.559518E-01 -1.057765E+02  3.733100E-03 -8.429130E+00  3.695188E-03 -8.526758E+00  9.576962E-01 -1.051012E+02 
1.413500E+03  9.559553E-01 -1.058072E+02  3.700658E-03 -8.463659E+00  3.708433E-03 -8.441114E+00  9.576878E-01 -1.051025E+02 
1.413750E+03  9.558964E-01 -1.058541E+02  3.682159E-03 -8.550457E+00  3.693343E-03 -8.340961E+00  9.576404E-01 -1.051610E+02 
1.414000E+03  9.558190E-01 -1.059151E+02  3.675721E-03 -8.305960E+00  3.683047E-03 -8.531524E+00  9.575754E-01 -1.051872E+02 
1.414250E+03  9.556317E-01 -1.059638E+02  3.686409E-03 -8.642224E+00  3.678599E-03 -8.412776E+00  9.574219E-01 -1.052492E+02 
1.414500E+03  9.556335E-01 -1.059965E+02  3.657496E-03 -8.518374E+00  3.657334E-03 -9.027048E+00  9.573052E-01 -1.052443E+02 
1.414750E+03  9.555329E-01 -1.060371E+02  3.613763E-03 -8.302628E+00  3.621675E-03 -8.207470E+00  9.572598E-01 -1.052840E+02 
1.415000E+03  9.553705E-01 -1.060889E+02  3.631800E-03 -8.673527E+00  3.623882E-03 -8.289763E+00  9.571889E-01 -1.052947E+02 
1.415250E+03  9.552820E-01 -1.061545E+02  3.603495E-03 -8.719368E+00  3.603947E-03 -8.136945E+00  9.571906E-01 -1.053479E+02 
1.415500E+03  9.550680E-01 -1.062116E+02  3.607215E-03 -8.636718E+00  3.607615E-03 -8.561347E+00  9.572266E-01 -1.053568E+02 
1.415750E+03  9.548670E-01 -1.062549E+02  3.577072E-03 -8.684822E+00  3.592144E-03 -8.821823E+00  9.574536E-01 -1.053770E+02 
1.416000E+03  9.546001E-01 -1.062924E+02  3.586019E-03 -8.632626E+00  3.585273E-03 -8.414403E+00  9.575166E-01 -1.054116E+02 
1.416250E+03  9.544587E-01 -1.063189E+02  3.550525E-03 -8.758173E+00  3.580289E-03 -8.561280E+00  9.576625E-01 -1.054380E+02 
1.416500E+03  9.541791E-01 -1.063940E+02  3.562922E-03 -8.595873E+00  3.564501E-03 -9.121093E+00  9.578332E-01 -1.055107E+02 
1.416750E+03  9.537554E-01 -1.064514E+02  3.525461E-03 -8.661696E+00  3.542828E-03 -8.370232E+00  9.580300E-01 -1.055299E+02 
1.417000E+03  9.533872E-01 -1.064822E+02  3.517380E-03 -8.435827E+00  3.530906E-03 -8.463332E+00  9.581144E-01 -1.055635E+02 
1.417250E+03  9.531514E-01 -1.065116E+02  3.520529E-03 -8.439697E+00  3.544854E-03 -8.394542E+00  9.582947E-01 -1.055880E+02 
1.417500E+03  9.527415E-01 -1.065571E+02  3.520520E-03 -8.612051E+00  3.509081E-03 -8.817041E+00  9.584786E-01 -1.056315E+02 
1.417750E+03  9.523185E-01 -1.065921E+02  3.499772E-03 -8.494518E+00  3.484557E-03 -8.771206E+00  9.586322E-01 -1.056735E+02 
1.418000E+03  9.519289E-01 -1.066423E+02  3.474156E-03 -8.441167E+00  3.496922E-03 -8.569533E+00  9.586939E-01 -1.057309E+02 
1.418250E+03  9.517094E-01 -1.066648E+02  3.457572E-03 -8.685616E+00  3.470106E-03 -8.507035E+00  9.587406E-01 -1.057638E+02 
1.418500E+03  9.514186E-01 -1.066965E+02  3.448697E-03 -8.774980E+00  3.450991E-03 -8.480351E+00  9.588465E-01 -1.058137E+02 
1.418750E+03  9.510370E-01 -1.067079E+02  3.427864E-03 -8.741354E+00  3.427003E-03 -8.762568E+00  9.588366E-01 -1.058571E+02 
1.419000E+03  9.506904E-01 -1.067494E+02  3.409175E-03 -9.014390E+00  3.428016E-03 -8.823621E+00  9.588206E-01 -1.059074E+02 
1.419250E+03  9.503113E-01 -1.067772E+02  3.406545E-03 -8.898044E+00  3.413148E-03 -8.964817E+00  9.587681E-01 -1.059482E+02 
1.419500E+03  9.501229E-01 -1.068011E+02  3.381492E-03 -8.514559E+00  3.378873E-03 -8.570765E+00  9.588011E-01 -1.060045E+02 
1.419750E+03  9.499515E-01 -1.068203E+02  3.367831E-03 -8.240168E+00  3.383751E-03 -8.341223E+00  9.587811E-01 -1.060178E+02 
1.420000E+03  9.495422E-01 -1.068456E+02  3.363766E-03 -8.303324E+00  3.375564E-03 -8.615037E+00  9.587569E-01 -1.060701E+02 
1.420250E+03  9.491031E-01 -1.068641E+02  3.356924E-03 -8.114583E+00  3.360412E-03 -8.326867E+00  9.586964E-01 -1.061258E+02 
1.420500E+03  9.489269E-01 -1.068793E+02  3.335913E-03 -8.402376E+00  3.333299E-03 -8.195813E+00  9.586273E-01 -1.061620E+02 
1.420750E+03  9.486767E-01 -1.069079E+02  3.341138E-03 -8.373186E+00  3.329075E-03 -8.308235E+00  9.586187E-01 -1.062170E+02 
1.421000E+03  9.484399E-01 -1.069112E+02  3.332414E-03 -8.244881E+00  3.330893E-03 -7.971275E+00  9.585456E-01 -1.062553E+02 
1.421250E+03  9.485259E-01 -1.068931E+02  3.341547E-03 -8.297534E+00  3.323787E-03 -8.089309E+00  9.584731E-01 -1.062881E+02 
1.421500E+03  9.486369E-01 -1.069039E+02  3.306353E-03 -8.799752E+00  3.300997E-03 -8.759362E+00  9.583739E-01 -1.063415E+02 
1.421750E+03  9.485868E-01 -1.069279E+02  3.271896E-03 -8.746558E+00  3.309132E-03 -8.493628E+00  9.583468E-01 -1.063786E+02 
1.422000E+03  9.488059E-01 -1.069333E+02  3.298836E-03 -8.658938E+00  3.291122E-03 -8.474625E+00  9.582310E-01 -1.064356E+02 
1.422250E+03  9.492525E-01 -1.069296E+02  3.279794E-03 -8.640345E+00  3.265000E-03 -8.437230E+00  9.582838E-01 -1.064536E+02 
1.422500E+03  9.495771E-01 -1.069551E+02  3.275693E-03 -8.697741E+00  3.253395E-03 -8.537005E+00  9.582441E-01 -1.064750E+02 
1.422750E+03  9.498362E-01 -1.069711E+02  3.231842E-03 -8.832682E+00  3.242910E-03 -8.621766E+00  9.583099E-01 -1.065250E+02 
1.423000E+03  9.503494E-01 -1.069951E+02  3.223159E-03 -8.964406E+00  3.232001E-03 -8.602083E+00  9.583130E-01 -1.065654E+02 
1.423250E+03  9.510342E-01 -1.070350E+02  3.206451E-03 -8.617215E+00  3.236040E-03 -8.632463E+00  9.582500E-01 -1.066387E+02 
1.423500E+03  9.514239E-01 -1.070625E+02  3.194425E-03 -8.540960E+00  3.203070E-03 -8.609843E+00  9.582248E-01 -1.066473E+02 
1.423750E+03  9.517449E-01 -1.070875E+02  3.206586E-03 -8.469902E+00  3.171293E-03 -8.078318E+00  9.581120E-01 -1.067118E+02 
1.424000E+03  9.523485E-01 -1.071209E+02  3.174472E-03 -8.376661E+00  3.180496E-03 -8.639725E+00  9.580256E-01 -1.067582E+02 
