! Matrix data file written by TouchstoneData, EPCOS AG
! FILENAME: "LQ71A_LB_2_NB.s3p_newformat"
! COMMENT: "(LQ71A_LB_2_NB.s3p) EPCOS AG 18.03.2009 15:2"
! INFO: nport=3, nfreq=1601
! DATE: "Thu Apr  2 14:33:02 2009"
! USER: "Michael Schemies"
!
! port | pin | signal
! -----|-----|--------
!   1  |  9  |  input
!   2  |  1  |  output
!   3  |  2  |  output
! --------------------
!
# MHZ S MA R 50
! freq  magS11 angS11  magS12 angS12  magS13 angS13  ...
7.000000E+02  9.417707E-01 -1.061606E+02  4.629428E-03 1.259031E+02  3.249903E-03 1.355585E+02 
 4.618878E-03 1.260137E+02  9.618532E-01 -6.431448E+01  5.966627E-03 1.390016E+02 
 3.244216E-03 1.354013E+02  5.956779E-03 1.390645E+02  9.678490E-01 -6.319232E+01 
7.002500E+02  9.417324E-01 -1.062118E+02  4.729468E-03 1.249837E+02  3.214511E-03 1.346233E+02 
 4.707194E-03 1.251326E+02  9.619136E-01 -6.433993E+01  5.774902E-03 1.381543E+02 
 3.202467E-03 1.348324E+02  5.797334E-03 1.380618E+02  9.677970E-01 -6.322926E+01 
7.005000E+02  9.415236E-01 -1.062670E+02  4.785071E-03 1.247382E+02  3.135902E-03 1.347736E+02 
 4.799484E-03 1.244727E+02  9.618011E-01 -6.435921E+01  5.419333E-03 1.379069E+02 
 3.160999E-03 1.347751E+02  5.468175E-03 1.380496E+02  9.678779E-01 -6.325325E+01 
7.007500E+02  9.414158E-01 -1.063165E+02  4.868823E-03 1.235404E+02  3.179716E-03 1.348617E+02 
 4.844321E-03 1.237805E+02  9.616933E-01 -6.440924E+01  5.170876E-03 1.407706E+02 
 3.171591E-03 1.352089E+02  5.185787E-03 1.407759E+02  9.678424E-01 -6.329579E+01 
7.010000E+02  9.414292E-01 -1.063727E+02  5.041933E-03 1.230066E+02  3.082852E-03 1.342818E+02 
 5.057220E-03 1.230568E+02  9.611068E-01 -6.442505E+01  5.421958E-03 1.419049E+02 
 3.092637E-03 1.344723E+02  5.444432E-03 1.420942E+02  9.674843E-01 -6.333230E+01 
7.012500E+02  9.411798E-01 -1.064214E+02  5.123493E-03 1.205014E+02  3.022664E-03 1.348326E+02 
 5.101526E-03 1.209570E+02  9.611963E-01 -6.442505E+01  4.749670E-03 1.374014E+02 
 3.034364E-03 1.351867E+02  4.767280E-03 1.372382E+02  9.678442E-01 -6.332647E+01 
7.015000E+02  9.411868E-01 -1.064669E+02  5.140994E-03 1.190033E+02  2.998772E-03 1.346207E+02 
 5.115449E-03 1.190308E+02  9.610356E-01 -6.444854E+01  4.518680E-03 1.418855E+02 
 2.971607E-03 1.349801E+02  4.511049E-03 1.419215E+02  9.680351E-01 -6.337100E+01 
7.017500E+02  9.409624E-01 -1.065061E+02  5.058476E-03 1.176884E+02  2.929381E-03 1.360849E+02 
 5.053704E-03 1.178911E+02  9.611535E-01 -6.447784E+01  4.321059E-03 1.438569E+02 
 2.918984E-03 1.362871E+02  4.325978E-03 1.439185E+02  9.680228E-01 -6.341359E+01 
7.020000E+02  9.407400E-01 -1.065542E+02  5.050989E-03 1.168878E+02  2.896239E-03 1.370865E+02 
 5.071824E-03 1.165854E+02  9.612705E-01 -6.447790E+01  4.137160E-03 1.469403E+02 
 2.904594E-03 1.373134E+02  4.116286E-03 1.468072E+02  9.680553E-01 -6.344993E+01 
7.022500E+02  9.406443E-01 -1.066066E+02  5.068759E-03 1.157897E+02  2.851875E-03 1.382114E+02 
 5.035526E-03 1.160444E+02  9.613875E-01 -6.452782E+01  3.934363E-03 1.503684E+02 
 2.883655E-03 1.385317E+02  3.949722E-03 1.501530E+02  9.679470E-01 -6.348959E+01 
7.025000E+02  9.404701E-01 -1.066499E+02  5.029771E-03 1.148378E+02  2.808700E-03 1.404001E+02 
 5.021129E-03 1.149546E+02  9.609880E-01 -6.456725E+01  3.648405E-03 1.560597E+02 
 2.808445E-03 1.400931E+02  3.666922E-03 1.560301E+02  9.676542E-01 -6.351894E+01 
7.027500E+02  9.404163E-01 -1.066877E+02  4.997535E-03 1.136239E+02  2.855350E-03 1.435944E+02 
 5.008640E-03 1.137664E+02  9.608617E-01 -6.458464E+01  3.813194E-03 1.647953E+02 
 2.858178E-03 1.433199E+02  3.826563E-03 1.646257E+02  9.676798E-01 -6.353322E+01 
7.030000E+02  9.399616E-01 -1.067303E+02  4.940627E-03 1.124491E+02  2.946058E-03 1.446365E+02 
 4.916076E-03 1.120981E+02  9.608811E-01 -6.459757E+01  4.117004E-03 1.665758E+02 
 2.947688E-03 1.446579E+02  4.136446E-03 1.664936E+02  9.676433E-01 -6.356288E+01 
7.032500E+02  9.400172E-01 -1.067670E+02  4.818434E-03 1.116328E+02  3.027098E-03 1.452580E+02 
 4.798642E-03 1.119816E+02  9.609469E-01 -6.462769E+01  4.200382E-03 1.691589E+02 
 3.057012E-03 1.455402E+02  4.180705E-03 1.691152E+02  9.674530E-01 -6.358924E+01 
7.035000E+02  9.398203E-01 -1.068084E+02  4.717899E-03 1.116665E+02  3.141168E-03 1.456968E+02 
 4.717412E-03 1.118353E+02  9.608692E-01 -6.464898E+01  4.345012E-03 1.712014E+02 
 3.153019E-03 1.456249E+02  4.328396E-03 1.710046E+02  9.675256E-01 -6.361491E+01 
7.037500E+02  9.397155E-01 -1.068453E+02  4.667023E-03 1.121180E+02  3.144685E-03 1.444619E+02 
 4.616136E-03 1.122016E+02  9.610043E-01 -6.467302E+01  4.367403E-03 1.736853E+02 
 3.145890E-03 1.445094E+02  4.389245E-03 1.736159E+02  9.673647E-01 -6.363594E+01 
7.040000E+02  9.397366E-01 -1.068788E+02  4.649828E-03 1.121399E+02  3.132850E-03 1.458135E+02 
 4.632240E-03 1.123361E+02  9.610435E-01 -6.470181E+01  4.627174E-03 1.762288E+02 
 3.135962E-03 1.458928E+02  4.613938E-03 1.758160E+02  9.674622E-01 -6.365498E+01 
7.042500E+02  9.395975E-01 -1.069268E+02  4.623089E-03 1.122715E+02  3.199743E-03 1.462478E+02 
 4.637537E-03 1.124282E+02  9.611467E-01 -6.474029E+01  4.847432E-03 1.766250E+02 
 3.226724E-03 1.466177E+02  4.846196E-03 1.765771E+02  9.678511E-01 -6.368323E+01 
7.045000E+02  9.396797E-01 -1.069681E+02  4.665810E-03 1.122366E+02  3.220177E-03 1.468484E+02 
 4.635017E-03 1.124307E+02  9.610941E-01 -6.477345E+01  4.957258E-03 1.772288E+02 
 3.261601E-03 1.465620E+02  4.937944E-03 1.771238E+02  9.676809E-01 -6.372297E+01 
7.047500E+02  9.397104E-01 -1.069978E+02  4.608879E-03 1.116432E+02  3.291732E-03 1.474121E+02 
 4.632218E-03 1.115660E+02  9.611166E-01 -6.478753E+01  5.072995E-03 1.792664E+02 
 3.308940E-03 1.477283E+02  5.070481E-03 1.790111E+02  9.677961E-01 -6.376700E+01 
7.050000E+02  9.395458E-01 -1.070323E+02  4.542972E-03 1.110456E+02  3.374318E-03 1.475256E+02 
 4.556715E-03 1.109499E+02  9.612759E-01 -6.481667E+01  5.315277E-03 -1.795660E+02 
 3.362892E-03 1.474276E+02  5.270138E-03 -1.797366E+02  9.680759E-01 -6.380301E+01 
7.052500E+02  9.394643E-01 -1.070655E+02  4.513550E-03 1.111272E+02  3.413230E-03 1.474162E+02 
 4.475626E-03 1.109414E+02  9.613895E-01 -6.484249E+01  5.498550E-03 -1.795034E+02 
 3.441918E-03 1.473109E+02  5.497621E-03 -1.797886E+02  9.681086E-01 -6.385657E+01 
7.055000E+02  9.392715E-01 -1.070988E+02  4.437820E-03 1.111881E+02  3.449507E-03 1.472936E+02 
 4.424254E-03 1.110500E+02  9.615125E-01 -6.487196E+01  5.703832E-03 -1.795526E+02 
 3.466685E-03 1.474040E+02  5.692474E-03 -1.795682E+02  9.683284E-01 -6.390162E+01 
7.057500E+02  9.394353E-01 -1.071358E+02  4.428433E-03 1.110498E+02  3.500656E-03 1.473767E+02 
 4.399198E-03 1.113825E+02  9.612487E-01 -6.490280E+01  5.772284E-03 1.799472E+02 
 3.516163E-03 1.475794E+02  5.786337E-03 -1.799827E+02  9.683590E-01 -6.395172E+01 
7.060000E+02  9.394447E-01 -1.071779E+02  4.368134E-03 1.113080E+02  3.525571E-03 1.474563E+02 
 4.357784E-03 1.114321E+02  9.614373E-01 -6.493616E+01  5.906406E-03 -1.796424E+02 
 3.556944E-03 1.473432E+02  5.892400E-03 -1.797047E+02  9.682563E-01 -6.399875E+01 
7.062500E+02  9.393744E-01 -1.072253E+02  4.297471E-03 1.110459E+02  3.614820E-03 1.476205E+02 
 4.295269E-03 1.114042E+02  9.614863E-01 -6.496946E+01  5.986148E-03 -1.791792E+02 
 3.602389E-03 1.472211E+02  5.979118E-03 -1.790334E+02  9.681150E-01 -6.402341E+01 
7.065000E+02  9.391209E-01 -1.072634E+02  4.241822E-03 1.114560E+02  3.675781E-03 1.475390E+02 
 4.242020E-03 1.116274E+02  9.613701E-01 -6.500348E+01  6.127757E-03 -1.787839E+02 
 3.654560E-03 1.475681E+02  6.113746E-03 -1.789062E+02  9.679412E-01 -6.403993E+01 
7.067500E+02  9.391782E-01 -1.073229E+02  4.213389E-03 1.117961E+02  3.681941E-03 1.475258E+02 
 4.162466E-03 1.118166E+02  9.614713E-01 -6.504686E+01  6.199241E-03 -1.776017E+02 
 3.686320E-03 1.475857E+02  6.216140E-03 -1.776063E+02  9.679203E-01 -6.405625E+01 
7.070000E+02  9.390055E-01 -1.073869E+02  4.113414E-03 1.119143E+02  3.784314E-03 1.476480E+02 
 4.146621E-03 1.122057E+02  9.616556E-01 -6.507656E+01  6.438880E-03 -1.767549E+02 
 3.783378E-03 1.474980E+02  6.433466E-03 -1.767888E+02  9.679839E-01 -6.407728E+01 
7.072500E+02  9.383667E-01 -1.074640E+02  4.084362E-03 1.128222E+02  3.833199E-03 1.472336E+02 
 4.083983E-03 1.123776E+02  9.615468E-01 -6.511950E+01  6.685207E-03 -1.766666E+02 
 3.806562E-03 1.468561E+02  6.649286E-03 -1.765668E+02  9.677538E-01 -6.410159E+01 
7.075000E+02  9.355369E-01 -1.073596E+02  3.999756E-03 1.137421E+02  3.866499E-03 1.474507E+02 
 4.004440E-03 1.139943E+02  9.614066E-01 -6.516526E+01  6.893932E-03 -1.772876E+02 
 3.873719E-03 1.475226E+02  6.910061E-03 -1.771747E+02  9.676267E-01 -6.410455E+01 
7.077500E+02  9.381661E-01 -1.073794E+02  4.024107E-03 1.147643E+02  3.931784E-03 1.463752E+02 
 4.011666E-03 1.150733E+02  9.616392E-01 -6.520151E+01  7.026767E-03 -1.779526E+02 
 3.922505E-03 1.459065E+02  7.007448E-03 -1.777547E+02  9.676272E-01 -6.412212E+01 
7.080000E+02  9.386534E-01 -1.074738E+02  4.007571E-03 1.149370E+02  3.989343E-03 1.455874E+02 
 3.963365E-03 1.151061E+02  9.615422E-01 -6.524422E+01  7.187749E-03 -1.776718E+02 
 3.961762E-03 1.455708E+02  7.173568E-03 -1.775911E+02  9.675214E-01 -6.414497E+01 
7.082500E+02  9.382084E-01 -1.075596E+02  3.975260E-03 1.160815E+02  4.011584E-03 1.451240E+02 
 3.966633E-03 1.159003E+02  9.616568E-01 -6.527760E+01  7.416036E-03 -1.776918E+02 
 4.032684E-03 1.448299E+02  7.367617E-03 -1.778369E+02  9.675887E-01 -6.417016E+01 
7.085000E+02  9.355345E-01 -1.075633E+02  3.915572E-03 1.169906E+02  4.006456E-03 1.444460E+02 
 3.905083E-03 1.166708E+02  9.616605E-01 -6.530588E+01  7.625786E-03 -1.789371E+02 
 4.049965E-03 1.449186E+02  7.616252E-03 -1.787824E+02  9.677789E-01 -6.419068E+01 
7.087500E+02  9.383273E-01 -1.075002E+02  3.964263E-03 1.185367E+02  4.038147E-03 1.442832E+02 
 3.975481E-03 1.182842E+02  9.618199E-01 -6.534617E+01  7.717097E-03 -1.799838E+02 
 4.036016E-03 1.440363E+02  7.715050E-03 -1.799319E+02  9.677484E-01 -6.422477E+01 
7.090000E+02  9.387411E-01 -1.075986E+02  4.001869E-03 1.188129E+02  4.089222E-03 1.437488E+02 
 3.959933E-03 1.188872E+02  9.616731E-01 -6.536711E+01  7.771352E-03 1.795110E+02 
 4.109091E-03 1.435153E+02  7.787545E-03 1.795365E+02  9.677544E-01 -6.424270E+01 
7.092500E+02  9.387684E-01 -1.076658E+02  3.985419E-03 1.196101E+02  4.098701E-03 1.426966E+02 
 4.007090E-03 1.193963E+02  9.616512E-01 -6.540110E+01  7.908873E-03 1.793759E+02 
 4.119903E-03 1.426528E+02  7.913429E-03 1.794058E+02  9.676948E-01 -6.428079E+01 
7.095000E+02  9.386404E-01 -1.077292E+02  4.017587E-03 1.204118E+02  4.089330E-03 1.424294E+02 
 4.003141E-03 1.200441E+02  9.617162E-01 -6.544971E+01  8.060321E-03 1.788820E+02 
 4.107820E-03 1.426832E+02  8.051644E-03 1.790318E+02  9.676478E-01 -6.430935E+01 
7.097500E+02  9.386145E-01 -1.077940E+02  4.018407E-03 1.209308E+02  4.123840E-03 1.417934E+02 
 4.014679E-03 1.209972E+02  9.616858E-01 -6.548930E+01  8.196858E-03 1.778362E+02 
 4.135631E-03 1.418960E+02  8.184373E-03 1.778001E+02  9.678227E-01 -6.432753E+01 
7.100000E+02  9.387103E-01 -1.078305E+02  4.025512E-03 1.211520E+02  4.091498E-03 1.411944E+02 
 4.023578E-03 1.212780E+02  9.617583E-01 -6.551792E+01  8.288444E-03 1.773166E+02 
 4.101415E-03 1.412621E+02  8.282185E-03 1.774145E+02  9.679246E-01 -6.436477E+01 
7.102500E+02  9.387265E-01 -1.079068E+02  4.037539E-03 1.218052E+02  4.093991E-03 1.407442E+02 
 4.017736E-03 1.218468E+02  9.615453E-01 -6.556233E+01  8.353490E-03 1.766311E+02 
 4.082758E-03 1.406319E+02  8.375595E-03 1.765701E+02  9.679557E-01 -6.440691E+01 
7.105000E+02  9.384979E-01 -1.079506E+02  4.092449E-03 1.230558E+02  4.066808E-03 1.408178E+02 
 4.064626E-03 1.228488E+02  9.615537E-01 -6.560023E+01  8.473723E-03 1.759089E+02 
 4.072697E-03 1.407341E+02  8.461157E-03 1.759726E+02  9.679262E-01 -6.442888E+01 
7.107500E+02  9.384377E-01 -1.080149E+02  4.116948E-03 1.230689E+02  4.071233E-03 1.403301E+02 
 4.100762E-03 1.228649E+02  9.614398E-01 -6.563140E+01  8.574751E-03 1.752282E+02 
 4.067856E-03 1.404203E+02  8.562731E-03 1.752182E+02  9.679470E-01 -6.446259E+01 
7.110000E+02  9.380902E-01 -1.080675E+02  4.130711E-03 1.238271E+02  4.062047E-03 1.401823E+02 
 4.132215E-03 1.238230E+02  9.614113E-01 -6.566972E+01  8.702578E-03 1.740599E+02 
 4.077293E-03 1.401377E+02  8.649639E-03 1.739504E+02  9.679994E-01 -6.449849E+01 
7.112500E+02  9.378237E-01 -1.081260E+02  4.140415E-03 1.237030E+02  4.022535E-03 1.398365E+02 
 4.139453E-03 1.237717E+02  9.611615E-01 -6.571615E+01  8.697779E-03 1.726681E+02 
 3.998869E-03 1.399823E+02  8.694096E-03 1.725319E+02  9.679515E-01 -6.451392E+01 
7.115000E+02  9.377988E-01 -1.081809E+02  4.209469E-03 1.241058E+02  3.988921E-03 1.401156E+02 
 4.171798E-03 1.242911E+02  9.610818E-01 -6.573249E+01  8.668446E-03 1.712410E+02 
 4.000989E-03 1.398875E+02  8.654967E-03 1.712645E+02  9.680718E-01 -6.455051E+01 
7.117500E+02  9.372344E-01 -1.082258E+02  4.202183E-03 1.244763E+02  3.984575E-03 1.402154E+02 
 4.218149E-03 1.246293E+02  9.608564E-01 -6.575379E+01  8.547943E-03 1.706030E+02 
 3.969557E-03 1.406137E+02  8.531734E-03 1.707824E+02  9.679900E-01 -6.457136E+01 
7.120000E+02  9.370178E-01 -1.082713E+02  4.226044E-03 1.244298E+02  3.965448E-03 1.408780E+02 
 4.224736E-03 1.245679E+02  9.607852E-01 -6.579079E+01  8.473787E-03 1.705109E+02 
 3.967493E-03 1.407926E+02  8.465757E-03 1.701709E+02  9.680238E-01 -6.459918E+01 
7.122500E+02  9.362064E-01 -1.083167E+02  4.255675E-03 1.253330E+02  3.949320E-03 1.411653E+02 
 4.233397E-03 1.252099E+02  9.607136E-01 -6.581324E+01  8.467530E-03 1.702038E+02 
 3.942493E-03 1.410412E+02  8.453049E-03 1.699765E+02  9.678938E-01 -6.463170E+01 
7.125000E+02  9.354497E-01 -1.083010E+02  4.259687E-03 1.253707E+02  3.985665E-03 1.414946E+02 
 4.249081E-03 1.254501E+02  9.608875E-01 -6.585240E+01  8.448981E-03 1.699027E+02 
 3.944879E-03 1.416174E+02  8.425501E-03 1.698400E+02  9.680254E-01 -6.465271E+01 
7.127500E+02  9.360590E-01 -1.082724E+02  4.274269E-03 1.259034E+02  4.021403E-03 1.418082E+02 
 4.285232E-03 1.260731E+02  9.611971E-01 -6.588622E+01  8.412380E-03 1.696004E+02 
 4.001629E-03 1.420077E+02  8.392161E-03 1.693487E+02  9.682180E-01 -6.467852E+01 
7.130000E+02  9.366971E-01 -1.083133E+02  4.321871E-03 1.263623E+02  4.021947E-03 1.416255E+02 
 4.347623E-03 1.261711E+02  9.613855E-01 -6.592262E+01  8.379553E-03 1.691766E+02 
 4.020639E-03 1.419829E+02  8.362177E-03 1.691943E+02  9.681360E-01 -6.471575E+01 
7.132500E+02  9.372099E-01 -1.083506E+02  4.371445E-03 1.262709E+02  4.028775E-03 1.423331E+02 
 4.340299E-03 1.262481E+02  9.613667E-01 -6.596805E+01  8.326318E-03 1.691412E+02 
 4.040844E-03 1.425549E+02  8.305945E-03 1.690559E+02  9.682728E-01 -6.473164E+01 
7.135000E+02  9.371046E-01 -1.084057E+02  4.407308E-03 1.265255E+02  4.064267E-03 1.425290E+02 
 4.411090E-03 1.261042E+02  9.615100E-01 -6.601234E+01  8.315634E-03 1.692367E+02 
 4.034319E-03 1.419496E+02  8.290837E-03 1.691634E+02  9.684285E-01 -6.477737E+01 
7.137500E+02  9.372266E-01 -1.084416E+02  4.413144E-03 1.266019E+02  4.060440E-03 1.422204E+02 
 4.433088E-03 1.261142E+02  9.618997E-01 -6.606494E+01  8.273076E-03 1.692230E+02 
 4.056866E-03 1.421132E+02  8.220987E-03 1.691948E+02  9.685191E-01 -6.481275E+01 
7.140000E+02  9.373656E-01 -1.084908E+02  4.434457E-03 1.267019E+02  4.087817E-03 1.424483E+02 
 4.404914E-03 1.263982E+02  9.620302E-01 -6.610229E+01  8.255559E-03 1.692888E+02 
 4.078010E-03 1.419973E+02  8.204769E-03 1.693170E+02  9.686412E-01 -6.483780E+01 
7.142500E+02  9.373194E-01 -1.085249E+02  4.401184E-03 1.266951E+02  4.118661E-03 1.425997E+02 
 4.447619E-03 1.264635E+02  9.620475E-01 -6.615115E+01  8.224778E-03 1.694268E+02 
 4.111932E-03 1.427262E+02  8.232026E-03 1.692959E+02  9.687924E-01 -6.488593E+01 
7.145000E+02  9.373331E-01 -1.085544E+02  4.462069E-03 1.268501E+02  4.140415E-03 1.425045E+02 
 4.414528E-03 1.270886E+02  9.621952E-01 -6.619838E+01  8.258684E-03 1.694901E+02 
 4.155039E-03 1.426040E+02  8.228075E-03 1.691961E+02  9.688589E-01 -6.491394E+01 
7.147500E+02  9.375979E-01 -1.086044E+02  4.460954E-03 1.271029E+02  4.145010E-03 1.424926E+02 
 4.441633E-03 1.272891E+02  9.621780E-01 -6.624073E+01  8.231277E-03 1.693046E+02 
 4.147596E-03 1.427341E+02  8.194166E-03 1.694321E+02  9.687680E-01 -6.495462E+01 
7.150000E+02  9.377247E-01 -1.086376E+02  4.455708E-03 1.273939E+02  4.189671E-03 1.430870E+02 
 4.467953E-03 1.273889E+02  9.623109E-01 -6.628275E+01  8.180024E-03 1.691549E+02 
 4.181088E-03 1.430430E+02  8.153459E-03 1.691937E+02  9.688399E-01 -6.498903E+01 
7.152500E+02  9.376882E-01 -1.086833E+02  4.489604E-03 1.276131E+02  4.212640E-03 1.426606E+02 
 4.476309E-03 1.279006E+02  9.622888E-01 -6.630951E+01  8.159736E-03 1.697066E+02 
 4.199219E-03 1.426973E+02  8.103609E-03 1.698396E+02  9.687548E-01 -6.502522E+01 
7.155000E+02  9.378114E-01 -1.087247E+02  4.498071E-03 1.281427E+02  4.249058E-03 1.431524E+02 
 4.467384E-03 1.281059E+02  9.626268E-01 -6.637528E+01  8.139692E-03 1.698927E+02 
 4.203834E-03 1.427856E+02  8.125107E-03 1.700061E+02  9.691087E-01 -6.505473E+01 
7.157500E+02  9.379733E-01 -1.087722E+02  4.520444E-03 1.283305E+02  4.288453E-03 1.429870E+02 
 4.529453E-03 1.282427E+02  9.626933E-01 -6.641705E+01  8.138228E-03 1.702228E+02 
 4.279534E-03 1.426648E+02  8.146095E-03 1.702884E+02  9.691483E-01 -6.509229E+01 
7.160000E+02  9.379502E-01 -1.088100E+02  4.528810E-03 1.285055E+02  4.312255E-03 1.426868E+02 
 4.507465E-03 1.284471E+02  9.627301E-01 -6.646540E+01  8.145249E-03 1.706887E+02 
 4.306460E-03 1.423422E+02  8.127939E-03 1.704414E+02  9.691733E-01 -6.513327E+01 
7.162500E+02  9.379416E-01 -1.088455E+02  4.548772E-03 1.289595E+02  4.312828E-03 1.422676E+02 
 4.529211E-03 1.288268E+02  9.628300E-01 -6.650782E+01  8.195612E-03 1.708570E+02 
 4.299278E-03 1.421754E+02  8.140314E-03 1.708118E+02  9.691919E-01 -6.516373E+01 
7.165000E+02  9.378601E-01 -1.088947E+02  4.598285E-03 1.290975E+02  4.319240E-03 1.421392E+02 
 4.562124E-03 1.291481E+02  9.628127E-01 -6.655326E+01  8.201599E-03 1.711726E+02 
 4.334579E-03 1.424393E+02  8.192691E-03 1.711851E+02  9.691828E-01 -6.520093E+01 
7.167500E+02  9.380798E-01 -1.089316E+02  4.562624E-03 1.293036E+02  4.355417E-03 1.422126E+02 
 4.588617E-03 1.294665E+02  9.628197E-01 -6.657354E+01  8.207999E-03 1.713431E+02 
 4.352312E-03 1.422375E+02  8.218204E-03 1.715503E+02  9.691331E-01 -6.522708E+01 
7.170000E+02  9.380955E-01 -1.089702E+02  4.607030E-03 1.300089E+02  4.358277E-03 1.420560E+02 
 4.602638E-03 1.298119E+02  9.627155E-01 -6.661454E+01  8.233794E-03 1.716955E+02 
 4.358112E-03 1.421820E+02  8.246926E-03 1.717647E+02  9.692545E-01 -6.526052E+01 
7.172500E+02  9.382052E-01 -1.090120E+02  4.670187E-03 1.300089E+02  4.376385E-03 1.421267E+02 
 4.633843E-03 1.299669E+02  9.627011E-01 -6.665144E+01  8.247920E-03 1.719914E+02 
 4.374623E-03 1.418386E+02  8.245660E-03 1.720822E+02  9.694254E-01 -6.528974E+01 
7.175000E+02  9.382203E-01 -1.090609E+02  4.690168E-03 1.304627E+02  4.385087E-03 1.417617E+02 
 4.637593E-03 1.302734E+02  9.624596E-01 -6.668949E+01  8.288437E-03 1.725107E+02 
 4.390139E-03 1.415392E+02  8.271698E-03 1.726511E+02  9.693344E-01 -6.532304E+01 
7.177500E+02  9.384378E-01 -1.091067E+02  4.695603E-03 1.308274E+02  4.389337E-03 1.417436E+02 
 4.695349E-03 1.305995E+02  9.623636E-01 -6.672666E+01  8.387864E-03 1.726381E+02 
 4.402629E-03 1.418827E+02  8.358658E-03 1.729750E+02  9.694680E-01 -6.535435E+01 
7.180000E+02  9.386277E-01 -1.091494E+02  4.753707E-03 1.304880E+02  4.437043E-03 1.416679E+02 
 4.715220E-03 1.307100E+02  9.623764E-01 -6.674938E+01  8.421467E-03 1.727717E+02 
 4.406129E-03 1.415263E+02  8.390212E-03 1.730506E+02  9.693866E-01 -6.537955E+01 
7.182500E+02  9.386332E-01 -1.091990E+02  4.764952E-03 1.307013E+02  4.426436E-03 1.417321E+02 
 4.723197E-03 1.310283E+02  9.624113E-01 -6.678615E+01  8.454137E-03 1.729918E+02 
 4.423252E-03 1.416792E+02  8.433601E-03 1.731597E+02  9.692926E-01 -6.541718E+01 
7.185000E+02  9.388342E-01 -1.092450E+02  4.767643E-03 1.310064E+02  4.430626E-03 1.417206E+02 
