! Matrix data file written by TouchstoneData, EPCOS AG
! FILENAME: "LQ98_UB_WB.s3p_newformat"
! COMMENT: "(LQ98_UB_WB.s3p)"
! INFO: nport=3, nfreq=1601
! DATE: "Thu Apr  2 15:29:28 2009"
! USER: "Michael Schemies"
!
! port | pin | signal
! -----|-----|--------
!   1  |  6  |  input
!   2  |  3  |  output
!   3  |  4  |  output
! --------------------
!
# MHZ S MA R 50
! freq  magS11 angS11  magS12 angS12  magS13 angS13  ...
5.000000E+01  9.960254E-01 -4.124126E+00  7.206429E-04 8.684121E+01  6.937330E-04 6.791508E+01 
 7.198669E-04 8.710317E+01  9.997167E-01 -2.788838E+00  7.036907E-03 8.199818E+01 
 6.897996E-04 6.756786E+01  7.055766E-03 8.203168E+01  9.909167E-01 -2.962548E+00 
5.184375E+01  9.964205E-01 -4.366047E+00  7.821567E-04 8.654328E+01  7.513887E-04 7.971588E+01 
 7.812140E-04 8.606340E+01  1.000023E+00 -3.030473E+00  7.660819E-03 8.540571E+01 
 7.510535E-04 7.954805E+01  7.674852E-03 8.545715E+01  9.916614E-01 -3.247964E+00 
5.368750E+01  9.973881E-01 -4.579824E+00  9.883680E-04 8.477459E+01  7.228355E-04 8.118338E+01 
 9.894923E-04 8.458682E+01  1.000077E+00 -3.194666E+00  8.548856E-03 8.608276E+01 
 7.244958E-04 8.094397E+01  8.546128E-03 8.625048E+01  9.928918E-01 -3.400020E+00 
5.553125E+01  9.975415E-01 -4.767437E+00  8.569431E-04 9.336580E+01  1.279083E-03 9.159275E+01 
 8.560828E-04 9.297421E+01  1.000041E+00 -3.288331E+00  8.647243E-03 8.477471E+01 
 1.282676E-03 9.157399E+01  8.647703E-03 8.493796E+01  9.924399E-01 -3.496437E+00 
5.737500E+01  9.978457E-01 -4.914321E+00  8.849634E-04 8.226673E+01  9.927881E-04 8.956256E+01 
 8.825280E-04 8.203763E+01  1.000099E+00 -3.421150E+00  8.727184E-03 8.387798E+01 
 9.917606E-04 8.922294E+01  8.724330E-03 8.405594E+01  9.924880E-01 -3.677352E+00 
5.921875E+01  9.980714E-01 -5.089166E+00  8.508146E-04 9.252007E+01  9.031994E-04 8.596131E+01 
 8.519369E-04 9.219868E+01  1.000078E+00 -3.576354E+00  9.465092E-03 8.530051E+01 
 9.033687E-04 8.551332E+01  9.457901E-03 8.542418E+01  9.935214E-01 -3.787838E+00 
6.106250E+01  9.981558E-01 -5.251182E+00  9.862098E-04 8.965088E+01  9.262764E-04 8.545237E+01 
 9.847664E-04 8.937507E+01  1.000098E+00 -3.688691E+00  9.530399E-03 8.555908E+01 
 9.199965E-04 8.508823E+01  9.521201E-03 8.569219E+01  9.937265E-01 -3.922583E+00 
6.290625E+01  9.983906E-01 -5.461375E+00  9.687786E-04 9.629719E+01  1.057554E-03 7.819039E+01 
 9.675212E-04 9.595441E+01  1.000046E+00 -3.798669E+00  9.829711E-03 8.226968E+01 
 1.054097E-03 7.787565E+01  9.819062E-03 8.239749E+01  9.935523E-01 -4.097113E+00 
6.475000E+01  9.979412E-01 -5.542090E+00  1.135774E-03 7.741611E+01  8.865564E-04 9.069394E+01 
 1.135758E-03 7.713635E+01  1.000045E+00 -3.841107E+00  1.017345E-02 8.194946E+01 
 8.869138E-04 9.052846E+01  1.015721E-02 8.206809E+01  9.941505E-01 -4.181230E+00 
6.659375E+01  9.985951E-01 -5.773215E+00  9.823587E-04 8.274198E+01  9.131457E-04 8.537003E+01 
 9.802117E-04 8.234199E+01  1.000083E+00 -4.035465E+00  1.034274E-02 8.345180E+01 
 9.121744E-04 8.496266E+01  1.032836E-02 8.359397E+01  9.944628E-01 -4.339928E+00 
6.843750E+01  9.979610E-01 -5.938613E+00  1.227881E-03 8.663029E+01  1.009031E-03 8.768854E+01 
 1.222938E-03 8.606952E+01  1.000049E+00 -4.092166E+00  1.072971E-02 8.182292E+01 
 1.003921E-03 8.727053E+01  1.071434E-02 8.196848E+01  9.934603E-01 -4.440619E+00 
7.028125E+01  9.982067E-01 -6.179075E+00  1.146546E-03 8.024439E+01  9.718875E-04 8.365639E+01 
 1.145080E-03 7.954272E+01  1.000020E+00 -4.357274E+00  1.108791E-02 8.323193E+01 
 9.687779E-04 8.312241E+01  1.108339E-02 8.330922E+01  9.941909E-01 -4.690144E+00 
7.212500E+01  9.983031E-01 -6.335435E+00  1.250065E-03 8.672027E+01  1.115366E-03 7.894521E+01 
 1.243004E-03 8.625655E+01  1.000078E+00 -4.392616E+00  1.093620E-02 8.340894E+01 
 1.109739E-03 7.867460E+01  1.092794E-02 8.349392E+01  9.943184E-01 -4.784768E+00 
7.396875E+01  9.977082E-01 -6.432091E+00  1.108837E-03 8.395544E+01  1.189142E-03 8.887570E+01 
 1.105289E-03 8.373463E+01  1.000009E+00 -4.464141E+00  1.119587E-02 8.106744E+01 
 1.183678E-03 8.872341E+01  1.117863E-02 8.113108E+01  9.942630E-01 -4.833632E+00 
7.581250E+01  9.977997E-01 -6.630695E+00  1.044034E-03 8.856347E+01  1.131259E-03 8.550215E+01 
 1.040950E-03 8.840388E+01  1.000027E+00 -4.616369E+00  1.166059E-02 8.471877E+01 
 1.124713E-03 8.511357E+01  1.165434E-02 8.469974E+01  9.947358E-01 -4.962949E+00 
7.765625E+01  9.981988E-01 -6.792154E+00  1.403885E-03 7.706293E+01  1.167291E-03 8.145605E+01 
 1.401106E-03 7.666975E+01  1.000025E+00 -4.732085E+00  1.226462E-02 8.200160E+01 
 1.164760E-03 8.116839E+01  1.224927E-02 8.203296E+01  9.945162E-01 -5.139869E+00 
7.950000E+01  9.974967E-01 -6.937488E+00  1.254282E-03 8.277176E+01  1.283798E-03 8.003997E+01 
 1.250147E-03 8.223338E+01  1.000002E+00 -4.825484E+00  1.223455E-02 8.222386E+01 
 1.283411E-03 7.972244E+01  1.221715E-02 8.231963E+01  9.948854E-01 -5.211581E+00 
8.134375E+01  9.966584E-01 -7.066076E+00  1.131915E-03 7.238831E+01  1.051303E-03 7.767500E+01 
 1.129982E-03 7.195738E+01  1.000021E+00 -4.885720E+00  1.278120E-02 8.092544E+01 
 1.048725E-03 7.761751E+01  1.277226E-02 8.112422E+01  9.933983E-01 -5.288669E+00 
8.318750E+01  9.967037E-01 -7.207106E+00  1.272563E-03 7.394847E+01  1.207061E-03 7.305918E+01 
 1.268423E-03 7.347763E+01  1.000010E+00 -5.007616E+00  1.266591E-02 8.302835E+01 
 1.204356E-03 7.306415E+01  1.265909E-02 8.318777E+01  9.944435E-01 -5.397193E+00 
8.503125E+01  9.970336E-01 -7.383655E+00  1.300315E-03 8.198438E+01  1.318807E-03 8.698386E+01 
 1.301216E-03 8.157567E+01  1.000010E+00 -5.197070E+00  1.327128E-02 8.194591E+01 
 1.316942E-03 8.664413E+01  1.325937E-02 8.202317E+01  9.953157E-01 -5.571975E+00 
8.687500E+01  9.973454E-01 -7.568247E+00  1.310001E-03 8.020823E+01  1.302188E-03 8.523419E+01 
 1.311347E-03 7.989010E+01  1.000066E+00 -5.305149E+00  1.302678E-02 7.975698E+01 
 1.299195E-03 8.493428E+01  1.299888E-02 7.980832E+01  9.953760E-01 -5.634544E+00 
8.871875E+01  9.970429E-01 -7.692401E+00  1.429300E-03 8.243480E+01  1.269899E-03 8.310619E+01 
 1.426473E-03 8.212718E+01  1.000079E+00 -5.389416E+00  1.366374E-02 8.257469E+01 
 1.264290E-03 8.284463E+01  1.363580E-02 8.259658E+01  9.958601E-01 -5.750969E+00 
9.056250E+01  9.965891E-01 -7.852420E+00  1.526334E-03 8.205059E+01  1.327192E-03 7.839343E+01 
 1.524423E-03 8.183982E+01  1.000085E+00 -5.504015E+00  1.365469E-02 7.969056E+01 
 1.323693E-03 7.821002E+01  1.363257E-02 7.971828E+01  9.949091E-01 -5.878281E+00 
9.240625E+01  9.959472E-01 -8.051274E+00  1.442400E-03 8.160010E+01  1.378110E-03 8.504049E+01 
 1.441027E-03 8.137147E+01  9.992144E-01 -5.724009E+00  1.423118E-02 8.017466E+01 
 1.375960E-03 8.468270E+01  1.422301E-02 8.027826E+01  9.943268E-01 -6.079785E+00 
9.425000E+01  9.958470E-01 -8.177135E+00  1.524491E-03 8.136458E+01  1.412875E-03 8.585476E+01 
 1.529662E-03 8.105050E+01  9.995257E-01 -5.818259E+00  1.439789E-02 8.089036E+01 
 1.411657E-03 8.567964E+01  1.436524E-02 8.097395E+01  9.946517E-01 -6.131248E+00 
9.609375E+01  9.961417E-01 -8.312484E+00  1.326837E-03 8.166465E+01  1.517402E-03 8.503494E+01 
 1.328696E-03 8.135344E+01  9.994106E-01 -5.884732E+00  1.487077E-02 7.942141E+01 
 1.510512E-03 8.475136E+01  1.484703E-02 7.947458E+01  9.951500E-01 -6.269124E+00 
9.793750E+01  9.968081E-01 -8.423656E+00  1.439751E-03 8.111920E+01  1.488913E-03 7.923067E+01 
 1.441890E-03 8.075600E+01  1.000018E+00 -5.964644E+00  1.439876E-02 7.939091E+01 
 1.485237E-03 7.907001E+01  1.438234E-02 7.936765E+01  9.958750E-01 -6.339175E+00 
9.978125E+01  9.954853E-01 -8.585572E+00  1.724515E-03 8.474851E+01  1.623569E-03 7.884060E+01 
 1.724332E-03 8.439427E+01  9.992611E-01 -6.069227E+00  1.471976E-02 7.936811E+01 
 1.615879E-03 7.847405E+01  1.470543E-02 7.934388E+01  9.950808E-01 -6.463412E+00 
1.016250E+02  9.958929E-01 -8.703033E+00  1.456706E-03 8.306350E+01  1.559393E-03 7.685043E+01 
 1.457196E-03 8.272293E+01  9.990997E-01 -6.158218E+00  1.465529E-02 8.086326E+01 
 1.555319E-03 7.645792E+01  1.463837E-02 8.086837E+01  9.953797E-01 -6.529958E+00 
1.034688E+02  9.956832E-01 -8.907282E+00  1.696033E-03 7.770809E+01  1.446200E-03 8.246486E+01 
 1.698119E-03 7.733496E+01  9.993961E-01 -6.322191E+00  1.563655E-02 8.099066E+01 
 1.444352E-03 8.221493E+01  1.561762E-02 8.101537E+01  9.955938E-01 -6.708880E+00 
1.053125E+02  9.955588E-01 -9.071753E+00  1.728990E-03 8.069088E+01  1.660301E-03 7.756635E+01 
 1.729031E-03 8.055023E+01  9.991627E-01 -6.410631E+00  1.533032E-02 8.095263E+01 
 1.660127E-03 7.723667E+01  1.530566E-02 8.099983E+01  9.956167E-01 -6.806412E+00 
1.071562E+02  9.956386E-01 -9.241156E+00  1.720555E-03 8.320790E+01  1.653663E-03 8.165108E+01 
 1.725306E-03 8.272039E+01  9.992405E-01 -6.557975E+00  1.619879E-02 8.132211E+01 
 1.652656E-03 8.141995E+01  1.615648E-02 8.137035E+01  9.954870E-01 -6.971248E+00 
1.090000E+02  9.950098E-01 -9.349798E+00  1.759506E-03 7.375930E+01  1.560031E-03 8.327934E+01 
 1.758511E-03 7.352804E+01  9.978795E-01 -6.666663E+00  1.625260E-02 8.075255E+01 
 1.554995E-03 8.302816E+01  1.623361E-02 8.073486E+01  9.949963E-01 -7.065000E+00 
1.108438E+02  9.951650E-01 -9.516872E+00  1.707846E-03 8.022918E+01  1.832439E-03 7.455423E+01 
 1.706646E-03 7.985746E+01  9.971586E-01 -6.758374E+00  1.658520E-02 7.954581E+01 
 1.827055E-03 7.421806E+01  1.656165E-02 7.951860E+01  9.946090E-01 -7.180792E+00 
1.126875E+02  9.951552E-01 -9.670074E+00  1.710750E-03 7.898503E+01  1.632400E-03 8.052786E+01 
 1.711920E-03 7.857868E+01  9.970214E-01 -6.894657E+00  1.682075E-02 7.862640E+01 
 1.628006E-03 8.012103E+01  1.679518E-02 7.862343E+01  9.946016E-01 -7.298867E+00 
1.145312E+02  9.951084E-01 -9.832334E+00  1.788175E-03 8.098914E+01  1.745144E-03 7.880129E+01 
 1.785686E-03 8.064643E+01  9.972206E-01 -7.010159E+00  1.691097E-02 7.989726E+01 
 1.741290E-03 7.843987E+01  1.688503E-02 7.984332E+01  9.951867E-01 -7.427764E+00 
1.163750E+02  9.948449E-01 -9.988413E+00  1.839701E-03 8.156101E+01  1.714545E-03 7.825483E+01 
 1.832589E-03 8.132622E+01  9.964300E-01 -7.139038E+00  1.702189E-02 7.891676E+01 
 1.713386E-03 7.796877E+01  1.699682E-02 7.887851E+01  9.945163E-01 -7.541775E+00 
1.182188E+02  9.940183E-01 -1.008192E+01  1.873786E-03 7.479120E+01  1.909981E-03 8.330643E+01 
 1.867451E-03 7.443551E+01  9.956475E-01 -7.217998E+00  1.722038E-02 7.919799E+01 
 1.906807E-03 8.294960E+01  1.719335E-02 7.913834E+01  9.941959E-01 -7.639858E+00 
1.200625E+02  9.947953E-01 -1.025688E+01  1.892409E-03 7.793516E+01  1.702928E-03 7.949452E+01 
 1.892199E-03 7.770743E+01  9.958246E-01 -7.298900E+00  1.752184E-02 7.849056E+01 
 1.700046E-03 7.920080E+01  1.750070E-02 7.842008E+01  9.941008E-01 -7.714969E+00 
1.219062E+02  9.946704E-01 -1.043078E+01  1.804863E-03 7.997146E+01  1.826561E-03 7.942905E+01 
 1.808001E-03 7.963457E+01  9.962562E-01 -7.433940E+00  1.744057E-02 7.979559E+01 
 1.820047E-03 7.902848E+01  1.741748E-02 7.981369E+01  9.948174E-01 -7.867633E+00 
1.237500E+02  9.947846E-01 -1.061134E+01  1.853735E-03 8.065768E+01  1.701316E-03 7.929250E+01 
 1.854691E-03 8.015854E+01  9.958821E-01 -7.605859E+00  1.796502E-02 7.996944E+01 
 1.696027E-03 7.888661E+01  1.793936E-02 8.000886E+01  9.945174E-01 -8.009053E+00 
1.255938E+02  9.945471E-01 -1.075214E+01  1.932525E-03 7.436159E+01  1.895211E-03 7.622165E+01 
 1.925513E-03 7.414520E+01  9.954931E-01 -7.722160E+00  1.855980E-02 8.064864E+01 
 1.894280E-03 7.579858E+01  1.852651E-02 8.063558E+01  9.946091E-01 -8.155883E+00 
1.274375E+02  9.948153E-01 -1.086856E+01  1.613896E-03 7.201237E+01  1.855720E-03 7.358984E+01 
 1.607709E-03 7.168694E+01  9.950856E-01 -7.802365E+00  1.875634E-02 8.033105E+01 
 1.857223E-03 7.314979E+01  1.872361E-02 8.030854E+01  9.940397E-01 -8.225385E+00 
1.292812E+02  9.955972E-01 -1.101177E+01  1.836318E-03 7.672099E+01  1.918912E-03 7.931844E+01 
 1.835687E-03 7.628491E+01  9.954726E-01 -7.878992E+00  1.918428E-02 7.946577E+01 
 1.916867E-03 7.880628E+01  1.916111E-02 7.951550E+01  9.945658E-01 -8.331036E+00 
1.311250E+02  9.956860E-01 -1.115104E+01  1.882945E-03 8.441879E+01  1.862495E-03 7.869435E+01 
 1.891426E-03 8.388346E+01  9.952972E-01 -7.941487E+00  1.904161E-02 7.911242E+01 
 1.864957E-03 7.829305E+01  1.900967E-02 7.916242E+01  9.942002E-01 -8.429789E+00 
1.329688E+02  9.956664E-01 -1.130019E+01  1.916222E-03 8.062994E+01  1.885516E-03 7.608197E+01 
 1.915302E-03 8.034142E+01  9.948601E-01 -8.125541E+00  1.933695E-02 7.978454E+01 
 1.884632E-03 7.567358E+01  1.930246E-02 7.976574E+01  9.940798E-01 -8.562428E+00 
1.348125E+02  9.959128E-01 -1.152414E+01  1.988478E-03 8.125809E+01  1.967150E-03 8.005291E+01 
 1.993814E-03 8.089003E+01  9.942397E-01 -8.343418E+00  1.985217E-02 7.918717E+01 
 1.960114E-03 7.955451E+01  1.980307E-02 7.899717E+01  9.938257E-01 -8.690815E+00 
1.366562E+02  9.958573E-01 -1.157665E+01  1.730204E-03 7.673919E+01  1.893183E-03 7.639547E+01 
 1.735429E-03 7.654353E+01  9.942628E-01 -8.335178E+00  1.979809E-02 8.055413E+01 
 1.891893E-03 7.580878E+01  1.975867E-02 8.031206E+01  9.936100E-01 -8.671414E+00 
1.385000E+02  9.959900E-01 -1.174335E+01  2.017168E-03 8.100758E+01  1.954539E-03 8.219088E+01 
 2.016054E-03 8.064832E+01  9.939424E-01 -8.421894E+00  2.030966E-02 7.880364E+01 
 1.952123E-03 8.167931E+01  2.026958E-02 7.873062E+01  9.937761E-01 -8.835029E+00 
1.403438E+02  9.959632E-01 -1.189658E+01  2.070992E-03 8.138714E+01  1.996309E-03 8.192936E+01 
 2.070387E-03 8.120731E+01  9.938740E-01 -8.533815E+00  2.024741E-02 7.881563E+01 
 1.989546E-03 8.153953E+01  2.020353E-02 7.875750E+01  9.935992E-01 -8.972606E+00 
1.421875E+02  9.964139E-01 -1.201579E+01  2.056035E-03 8.149658E+01  2.086397E-03 8.002184E+01 
 2.058860E-03 8.148371E+01  9.938836E-01 -8.658699E+00  2.067800E-02 7.968237E+01 
 2.084420E-03 7.972781E+01  2.063317E-02 7.963720E+01  9.934351E-01 -9.055464E+00 
1.440312E+02  9.965228E-01 -1.220524E+01  2.210560E-03 7.840105E+01  2.109341E-03 7.863616E+01 
 2.208913E-03 7.825186E+01  9.932333E-01 -8.810958E+00  2.126804E-02 7.925792E+01 
 2.106263E-03 7.814354E+01  2.121907E-02 7.921091E+01  9.929623E-01 -9.199970E+00 
1.458750E+02  9.963185E-01 -1.230665E+01  1.890460E-03 8.110014E+01  2.001006E-03 8.097772E+01 
 1.897727E-03 8.083778E+01  9.932771E-01 -8.839288E+00  2.139868E-02 7.990781E+01 
 1.998046E-03 8.061384E+01  2.134212E-02 7.981381E+01  9.931726E-01 -9.279000E+00 
1.477188E+02  9.966390E-01 -1.248804E+01  2.158297E-03 8.303509E+01  2.193979E-03 7.915497E+01 
 2.158152E-03 8.266824E+01  9.935875E-01 -8.939398E+00  2.145956E-02 7.843724E+01 
 2.189915E-03 7.876918E+01  2.141135E-02 7.829401E+01  9.931050E-01 -9.378060E+00 
1.495625E+02  9.970906E-01 -1.261697E+01  2.233111E-03 8.012448E+01  2.153037E-03 7.759501E+01 
 2.235634E-03 7.986467E+01  9.936113E-01 -9.068199E+00  2.182437E-02 7.866454E+01 
 2.146105E-03 7.718277E+01  2.176895E-02 7.859105E+01  9.930317E-01 -9.502792E+00 
1.514062E+02  9.977354E-01 -1.279303E+01  2.264138E-03 8.005648E+01  2.225594E-03 7.931856E+01 
 2.258193E-03 7.978922E+01  9.936325E-01 -9.214871E+00  2.211246E-02 7.860065E+01 
 2.219225E-03 7.907905E+01  2.205686E-02 7.853630E+01  9.929831E-01 -9.610917E+00 
1.532500E+02  9.970913E-01 -1.298931E+01  2.180974E-03 7.587596E+01  2.178492E-03 8.107893E+01 
 2.178087E-03 7.560672E+01  9.923498E-01 -9.336558E+00  2.265451E-02 7.723520E+01 
 2.174742E-03 8.069123E+01  2.259676E-02 7.714573E+01  9.917747E-01 -9.731681E+00 
1.550938E+02  9.977141E-01 -1.309262E+01  2.264832E-03 8.517871E+01  2.152038E-03 8.087691E+01 
 2.269028E-03 8.493047E+01  9.932959E-01 -9.383735E+00  2.255108E-02 7.906672E+01 
 2.145756E-03 8.051209E+01  2.248653E-02 7.895855E+01  9.925784E-01 -9.801039E+00 
1.569375E+02  9.981693E-01 -1.323334E+01  2.388606E-03 8.023640E+01  2.263280E-03 7.867506E+01 
 2.383541E-03 7.998052E+01  9.939431E-01 -9.505389E+00  2.276046E-02 7.889857E+01 
 2.256289E-03 7.821064E+01  2.270239E-02 7.880532E+01  9.931050E-01 -9.902517E+00 
1.587812E+02  9.988356E-01 -1.337761E+01  2.346829E-03 7.737637E+01  2.281059E-03 7.956893E+01 
 2.348775E-03 7.709236E+01  9.939560E-01 -9.664784E+00  2.323254E-02 7.869709E+01 
 2.276265E-03 7.919703E+01  2.317611E-02 7.862522E+01  9.934047E-01 -1.000708E+01 
1.606250E+02  9.999425E-01 -1.353536E+01  2.381188E-03 7.980470E+01  2.314496E-03 7.864863E+01 
 2.381457E-03 7.946107E+01  9.945266E-01 -9.794185E+00  2.367550E-02 7.834581E+01 
 2.310565E-03 7.823357E+01  2.362403E-02 7.827430E+01  9.936067E-01 -1.010815E+01 
1.624688E+02  9.992100E-01 -1.372456E+01  2.528964E-03 7.716192E+01  2.389506E-03 7.729618E+01 
 2.528318E-03 7.685680E+01  9.935934E-01 -9.856976E+00  2.337841E-02 7.768950E+01 
 2.379374E-03 7.697772E+01  2.332277E-02 7.760755E+01  9.926503E-01 -1.020977E+01 
1.643125E+02  9.986496E-01 -1.385707E+01  2.483504E-03 7.948087E+01  2.499840E-03 7.828642E+01 
 2.482459E-03 7.911150E+01  9.928333E-01 -9.923047E+00  2.412080E-02 7.762983E+01 
 2.494325E-03 7.799288E+01  2.404241E-02 7.752044E+01  9.924487E-01 -1.034600E+01 
1.661562E+02  9.987667E-01 -1.401565E+01  2.458744E-03 8.061022E+01  2.381074E-03 7.695832E+01 
 2.457897E-03 8.026303E+01  9.931731E-01 -1.005303E+01  2.399424E-02 7.818056E+01 
 2.372491E-03 7.664312E+01  2.390399E-02 7.806156E+01  9.926796E-01 -1.045540E+01 
1.680000E+02  9.994981E-01 -1.414785E+01  2.455513E-03 7.756048E+01  2.438846E-03 7.765170E+01 
 2.459419E-03 7.731502E+01  9.933526E-01 -1.018341E+01  2.436254E-02 7.802858E+01 
 2.430232E-03 7.729622E+01  2.427306E-02 7.794540E+01  9.927709E-01 -1.055652E+01 
1.698438E+02  9.995781E-01 -1.430086E+01  2.540884E-03 7.841290E+01  2.486180E-03 7.673417E+01 
 2.543217E-03 7.807180E+01  9.933860E-01 -1.030120E+01  2.452617E-02 7.782722E+01 
 2.476820E-03 7.631796E+01  2.445104E-02 7.780111E+01  9.925840E-01 -1.066323E+01 
1.716875E+02  9.980610E-01 -1.445377E+01  2.555841E-03 7.692599E+01  2.468096E-03 7.708825E+01 
 2.559685E-03 7.656238E+01  9.926753E-01 -1.036490E+01  2.446589E-02 7.814548E+01 
 2.467784E-03 7.667355E+01  2.439037E-02 7.814786E+01  9.912234E-01 -1.073956E+01 
1.735312E+02  9.992732E-01 -1.455302E+01  2.480336E-03 7.832469E+01  2.486652E-03 7.754828E+01 
 2.479451E-03 7.796321E+01  9.934278E-01 -1.046902E+01  2.535940E-02 7.796538E+01 
 2.478272E-03 7.721723E+01  2.528364E-02 7.795789E+01  9.919091E-01 -1.083613E+01 
1.753750E+02  1.000022E+00 -1.477097E+01  2.534197E-03 8.009459E+01  2.501525E-03 7.666389E+01 
 2.536890E-03 7.980839E+01  9.944530E-01 -1.064346E+01  2.562798E-02 7.820260E+01 
 2.495668E-03 7.635398E+01  2.553919E-02 7.814563E+01  9.932493E-01 -1.099403E+01 
1.772188E+02  9.999834E-01 -1.501902E+01  2.606792E-03 7.770012E+01  2.509194E-03 7.734427E+01 
 2.611664E-03 7.746950E+01  9.942854E-01 -1.085116E+01  2.598254E-02 7.777525E+01 
 2.498274E-03 7.707160E+01  2.588652E-02 7.773114E+01  9.933902E-01 -1.120281E+01 
1.790625E+02  1.000003E+00 -1.516906E+01  2.647736E-03 7.823703E+01  2.575546E-03 7.690220E+01 
 2.649244E-03 7.795256E+01  9.943406E-01 -1.095496E+01  2.618093E-02 7.750316E+01 
 2.564989E-03 7.657655E+01  2.608781E-02 7.747550E+01  9.936936E-01 -1.130476E+01 
1.809062E+02  9.996427E-01 -1.525399E+01  2.557055E-03 7.218460E+01  2.644645E-03 7.556783E+01 
 2.556748E-03 7.185174E+01  9.938170E-01 -1.097762E+01  2.612135E-02 7.736516E+01 
 2.633807E-03 7.535525E+01  2.602950E-02 7.731320E+01  9.929418E-01 -1.131610E+01 
1.827500E+02  1.000007E+00 -1.535996E+01  2.570966E-03 7.884872E+01  2.615686E-03 7.839398E+01 
 2.569132E-03 7.861841E+01  9.946758E-01 -1.106918E+01  2.680171E-02 7.639854E+01 
 2.609156E-03 7.801190E+01  2.670598E-02 7.635053E+01  9.937900E-01 -1.134245E+01 
1.845938E+02  1.000093E+00 -1.551576E+01  2.693019E-03 8.012744E+01  2.735832E-03 7.816492E+01 
 2.691729E-03 7.986861E+01  9.949375E-01 -1.118272E+01  2.658038E-02 7.672913E+01 
 2.726592E-03 7.784114E+01  2.648214E-02 7.668624E+01  9.944279E-01 -1.146475E+01 
1.864375E+02  1.000068E+00 -1.569855E+01  2.758281E-03 7.773998E+01  2.753925E-03 7.696702E+01 
 2.757992E-03 7.745847E+01  9.946279E-01 -1.129983E+01  2.677741E-02 7.665582E+01 
