! Matrix data file written by TouchstoneData, EPCOS AG
! FILENAME: "LQ71A_UB_2_NB.s3p_newformat"
! COMMENT: "(LQ71A_UB_2_NB.s3p) EPCOS AG 18.03.2009 15:2"
! INFO: nport=3, nfreq=1601
! DATE: "Thu Apr  2 14:33:22 2009"
! USER: "Michael Schemies"
!
! port | pin | signal
! -----|-----|--------
!   1  |  6  |  input
!   2  |  3  |  output
!   3  |  4  |  output
! --------------------
!
# MHZ S MA R 50
! freq  magS11 angS11  magS12 angS12  magS13 angS13  ...
7.000000E+02  9.528994E-01 -8.497910E+01  3.814776E-03 4.567330E+01  6.305142E-03 3.887029E+01 
 3.852978E-03 4.620517E+01  9.708717E-01 -5.497343E+01  4.475878E-03 8.840691E+01 
 6.301188E-03 3.885834E+01  4.522784E-03 8.829493E+01  9.717922E-01 -5.584365E+01 
7.002500E+02  9.529587E-01 -8.501486E+01  3.869779E-03 4.652302E+01  6.286122E-03 3.905051E+01 
 3.856697E-03 4.598957E+01  9.710400E-01 -5.500084E+01  4.504050E-03 8.784415E+01 
 6.290264E-03 3.909890E+01  4.528955E-03 8.788853E+01  9.718773E-01 -5.586045E+01 
7.005000E+02  9.529037E-01 -8.505518E+01  3.912253E-03 4.663434E+01  6.243073E-03 3.954254E+01 
 3.881853E-03 4.700745E+01  9.709431E-01 -5.500736E+01  4.582362E-03 8.703105E+01 
 6.249693E-03 3.944320E+01  4.581679E-03 8.733501E+01  9.719352E-01 -5.589170E+01 
7.007500E+02  9.527678E-01 -8.508635E+01  3.940678E-03 4.696526E+01  6.279140E-03 4.001678E+01 
 3.952217E-03 4.725509E+01  9.707572E-01 -5.503630E+01  4.643654E-03 8.628734E+01 
 6.255358E-03 4.007929E+01  4.662972E-03 8.613426E+01  9.717735E-01 -5.592212E+01 
7.010000E+02  9.527306E-01 -8.513492E+01  4.009565E-03 4.673415E+01  6.271820E-03 4.033907E+01 
 4.008819E-03 4.702114E+01  9.708970E-01 -5.506547E+01  4.702772E-03 8.531880E+01 
 6.268899E-03 4.061292E+01  4.715231E-03 8.491167E+01  9.718772E-01 -5.593808E+01 
7.012500E+02  9.526471E-01 -8.517077E+01  4.047794E-03 4.682747E+01  6.294681E-03 4.061207E+01 
 4.061916E-03 4.683964E+01  9.707380E-01 -5.507652E+01  4.728167E-03 8.363122E+01 
 6.300879E-03 4.050394E+01  4.743823E-03 8.330576E+01  9.719214E-01 -5.596852E+01 
7.015000E+02  9.524881E-01 -8.521491E+01  4.078403E-03 4.636560E+01  6.312848E-03 4.067381E+01 
 4.078779E-03 4.642367E+01  9.707200E-01 -5.509139E+01  4.703623E-03 8.175615E+01 
 6.314360E-03 4.079792E+01  4.735110E-03 8.145408E+01  9.719347E-01 -5.598594E+01 
7.017500E+02  9.524402E-01 -8.525198E+01  4.125755E-03 4.602989E+01  6.346671E-03 4.080207E+01 
 4.093727E-03 4.612413E+01  9.707026E-01 -5.511507E+01  4.611281E-03 8.053484E+01 
 6.334464E-03 4.080613E+01  4.635347E-03 8.044029E+01  9.719861E-01 -5.601516E+01 
7.020000E+02  9.523332E-01 -8.528904E+01  4.140368E-03 4.549554E+01  6.374391E-03 4.070924E+01 
 4.101739E-03 4.566166E+01  9.708020E-01 -5.513996E+01  4.555935E-03 7.952616E+01 
 6.382439E-03 4.079029E+01  4.572990E-03 7.946692E+01  9.720419E-01 -5.604443E+01 
7.022500E+02  9.521060E-01 -8.532520E+01  4.145728E-03 4.545487E+01  6.371529E-03 4.057759E+01 
 4.150820E-03 4.539236E+01  9.707918E-01 -5.516381E+01  4.453726E-03 7.939859E+01 
 6.380341E-03 4.053490E+01  4.475270E-03 7.930169E+01  9.722377E-01 -5.607292E+01 
7.025000E+02  9.518389E-01 -8.536833E+01  4.171597E-03 4.453967E+01  6.380634E-03 4.037713E+01 
 4.153442E-03 4.487381E+01  9.708041E-01 -5.518757E+01  4.416139E-03 7.924927E+01 
 6.381139E-03 4.050931E+01  4.404959E-03 7.906642E+01  9.721014E-01 -5.611362E+01 
7.027500E+02  9.514812E-01 -8.539816E+01  4.161996E-03 4.403180E+01  6.366317E-03 4.029657E+01 
 4.137218E-03 4.430303E+01  9.707473E-01 -5.521368E+01  4.347952E-03 7.899606E+01 
 6.383792E-03 4.073429E+01  4.349895E-03 7.869248E+01  9.719964E-01 -5.613357E+01 
7.030000E+02  9.511797E-01 -8.541437E+01  4.152706E-03 4.386049E+01  6.365309E-03 4.030233E+01 
 4.127169E-03 4.357420E+01  9.704771E-01 -5.522966E+01  4.291330E-03 7.926359E+01 
 6.363494E-03 4.025370E+01  4.293178E-03 7.916896E+01  9.719118E-01 -5.615212E+01 
7.032500E+02  9.511439E-01 -8.542962E+01  4.114256E-03 4.352161E+01  6.359692E-03 4.018900E+01 
 4.108812E-03 4.361439E+01  9.703922E-01 -5.525536E+01  4.270960E-03 7.909766E+01 
 6.385105E-03 4.037091E+01  4.243687E-03 7.923148E+01  9.719698E-01 -5.617299E+01 
7.035000E+02  9.508955E-01 -8.544517E+01  4.077736E-03 4.352698E+01  6.348073E-03 4.002541E+01 
 4.070340E-03 4.339248E+01  9.705517E-01 -5.526429E+01  4.215860E-03 7.978199E+01 
 6.364958E-03 3.996512E+01  4.229120E-03 7.954302E+01  9.720188E-01 -5.619687E+01 
7.037500E+02  9.507656E-01 -8.546684E+01  4.019372E-03 4.356865E+01  6.297786E-03 3.983151E+01 
 4.018069E-03 4.408809E+01  9.703616E-01 -5.528294E+01  4.225883E-03 7.962996E+01 
 6.321365E-03 3.993871E+01  4.215470E-03 7.957377E+01  9.720643E-01 -5.623259E+01 
7.040000E+02  9.508581E-01 -8.549427E+01  4.007572E-03 4.392126E+01  6.285616E-03 4.016843E+01 
 4.031764E-03 4.421586E+01  9.704481E-01 -5.530279E+01  4.185977E-03 7.937785E+01 
 6.292342E-03 4.021141E+01  4.212413E-03 7.918166E+01  9.720794E-01 -5.625045E+01 
7.042500E+02  9.511170E-01 -8.551836E+01  4.035292E-03 4.428270E+01  6.300320E-03 4.036773E+01 
 4.033092E-03 4.463187E+01  9.704143E-01 -5.532432E+01  4.144046E-03 7.897901E+01 
 6.291644E-03 4.045956E+01  4.162876E-03 7.902570E+01  9.722472E-01 -5.627711E+01 
7.045000E+02  9.510767E-01 -8.554688E+01  4.062561E-03 4.467498E+01  6.306759E-03 4.028832E+01 
 4.049929E-03 4.489181E+01  9.704952E-01 -5.533812E+01  4.093369E-03 7.956243E+01 
 6.336679E-03 4.044587E+01  4.090512E-03 7.930017E+01  9.723273E-01 -5.631488E+01 
7.047500E+02  9.511218E-01 -8.555961E+01  4.051144E-03 4.467972E+01  6.333849E-03 3.991646E+01 
 4.034414E-03 4.488161E+01  9.703715E-01 -5.536909E+01  4.110579E-03 8.033465E+01 
 6.340358E-03 4.026502E+01  4.160136E-03 8.025845E+01  9.723221E-01 -5.635239E+01 
7.050000E+02  9.512170E-01 -8.559006E+01  4.051548E-03 4.474961E+01  6.310842E-03 3.997458E+01 
 4.055002E-03 4.516352E+01  9.706468E-01 -5.537771E+01  4.092196E-03 7.968583E+01 
 6.300124E-03 4.013496E+01  4.083692E-03 7.981276E+01  9.723159E-01 -5.638377E+01 
7.052500E+02  9.511455E-01 -8.562104E+01  4.041326E-03 4.465021E+01  6.300542E-03 4.003819E+01 
 4.092701E-03 4.514153E+01  9.706261E-01 -5.539886E+01  4.084591E-03 7.938681E+01 
 6.339645E-03 4.021696E+01  4.079432E-03 7.953845E+01  9.722382E-01 -5.642566E+01 
7.055000E+02  9.510182E-01 -8.564995E+01  4.080318E-03 4.508440E+01  6.295946E-03 3.985681E+01 
 4.091266E-03 4.515233E+01  9.706219E-01 -5.542798E+01  4.065097E-03 7.925611E+01 
 6.280069E-03 4.001628E+01  4.055372E-03 7.898049E+01  9.724468E-01 -5.646233E+01 
7.057500E+02  9.511053E-01 -8.567897E+01  4.075840E-03 4.468303E+01  6.292479E-03 3.976350E+01 
 4.089517E-03 4.518077E+01  9.708072E-01 -5.544969E+01  3.989085E-03 7.867955E+01 
 6.303180E-03 3.974098E+01  3.998884E-03 7.868708E+01  9.723565E-01 -5.651188E+01 
7.060000E+02  9.510252E-01 -8.570164E+01  4.063305E-03 4.451426E+01  6.274155E-03 3.961909E+01 
 4.072736E-03 4.475657E+01  9.708167E-01 -5.546463E+01  3.949021E-03 7.905942E+01 
 6.316979E-03 3.953640E+01  3.940753E-03 7.896381E+01  9.722388E-01 -5.654949E+01 
7.062500E+02  9.507795E-01 -8.574056E+01  4.053544E-03 4.460604E+01  6.231403E-03 3.966343E+01 
 4.059732E-03 4.495645E+01  9.707562E-01 -5.550481E+01  3.877501E-03 7.926409E+01 
 6.267125E-03 3.954546E+01  3.884993E-03 7.866155E+01  9.722593E-01 -5.656639E+01 
7.065000E+02  9.507343E-01 -8.575043E+01  4.052541E-03 4.495673E+01  6.237406E-03 3.928288E+01 
 4.054421E-03 4.514975E+01  9.706841E-01 -5.552646E+01  3.839105E-03 7.978193E+01 
 6.267139E-03 3.935757E+01  3.847430E-03 7.953417E+01  9.721710E-01 -5.659110E+01 
7.067500E+02  9.507896E-01 -8.578191E+01  4.038282E-03 4.527944E+01  6.231576E-03 3.935937E+01 
 4.037254E-03 4.547776E+01  9.709641E-01 -5.556149E+01  3.808670E-03 7.993348E+01 
 6.248982E-03 3.928258E+01  3.819542E-03 7.995658E+01  9.721939E-01 -5.658837E+01 
7.070000E+02  9.505829E-01 -8.582148E+01  4.059009E-03 4.509075E+01  6.203859E-03 3.924297E+01 
 4.047655E-03 4.544647E+01  9.707943E-01 -5.559383E+01  3.771621E-03 8.042311E+01 
 6.217511E-03 3.923750E+01  3.762229E-03 8.014991E+01  9.720408E-01 -5.661184E+01 
7.072500E+02  9.501881E-01 -8.583814E+01  4.048079E-03 4.530856E+01  6.180492E-03 3.930464E+01 
 4.057743E-03 4.548814E+01  9.706996E-01 -5.562570E+01  3.760791E-03 8.068688E+01 
 6.172552E-03 3.921939E+01  3.766326E-03 8.077175E+01  9.718697E-01 -5.662626E+01 
7.075000E+02  9.503894E-01 -8.585200E+01  4.071442E-03 4.519891E+01  6.137420E-03 3.932810E+01 
 4.076737E-03 4.525453E+01  9.707177E-01 -5.565795E+01  3.734775E-03 8.091993E+01 
 6.156596E-03 3.937621E+01  3.755144E-03 8.111132E+01  9.719941E-01 -5.664957E+01 
7.077500E+02  9.505833E-01 -8.587018E+01  4.074694E-03 4.525606E+01  6.105799E-03 3.928393E+01 
 4.085145E-03 4.561616E+01  9.706195E-01 -5.569619E+01  3.702697E-03 8.160912E+01 
 6.155203E-03 3.920961E+01  3.685029E-03 8.150597E+01  9.720324E-01 -5.665851E+01 
7.080000E+02  9.508107E-01 -8.591502E+01  4.081765E-03 4.485142E+01  6.113599E-03 3.912682E+01 
 4.074795E-03 4.510103E+01  9.706682E-01 -5.571392E+01  3.697769E-03 8.186464E+01 
 6.110993E-03 3.917037E+01  3.693545E-03 8.242156E+01  9.717808E-01 -5.668438E+01 
7.082500E+02  9.506071E-01 -8.594410E+01  4.065620E-03 4.556780E+01  6.072442E-03 3.904194E+01 
 4.081523E-03 4.527045E+01  9.707019E-01 -5.575326E+01  3.683842E-03 8.245584E+01 
 6.098161E-03 3.904230E+01  3.687844E-03 8.258572E+01  9.717096E-01 -5.670151E+01 
7.085000E+02  9.507942E-01 -8.597887E+01  4.087925E-03 4.520206E+01  6.058863E-03 3.902302E+01 
 4.095689E-03 4.556909E+01  9.707315E-01 -5.577828E+01  3.676524E-03 8.267468E+01 
 6.074905E-03 3.911346E+01  3.668404E-03 8.370094E+01  9.717414E-01 -5.671506E+01 
7.087500E+02  9.508271E-01 -8.602078E+01  4.103988E-03 4.519387E+01  6.035631E-03 3.922193E+01 
 4.080704E-03 4.529486E+01  9.706214E-01 -5.580530E+01  3.643114E-03 8.286310E+01 
 6.024772E-03 3.905450E+01  3.654822E-03 8.307318E+01  9.718586E-01 -5.674435E+01 
7.090000E+02  9.510315E-01 -8.606795E+01  4.094617E-03 4.493849E+01  5.993742E-03 3.908268E+01 
 4.116300E-03 4.531167E+01  9.704112E-01 -5.582967E+01  3.644814E-03 8.328673E+01 
 5.980888E-03 3.931705E+01  3.642610E-03 8.324710E+01  9.717165E-01 -5.678051E+01 
7.092500E+02  9.508403E-01 -8.610074E+01  4.082496E-03 4.536479E+01  5.960943E-03 3.939976E+01 
 4.078890E-03 4.514218E+01  9.704639E-01 -5.585576E+01  3.616719E-03 8.417166E+01 
 5.961436E-03 3.919086E+01  3.611417E-03 8.412342E+01  9.716465E-01 -5.679383E+01 
7.095000E+02  9.510165E-01 -8.614406E+01  4.074632E-03 4.509526E+01  5.923927E-03 3.927116E+01 
 4.069353E-03 4.517448E+01  9.702054E-01 -5.587718E+01  3.667418E-03 8.428204E+01 
 5.938910E-03 3.945236E+01  3.680388E-03 8.406286E+01  9.717725E-01 -5.682053E+01 
7.097500E+02  9.509120E-01 -8.619052E+01  4.075318E-03 4.493032E+01  5.928726E-03 3.949289E+01 
 4.074505E-03 4.537661E+01  9.701818E-01 -5.589921E+01  3.626794E-03 8.395166E+01 
 5.909059E-03 3.952706E+01  3.631459E-03 8.404791E+01  9.716786E-01 -5.683859E+01 
7.100000E+02  9.507582E-01 -8.623840E+01  4.064467E-03 4.526177E+01  5.901687E-03 3.993241E+01 
 4.093179E-03 4.521443E+01  9.700606E-01 -5.593114E+01  3.594417E-03 8.447978E+01 
 5.908078E-03 3.998054E+01  3.583719E-03 8.456965E+01  9.717521E-01 -5.687292E+01 
7.102500E+02  9.506539E-01 -8.627612E+01  4.080454E-03 4.545288E+01  5.913149E-03 4.007408E+01 
 4.104050E-03 4.506582E+01  9.701167E-01 -5.595738E+01  3.577655E-03 8.450315E+01 
 5.889526E-03 3.999632E+01  3.601118E-03 8.417040E+01  9.717171E-01 -5.689608E+01 
7.105000E+02  9.506154E-01 -8.630973E+01  4.114236E-03 4.476147E+01  5.867687E-03 4.014231E+01 
 4.121994E-03 4.545178E+01  9.700649E-01 -5.599178E+01  3.540299E-03 8.467667E+01 
 5.871797E-03 4.036202E+01  3.530598E-03 8.463663E+01  9.715952E-01 -5.692597E+01 
7.107500E+02  9.504717E-01 -8.634132E+01  4.118462E-03 4.458643E+01  5.866957E-03 4.013205E+01 
 4.135933E-03 4.468258E+01  9.700229E-01 -5.600734E+01  3.546405E-03 8.593115E+01 
 5.893712E-03 4.019120E+01  3.537355E-03 8.578061E+01  9.716083E-01 -5.694338E+01 
7.110000E+02  9.506392E-01 -8.637379E+01  4.134806E-03 4.445680E+01  5.864274E-03 4.016691E+01 
 4.137315E-03 4.432109E+01  9.699135E-01 -5.603209E+01  3.534649E-03 8.551735E+01 
 5.848382E-03 4.047809E+01  3.533021E-03 8.541510E+01  9.715163E-01 -5.697376E+01 
7.112500E+02  9.503545E-01 -8.642360E+01  4.129145E-03 4.416233E+01  5.873433E-03 4.055288E+01 
 4.133548E-03 4.408349E+01  9.697042E-01 -5.605330E+01  3.523240E-03 8.604359E+01 
 5.866182E-03 4.053496E+01  3.510498E-03 8.600194E+01  9.714087E-01 -5.700233E+01 
7.115000E+02  9.503576E-01 -8.646731E+01  4.081036E-03 4.369231E+01  5.846911E-03 4.040928E+01 
 4.092451E-03 4.377135E+01  9.695769E-01 -5.607017E+01  3.502237E-03 8.639558E+01 
 5.858787E-03 4.068261E+01  3.466959E-03 8.646539E+01  9.714063E-01 -5.701421E+01 
7.117500E+02  9.502048E-01 -8.649736E+01  4.091089E-03 4.388824E+01  5.870108E-03 4.054607E+01 
 4.118703E-03 4.403602E+01  9.694006E-01 -5.610781E+01  3.449924E-03 8.674667E+01 
 5.857174E-03 4.029673E+01  3.467471E-03 8.609221E+01  9.711826E-01 -5.705007E+01 
7.120000E+02  9.501647E-01 -8.652596E+01  4.092319E-03 4.340805E+01  5.834362E-03 4.025561E+01 
 4.056999E-03 4.352692E+01  9.693755E-01 -5.612032E+01  3.489671E-03 8.704513E+01 
 5.804287E-03 4.043630E+01  3.475210E-03 8.741524E+01  9.711992E-01 -5.705845E+01 
7.122500E+02  9.501670E-01 -8.655337E+01  4.027523E-03 4.294150E+01  5.805688E-03 4.039991E+01 
 4.041759E-03 4.294793E+01  9.693554E-01 -5.613732E+01  3.485363E-03 8.687797E+01 
 5.798992E-03 4.039404E+01  3.492530E-03 8.693848E+01  9.709917E-01 -5.708180E+01 
7.125000E+02  9.501174E-01 -8.657393E+01  4.015503E-03 4.298633E+01  5.770668E-03 4.033201E+01 
 4.004544E-03 4.306883E+01  9.693203E-01 -5.616254E+01  3.476547E-03 8.764817E+01 
 5.773743E-03 4.049710E+01  3.447886E-03 8.663116E+01  9.710997E-01 -5.710653E+01 
7.127500E+02  9.502501E-01 -8.659734E+01  3.993461E-03 4.291190E+01  5.761211E-03 4.119736E+01 
 3.981802E-03 4.333650E+01  9.694221E-01 -5.618446E+01  3.432874E-03 8.714202E+01 
 5.778849E-03 4.121613E+01  3.400766E-03 8.709574E+01  9.710546E-01 -5.712504E+01 
7.130000E+02  9.503964E-01 -8.663201E+01  3.945340E-03 4.322057E+01  5.766455E-03 4.093659E+01 
 3.953633E-03 4.313429E+01  9.695478E-01 -5.622221E+01  3.418693E-03 8.745407E+01 
 5.770252E-03 4.111747E+01  3.390666E-03 8.719315E+01  9.710963E-01 -5.714791E+01 
7.132500E+02  9.504483E-01 -8.665198E+01  3.941909E-03 4.289728E+01  5.757106E-03 4.106672E+01 
 3.943978E-03 4.307195E+01  9.696704E-01 -5.624875E+01  3.361747E-03 8.784840E+01 
 5.732332E-03 4.132739E+01  3.373119E-03 8.786975E+01  9.713102E-01 -5.717900E+01 
7.135000E+02  9.505783E-01 -8.668735E+01  3.914900E-03 4.330926E+01  5.720280E-03 4.133527E+01 
 3.914239E-03 4.345740E+01  9.698720E-01 -5.627681E+01  3.351535E-03 8.847716E+01 
 5.719082E-03 4.129703E+01  3.359881E-03 8.856812E+01  9.713426E-01 -5.719787E+01 
7.137500E+02  9.506062E-01 -8.671009E+01  3.896685E-03 4.333618E+01  5.743933E-03 4.152205E+01 
 3.902932E-03 4.368581E+01  9.698208E-01 -5.631822E+01  3.311624E-03 8.810514E+01 
 5.738089E-03 4.163856E+01  3.299044E-03 8.784394E+01  9.713465E-01 -5.722297E+01 
7.140000E+02  9.507618E-01 -8.675119E+01  3.895537E-03 4.319452E+01  5.769384E-03 4.149659E+01 
 3.873547E-03 4.396295E+01  9.699914E-01 -5.634531E+01  3.276341E-03 8.900234E+01 
 5.749181E-03 4.164421E+01  3.248663E-03 8.854816E+01  9.712808E-01 -5.724553E+01 
7.142500E+02  9.506322E-01 -8.677384E+01  3.874859E-03 4.373308E+01  5.760543E-03 4.167329E+01 
 3.878856E-03 4.385489E+01  9.700733E-01 -5.637686E+01  3.258930E-03 8.946556E+01 
 5.749859E-03 4.160476E+01  3.255465E-03 8.935149E+01  9.712357E-01 -5.727988E+01 
7.145000E+02  9.507034E-01 -8.681241E+01  3.865212E-03 4.362138E+01  5.758232E-03 4.173576E+01 
 3.867047E-03 4.390851E+01  9.702389E-01 -5.640548E+01  3.210395E-03 9.016032E+01 
 5.719806E-03 4.182597E+01  3.195930E-03 9.002043E+01  9.715256E-01 -5.730689E+01 
7.147500E+02  9.509351E-01 -8.684771E+01  3.849753E-03 4.376933E+01  5.780908E-03 4.199058E+01 
 3.840520E-03 4.403983E+01  9.703790E-01 -5.644641E+01  3.178914E-03 9.078407E+01 
 5.766641E-03 4.183133E+01  3.136790E-03 9.059304E+01  9.713804E-01 -5.733861E+01 
7.150000E+02  9.511055E-01 -8.687836E+01  3.827446E-03 4.431287E+01  5.790892E-03 4.171702E+01 
 3.831578E-03 4.424126E+01  9.703383E-01 -5.647472E+01  3.165641E-03 9.185246E+01 
 5.782493E-03 4.197821E+01  3.110310E-03 9.178808E+01  9.713894E-01 -5.736138E+01 
7.152500E+02  9.512061E-01 -8.691163E+01  3.838599E-03 4.424966E+01  5.764676E-03 4.174423E+01 
 3.825202E-03 4.467983E+01  9.705219E-01 -5.652121E+01  3.118362E-03 9.271816E+01 
 5.767438E-03 4.155712E+01  3.091280E-03 9.261543E+01  9.714494E-01 -5.738759E+01 
7.155000E+02  9.512298E-01 -8.694532E+01  3.810771E-03 4.455957E+01  5.761960E-03 4.170661E+01 
 3.804300E-03 4.512513E+01  9.703759E-01 -5.653411E+01  3.106063E-03 9.313585E+01 
 5.755488E-03 4.168244E+01  3.076773E-03 9.360422E+01  9.714546E-01 -5.742022E+01 
7.157500E+02  9.511844E-01 -8.698106E+01  3.806865E-03 4.487292E+01  5.764947E-03 4.152140E+01 
 3.799846E-03 4.478418E+01  9.705377E-01 -5.657757E+01  3.086177E-03 9.412326E+01 
 5.777096E-03 4.159011E+01  3.074947E-03 9.427226E+01  9.713117E-01 -5.745711E+01 
7.160000E+02  9.510712E-01 -8.702099E+01  3.777803E-03 4.507874E+01  5.753310E-03 4.116367E+01 
 3.786423E-03 4.489176E+01  9.706039E-01 -5.660932E+01  3.086041E-03 9.551125E+01 
 5.718047E-03 4.134895E+01  3.034299E-03 9.525529E+01  9.713138E-01 -5.748003E+01 
7.162500E+02  9.511295E-01 -8.705937E+01  3.758503E-03 4.552829E+01  5.755599E-03 4.126691E+01 
 3.771131E-03 4.532637E+01  9.704665E-01 -5.664225E+01  3.079168E-03 9.691709E+01 
 5.759598E-03 4.117281E+01  3.065118E-03 9.688578E+01  9.713991E-01 -5.751083E+01 
7.165000E+02  9.512147E-01 -8.709309E+01  3.750554E-03 4.558185E+01  5.715325E-03 4.098539E+01 
 3.772451E-03 4.572183E+01  9.705325E-01 -5.665907E+01  3.093619E-03 9.759538E+01 
 5.716193E-03 4.123715E+01  3.065982E-03 9.765626E+01  9.714757E-01 -5.751981E+01 
7.167500E+02  9.512969E-01 -8.712168E+01  3.792568E-03 4.616270E+01  5.705165E-03 4.116402E+01 
 3.770798E-03 4.571440E+01  9.703683E-01 -5.668394E+01  3.058799E-03 9.843334E+01 
 5.683732E-03 4.098893E+01  3.068072E-03 9.821515E+01  9.712387E-01 -5.754896E+01 
7.170000E+02  9.512546E-01 -8.715476E+01  3.735301E-03 4.646236E+01  5.686179E-03 4.105303E+01 
 3.762556E-03 4.663677E+01  9.701590E-01 -5.670861E+01  3.121900E-03 9.949580E+01 
 5.678098E-03 4.109563E+01  3.079616E-03 9.947874E+01  9.712378E-01 -5.757448E+01 
7.172500E+02  9.513747E-01 -8.719706E+01  3.769170E-03 4.676551E+01  5.664377E-03 4.114503E+01 
 3.771190E-03 4.666881E+01  9.700506E-01 -5.672964E+01  3.053464E-03 1.000565E+02 
 5.661133E-03 4.121750E+01  3.051267E-03 9.983919E+01  9.712430E-01 -5.759325E+01 
7.175000E+02  9.515036E-01 -8.723435E+01  3.771542E-03 4.713783E+01  5.636707E-03 4.099728E+01 
 3.772204E-03 4.687143E+01  9.700108E-01 -5.675674E+01  3.071327E-03 1.021304E+02 
 5.658856E-03 4.097742E+01  3.048676E-03 1.022681E+02  9.711898E-01 -5.760984E+01 
7.177500E+02  9.512728E-01 -8.727348E+01  3.765353E-03 4.709722E+01  5.606022E-03 4.074684E+01 
 3.770786E-03 4.698994E+01  9.698182E-01 -5.677669E+01  3.097373E-03 1.029672E+02 
 5.600828E-03 4.088544E+01  3.074461E-03 1.035566E+02  9.712630E-01 -5.763869E+01 
7.180000E+02  9.514841E-01 -8.730988E+01  3.777832E-03 4.756006E+01  5.614776E-03 4.089570E+01 
 3.780491E-03 4.748827E+01  9.697574E-01 -5.680382E+01  3.106577E-03 1.042848E+02 
 5.593098E-03 4.067009E+01  3.120735E-03 1.050902E+02  9.712176E-01 -5.765716E+01 
7.182500E+02  9.515189E-01 -8.735537E+01  3.792659E-03 4.787372E+01  5.556192E-03 4.108571E+01 
 3.771949E-03 4.794210E+01  9.696000E-01 -5.681809E+01  3.185271E-03 1.059297E+02 
 5.571211E-03 4.093475E+01  3.174312E-03 1.059272E+02  9.712464E-01 -5.768042E+01 
7.185000E+02  9.514785E-01 -8.738692E+01  3.790103E-03 4.770581E+01  5.540615E-03 4.074934E+01 
