! Matrix data file written by TouchstoneData, EPCOS AG
! FILENAME: "b3518_unm3_WB.s4p_newformat"
! COMMENT: "(b3518_unm3_WB.s4p) EPCOS AG 13.01.2011 15:4"
! INFO: nport=4, nfreq=1601
! DATE: "Tue Apr 19 11:15:11 2011"
! USER: "Sergey Rostovtsev"
!
! port | pin | signal
! -----|-----|--------
!   1  |  2  |  GLON IN
!   2  |  3  |  GPS IN
!   3  |  9  |  GLON OUT
!   4  |  6  |  GPS OUT
! --------------------
! 
# MHZ S MA R 50
! freq  magS11 angS11  magS12 angS12  magS13 angS13  magS14 angS14  ...
1.000000E+02  9.973647E-01 -8.878703E+00  2.618699E-03 8.026922E+01  9.076767E-05 9.524794E+01  2.721958E-05 5.171501E+01 
 2.633138E-03 8.044449E+01  9.981559E-01 -9.517982E+00  3.750643E-05 1.792470E+01  1.712435E-05 -2.415418E+01 
 8.658231E-05 9.031416E+01  4.690570E-05 1.654377E+01  9.963546E-01 -8.756909E+00  2.951649E-05 -2.361213E+01 
 3.295926E-05 7.571010E+01  4.042650E-06 7.526596E+01  3.967606E-05 2.339048E+01  9.974971E-01 -9.809640E+00 
1.024375E+02  9.973883E-01 -9.050122E+00  2.537961E-03 8.079524E+01  3.924745E-05 6.901000E+01  1.158948E-05 -4.704928E+01 
 2.522488E-03 8.015741E+01  9.979645E-01 -9.726620E+00  2.653966E-05 7.088189E+01  5.565097E-05 8.704184E+01 
 3.720394E-05 6.686134E+01  1.018273E-05 9.765736E+01  9.963353E-01 -8.963811E+00  9.624541E-05 -5.481605E+01 
 3.237111E-05 -3.441249E+01  7.137337E-05 1.241073E+02  6.263626E-05 -4.915958E+01  9.980747E-01 -1.003003E+01 
1.048750E+02  9.972638E-01 -9.300652E+00  2.736370E-03 7.957062E+01  4.276519E-05 1.141571E+02  1.349139E-05 8.314345E+01 
 2.754227E-03 7.967775E+01  9.971351E-01 -9.965392E+00  4.306666E-05 8.801179E+01  3.518583E-05 9.039892E+01 
 4.678401E-05 8.683379E+01  2.555496E-05 8.459188E+01  9.959437E-01 -9.194180E+00  8.326759E-06 9.974609E+01 
 2.339597E-05 1.062615E+02  3.740324E-05 1.284929E+02  2.773880E-05 -8.170174E+01  9.988534E-01 -1.030270E+01 
1.073125E+02  9.967782E-01 -9.505280E+00  2.747230E-03 7.915070E+01  1.066033E-05 3.996735E+01  1.933189E-05 1.459097E+02 
 2.742648E-03 7.905696E+01  9.976344E-01 -1.018579E+01  2.493692E-05 -4.641115E+01  4.484137E-05 7.009311E+01 
 2.846733E-05 6.371579E+01  3.111515E-05 -1.055184E+02  9.960929E-01 -9.414606E+00  1.560460E-05 -8.839161E+01 
 1.684630E-05 -7.344053E+01  3.881383E-05 9.739660E+01  2.264580E-05 1.727933E+02  9.985776E-01 -1.053631E+01 
1.097500E+02  9.964919E-01 -9.765297E+00  2.957818E-03 7.660058E+01  7.325520E-05 1.106352E+02  8.275966E-05 1.034858E+02 
 2.952256E-03 7.642646E+01  9.969999E-01 -1.041746E+01  1.510505E-05 -1.332582E+02  4.793282E-05 1.714505E+02 
 5.566239E-05 9.212481E+01  1.672525E-05 -1.422558E+02  9.954768E-01 -9.632639E+00  3.552290E-05 -1.758032E+02 
 6.734391E-05 1.033542E+02  4.046050E-05 -1.728456E+02  7.166233E-05 1.700713E+02  9.985664E-01 -1.078833E+01 
1.121875E+02  9.968083E-01 -1.000191E+01  2.785140E-03 7.885288E+01  5.080544E-05 9.246510E+01  1.812052E-05 1.438470E+02 
 2.783718E-03 7.846994E+01  9.982247E-01 -1.057046E+01  2.791217E-05 -8.271221E+01  3.588244E-05 1.775066E+02 
 5.385001E-05 9.719889E+01  2.313582E-05 -7.772076E+01  9.967957E-01 -9.838220E+00  1.407984E-05 -4.386982E+01 
 2.438398E-05 1.524460E+02  4.046707E-05 1.592264E+02  4.356172E-05 -1.413241E+02  9.986939E-01 -1.097133E+01 
1.146250E+02  9.969834E-01 -1.019176E+01  2.957568E-03 7.876517E+01  7.306223E-05 7.235146E+01  2.006912E-05 -8.162844E+01 
 2.944684E-03 7.877343E+01  9.980079E-01 -1.082279E+01  2.100823E-05 -1.079048E+02  3.971629E-05 5.872592E+01 
 7.448480E-05 7.219377E+01  3.486282E-05 -7.200281E+01  9.967004E-01 -1.000929E+01  2.885577E-05 -1.071104E+01 
 2.134628E-05 -4.549945E+01  5.394133E-05 8.277559E+01  4.253291E-05 -1.163378E+02  9.985971E-01 -1.121903E+01 
1.170625E+02  9.970115E-01 -1.040610E+01  2.992365E-03 7.902543E+01  8.146183E-05 8.011764E+01  1.805682E-05 7.994711E+01 
 2.988878E-03 7.893334E+01  9.975527E-01 -1.106940E+01  4.202874E-05 4.466422E+01  3.701017E-05 3.515852E+01 
 6.739398E-05 6.422191E+01  1.688763E-05 3.162706E+01  9.960254E-01 -1.023249E+01  6.860196E-06 1.580528E+02 
 1.214665E-05 8.662350E+01  3.848340E-05 7.950898E+01  3.493407E-05 3.380352E+01  9.981418E-01 -1.147747E+01 
1.195000E+02  9.973971E-01 -1.060943E+01  2.991546E-03 7.345904E+01  4.067296E-05 1.417376E+02  7.157533E-05 1.183469E+02 
 3.008286E-03 7.321730E+01  9.967695E-01 -1.131181E+01  2.225962E-05 8.703841E+01  7.566624E-05 -5.916177E+00 
 2.233853E-05 6.631592E+01  1.409955E-05 1.781391E+02  9.957874E-01 -1.044535E+01  1.280539E-05 -1.526299E+02 
 7.562638E-05 1.228625E+02  5.433123E-05 -3.181999E+00  9.424826E-06 -1.722189E+02  9.978476E-01 -1.174350E+01 
1.219375E+02  9.982145E-01 -1.081149E+01  3.066069E-03 7.852133E+01  9.627481E-05 1.005738E+02  3.614295E-05 -1.776988E+02 
 3.085925E-03 7.843438E+01  9.975896E-01 -1.157493E+01  1.900454E-05 -4.376257E+01  3.621193E-05 5.083846E+01 
 1.051024E-04 9.042829E+01  1.164787E-05 -3.155867E+01  9.965798E-01 -1.063146E+01  5.128021E-05 -1.587862E+02 
 3.638444E-05 -1.686508E+02  4.706638E-05 7.541541E+01  4.014196E-05 -1.799705E+02  9.985745E-01 -1.196385E+01 
1.243750E+02  9.980990E-01 -1.104664E+01  3.184360E-03 7.756135E+01  8.620694E-05 8.734574E+01  2.002667E-05 -3.600582E+00 
 3.175579E-03 7.708912E+01  9.976599E-01 -1.181360E+01  3.316827E-05 -3.458155E+01  4.489940E-05 1.153168E+02 
 6.031572E-05 7.659280E+01  4.220278E-06 9.569252E+01  9.972152E-01 -1.082232E+01  3.928583E-05 5.610328E+01 
 2.988141E-05 5.407952E+01  5.066885E-05 1.245139E+02  3.159269E-05 5.233987E+01  9.989182E-01 -1.219153E+01 
1.268125E+02  9.974626E-01 -1.127356E+01  3.239517E-03 7.728553E+01  8.790101E-05 9.601892E+01  4.353567E-05 -2.165009E+01 
 3.250066E-03 7.690981E+01  9.976560E-01 -1.202972E+01  2.689286E-05 5.212114E+01  5.152877E-05 6.209380E+01 
 5.813209E-05 9.427224E+01  1.077579E-05 -3.203448E+01  9.958301E-01 -1.104449E+01  2.318140E-05 1.334841E+01 
 6.080914E-06 -5.317164E+01  6.377675E-05 6.265707E+01  3.067834E-05 -4.671368E+01  9.986253E-01 -1.242517E+01 
1.292500E+02  9.974531E-01 -1.147926E+01  3.182661E-03 7.693383E+01  4.134366E-05 6.301494E+01  2.926192E-05 1.789891E+02 
 3.196242E-03 7.681573E+01  9.974792E-01 -1.224514E+01  9.418100E-06 1.661970E+02  9.722341E-05 6.554333E+01 
 5.308572E-05 8.877255E+01  2.972464E-05 -1.755562E+02  9.952607E-01 -1.123724E+01  1.651992E-05 -9.904613E+01 
 2.860609E-05 -1.236068E+02  8.423757E-05 5.145059E+01  1.857739E-06 -1.292761E+02  9.984186E-01 -1.266842E+01 
1.316875E+02  9.973296E-01 -1.169406E+01  3.317593E-03 7.738702E+01  6.018809E-05 9.400082E+01  1.182290E-05 1.782264E+02 
 3.355822E-03 7.757535E+01  9.971101E-01 -1.246811E+01  1.254960E-05 4.976470E+01  7.562015E-05 8.794840E+01 
 4.782066E-05 6.313092E+01  3.191548E-05 8.274513E+01  9.951774E-01 -1.148037E+01  2.935760E-05 1.848783E+01 
 3.374780E-05 -7.789186E+01  6.479279E-05 9.736452E+01  3.455427E-05 2.331332E+01  9.978902E-01 -1.292096E+01 
1.341250E+02  9.966617E-01 -1.191938E+01  3.411822E-03 7.686670E+01  9.506206E-05 8.488939E+01  2.153733E-05 1.121673E+02 
 3.403628E-03 7.656417E+01  9.971029E-01 -1.268807E+01  1.466851E-05 -7.076941E+01  2.747418E-05 1.009384E+02 
 7.877446E-05 6.366732E+01  1.524653E-05 9.837577E+01  9.962178E-01 -1.170334E+01  4.303041E-05 -1.609778E+02 
 1.031800E-05 2.414753E+01  3.858496E-05 1.386627E+02  1.340563E-05 -7.644207E+01  9.980356E-01 -1.314641E+01 
1.365625E+02  9.962715E-01 -1.212846E+01  3.507695E-03 7.618742E+01  9.365920E-05 6.084431E+01  2.917611E-05 -1.677929E+02 
 3.506423E-03 7.620457E+01  9.974777E-01 -1.293996E+01  6.561712E-05 1.079962E+02  5.252868E-05 6.600496E+01 
 5.927179E-05 6.731978E+01  2.041597E-05 3.731017E+01  9.971494E-01 -1.194304E+01  2.085286E-05 3.410763E+00 
 3.192857E-05 -1.365434E+02  4.290569E-05 6.707457E+01  2.375967E-05 -2.358036E+00  9.981806E-01 -1.337037E+01 
1.390000E+02  9.959347E-01 -1.230416E+01  3.479257E-03 7.558456E+01  1.024735E-04 6.252889E+01  3.399613E-05 1.037182E+02 
 3.460073E-03 7.538735E+01  9.979704E-01 -1.317995E+01  2.405547E-05 9.265521E+01  4.356968E-05 -3.625233E+01 
 7.214658E-05 9.149334E+01  1.347607E-06 -1.486204E+02  9.968946E-01 -1.209329E+01  4.406768E-05 -8.110023E+01 
 2.888188E-05 1.243994E+02  3.685572E-05 -1.359602E+01  3.819308E-05 -8.289583E+01  9.978074E-01 -1.356264E+01 
1.414375E+02  9.961285E-01 -1.258517E+01  3.572511E-03 7.637976E+01  5.537515E-05 5.157513E+01  5.098509E-05 1.419554E+02 
 3.557822E-03 7.624933E+01  9.982174E-01 -1.344567E+01  1.131195E-05 1.888708E+01  7.924161E-05 7.566920E+01 
 7.456902E-05 7.641050E+01  5.382085E-06 -3.373621E-01  9.969474E-01 -1.232230E+01  1.225017E-05 -1.657418E+02 
 7.594473E-05 1.550528E+02  5.253573E-05 1.063072E+02  1.782949E-05 1.288497E+02  9.978513E-01 -1.381758E+01 
1.438750E+02  9.963826E-01 -1.278674E+01  3.645769E-03 7.630063E+01  5.740179E-05 7.956758E+01  1.631456E-05 -1.331760E+02 
 3.629759E-03 7.615842E+01  9.981835E-01 -1.366496E+01  1.759719E-05 -1.047019E+02  5.062074E-05 7.913782E+01 
 5.551502E-05 8.476320E+01  1.534232E-05 -1.792952E+02  9.967192E-01 -1.255538E+01  5.181635E-05 3.197936E+01 
 1.398930E-05 9.831964E+00  5.186614E-05 5.947779E+01  9.838142E-06 2.788275E+01  9.975079E-01 -1.410068E+01 
1.463125E+02  9.955367E-01 -1.298733E+01  3.832080E-03 7.530905E+01  6.997648E-05 8.614835E+01  2.319815E-05 4.131921E+01 
 3.842514E-03 7.473935E+01  9.972324E-01 -1.386665E+01  2.456983E-05 1.696701E+02  6.066890E-05 1.218208E+02 
 9.308153E-05 1.077187E+02  1.103902E-05 1.386675E+02  9.956307E-01 -1.272018E+01  5.427482E-05 -1.932128E+01 
 1.968746E-05 -1.150294E+01  4.007602E-05 1.333749E+02  4.902749E-05 1.042596E+01  9.969961E-01 -1.433042E+01 
1.487500E+02  9.962335E-01 -1.321786E+01  3.684265E-03 7.516062E+01  8.798231E-05 7.566291E+01  1.814915E-05 9.121458E+01 
 3.704714E-03 7.534041E+01  9.975460E-01 -1.410229E+01  3.394455E-05 1.152706E+02  7.754115E-05 8.711902E+01 
 8.302621E-05 7.349701E+01  1.704140E-05 -6.525882E+01  9.961627E-01 -1.295597E+01  1.947571E-05 -8.532116E+01 
 4.772075E-05 1.724720E+02  7.944770E-05 6.544677E+01  3.707649E-05 -3.862586E+01  9.976058E-01 -1.460075E+01 
1.511875E+02  9.965103E-01 -1.347007E+01  3.754456E-03 7.528454E+01  6.321788E-05 8.597797E+01  1.566933E-05 -3.586768E+01 
 3.780964E-03 7.522231E+01  9.974977E-01 -1.437372E+01  3.178195E-05 1.557733E+02  7.459169E-05 7.377759E+01 
 9.130662E-05 7.748748E+01  3.206341E-05 1.627336E+02  9.960870E-01 -1.318634E+01  3.087538E-05 -4.121024E+01 
 3.833624E-05 1.242364E+00  4.629062E-05 1.084196E+02  4.443037E-05 -4.707521E+01  9.977207E-01 -1.487803E+01 
1.536250E+02  9.959173E-01 -1.369762E+01  3.865012E-03 7.508528E+01  9.492827E-05 7.399379E+01  2.915054E-06 -1.368170E+02 
 3.901060E-03 7.561559E+01  9.968188E-01 -1.464400E+01  1.253745E-05 -8.552987E+01  4.617755E-05 1.401235E+02 
 8.748056E-05 9.296277E+01  3.158431E-06 1.528289E+01  9.953980E-01 -1.343237E+01  2.043416E-05 8.115022E+01 
 1.139934E-05 1.377147E+02  3.389886E-05 7.633586E+01  6.953537E-06 9.618471E+01  9.981358E-01 -1.511666E+01 
1.560625E+02  9.950123E-01 -1.389453E+01  3.860443E-03 7.059345E+01  1.301668E-04 8.993094E+01  4.813853E-05 2.412039E+01 
 3.841261E-03 7.133301E+01  9.959703E-01 -1.486346E+01  4.248310E-05 -6.073954E+01  4.165520E-05 1.482319E+01 
 1.008384E-04 9.788511E+01  5.032465E-05 -5.617988E+01  9.943627E-01 -1.362374E+01  5.073062E-05 -1.654085E+02 
 6.338744E-05 3.868780E+01  5.073473E-05 3.465038E+01  3.312408E-05 -1.452817E+02  9.971175E-01 -1.529006E+01 
1.585000E+02  9.957471E-01 -1.415812E+01  3.945646E-03 7.492470E+01  6.332041E-05 7.698085E+01  2.772304E-05 1.304107E+01 
 3.991882E-03 7.466343E+01  9.972474E-01 -1.506137E+01  4.391620E-06 -1.603380E+02  3.655297E-05 2.583024E+01 
 7.370479E-05 5.895293E+01  3.396101E-05 2.779381E+01  9.948043E-01 -1.381028E+01  2.523013E-05 -1.335789E+01 
 1.192707E-05 -9.124628E+01  3.101746E-05 3.922822E+01  5.029663E-05 -4.571221E+01  9.978247E-01 -1.554768E+01 
1.609375E+02  9.963242E-01 -1.437266E+01  4.027872E-03 7.446699E+01  8.720193E-05 8.884112E+01  2.781553E-05 -1.421129E+02 
 4.006049E-03 7.460194E+01  9.980582E-01 -1.527761E+01  5.877221E-05 5.464264E+01  5.491528E-05 4.375075E+01 
 6.471442E-05 7.492369E+01  6.768620E-05 1.229789E+01  9.949411E-01 -1.401869E+01  7.617415E-06 9.451375E+01 
 3.118820E-05 1.699436E+02  3.759922E-05 5.566896E+01  5.514522E-06 -2.957464E+01  9.980581E-01 -1.576228E+01 
1.633750E+02  9.952185E-01 -1.457446E+01  4.122317E-03 7.404955E+01  6.781463E-05 1.061578E+02  2.985319E-06 2.213752E+01 
 4.137946E-03 7.398382E+01  9.975102E-01 -1.558096E+01  2.054541E-05 -1.738512E+02  7.179721E-05 1.046029E+02 
 8.716450E-05 7.837164E+01  1.879076E-06 -1.185215E+02  9.955357E-01 -1.421300E+01  1.966909E-05 -2.446499E+01 
 3.845119E-05 -7.645302E+01  3.205630E-05 1.043070E+02  4.684331E-05 -1.684174E+02  9.986218E-01 -1.605809E+01 
1.658125E+02  9.946294E-01 -1.474132E+01  4.047374E-03 7.392422E+01  1.173839E-04 4.992614E+01  1.650458E-05 8.039673E+01 
 4.070180E-03 7.381132E+01  9.960582E-01 -1.576258E+01  3.523920E-05 -1.456165E+02  3.837106E-05 7.958737E+01 
 1.065310E-04 4.814431E+01  6.191211E-05 1.686941E+02  9.940878E-01 -1.443592E+01  1.634501E-05 7.619604E+01 
 2.000271E-05 2.019110E+01  4.943834E-05 9.270028E+01  9.631280E-06 -9.525466E+01  9.973484E-01 -1.631447E+01 
1.682500E+02  9.960073E-01 -1.498758E+01  4.177515E-03 7.356366E+01  1.154009E-04 8.818025E+01  4.173021E-05 -1.296632E+02 
 4.201721E-03 7.346340E+01  9.964863E-01 -1.593151E+01  1.452160E-05 9.989428E+00  5.362869E-05 7.840763E+01 
 1.170828E-04 8.835712E+01  1.807432E-05 -1.178121E+02  9.944006E-01 -1.472706E+01  1.166858E-05 9.476284E+01 
 4.212964E-05 -1.603292E+02  7.705598E-05 3.630486E+01  1.997635E-05 2.962995E+01  9.974545E-01 -1.658258E+01 
1.706875E+02  9.955518E-01 -1.524813E+01  4.297777E-03 7.395497E+01  6.186521E-05 6.853476E+01  1.016384E-05 1.670189E+02 
 4.277695E-03 7.389858E+01  9.956853E-01 -1.622143E+01  2.474331E-06 8.891286E+01  7.802291E-05 8.316902E+01 
 1.146061E-04 9.078619E+01  4.889836E-05 2.192362E+01  9.943823E-01 -1.490984E+01  1.929054E-05 5.136856E+01 
 4.599784E-06 1.318069E+02  6.937895E-05 6.830147E+01  3.445346E-05 8.762180E+01  9.972334E-01 -1.681947E+01 
1.731250E+02  9.951728E-01 -1.546376E+01  4.360512E-03 7.356775E+01  5.662973E-05 9.636820E+01  1.672611E-05 5.558135E+01 
 4.352467E-03 7.380654E+01  9.954304E-01 -1.645863E+01  2.825176E-05 1.613614E+02  6.538790E-05 3.073958E+01 
 9.256126E-05 8.482903E+01  2.466738E-05 -1.486570E+02  9.946730E-01 -1.511725E+01  1.147647E-05 8.098026E+01 
 1.634231E-05 -1.540843E+01  2.240787E-05 6.010219E+01  3.242870E-05 9.339245E+01  9.965437E-01 -1.702301E+01 
1.755625E+02  9.948971E-01 -1.565059E+01  4.308567E-03 7.273264E+01  1.170819E-04 7.035880E+01  1.824463E-05 -7.719530E+01 
 4.328449E-03 7.301285E+01  9.959059E-01 -1.659868E+01  7.506385E-06 -1.233345E+02  9.293222E-05 4.429464E+01 
 7.475056E-05 6.860539E+01  1.773401E-05 -1.599298E+02  9.943096E-01 -1.529335E+01  1.186693E-05 -1.518552E+02 
 2.336052E-05 -9.842091E+01  8.841281E-05 4.339919E+01  9.560002E-06 -6.393598E+01  9.959855E-01 -1.724862E+01 
1.780000E+02  9.953464E-01 -1.601622E+01  4.394418E-03 7.274848E+01  9.713508E-05 6.759405E+01  2.290518E-05 8.378387E+01 
 4.391853E-03 7.263467E+01  9.954574E-01 -1.704827E+01  5.959165E-06 5.958815E+01  4.277196E-05 6.342904E+01 
 1.129479E-04 6.740509E+01  3.484463E-05 6.075268E+01  9.938857E-01 -1.564355E+01  3.466689E-05 1.791522E+02 
 1.859303E-05 1.685036E+02  4.650577E-05 7.061905E+01  2.499926E-05 -9.175034E+01  9.957705E-01 -1.764612E+01 
1.804375E+02  9.955989E-01 -1.612344E+01  4.545690E-03 7.271528E+01  1.196447E-04 5.615140E+01  3.343076E-05 -9.585161E+01 
 4.535036E-03 7.249573E+01  9.962980E-01 -1.717797E+01  2.951648E-05 -1.697449E+02  5.561836E-05 8.030949E+01 
 1.012850E-04 6.133602E+01  2.811858E-05 1.628019E+02  9.946838E-01 -1.578044E+01  2.028121E-05 -1.218599E+02 
 2.721971E-05 -8.123073E+01  4.437816E-05 6.832822E+01  2.415772E-05 -3.052858E+00  9.968874E-01 -1.773972E+01 
1.828750E+02  9.947682E-01 -1.635651E+01  4.679726E-03 7.165174E+01  9.139119E-05 1.001403E+02  2.817461E-05 -2.541142E+01 
 4.666873E-03 7.143292E+01  9.958950E-01 -1.733763E+01  2.936914E-05 4.477189E+01  3.570218E-05 1.101354E+02 
 9.038762E-05 8.742746E+01  3.298124E-05 4.564242E+01  9.942711E-01 -1.598695E+01  4.342045E-05 -5.258759E+01 
 2.261967E-05 1.163030E+02  4.586200E-05 7.699981E+01  4.821690E-05 -4.217774E+01  9.970246E-01 -1.796033E+01 
1.853125E+02  9.954412E-01 -1.653839E+01  4.543979E-03 7.249677E+01  1.064984E-04 5.299513E+01  1.445046E-05 -1.430722E+02 
 4.557195E-03 7.245752E+01  9.967382E-01 -1.750708E+01  2.656791E-05 4.899438E+01  6.893812E-05 5.566484E+01 
 1.117563E-04 7.710905E+01  2.732027E-05 1.983021E+01  9.945449E-01 -1.617695E+01  1.804180E-05 -1.173922E+02 
 3.686826E-06 2.611558E+01  5.629721E-05 4.959903E+01  7.749559E-06 3.608452E+00  9.967497E-01 -1.818382E+01 
1.877500E+02  9.950201E-01 -1.675536E+01  4.652158E-03 7.285211E+01  1.225142E-04 7.394236E+01  3.435382E-05 -1.347725E+02 
 4.648490E-03 7.266416E+01  9.959835E-01 -1.773508E+01  1.742003E-05 3.664196E+01  8.318581E-05 5.939130E+01 
 1.092571E-04 8.384966E+01  1.937267E-05 4.666757E+01  9.944294E-01 -1.637360E+01  2.611202E-05 -5.420463E+00 
 4.135111E-05 1.624557E+02  5.063205E-05 6.958842E+01  1.859352E-05 -7.873795E+01  9.963775E-01 -1.850545E+01 
1.901875E+02  9.952180E-01 -1.699401E+01  4.715044E-03 7.193329E+01  1.131420E-04 7.231936E+01  2.247604E-05 -5.018785E+01 
 4.706401E-03 7.174030E+01  9.969501E-01 -1.803267E+01  2.132394E-05 1.249209E+02  8.491145E-05 4.121651E+01 
 1.288068E-04 7.917033E+01  9.179964E-06 8.872293E+01  9.941130E-01 -1.665096E+01  3.790057E-05 3.125881E+01 
 1.969206E-05 -1.615132E+02  6.906964E-05 6.704408E+01  3.326493E-05 8.357797E+00  9.968137E-01 -1.878373E+01 
1.926250E+02  9.936234E-01 -1.719646E+01  4.661230E-03 6.968367E+01  7.982799E-05 9.191163E+01  5.324096E-06 -4.771022E+00 
 4.676367E-03 7.037230E+01  9.947372E-01 -1.820221E+01  4.754691E-05 -8.758262E+01  7.387380E-05 8.365583E+01 
 9.258942E-05 8.098590E+01  4.747032E-05 -9.252830E+01  9.925924E-01 -1.685960E+01  2.668044E-05 1.543717E+02 
 1.391853E-05 1.571133E+02  8.789157E-05 5.872337E+01  2.088076E-05 1.180714E+02  9.951987E-01 -1.896628E+01 
1.950625E+02  9.932090E-01 -1.742097E+01  4.768248E-03 7.114376E+01  1.176821E-04 7.054733E+01  4.446055E-05 -1.698729E+02 
 4.802051E-03 7.126729E+01  9.950070E-01 -1.838276E+01  4.002304E-05 1.200528E+01  6.216112E-05 5.800987E+01 
 1.259340E-04 7.969071E+01  4.691547E-05 1.107231E+01  9.925503E-01 -1.703361E+01  1.810810E-05 -1.366293E+02 
 8.736313E-06 1.296055E+02  7.091222E-05 6.410247E+01  4.248011E-05 1.331638E+02  9.956624E-01 -1.915095E+01 
1.975000E+02  9.941880E-01 -1.765632E+01  4.844822E-03 7.116378E+01  1.074570E-04 6.942434E+01  3.483931E-05 -1.097304E+02 
 4.835983E-03 7.116945E+01  9.953269E-01 -1.875266E+01  3.524372E-05 1.100023E+02  9.237412E-05 7.321233E+01 
 1.185071E-04 6.183707E+01  4.474015E-05 8.723553E+01  9.935640E-01 -1.733105E+01  2.521443E-05 -9.433151E+01 
 1.662958E-05 -9.655524E+01  1.026893E-04 7.066117E+01  1.689716E-05 -1.070288E+02  9.966574E-01 -1.946628E+01 
1.999375E+02  9.943153E-01 -1.782494E+01  4.947148E-03 7.069440E+01  8.051061E-05 6.943604E+01  2.284611E-05 -6.508232E+01 
 4.948500E-03 7.092040E+01  9.949446E-01 -1.897123E+01  1.808180E-05 1.752875E+02  6.404853E-05 5.526266E+01 
 7.897000E-05 7.535958E+01  4.240518E-05 1.507909E+02  9.938240E-01 -1.753151E+01  4.453555E-05 -1.394416E+02 
 6.966280E-06 9.225630E+01  4.377744E-05 7.499958E+01  3.914947E-05 -1.119924E+02  9.958603E-01 -1.971481E+01 
2.023750E+02  9.946017E-01 -1.801885E+01  4.866818E-03 6.988557E+01  1.389670E-04 6.442097E+01  4.229400E-05 2.441466E+01 
 4.887680E-03 7.023141E+01  9.934715E-01 -1.919007E+01  3.412891E-06 1.087632E+02  5.140234E-05 5.215497E+01 
