! Matrix data file written by TouchstoneData, EPCOS AG
! FILENAME: "LY41A_1_NB.s3p_newformat"
! COMMENT: "(LY41A_1_NB.s3p) EPCOS AG 06.10.10 15:55:02"
! INFO: nport=3, nfreq=1601
! DATE: "Tue Feb  1 11:11:57 2011"
! USER: "Sergey Rostovtsev"
!
! port | pin | signal
! -----|-----|--------
!   1  |  2  |  in
!   2  |  4  |  out
!   3  |  6  |  out
! --------------------
! 
# MHZ S MA R 50
! freq  magS11 angS11  magS12 angS12  magS13 angS13  ...
1.386000E+03  9.442035E-01 -1.409299E+02  8.095226E-03 1.507524E+02  8.629890E-03 1.501912E+02 
 8.086949E-03 1.507291E+02  9.538015E-01 -8.556457E+01  1.052067E-02 1.674519E+02 
 8.654067E-03 1.500157E+02  1.053441E-02 1.674655E+02  9.530014E-01 -8.678500E+01 
1.386250E+03  9.442224E-01 -1.409781E+02  8.116973E-03 1.509390E+02  8.658112E-03 1.501763E+02 
 8.135093E-03 1.507719E+02  9.540931E-01 -8.559141E+01  1.046632E-02 1.682989E+02 
 8.692581E-03 1.501531E+02  1.048041E-02 1.682481E+02  9.531044E-01 -8.682529E+01 
1.386500E+03  9.443823E-01 -1.410311E+02  8.171024E-03 1.507840E+02  8.661043E-03 1.500097E+02 
 8.187755E-03 1.507469E+02  9.544789E-01 -8.562324E+01  1.051704E-02 1.689645E+02 
 8.699649E-03 1.500142E+02  1.051160E-02 1.688185E+02  9.535125E-01 -8.686564E+01 
1.386750E+03  9.441841E-01 -1.410748E+02  8.190791E-03 1.506328E+02  8.671527E-03 1.500708E+02 
 8.193372E-03 1.505151E+02  9.545476E-01 -8.567071E+01  1.049015E-02 1.691822E+02 
 8.683479E-03 1.499135E+02  1.049970E-02 1.691178E+02  9.536443E-01 -8.688464E+01 
1.387000E+03  9.441758E-01 -1.411143E+02  8.185636E-03 1.507415E+02  8.685638E-03 1.501119E+02 
 8.225636E-03 1.506600E+02  9.548254E-01 -8.569484E+01  1.041725E-02 1.698774E+02 
 8.671004E-03 1.500930E+02  1.043314E-02 1.697212E+02  9.539716E-01 -8.692603E+01 
1.387250E+03  9.440127E-01 -1.411565E+02  8.245210E-03 1.507427E+02  8.679950E-03 1.503027E+02 
 8.257998E-03 1.507141E+02  9.552142E-01 -8.573736E+01  1.046879E-02 1.708333E+02 
 8.697093E-03 1.502497E+02  1.046538E-02 1.705719E+02  9.541351E-01 -8.695284E+01 
1.387500E+03  9.438993E-01 -1.411986E+02  8.254561E-03 1.508057E+02  8.699630E-03 1.505532E+02 
 8.274641E-03 1.507103E+02  9.551905E-01 -8.578036E+01  1.057445E-02 1.711454E+02 
 8.724977E-03 1.504094E+02  1.056161E-02 1.710460E+02  9.543972E-01 -8.699402E+01 
1.387750E+03  9.438360E-01 -1.412369E+02  8.295630E-03 1.508084E+02  8.729082E-03 1.504840E+02 
 8.293005E-03 1.509140E+02  9.554064E-01 -8.579665E+01  1.060444E-02 1.715961E+02 
 8.751173E-03 1.505850E+02  1.063519E-02 1.714299E+02  9.549039E-01 -8.703225E+01 
1.388000E+03  9.436683E-01 -1.412725E+02  8.316407E-03 1.508309E+02  8.765312E-03 1.508462E+02 
 8.324552E-03 1.507495E+02  9.556350E-01 -8.584032E+01  1.063749E-02 1.719856E+02 
 8.796856E-03 1.507254E+02  1.068072E-02 1.719729E+02  9.548705E-01 -8.706822E+01 
1.388250E+03  9.434042E-01 -1.413063E+02  8.389516E-03 1.508964E+02  8.833722E-03 1.507834E+02 
 8.386071E-03 1.506601E+02  9.556481E-01 -8.588738E+01  1.077164E-02 1.725133E+02 
 8.867868E-03 1.506415E+02  1.078897E-02 1.723372E+02  9.548448E-01 -8.709510E+01 
1.388500E+03  9.432162E-01 -1.413578E+02  8.416003E-03 1.504498E+02  8.856596E-03 1.504461E+02 
 8.418527E-03 1.505330E+02  9.557256E-01 -8.591277E+01  1.080781E-02 1.725692E+02 
 8.882119E-03 1.504870E+02  1.081752E-02 1.722744E+02  9.551211E-01 -8.714227E+01 
1.388750E+03  9.430297E-01 -1.413983E+02  8.432461E-03 1.503333E+02  8.869206E-03 1.503735E+02 
 8.442624E-03 1.502575E+02  9.559026E-01 -8.593846E+01  1.088013E-02 1.728132E+02 
 8.879441E-03 1.504422E+02  1.091810E-02 1.726935E+02  9.551610E-01 -8.718349E+01 
1.389000E+03  9.428815E-01 -1.414238E+02  8.470841E-03 1.500065E+02  8.929892E-03 1.505346E+02 
 8.469772E-03 1.498776E+02  9.559459E-01 -8.597995E+01  1.099067E-02 1.730321E+02 
 8.932345E-03 1.506070E+02  1.099711E-02 1.729963E+02  9.554204E-01 -8.722830E+01 
1.389250E+03  9.428461E-01 -1.414684E+02  8.430652E-03 1.497859E+02  8.961249E-03 1.506470E+02 
 8.428109E-03 1.497362E+02  9.558880E-01 -8.599459E+01  1.109026E-02 1.729242E+02 
 8.972538E-03 1.506025E+02  1.110652E-02 1.727230E+02  9.552274E-01 -8.726993E+01 
1.389500E+03  9.426694E-01 -1.415050E+02  8.442058E-03 1.498453E+02  9.022251E-03 1.505415E+02 
 8.437861E-03 1.497792E+02  9.560763E-01 -8.604510E+01  1.109360E-02 1.730064E+02 
 9.015664E-03 1.505594E+02  1.109423E-02 1.727793E+02  9.553493E-01 -8.729797E+01 
1.389750E+03  9.425882E-01 -1.415351E+02  8.450138E-03 1.497534E+02  9.074540E-03 1.503489E+02 
 8.449181E-03 1.497589E+02  9.561284E-01 -8.606492E+01  1.117126E-02 1.731814E+02 
 9.076155E-03 1.504869E+02  1.119191E-02 1.731268E+02  9.554465E-01 -8.734020E+01 
1.390000E+03  9.424775E-01 -1.415771E+02  8.470628E-03 1.495826E+02  9.110321E-03 1.502860E+02 
 8.501330E-03 1.496057E+02  9.562850E-01 -8.610208E+01  1.125268E-02 1.731513E+02 
 9.133980E-03 1.502374E+02  1.129066E-02 1.731326E+02  9.555203E-01 -8.737735E+01 
1.390250E+03  9.424976E-01 -1.416037E+02  8.486418E-03 1.494896E+02  9.162828E-03 1.501132E+02 
 8.506920E-03 1.493564E+02  9.562573E-01 -8.613512E+01  1.133225E-02 1.729562E+02 
 9.155018E-03 1.500443E+02  1.133551E-02 1.729734E+02  9.556114E-01 -8.742294E+01 
1.390500E+03  9.423863E-01 -1.416542E+02  8.472978E-03 1.492417E+02  9.193845E-03 1.498623E+02 
 8.469565E-03 1.491802E+02  9.563056E-01 -8.615994E+01  1.139960E-02 1.729507E+02 
 9.180038E-03 1.499387E+02  1.139592E-02 1.729976E+02  9.554701E-01 -8.745665E+01 
1.390750E+03  9.421990E-01 -1.416833E+02  8.458551E-03 1.492233E+02  9.228127E-03 1.498821E+02 
 8.458481E-03 1.491172E+02  9.564038E-01 -8.618351E+01  1.140022E-02 1.728710E+02 
 9.249945E-03 1.496919E+02  1.142489E-02 1.726996E+02  9.554331E-01 -8.750594E+01 
1.391000E+03  9.420185E-01 -1.417249E+02  8.472699E-03 1.491690E+02  9.261326E-03 1.496183E+02 
 8.456813E-03 1.491675E+02  9.563191E-01 -8.621915E+01  1.144237E-02 1.730093E+02 
 9.280236E-03 1.494459E+02  1.145388E-02 1.731251E+02  9.553190E-01 -8.753003E+01 
1.391250E+03  9.419217E-01 -1.417768E+02  8.446574E-03 1.492696E+02  9.285337E-03 1.495198E+02 
 8.479395E-03 1.491978E+02  9.564346E-01 -8.626516E+01  1.151074E-02 1.729009E+02 
 9.297797E-03 1.493528E+02  1.151370E-02 1.729876E+02  9.554089E-01 -8.757025E+01 
1.391500E+03  9.418377E-01 -1.417944E+02  8.479245E-03 1.491488E+02  9.348780E-03 1.491456E+02 
 8.463785E-03 1.491570E+02  9.563001E-01 -8.628907E+01  1.157372E-02 1.727579E+02 
 9.334659E-03 1.492061E+02  1.159886E-02 1.728728E+02  9.553898E-01 -8.762371E+01 
1.391750E+03  9.416745E-01 -1.418402E+02  8.481478E-03 1.490551E+02  9.417764E-03 1.489505E+02 
 8.484025E-03 1.491016E+02  9.564261E-01 -8.631904E+01  1.162291E-02 1.726569E+02 
 9.408294E-03 1.488170E+02  1.162802E-02 1.726554E+02  9.553372E-01 -8.766648E+01 
1.392000E+03  9.415771E-01 -1.418869E+02  8.481282E-03 1.488451E+02  9.407035E-03 1.485699E+02 
 8.504433E-03 1.489432E+02  9.564008E-01 -8.634707E+01  1.162855E-02 1.726229E+02 
 9.438034E-03 1.484857E+02  1.162801E-02 1.725738E+02  9.552120E-01 -8.770251E+01 
1.392250E+03  9.413213E-01 -1.419233E+02  8.460619E-03 1.486794E+02  9.432621E-03 1.482571E+02 
 8.470506E-03 1.485288E+02  9.565342E-01 -8.638208E+01  1.166815E-02 1.726137E+02 
 9.450983E-03 1.482428E+02  1.166451E-02 1.726302E+02  9.552667E-01 -8.773727E+01 
1.392500E+03  9.410387E-01 -1.419592E+02  8.449313E-03 1.485103E+02  9.480386E-03 1.480468E+02 
 8.451600E-03 1.484856E+02  9.564990E-01 -8.642029E+01  1.168867E-02 1.725927E+02 
 9.464272E-03 1.481507E+02  1.171669E-02 1.725925E+02  9.553248E-01 -8.776539E+01 
1.392750E+03  9.409984E-01 -1.419905E+02  8.432551E-03 1.486414E+02  9.504477E-03 1.478774E+02 
 8.438037E-03 1.486507E+02  9.564789E-01 -8.646845E+01  1.172131E-02 1.726717E+02 
 9.493195E-03 1.479654E+02  1.175424E-02 1.727228E+02  9.553384E-01 -8.780366E+01 
1.393000E+03  9.407695E-01 -1.420232E+02  8.451208E-03 1.487263E+02  9.528271E-03 1.475088E+02 
 8.432875E-03 1.486103E+02  9.565195E-01 -8.650139E+01  1.174560E-02 1.725604E+02 
 9.541367E-03 1.475476E+02  1.174998E-02 1.726030E+02  9.554070E-01 -8.784644E+01 
1.393250E+03  9.405877E-01 -1.420583E+02  8.420009E-03 1.486660E+02  9.534182E-03 1.473387E+02 
 8.435883E-03 1.486145E+02  9.566062E-01 -8.655746E+01  1.174457E-02 1.727533E+02 
 9.563423E-03 1.473794E+02  1.176397E-02 1.726039E+02  9.551880E-01 -8.788153E+01 
1.393500E+03  9.406077E-01 -1.420945E+02  8.461046E-03 1.484622E+02  9.609874E-03 1.469321E+02 
 8.481119E-03 1.484348E+02  9.563755E-01 -8.659678E+01  1.181216E-02 1.727033E+02 
 9.603394E-03 1.469356E+02  1.183256E-02 1.728401E+02  9.552975E-01 -8.791991E+01 
1.393750E+03  9.403554E-01 -1.421342E+02  8.423020E-03 1.481108E+02  9.635884E-03 1.463265E+02 
 8.422320E-03 1.480283E+02  9.563426E-01 -8.664282E+01  1.185634E-02 1.726575E+02 
 9.635472E-03 1.463344E+02  1.189892E-02 1.727315E+02  9.552820E-01 -8.794106E+01 
1.394000E+03  9.401649E-01 -1.421722E+02  8.367218E-03 1.482535E+02  9.620752E-03 1.461559E+02 
 8.394232E-03 1.481071E+02  9.563747E-01 -8.670054E+01  1.188925E-02 1.726148E+02 
 9.636997E-03 1.460234E+02  1.193059E-02 1.725698E+02  9.552225E-01 -8.798196E+01 
1.394250E+03  9.401618E-01 -1.422076E+02  8.378013E-03 1.482725E+02  9.681949E-03 1.457095E+02 
 8.373559E-03 1.480666E+02  9.563878E-01 -8.673209E+01  1.188825E-02 1.724497E+02 
 9.667012E-03 1.454911E+02  1.190470E-02 1.725333E+02  9.553193E-01 -8.801149E+01 
1.394500E+03  9.398881E-01 -1.422401E+02  8.335222E-03 1.483648E+02  9.641593E-03 1.451154E+02 
 8.329999E-03 1.482320E+02  9.564842E-01 -8.677426E+01  1.192173E-02 1.726801E+02 
 9.643476E-03 1.451422E+02  1.193224E-02 1.727160E+02  9.554030E-01 -8.805028E+01 
1.394750E+03  9.397338E-01 -1.422661E+02  8.348915E-03 1.482608E+02  9.677644E-03 1.447215E+02 
 8.353184E-03 1.482696E+02  9.566217E-01 -8.680834E+01  1.195211E-02 1.726626E+02 
 9.687094E-03 1.445750E+02  1.201085E-02 1.727684E+02  9.555745E-01 -8.807602E+01 
1.395000E+03  9.395969E-01 -1.422905E+02  8.294112E-03 1.484136E+02  9.624986E-03 1.441550E+02 
 8.309963E-03 1.483142E+02  9.568951E-01 -8.684608E+01  1.200874E-02 1.725799E+02 
 9.634052E-03 1.441250E+02  1.203977E-02 1.726790E+02  9.555976E-01 -8.810230E+01 
1.395250E+03  9.396190E-01 -1.423137E+02  8.319079E-03 1.486534E+02  9.644835E-03 1.437501E+02 
 8.294913E-03 1.485258E+02  9.570365E-01 -8.688075E+01  1.200537E-02 1.725820E+02 
 9.649252E-03 1.436974E+02  1.202894E-02 1.726229E+02  9.556045E-01 -8.814591E+01 
1.395500E+03  9.393330E-01 -1.423305E+02  8.295810E-03 1.484352E+02  9.584368E-03 1.430583E+02 
 8.302937E-03 1.483472E+02  9.570142E-01 -8.692112E+01  1.202502E-02 1.728668E+02 
 9.577867E-03 1.431137E+02  1.204558E-02 1.728373E+02  9.557626E-01 -8.817720E+01 
1.395750E+03  9.394718E-01 -1.423472E+02  8.263303E-03 1.487709E+02  9.519438E-03 1.429355E+02 
 8.279347E-03 1.485506E+02  9.571366E-01 -8.696049E+01  1.208330E-02 1.731043E+02 
 9.553254E-03 1.429344E+02  1.212685E-02 1.731327E+02  9.558199E-01 -8.820132E+01 
1.396000E+03  9.396440E-01 -1.423756E+02  8.268737E-03 1.490086E+02  9.521145E-03 1.425556E+02 
 8.277476E-03 1.486993E+02  9.574733E-01 -8.699181E+01  1.216414E-02 1.730618E+02 
 9.531705E-03 1.425034E+02  1.220518E-02 1.730001E+02  9.556616E-01 -8.823640E+01 
1.396250E+03  9.393491E-01 -1.423962E+02  8.235019E-03 1.491950E+02  9.454335E-03 1.421103E+02 
 8.245165E-03 1.488682E+02  9.575490E-01 -8.704506E+01  1.216647E-02 1.729904E+02 
 9.456949E-03 1.419084E+02  1.219168E-02 1.729548E+02  9.558350E-01 -8.826090E+01 
1.396500E+03  9.393338E-01 -1.424213E+02  8.251183E-03 1.493708E+02  9.400831E-03 1.417564E+02 
 8.254740E-03 1.493270E+02  9.574650E-01 -8.709064E+01  1.218921E-02 1.730625E+02 
 9.399797E-03 1.416209E+02  1.222575E-02 1.730275E+02  9.560526E-01 -8.830133E+01 
1.396750E+03  9.395163E-01 -1.424304E+02  8.248927E-03 1.494363E+02  9.338440E-03 1.414387E+02 
 8.245628E-03 1.492721E+02  9.573183E-01 -8.713521E+01  1.223224E-02 1.733256E+02 
 9.351339E-03 1.413006E+02  1.223815E-02 1.733549E+02  9.560520E-01 -8.835274E+01 
1.397000E+03  9.397769E-01 -1.424619E+02  8.278919E-03 1.499268E+02  9.256144E-03 1.415292E+02 
 8.244564E-03 1.497467E+02  9.572956E-01 -8.717083E+01  1.232334E-02 1.735076E+02 
 9.251760E-03 1.413914E+02  1.233905E-02 1.734967E+02  9.561324E-01 -8.839006E+01 
1.397250E+03  9.397912E-01 -1.424942E+02  8.275544E-03 1.498777E+02  9.264474E-03 1.411767E+02 
 8.272216E-03 1.496695E+02  9.572661E-01 -8.721458E+01  1.237153E-02 1.733856E+02 
 9.270052E-03 1.410666E+02  1.239751E-02 1.733811E+02  9.560072E-01 -8.842484E+01 
1.397500E+03  9.399616E-01 -1.425098E+02  8.287438E-03 1.500275E+02  9.133446E-03 1.407152E+02 
 8.293976E-03 1.499037E+02  9.570982E-01 -8.726158E+01  1.241458E-02 1.734172E+02 
 9.139532E-03 1.406573E+02  1.243855E-02 1.734139E+02  9.561236E-01 -8.847350E+01 
1.397750E+03  9.403145E-01 -1.425368E+02  8.345725E-03 1.500770E+02  9.087293E-03 1.412255E+02 
 8.309058E-03 1.499313E+02  9.569431E-01 -8.730305E+01  1.245071E-02 1.734226E+02 
 9.102705E-03 1.410060E+02  1.250020E-02 1.733732E+02  9.561167E-01 -8.851081E+01 
1.398000E+03  9.404380E-01 -1.425874E+02  8.322408E-03 1.501429E+02  9.059269E-03 1.408701E+02 
 8.314616E-03 1.500557E+02  9.569954E-01 -8.734090E+01  1.253653E-02 1.735253E+02 
 9.081982E-03 1.409033E+02  1.254895E-02 1.735182E+02  9.561307E-01 -8.855631E+01 
1.398250E+03  9.406535E-01 -1.426106E+02  8.324107E-03 1.503488E+02  9.006498E-03 1.408832E+02 
 8.349207E-03 1.500515E+02  9.569308E-01 -8.738936E+01  1.258835E-02 1.734732E+02 
 9.007053E-03 1.407182E+02  1.263909E-02 1.735236E+02  9.560626E-01 -8.860007E+01 
1.398500E+03  9.408600E-01 -1.426628E+02  8.378688E-03 1.502432E+02  8.999978E-03 1.409355E+02 
 8.385260E-03 1.499841E+02  9.569237E-01 -8.742228E+01  1.266058E-02 1.735263E+02 
 9.019102E-03 1.409796E+02  1.270367E-02 1.734559E+02  9.562305E-01 -8.863574E+01 
1.398750E+03  9.410229E-01 -1.426781E+02  8.370138E-03 1.503138E+02  8.944003E-03 1.405703E+02 
 8.369760E-03 1.501269E+02  9.566931E-01 -8.747083E+01  1.269513E-02 1.732939E+02 
 8.940105E-03 1.403524E+02  1.272919E-02 1.732975E+02  9.562812E-01 -8.867568E+01 
1.399000E+03  9.412035E-01 -1.427119E+02  8.373144E-03 1.501508E+02  8.872864E-03 1.408033E+02 
 8.376238E-03 1.500921E+02  9.566891E-01 -8.751783E+01  1.275323E-02 1.734570E+02 
 8.887419E-03 1.407241E+02  1.275959E-02 1.734383E+02  9.562408E-01 -8.871692E+01 
1.399250E+03  9.410790E-01 -1.427593E+02  8.386644E-03 1.500741E+02  8.844910E-03 1.406879E+02 
 8.362140E-03 1.501184E+02  9.564966E-01 -8.756398E+01  1.282958E-02 1.735035E+02 
 8.852715E-03 1.407036E+02  1.285699E-02 1.734821E+02  9.561330E-01 -8.876086E+01 
1.399500E+03  9.415652E-01 -1.428000E+02  8.405147E-03 1.503788E+02  8.827732E-03 1.409029E+02 
 8.366366E-03 1.501624E+02  9.562673E-01 -8.760521E+01  1.295681E-02 1.732768E+02 
 8.859167E-03 1.408566E+02  1.296786E-02 1.733347E+02  9.561617E-01 -8.879991E+01 
1.399750E+03  9.415677E-01 -1.428422E+02  8.392121E-03 1.501946E+02  8.813246E-03 1.403177E+02 
 8.380182E-03 1.502483E+02  9.561936E-01 -8.764820E+01  1.298676E-02 1.729009E+02 
 8.825923E-03 1.403259E+02  1.300432E-02 1.728292E+02  9.558593E-01 -8.884714E+01 
1.400000E+03  9.415167E-01 -1.428727E+02  8.412761E-03 1.502093E+02  8.683646E-03 1.402095E+02 
 8.386368E-03 1.501570E+02  9.559208E-01 -8.768824E+01  1.295466E-02 1.729145E+02 
 8.697630E-03 1.402254E+02  1.297414E-02 1.729141E+02  9.558849E-01 -8.888608E+01 
1.400250E+03  9.416705E-01 -1.429180E+02  8.367772E-03 1.502455E+02  8.637763E-03 1.406788E+02 
 8.366607E-03 1.501604E+02  9.557466E-01 -8.773592E+01  1.302633E-02 1.730528E+02 
 8.680863E-03 1.404834E+02  1.303674E-02 1.731433E+02  9.558178E-01 -8.892397E+01 
1.400500E+03  9.416205E-01 -1.429451E+02  8.345161E-03 1.505415E+02  8.582347E-03 1.405426E+02 
 8.317811E-03 1.504126E+02  9.557868E-01 -8.778263E+01  1.309880E-02 1.729366E+02 
 8.596430E-03 1.405951E+02  1.314570E-02 1.729780E+02  9.556714E-01 -8.896169E+01 
1.400750E+03  9.416380E-01 -1.429738E+02  8.337889E-03 1.508891E+02  8.496985E-03 1.408769E+02 
 8.348970E-03 1.507359E+02  9.557156E-01 -8.781769E+01  1.318476E-02 1.727268E+02 
 8.519967E-03 1.407230E+02  1.320742E-02 1.727365E+02  9.554647E-01 -8.902829E+01 
1.401000E+03  9.416623E-01 -1.429959E+02  8.341693E-03 1.509278E+02  8.494190E-03 1.411142E+02 
 8.346220E-03 1.507767E+02  9.554091E-01 -8.785080E+01  1.320498E-02 1.723213E+02 
 8.513665E-03 1.408942E+02  1.320445E-02 1.722955E+02  9.550060E-01 -8.905890E+01 
1.401250E+03  9.418601E-01 -1.430251E+02  8.353438E-03 1.511405E+02  8.432897E-03 1.411791E+02 
 8.333186E-03 1.510307E+02  9.553984E-01 -8.789799E+01  1.316839E-02 1.724485E+02 
 8.425395E-03 1.410547E+02  1.319394E-02 1.724240E+02  9.548919E-01 -8.909592E+01 
1.401500E+03  9.419529E-01 -1.430663E+02  8.367429E-03 1.514359E+02  8.405582E-03 1.413928E+02 
 8.349228E-03 1.512673E+02  9.550530E-01 -8.793415E+01  1.324405E-02 1.724550E+02 
 8.413083E-03 1.411409E+02  1.326633E-02 1.724690E+02  9.546791E-01 -8.914577E+01 
1.401750E+03  9.420920E-01 -1.430876E+02  8.419592E-03 1.515774E+02  8.315276E-03 1.415119E+02 
 8.392445E-03 1.514860E+02  9.550511E-01 -8.797563E+01  1.336065E-02 1.723760E+02 
 8.332582E-03 1.413386E+02  1.336405E-02 1.723517E+02  9.544354E-01 -8.918456E+01 
1.402000E+03  9.420361E-01 -1.431202E+02  8.399922E-03 1.515475E+02  8.255751E-03 1.423052E+02 
 8.388891E-03 1.514796E+02  9.550396E-01 -8.800954E+01  1.341591E-02 1.718695E+02 
 8.291216E-03 1.422551E+02  1.342509E-02 1.719850E+02  9.543504E-01 -8.924053E+01 
1.402250E+03  9.421071E-01 -1.431515E+02  8.387443E-03 1.518124E+02  8.275006E-03 1.424418E+02 
 8.375535E-03 1.517681E+02  9.548546E-01 -8.804144E+01  1.332010E-02 1.716386E+02 
 8.314341E-03 1.424126E+02  1.334895E-02 1.715579E+02  9.540523E-01 -8.926649E+01 
1.402500E+03  9.422845E-01 -1.431819E+02  8.427888E-03 1.521691E+02  8.251259E-03 1.429400E+02 
 8.410550E-03 1.519732E+02  9.548059E-01 -8.809039E+01  1.331088E-02 1.718192E+02 
 8.249581E-03 1.427765E+02  1.332632E-02 1.718494E+02  9.538614E-01 -8.931124E+01 
1.402750E+03  9.423060E-01 -1.432175E+02  8.406949E-03 1.522995E+02  8.231417E-03 1.436183E+02 
 8.414934E-03 1.521285E+02  9.545588E-01 -8.812424E+01  1.337002E-02 1.717651E+02 
 8.261942E-03 1.434183E+02  1.339066E-02 1.717199E+02  9.533192E-01 -8.935517E+01 
1.403000E+03  9.422286E-01 -1.432459E+02  8.432055E-03 1.525652E+02  8.288990E-03 1.435446E+02 
 8.420131E-03 1.525461E+02  9.544418E-01 -8.816659E+01  1.337700E-02 1.716014E+02 
 8.303400E-03 1.434407E+02  1.339323E-02 1.715750E+02  9.532627E-01 -8.938523E+01 
1.403250E+03  9.423508E-01 -1.432732E+02  8.468097E-03 1.527885E+02  8.267170E-03 1.438166E+02 
 8.450375E-03 1.526668E+02  9.542007E-01 -8.820318E+01  1.338435E-02 1.713820E+02 
 8.273562E-03 1.436311E+02  1.340818E-02 1.714276E+02  9.530437E-01 -8.943545E+01 
1.403500E+03  9.424872E-01 -1.433109E+02  8.463920E-03 1.531471E+02  8.290361E-03 1.439232E+02 
 8.463324E-03 1.531690E+02  9.540906E-01 -8.823662E+01  1.331505E-02 1.713004E+02 
 8.284998E-03 1.439503E+02  1.332434E-02 1.713206E+02  9.525084E-01 -8.947173E+01 
1.403750E+03  9.424284E-01 -1.433379E+02  8.479141E-03 1.534457E+02  8.279695E-03 1.440906E+02 
 8.496010E-03 1.533145E+02  9.537448E-01 -8.827502E+01  1.322923E-02 1.716140E+02 
 8.305185E-03 1.439390E+02  1.327316E-02 1.716598E+02  9.525246E-01 -8.950630E+01 
1.404000E+03  9.424905E-01 -1.433753E+02  8.536550E-03 1.540952E+02  8.281610E-03 1.439935E+02 
 8.540494E-03 1.538802E+02  9.535328E-01 -8.830978E+01  1.333522E-02 1.718454E+02 
 8.287858E-03 1.438906E+02  1.333720E-02 1.719023E+02  9.520909E-01 -8.955018E+01 
1.404250E+03  9.425338E-01 -1.434068E+02  8.632585E-03 1.541585E+02  8.212024E-03 1.440640E+02 
 8.615078E-03 1.541466E+02  9.533997E-01 -8.834221E+01  1.333868E-02 1.719139E+02 
 8.245495E-03 1.438763E+02  1.330756E-02 1.719284E+02  9.515734E-01 -8.958057E+01 
1.404500E+03  9.426495E-01 -1.434512E+02  8.666544E-03 1.543226E+02  8.185889E-03 1.445236E+02 
