! Matrix data file written by TouchstoneData, EPCOS AG
! FILENAME: "LT34A_1_WB.s2p"
! COMMENT: "PCB: 2022; PINNING: 2/5; PORTEXT1: 87.4PS; P"
! INFO: nport=2, nfreq=1601
! DATE: "Fri Feb 22 08:53:29 2008"
! USER: "Aleksander Breg"
!
# MHZ S MA R 50
! freq  magS11 angS11  magS21 angS21  magS12 angS12  magS22 angS22
1.000000E+01  9.996232E-01 -7.535106E-01  1.226653E-04 8.432292E+01  1.148283E-04 8.332301E+01  9.996124E-01 -7.495283E-01 
1.186875E+01  9.997068E-01 -8.866697E-01  7.548893E-05 1.125902E+02  7.007482E-05 1.043154E+02  9.994833E-01 -8.546925E-01 
1.373750E+01  9.995766E-01 -1.031157E+00  1.241508E-04 1.066826E+02  1.236679E-04 1.036692E+02  9.994653E-01 -1.167127E+00 
1.560625E+01  9.995869E-01 -1.174497E+00  9.018605E-05 1.394866E+02  8.630097E-05 1.363017E+02  9.995689E-01 -1.209814E+00 
1.747500E+01  9.994684E-01 -1.304789E+00  1.223055E-04 9.302497E+01  1.311235E-04 9.091425E+01  9.998428E-01 -1.276081E+00 
1.934375E+01  9.991573E-01 -1.438981E+00  1.805913E-04 9.886362E+01  1.809121E-04 9.812456E+01  9.997590E-01 -1.488979E+00 
2.121250E+01  9.993679E-01 -1.571888E+00  1.807545E-04 8.133958E+01  1.801961E-04 7.658881E+01  9.992738E-01 -1.477188E+00 
2.308125E+01  9.992237E-01 -1.714862E+00  1.968315E-04 8.106676E+01  1.988168E-04 8.216324E+01  9.984122E-01 -1.697364E+00 
2.495000E+01  9.991142E-01 -1.853000E+00  2.215836E-04 9.046394E+01  2.278333E-04 9.130812E+01  9.984517E-01 -1.745157E+00 
2.681875E+01  9.989336E-01 -2.008943E+00  2.131613E-04 1.137228E+02  2.107387E-04 1.137889E+02  9.989922E-01 -1.962320E+00 
2.868750E+01  9.991991E-01 -2.137884E+00  2.375531E-04 7.467317E+01  2.450464E-04 7.385881E+01  9.997018E-01 -2.119475E+00 
3.055625E+01  9.989755E-01 -2.300150E+00  2.464855E-04 8.481332E+01  2.505174E-04 8.802241E+01  9.984671E-01 -2.446891E+00 
3.242500E+01  9.989196E-01 -2.432972E+00  2.589515E-04 8.782198E+01  2.619864E-04 8.866519E+01  9.981579E-01 -2.578624E+00 
3.429375E+01  9.988680E-01 -2.554387E+00  2.703581E-04 9.356461E+01  2.661407E-04 9.329348E+01  9.984103E-01 -2.624704E+00 
3.616250E+01  9.988137E-01 -2.707546E+00  2.504820E-04 8.767455E+01  2.388475E-04 8.624713E+01  9.984319E-01 -2.759231E+00 
3.803125E+01  9.987635E-01 -2.826515E+00  3.332806E-04 7.977929E+01  3.315154E-04 7.974058E+01  9.982996E-01 -2.865597E+00 
3.990000E+01  9.988224E-01 -2.975388E+00  3.094443E-04 8.716552E+01  3.185162E-04 8.841702E+01  9.984225E-01 -2.985836E+00 
4.176875E+01  9.989373E-01 -3.119199E+00  3.185588E-04 8.840042E+01  3.201383E-04 8.798675E+01  9.993221E-01 -2.946579E+00 
4.363750E+01  9.987165E-01 -3.253616E+00  3.389839E-04 8.519379E+01  3.394624E-04 8.603668E+01  9.985308E-01 -3.190532E+00 
4.550625E+01  9.987199E-01 -3.368472E+00  3.485590E-04 9.551359E+01  3.572452E-04 9.607591E+01  9.982830E-01 -3.359987E+00 
4.737500E+01  9.985843E-01 -3.508128E+00  4.038943E-04 9.332569E+01  4.035192E-04 9.202364E+01  9.983177E-01 -3.512342E+00 
4.924375E+01  9.985686E-01 -3.637853E+00  4.253297E-04 8.577368E+01  4.131010E-04 8.737013E+01  9.986411E-01 -3.585567E+00 
5.111250E+01  9.986688E-01 -3.777153E+00  4.063323E-04 8.838924E+01  4.179935E-04 8.853427E+01  9.987847E-01 -3.687362E+00 
5.298125E+01  9.986102E-01 -3.920812E+00  4.152360E-04 8.312100E+01  4.115239E-04 8.266670E+01  9.986267E-01 -3.846615E+00 
5.485000E+01  9.984300E-01 -4.063920E+00  4.736877E-04 8.917683E+01  4.733421E-04 8.984939E+01  9.982244E-01 -3.994310E+00 
5.671875E+01  9.984215E-01 -4.194010E+00  4.499447E-04 8.509265E+01  4.471600E-04 8.570472E+01  9.984325E-01 -4.144834E+00 
5.858750E+01  9.983977E-01 -4.343645E+00  4.825897E-04 8.667844E+01  4.797432E-04 8.685983E+01  9.983044E-01 -4.296650E+00 
6.045625E+01  9.982405E-01 -4.484425E+00  4.811938E-04 8.570319E+01  4.732362E-04 8.670810E+01  9.983029E-01 -4.438947E+00 
6.232500E+01  9.982076E-01 -4.623705E+00  5.221197E-04 8.311873E+01  5.238030E-04 8.370042E+01  9.982607E-01 -4.603275E+00 
6.419375E+01  9.983773E-01 -4.741169E+00  4.897701E-04 8.758512E+01  4.890376E-04 8.798683E+01  9.981362E-01 -4.700312E+00 
6.606250E+01  9.981853E-01 -4.890948E+00  5.276638E-04 8.483234E+01  5.242730E-04 8.454640E+01  9.980970E-01 -4.854245E+00 
6.793125E+01  9.982639E-01 -5.034966E+00  5.265114E-04 8.686594E+01  5.295373E-04 8.660102E+01  9.981912E-01 -4.996125E+00 
6.980000E+01  9.982209E-01 -5.171814E+00  5.491711E-04 8.521800E+01  5.415800E-04 8.569359E+01  9.980283E-01 -5.140613E+00 
7.166875E+01  9.981645E-01 -5.316123E+00  5.506568E-04 8.547268E+01  5.423099E-04 8.531976E+01  9.979742E-01 -5.286164E+00 
7.353750E+01  9.982010E-01 -5.433236E+00  5.910326E-04 8.574982E+01  5.906434E-04 8.580607E+01  9.977420E-01 -5.412913E+00 
7.540625E+01  9.979895E-01 -5.584694E+00  5.770567E-04 8.519585E+01  5.802652E-04 8.544527E+01  9.980558E-01 -5.558732E+00 
7.727500E+01  9.980348E-01 -5.729480E+00  5.750052E-04 8.790471E+01  5.796666E-04 8.775727E+01  9.977227E-01 -5.704237E+00 
7.914375E+01  9.979926E-01 -5.860426E+00  6.267681E-04 8.494949E+01  6.279023E-04 8.407587E+01  9.977496E-01 -5.845578E+00 
8.101250E+01  9.974972E-01 -6.000376E+00  4.665434E-04 6.683562E+01  4.653369E-04 6.754081E+01  9.968282E-01 -5.955931E+00 
8.288125E+01  9.979796E-01 -6.128060E+00  6.535306E-04 8.290641E+01  6.512387E-04 8.375103E+01  9.976539E-01 -6.121030E+00 
8.475000E+01  9.980776E-01 -6.270156E+00  6.570645E-04 8.519280E+01  6.541103E-04 8.590865E+01  9.976473E-01 -6.265175E+00 
8.661875E+01  9.979148E-01 -6.406696E+00  6.865581E-04 8.465022E+01  6.841458E-04 8.446424E+01  9.975579E-01 -6.397886E+00 
8.848750E+01  9.979893E-01 -6.557836E+00  6.947182E-04 8.343068E+01  6.955210E-04 8.415972E+01  9.976070E-01 -6.546482E+00 
9.035625E+01  9.977458E-01 -6.692551E+00  6.354270E-04 8.465099E+01  6.302152E-04 8.496951E+01  9.973069E-01 -6.681298E+00 
9.222500E+01  9.977633E-01 -6.833240E+00  7.158789E-04 8.435143E+01  7.199898E-04 8.465122E+01  9.973693E-01 -6.811508E+00 
9.409375E+01  9.977737E-01 -6.972539E+00  7.300152E-04 8.629282E+01  7.326989E-04 8.591948E+01  9.975176E-01 -6.958119E+00 
9.596250E+01  9.979266E-01 -7.105946E+00  7.616883E-04 8.288843E+01  7.625376E-04 8.352030E+01  9.974782E-01 -7.094240E+00 
9.783125E+01  9.977607E-01 -7.254805E+00  7.760264E-04 7.831169E+01  7.735216E-04 7.858182E+01  9.972721E-01 -7.247269E+00 
9.970000E+01  9.974728E-01 -7.353726E+00  8.008527E-04 8.393592E+01  7.987763E-04 8.446212E+01  9.973170E-01 -7.354642E+00 
1.015687E+02  9.976809E-01 -7.512269E+00  7.922077E-04 8.007379E+01  7.873454E-04 8.067040E+01  9.975369E-01 -7.501321E+00 
1.034375E+02  9.975878E-01 -7.644867E+00  8.132275E-04 8.415954E+01  8.071760E-04 8.318358E+01  9.973341E-01 -7.640935E+00 
1.053063E+02  9.978701E-01 -7.791315E+00  8.282223E-04 8.158885E+01  8.219554E-04 8.160092E+01  9.975746E-01 -7.834202E+00 
1.071750E+02  9.976895E-01 -7.937893E+00  8.208565E-04 8.317051E+01  8.133640E-04 8.322569E+01  9.975387E-01 -7.970487E+00 
1.090438E+02  9.975028E-01 -8.062430E+00  8.381648E-04 8.118727E+01  8.365231E-04 8.158174E+01  9.972671E-01 -8.098268E+00 
1.109125E+02  9.977275E-01 -8.207228E+00  8.715431E-04 8.284630E+01  8.705442E-04 8.266183E+01  9.973487E-01 -8.230084E+00 
1.127812E+02  9.977232E-01 -8.329846E+00  8.818359E-04 8.139328E+01  8.755515E-04 8.064537E+01  9.974674E-01 -8.377355E+00 
1.146500E+02  9.978187E-01 -8.472421E+00  9.084905E-04 8.216289E+01  9.028413E-04 8.237833E+01  9.973639E-01 -8.508612E+00 
1.165187E+02  9.976012E-01 -8.642957E+00  9.027481E-04 8.354623E+01  9.041655E-04 8.375802E+01  9.970734E-01 -8.682756E+00 
1.183875E+02  9.975988E-01 -8.735839E+00  9.394476E-04 8.217836E+01  9.387064E-04 8.286139E+01  9.973118E-01 -8.763758E+00 
1.202562E+02  9.976876E-01 -8.871033E+00  9.505985E-04 8.202564E+01  9.444138E-04 8.230921E+01  9.972525E-01 -8.908847E+00 
1.221250E+02  9.975843E-01 -9.007863E+00  9.677267E-04 8.108813E+01  9.557326E-04 8.087444E+01  9.975048E-01 -9.033449E+00 
1.239938E+02  9.976693E-01 -9.156383E+00  9.465177E-04 8.167715E+01  9.587019E-04 8.191282E+01  9.972568E-01 -9.172840E+00 
1.258625E+02  9.970709E-01 -9.295612E+00  9.211270E-04 8.584502E+01  9.170441E-04 8.555066E+01  9.966626E-01 -9.312546E+00 
1.277313E+02  9.972152E-01 -9.428090E+00  9.675199E-04 8.017348E+01  9.725348E-04 7.978403E+01  9.970889E-01 -9.437572E+00 
1.296000E+02  9.973365E-01 -9.558751E+00  1.006186E-03 8.123719E+01  1.003471E-03 8.122838E+01  9.971620E-01 -9.564594E+00 
1.314688E+02  9.972132E-01 -9.685395E+00  1.015592E-03 8.164413E+01  1.012705E-03 8.190828E+01  9.971790E-01 -9.698148E+00 
1.333375E+02  9.972876E-01 -9.831087E+00  1.042031E-03 7.758922E+01  1.032960E-03 7.757559E+01  9.969371E-01 -9.847076E+00 
1.352063E+02  9.966602E-01 -9.941323E+00  1.042482E-03 7.755001E+01  1.032946E-03 7.768073E+01  9.964961E-01 -9.940426E+00 
1.370750E+02  9.971927E-01 -1.007507E+01  9.890387E-04 7.972313E+01  9.974753E-04 7.892930E+01  9.967604E-01 -1.009018E+01 
1.389437E+02  9.970802E-01 -1.022043E+01  1.071618E-03 8.003574E+01  1.082481E-03 7.910595E+01  9.967503E-01 -1.021964E+01 
1.408125E+02  9.969895E-01 -1.036705E+01  1.084452E-03 8.000011E+01  1.086097E-03 8.030209E+01  9.967463E-01 -1.036424E+01 
1.426813E+02  9.969020E-01 -1.049669E+01  1.089847E-03 7.921997E+01  1.095664E-03 7.967022E+01  9.964902E-01 -1.049421E+01 
1.445500E+02  9.968598E-01 -1.061774E+01  1.111326E-03 8.051234E+01  1.116756E-03 8.055390E+01  9.964505E-01 -1.061773E+01 
1.464187E+02  9.966965E-01 -1.077147E+01  1.141264E-03 8.022447E+01  1.129452E-03 8.070796E+01  9.964441E-01 -1.075579E+01 
1.482875E+02  9.967820E-01 -1.090361E+01  1.125882E-03 7.868749E+01  1.115777E-03 7.891677E+01  9.963206E-01 -1.088882E+01 
1.501562E+02  9.967926E-01 -1.104393E+01  1.175713E-03 8.032377E+01  1.172717E-03 8.017881E+01  9.960662E-01 -1.104521E+01 
1.520250E+02  9.965005E-01 -1.119582E+01  1.171307E-03 7.829122E+01  1.154130E-03 7.879067E+01  9.961136E-01 -1.119042E+01 
1.538938E+02  9.964758E-01 -1.130555E+01  1.127811E-03 8.072060E+01  1.126033E-03 8.080645E+01  9.958616E-01 -1.129260E+01 
1.557625E+02  9.964650E-01 -1.144433E+01  1.220169E-03 7.974084E+01  1.219529E-03 7.973009E+01  9.959394E-01 -1.142982E+01 
1.576312E+02  9.963763E-01 -1.158462E+01  1.167021E-03 7.899173E+01  1.168910E-03 7.887946E+01  9.958122E-01 -1.157035E+01 
1.595000E+02  9.963496E-01 -1.172526E+01  1.221652E-03 7.985765E+01  1.221013E-03 7.965240E+01  9.958184E-01 -1.170086E+01 
1.613688E+02  9.962375E-01 -1.187195E+01  1.224425E-03 7.890304E+01  1.222196E-03 7.909369E+01  9.957229E-01 -1.185759E+01 
1.632375E+02  9.962208E-01 -1.198298E+01  1.238648E-03 7.725586E+01  1.232932E-03 7.747395E+01  9.956558E-01 -1.196964E+01 
1.651062E+02  9.962725E-01 -1.213236E+01  1.263060E-03 7.926461E+01  1.266164E-03 7.882921E+01  9.956357E-01 -1.210455E+01 
1.669750E+02  9.963100E-01 -1.225941E+01  1.271421E-03 7.907772E+01  1.270099E-03 7.878976E+01  9.955172E-01 -1.224784E+01 
1.688438E+02  9.960384E-01 -1.240799E+01  1.314611E-03 7.720788E+01  1.306323E-03 7.740224E+01  9.956606E-01 -1.237883E+01 
1.707125E+02  9.951396E-01 -1.255442E+01  1.274737E-03 7.362730E+01  1.269423E-03 7.365327E+01  9.943649E-01 -1.249513E+01 
1.725813E+02  9.961362E-01 -1.266701E+01  1.261334E-03 7.706106E+01  1.260209E-03 7.751910E+01  9.953647E-01 -1.262284E+01 
1.744500E+02  9.960328E-01 -1.280798E+01  1.304046E-03 7.746974E+01  1.296976E-03 7.783523E+01  9.955019E-01 -1.276810E+01 
1.763187E+02  9.959836E-01 -1.293763E+01  1.356377E-03 7.885182E+01  1.349926E-03 7.868822E+01  9.953837E-01 -1.290006E+01 
1.781875E+02  9.959719E-01 -1.307083E+01  1.340582E-03 7.755560E+01  1.327747E-03 7.744609E+01  9.954398E-01 -1.304356E+01 
1.800563E+02  9.955854E-01 -1.320155E+01  1.342906E-03 7.687681E+01  1.343555E-03 7.717722E+01  9.951185E-01 -1.315842E+01 
1.819250E+02  9.958531E-01 -1.334106E+01  1.353075E-03 7.910065E+01  1.343935E-03 7.888407E+01  9.951984E-01 -1.329034E+01 
1.837937E+02  9.957450E-01 -1.346857E+01  1.389929E-03 7.675820E+01  1.379268E-03 7.691726E+01  9.952653E-01 -1.341777E+01 
1.856625E+02  9.958002E-01 -1.361206E+01  1.397717E-03 7.721790E+01  1.395751E-03 7.716985E+01  9.951087E-01 -1.355415E+01 
1.875312E+02  9.956111E-01 -1.375232E+01  1.410302E-03 7.735702E+01  1.408734E-03 7.753662E+01  9.952062E-01 -1.369325E+01 
1.894000E+02  9.954233E-01 -1.385451E+01  1.421869E-03 7.774289E+01  1.410723E-03 7.772097E+01  9.948451E-01 -1.378276E+01 
1.912688E+02  9.956316E-01 -1.400030E+01  1.452706E-03 7.783836E+01  1.437121E-03 7.792385E+01  9.950908E-01 -1.392925E+01 
1.931375E+02  9.955142E-01 -1.414350E+01  1.465599E-03 7.677744E+01  1.464638E-03 7.680965E+01  9.949862E-01 -1.406027E+01 
1.950062E+02  9.954432E-01 -1.427017E+01  1.453900E-03 7.586952E+01  1.447307E-03 7.570229E+01  9.947731E-01 -1.418696E+01 
1.968750E+02  9.952171E-01 -1.441109E+01  1.464755E-03 7.790030E+01  1.455953E-03 7.795873E+01  9.948769E-01 -1.432534E+01 
1.987438E+02  9.949223E-01 -1.452031E+01  1.502284E-03 7.542355E+01  1.490455E-03 7.536874E+01  9.946337E-01 -1.444541E+01 
2.006125E+02  9.951636E-01 -1.466602E+01  1.489482E-03 7.634523E+01  1.488928E-03 7.636903E+01  9.945166E-01 -1.457548E+01 
2.024812E+02  9.948758E-01 -1.479553E+01  1.511993E-03 7.646391E+01  1.508013E-03 7.643141E+01  9.945535E-01 -1.470076E+01 
2.043500E+02  9.950268E-01 -1.494225E+01  1.549928E-03 7.569871E+01  1.537090E-03 7.578273E+01  9.944749E-01 -1.484990E+01 
2.062188E+02  9.947445E-01 -1.510222E+01  1.526158E-03 7.579279E+01  1.527766E-03 7.580567E+01  9.940250E-01 -1.501800E+01 
2.080875E+02  9.945471E-01 -1.518451E+01  1.550293E-03 7.658195E+01  1.548885E-03 7.683170E+01  9.940103E-01 -1.509412E+01 
2.099563E+02  9.947158E-01 -1.532461E+01  1.559910E-03 7.563262E+01  1.545406E-03 7.553809E+01  9.941048E-01 -1.523379E+01 
2.118250E+02  9.944086E-01 -1.546046E+01  1.576089E-03 7.606619E+01  1.567984E-03 7.627137E+01  9.937503E-01 -1.536404E+01 
2.136937E+02  9.946882E-01 -1.560948E+01  1.576786E-03 7.550674E+01  1.574771E-03 7.582750E+01  9.936417E-01 -1.551617E+01 
2.155625E+02  9.936787E-01 -1.575011E+01  1.589948E-03 7.593395E+01  1.587570E-03 7.606626E+01  9.928569E-01 -1.564455E+01 
2.174313E+02  9.939546E-01 -1.586416E+01  1.627530E-03 7.595739E+01  1.626380E-03 7.610634E+01  9.932175E-01 -1.575833E+01 
2.193000E+02  9.942205E-01 -1.600169E+01  1.643785E-03 7.583827E+01  1.638404E-03 7.598106E+01  9.931847E-01 -1.590205E+01 
2.211687E+02  9.940865E-01 -1.613499E+01  1.639210E-03 7.449836E+01  1.635497E-03 7.465401E+01  9.930603E-01 -1.604029E+01 
2.230375E+02  9.940229E-01 -1.628889E+01  1.638745E-03 7.507935E+01  1.637262E-03 7.527176E+01  9.927381E-01 -1.618870E+01 
2.249062E+02  9.935818E-01 -1.639618E+01  1.658597E-03 7.455010E+01  1.642148E-03 7.521399E+01  9.924605E-01 -1.629138E+01 
2.267750E+02  9.937452E-01 -1.654301E+01  1.690100E-03 7.418195E+01  1.693998E-03 7.427298E+01  9.925548E-01 -1.644406E+01 
2.286438E+02  9.936395E-01 -1.669024E+01  1.673482E-03 7.429530E+01  1.664018E-03 7.450122E+01  9.924901E-01 -1.659458E+01 
2.305125E+02  9.936506E-01 -1.682770E+01  1.694741E-03 7.453922E+01  1.683574E-03 7.469388E+01  9.923325E-01 -1.673609E+01 
2.323812E+02  9.935544E-01 -1.697572E+01  1.724948E-03 7.496211E+01  1.721343E-03 7.498884E+01  9.923096E-01 -1.689060E+01 
2.342500E+02  9.931488E-01 -1.708935E+01  1.725965E-03 7.365787E+01  1.720536E-03 7.387655E+01  9.919954E-01 -1.701147E+01 
2.361188E+02  9.934428E-01 -1.724022E+01  1.728579E-03 7.333547E+01  1.725125E-03 7.344138E+01  9.921938E-01 -1.716405E+01 
2.379875E+02  9.931432E-01 -1.737357E+01  1.724035E-03 7.373963E+01  1.719113E-03 7.397994E+01  9.921324E-01 -1.730288E+01 
2.398562E+02  9.933964E-01 -1.751674E+01  1.771612E-03 7.387088E+01  1.765812E-03 7.375900E+01  9.920363E-01 -1.745152E+01 
2.417250E+02  9.932560E-01 -1.767129E+01  1.770699E-03 7.350988E+01  1.764291E-03 7.356085E+01  9.920337E-01 -1.761608E+01 
2.435938E+02  9.931628E-01 -1.777624E+01  1.729610E-03 7.286932E+01  1.723832E-03 7.282388E+01  9.919714E-01 -1.771457E+01 
2.454625E+02  9.933576E-01 -1.791630E+01  1.740292E-03 7.418338E+01  1.738252E-03 7.424053E+01  9.922013E-01 -1.786176E+01 
2.473313E+02  9.932931E-01 -1.805315E+01  1.831552E-03 7.406787E+01  1.825689E-03 7.407902E+01  9.921488E-01 -1.800355E+01 
2.492000E+02  9.933315E-01 -1.819615E+01  1.809085E-03 7.308377E+01  1.811755E-03 7.312546E+01  9.923326E-01 -1.814617E+01 
2.510687E+02  9.933594E-01 -1.836001E+01  1.814510E-03 7.201688E+01  1.814964E-03 7.217931E+01  9.921519E-01 -1.829948E+01 
2.529375E+02  9.932622E-01 -1.846103E+01  1.822336E-03 7.355609E+01  1.823981E-03 7.351168E+01  9.923434E-01 -1.840670E+01 
2.548063E+02  9.933971E-01 -1.860076E+01  1.843285E-03 7.285430E+01  1.831656E-03 7.290686E+01  9.924378E-01 -1.854731E+01 
2.566750E+02  9.933765E-01 -1.873560E+01  1.887310E-03 7.310232E+01  1.876201E-03 7.296100E+01  9.926578E-01 -1.869138E+01 
2.585437E+02  9.934648E-01 -1.887508E+01  1.875054E-03 7.236844E+01  1.871104E-03 7.240547E+01  9.926467E-01 -1.882993E+01 
2.604125E+02  9.927276E-01 -1.899253E+01  1.870513E-03 7.210765E+01  1.868644E-03 7.216904E+01  9.915335E-01 -1.893489E+01 
2.622812E+02  9.933865E-01 -1.911887E+01  1.885636E-03 7.214465E+01  1.885690E-03 7.217081E+01  9.925686E-01 -1.907742E+01 
2.641500E+02  9.933552E-01 -1.925836E+01  1.898160E-03 7.246645E+01  1.886877E-03 7.200586E+01  9.925868E-01 -1.921422E+01 
2.660188E+02  9.935380E-01 -1.939248E+01  1.921941E-03 7.166231E+01  1.915989E-03 7.174579E+01  9.927485E-01 -1.934316E+01 
2.678875E+02  9.935447E-01 -1.952959E+01  1.895646E-03 7.165922E+01  1.889223E-03 7.177899E+01  9.925710E-01 -1.948589E+01 
2.697563E+02  9.933631E-01 -1.964873E+01  1.897106E-03 7.215177E+01  1.882571E-03 7.225325E+01  9.923501E-01 -1.959768E+01 
2.716250E+02  9.935502E-01 -1.978043E+01  1.979204E-03 7.088136E+01  1.971221E-03 7.103898E+01  9.924022E-01 -1.973710E+01 
2.734937E+02  9.934766E-01 -1.992172E+01  1.952557E-03 7.129624E+01  1.943969E-03 7.129218E+01  9.924881E-01 -1.987159E+01 
2.753625E+02  9.933906E-01 -2.005146E+01  1.977065E-03 7.052728E+01  1.969879E-03 7.057799E+01  9.924519E-01 -2.000594E+01 
2.772312E+02  9.934267E-01 -2.018887E+01  1.973146E-03 7.200396E+01  1.971097E-03 7.191255E+01  9.922362E-01 -2.014553E+01 
2.791000E+02  9.931033E-01 -2.029689E+01  2.005036E-03 7.048972E+01  1.996228E-03 7.067421E+01  9.922505E-01 -2.025095E+01 
2.809688E+02  9.932792E-01 -2.043277E+01  1.988819E-03 7.092680E+01  1.976944E-03 7.111195E+01  9.919877E-01 -2.039032E+01 
2.828375E+02  9.931730E-01 -2.057274E+01  2.004336E-03 7.204911E+01  1.992251E-03 7.225782E+01  9.919618E-01 -2.052684E+01 
2.847063E+02  9.931583E-01 -2.069342E+01  2.044835E-03 6.993705E+01  2.033744E-03 6.992167E+01  9.919072E-01 -2.066414E+01 
2.865750E+02  9.931043E-01 -2.084556E+01  2.037434E-03 7.101782E+01  2.026168E-03 7.100954E+01  9.916509E-01 -2.081311E+01 
2.884438E+02  9.929717E-01 -2.095184E+01  2.036972E-03 7.067520E+01  2.027702E-03 7.072350E+01  9.915298E-01 -2.092817E+01 
2.903125E+02  9.929596E-01 -2.109059E+01  2.024920E-03 7.086499E+01  2.021271E-03 7.101791E+01  9.914968E-01 -2.105597E+01 
2.921812E+02  9.929281E-01 -2.122548E+01  2.072351E-03 6.994154E+01  2.076784E-03 7.013886E+01  9.915897E-01 -2.120169E+01 
2.940500E+02  9.929943E-01 -2.136048E+01  2.062963E-03 7.080244E+01  2.055659E-03 7.092081E+01  9.915183E-01 -2.133781E+01 
2.959187E+02  9.924432E-01 -2.151163E+01  2.087859E-03 6.928572E+01  2.074146E-03 6.954254E+01  9.907519E-01 -2.151292E+01 
2.977875E+02  9.927484E-01 -2.160432E+01  2.110250E-03 7.017170E+01  2.095062E-03 7.042026E+01  9.910084E-01 -2.159351E+01 
2.996562E+02  9.926181E-01 -2.174546E+01  2.103104E-03 6.951043E+01  2.105927E-03 6.965225E+01  9.911283E-01 -2.173105E+01 
3.015250E+02  9.926698E-01 -2.189938E+01  2.105483E-03 6.993239E+01  2.106373E-03 6.996123E+01  9.909776E-01 -2.187418E+01 
3.033938E+02  9.926248E-01 -2.203721E+01  2.127263E-03 6.937346E+01  2.112241E-03 6.954444E+01  9.909802E-01 -2.201274E+01 
