! Matrix data file written by TouchstoneData, EPCOS AG
! FILENAME: "LU67B2_5_NB.s3p_newformat"
! COMMENT: "(LU67B2_5_NB.s3p) EPCOS AG 18.04.2011 16:08:"
! INFO: nport=3, nfreq=1601
! DATE: "Mon Apr 18 17:00:02 2011"
! USER: "Michael Schemies"
!
! port | pin | signal
! -----|-----|--------
!   1  |  2  |  input
!   2  |  4  |  output
!   3  |  6  |  output
! --------------------
! 
# MHZ S MA R 50
! freq  magS11 angS11  magS12 angS12  magS13 angS13  ...
1.375420E+03  9.699050E-01 -8.506539E+01  3.008762E-03 3.990395E+01  1.089814E-03 6.907061E+01 
 3.003596E-03 4.005716E+01  8.993993E-01 -6.056026E+01  3.883331E-01 2.801199E+01 
 1.092001E-03 6.875339E+01  3.877397E-01 2.787425E+01  9.037123E-01 -6.113149E+01 
1.375670E+03  9.698487E-01 -8.508457E+01  2.964234E-03 3.882106E+01  1.128811E-03 7.066914E+01 
 2.953109E-03 3.890440E+01  8.993299E-01 -6.056770E+01  3.884580E-01 2.798350E+01 
 1.125241E-03 7.116300E+01  3.879338E-01 2.784690E+01  9.036358E-01 -6.114327E+01 
1.375920E+03  9.700237E-01 -8.510796E+01  2.919587E-03 3.831157E+01  1.168612E-03 7.309848E+01 
 2.894808E-03 3.823026E+01  8.992586E-01 -6.057709E+01  3.885997E-01 2.794514E+01 
 1.162315E-03 7.308802E+01  3.880901E-01 2.782585E+01  9.035930E-01 -6.115375E+01 
1.376170E+03  9.700816E-01 -8.514625E+01  2.898736E-03 3.807745E+01  1.219013E-03 7.437622E+01 
 2.874697E-03 3.805023E+01  8.992213E-01 -6.058130E+01  3.887695E-01 2.791668E+01 
 1.205741E-03 7.425995E+01  3.882901E-01 2.780322E+01  9.036187E-01 -6.116154E+01 
1.376420E+03  9.700718E-01 -8.518170E+01  2.860861E-03 3.718069E+01  1.250630E-03 7.581980E+01 
 2.852930E-03 3.728879E+01  8.991394E-01 -6.059494E+01  3.889602E-01 2.788131E+01 
 1.253944E-03 7.543350E+01  3.884843E-01 2.777488E+01  9.036043E-01 -6.118084E+01 
1.376670E+03  9.701535E-01 -8.521607E+01  2.830402E-03 3.653044E+01  1.303584E-03 7.665105E+01 
 2.819502E-03 3.665171E+01  8.991258E-01 -6.060343E+01  3.891746E-01 2.783676E+01 
 1.298634E-03 7.661887E+01  3.886526E-01 2.774642E+01  9.035363E-01 -6.119534E+01 
1.376920E+03  9.702357E-01 -8.524917E+01  2.784564E-03 3.596470E+01  1.353325E-03 7.758429E+01 
 2.778066E-03 3.592537E+01  8.990258E-01 -6.061576E+01  3.892552E-01 2.779701E+01 
 1.351417E-03 7.773938E+01  3.887321E-01 2.772391E+01  9.034392E-01 -6.121175E+01 
1.377170E+03  9.701759E-01 -8.528072E+01  2.739230E-03 3.521053E+01  1.405016E-03 7.815343E+01 
 2.724060E-03 3.547544E+01  8.989457E-01 -6.062878E+01  3.894133E-01 2.776623E+01 
 1.401270E-03 7.805176E+01  3.888662E-01 2.770239E+01  9.034155E-01 -6.123120E+01 
1.377420E+03  9.703119E-01 -8.532183E+01  2.707088E-03 3.540566E+01  1.432922E-03 7.766149E+01 
 2.687380E-03 3.542109E+01  8.988483E-01 -6.064126E+01  3.895616E-01 2.772722E+01 
 1.432962E-03 7.784558E+01  3.890291E-01 2.767494E+01  9.033797E-01 -6.125452E+01 
1.377670E+03  9.702477E-01 -8.535496E+01  2.663999E-03 3.457726E+01  1.470746E-03 7.818440E+01 
 2.655264E-03 3.476882E+01  8.987783E-01 -6.065659E+01  3.897246E-01 2.768220E+01 
 1.473067E-03 7.860283E+01  3.891303E-01 2.765524E+01  9.032552E-01 -6.126890E+01 
1.377920E+03  9.702677E-01 -8.538827E+01  2.622249E-03 3.424943E+01  1.541477E-03 7.855352E+01 
 2.608176E-03 3.431260E+01  8.987099E-01 -6.066984E+01  3.898647E-01 2.764235E+01 
 1.538917E-03 7.866070E+01  3.892434E-01 2.762994E+01  9.032239E-01 -6.129107E+01 
1.378170E+03  9.702215E-01 -8.542161E+01  2.567149E-03 3.431240E+01  1.590835E-03 7.783911E+01 
 2.563577E-03 3.432812E+01  8.985858E-01 -6.067406E+01  3.899848E-01 2.761079E+01 
 1.584843E-03 7.806487E+01  3.893238E-01 2.759888E+01  9.030907E-01 -6.130995E+01 
1.378420E+03  9.701647E-01 -8.545333E+01  2.540105E-03 3.387464E+01  1.633419E-03 7.751896E+01 
 2.525883E-03 3.393291E+01  8.984067E-01 -6.068947E+01  3.900589E-01 2.756367E+01 
 1.624801E-03 7.764968E+01  3.893732E-01 2.755895E+01  9.029324E-01 -6.133588E+01 
1.378670E+03  9.700621E-01 -8.548664E+01  2.474152E-03 3.353972E+01  1.694132E-03 7.651670E+01 
 2.467301E-03 3.378682E+01  8.983376E-01 -6.069437E+01  3.900837E-01 2.752614E+01 
 1.692267E-03 7.638058E+01  3.893907E-01 2.753541E+01  9.028406E-01 -6.135273E+01 
1.378920E+03  9.699801E-01 -8.551257E+01  2.426512E-03 3.341573E+01  1.718988E-03 7.530217E+01 
 2.416529E-03 3.348513E+01  8.982498E-01 -6.070641E+01  3.900924E-01 2.749281E+01 
 1.717993E-03 7.536499E+01  3.894168E-01 2.751248E+01  9.028204E-01 -6.137471E+01 
1.379170E+03  9.699612E-01 -8.554261E+01  2.383382E-03 3.368397E+01  1.746161E-03 7.490439E+01 
 2.374569E-03 3.397612E+01  8.981873E-01 -6.072309E+01  3.901532E-01 2.746219E+01 
 1.739870E-03 7.489500E+01  3.894438E-01 2.749383E+01  9.026947E-01 -6.139554E+01 
1.379420E+03  9.698571E-01 -8.557121E+01  2.326760E-03 3.388414E+01  1.808824E-03 7.359068E+01 
 2.315951E-03 3.403498E+01  8.981989E-01 -6.073097E+01  3.901532E-01 2.742901E+01 
 1.802201E-03 7.333563E+01  3.894282E-01 2.747168E+01  9.026323E-01 -6.140905E+01 
1.379670E+03  9.697075E-01 -8.559956E+01  2.288117E-03 3.458243E+01  1.809658E-03 7.157740E+01 
 2.272415E-03 3.468368E+01  8.980896E-01 -6.074184E+01  3.901377E-01 2.741419E+01 
 1.805244E-03 7.199553E+01  3.894471E-01 2.746368E+01  9.026133E-01 -6.142881E+01 
1.379920E+03  9.696698E-01 -8.563171E+01  2.230207E-03 3.513555E+01  1.813534E-03 7.019830E+01 
 2.224581E-03 3.530367E+01  8.980722E-01 -6.075018E+01  3.902681E-01 2.739531E+01 
 1.818488E-03 7.048896E+01  3.894876E-01 2.744803E+01  9.025258E-01 -6.144660E+01 
1.380170E+03  9.694881E-01 -8.565548E+01  2.219173E-03 3.605127E+01  1.817723E-03 6.971609E+01 
 2.204705E-03 3.637046E+01  8.980997E-01 -6.076561E+01  3.903339E-01 2.737298E+01 
 1.800424E-03 6.981115E+01  3.895299E-01 2.744069E+01  9.025048E-01 -6.146584E+01 
1.380420E+03  9.693135E-01 -8.567028E+01  2.192284E-03 3.668467E+01  1.827914E-03 6.790157E+01 
 2.187347E-03 3.663576E+01  8.980467E-01 -6.078403E+01  3.902901E-01 2.736891E+01 
 1.821738E-03 6.805178E+01  3.896092E-01 2.742825E+01  9.025227E-01 -6.148456E+01 
1.380670E+03  9.691687E-01 -8.569610E+01  2.172377E-03 3.696130E+01  1.819530E-03 6.716312E+01 
 2.157629E-03 3.709912E+01  8.981979E-01 -6.080885E+01  3.903390E-01 2.737123E+01 
 1.818815E-03 6.713806E+01  3.896669E-01 2.742048E+01  9.024941E-01 -6.149839E+01 
1.380920E+03  9.688532E-01 -8.572464E+01  2.157118E-03 3.753820E+01  1.802916E-03 6.577822E+01 
 2.142970E-03 3.787772E+01  8.982108E-01 -6.083138E+01  3.904163E-01 2.737117E+01 
 1.794316E-03 6.594005E+01  3.897700E-01 2.740138E+01  9.024391E-01 -6.152234E+01 
1.381170E+03  9.685996E-01 -8.574749E+01  2.121848E-03 3.790520E+01  1.783436E-03 6.504032E+01 
 2.120634E-03 3.815829E+01  8.981541E-01 -6.085687E+01  3.903992E-01 2.736743E+01 
 1.781573E-03 6.554370E+01  3.898623E-01 2.739067E+01  9.023967E-01 -6.153769E+01 
1.381420E+03  9.682994E-01 -8.577108E+01  2.116128E-03 3.897649E+01  1.769979E-03 6.464684E+01 
 2.121603E-03 3.926100E+01  8.983172E-01 -6.087906E+01  3.905116E-01 2.737251E+01 
 1.761859E-03 6.478287E+01  3.899648E-01 2.738649E+01  9.024242E-01 -6.155103E+01 
1.381670E+03  9.680959E-01 -8.579155E+01  2.086298E-03 3.938031E+01  1.763939E-03 6.363089E+01 
 2.081319E-03 3.921603E+01  8.982602E-01 -6.090851E+01  3.905827E-01 2.737612E+01 
 1.761271E-03 6.378204E+01  3.901196E-01 2.736984E+01  9.023461E-01 -6.157824E+01 
1.381920E+03  9.678754E-01 -8.581121E+01  2.086140E-03 4.001338E+01  1.730814E-03 6.318041E+01 
 2.075896E-03 4.032704E+01  8.982059E-01 -6.093039E+01  3.906742E-01 2.737208E+01 
 1.732091E-03 6.310324E+01  3.902240E-01 2.735290E+01  9.022259E-01 -6.159352E+01 
1.382170E+03  9.677000E-01 -8.583437E+01  2.075398E-03 4.029033E+01  1.706426E-03 6.247806E+01 
 2.062253E-03 4.063678E+01  8.982422E-01 -6.095676E+01  3.907838E-01 2.737372E+01 
 1.702831E-03 6.273692E+01  3.904120E-01 2.734016E+01  9.021681E-01 -6.161522E+01 
1.382420E+03  9.676358E-01 -8.585212E+01  2.065698E-03 4.125868E+01  1.678488E-03 6.273291E+01 
 2.054635E-03 4.130763E+01  8.981191E-01 -6.097848E+01  3.908311E-01 2.736536E+01 
 1.668530E-03 6.298188E+01  3.905511E-01 2.731837E+01  9.020900E-01 -6.163354E+01 
1.382670E+03  9.675088E-01 -8.587898E+01  2.058513E-03 4.186528E+01  1.662691E-03 6.291298E+01 
 2.046901E-03 4.219623E+01  8.980835E-01 -6.099838E+01  3.909694E-01 2.736325E+01 
 1.659393E-03 6.266425E+01  3.906590E-01 2.730090E+01  9.019046E-01 -6.165004E+01 
1.382920E+03  9.673029E-01 -8.590436E+01  2.051129E-03 4.233496E+01  1.660913E-03 6.270449E+01 
 2.048237E-03 4.244163E+01  8.980569E-01 -6.101418E+01  3.909656E-01 2.736437E+01 
 1.654380E-03 6.222697E+01  3.907186E-01 2.729112E+01  9.018138E-01 -6.165303E+01 
1.383170E+03  9.671195E-01 -8.592025E+01  2.057718E-03 4.295293E+01  1.650249E-03 6.226124E+01 
 2.050322E-03 4.283912E+01  8.980151E-01 -6.103401E+01  3.910355E-01 2.736290E+01 
 1.640811E-03 6.245178E+01  3.908308E-01 2.727475E+01  9.016960E-01 -6.167479E+01 
1.383420E+03  9.669655E-01 -8.594232E+01  2.053627E-03 4.312909E+01  1.614923E-03 6.184806E+01 
 2.040927E-03 4.331176E+01  8.980437E-01 -6.104879E+01  3.911605E-01 2.736713E+01 
 1.618140E-03 6.171729E+01  3.909882E-01 2.726824E+01  9.016341E-01 -6.168636E+01 
1.383670E+03  9.668594E-01 -8.596244E+01  2.042422E-03 4.337422E+01  1.569995E-03 6.238912E+01 
 2.041393E-03 4.322033E+01  8.978132E-01 -6.106761E+01  3.911689E-01 2.735487E+01 
 1.573444E-03 6.220542E+01  3.911226E-01 2.724307E+01  9.014707E-01 -6.169230E+01 
1.383920E+03  9.666931E-01 -8.598285E+01  2.040161E-03 4.408491E+01  1.553575E-03 6.232299E+01 
 2.032512E-03 4.416799E+01  8.980519E-01 -6.108232E+01  3.912365E-01 2.735596E+01 
 1.561115E-03 6.262343E+01  3.912018E-01 2.723377E+01  9.015505E-01 -6.169925E+01 
1.384170E+03  9.666224E-01 -8.601140E+01  2.043392E-03 4.416548E+01  1.544823E-03 6.306675E+01 
 2.035429E-03 4.450796E+01  8.981130E-01 -6.109797E+01  3.913272E-01 2.736447E+01 
 1.544608E-03 6.358949E+01  3.912963E-01 2.721838E+01  9.014853E-01 -6.171484E+01 
1.384420E+03  9.664955E-01 -8.603049E+01  2.035841E-03 4.499152E+01  1.523805E-03 6.391547E+01 
 2.019406E-03 4.524630E+01  8.979995E-01 -6.110646E+01  3.913507E-01 2.735593E+01 
 1.525067E-03 6.349629E+01  3.913694E-01 2.721785E+01  9.015604E-01 -6.172522E+01 
1.384670E+03  9.665739E-01 -8.605392E+01  2.051714E-03 4.505333E+01  1.539676E-03 6.463312E+01 
 2.045473E-03 4.521947E+01  8.979789E-01 -6.111229E+01  3.914820E-01 2.734955E+01 
 1.531560E-03 6.447845E+01  3.914133E-01 2.722245E+01  9.016093E-01 -6.174569E+01 
1.384920E+03  9.665079E-01 -8.606907E+01  2.053390E-03 4.480121E+01  1.521557E-03 6.450943E+01 
 2.050897E-03 4.504422E+01  8.978097E-01 -6.112631E+01  3.915504E-01 2.733551E+01 
 1.510284E-03 6.462999E+01  3.914651E-01 2.722008E+01  9.014340E-01 -6.176560E+01 
1.385170E+03  9.665704E-01 -8.609369E+01  2.027413E-03 4.531636E+01  1.510973E-03 6.470399E+01 
 2.028743E-03 4.534884E+01  8.977378E-01 -6.113645E+01  3.916701E-01 2.731651E+01 
 1.512647E-03 6.476004E+01  3.915489E-01 2.721462E+01  9.014850E-01 -6.178333E+01 
1.385420E+03  9.665858E-01 -8.611407E+01  2.042508E-03 4.529118E+01  1.499616E-03 6.572527E+01 
 2.032449E-03 4.539138E+01  8.976536E-01 -6.114549E+01  3.917435E-01 2.730971E+01 
 1.504203E-03 6.539941E+01  3.915794E-01 2.721993E+01  9.014532E-01 -6.180215E+01 
1.385670E+03  9.667680E-01 -8.613283E+01  2.030599E-03 4.562980E+01  1.485396E-03 6.566861E+01 
 2.036986E-03 4.573769E+01  8.974459E-01 -6.116387E+01  3.918531E-01 2.730297E+01 
 1.481439E-03 6.554293E+01  3.916632E-01 2.723123E+01  9.014313E-01 -6.182477E+01 
1.385920E+03  9.668767E-01 -8.616398E+01  2.030574E-03 4.540103E+01  1.482953E-03 6.728784E+01 
 2.013729E-03 4.562946E+01  8.974274E-01 -6.117357E+01  3.920459E-01 2.729288E+01 
 1.481244E-03 6.679854E+01  3.918397E-01 2.722631E+01  9.014649E-01 -6.184902E+01 
1.386170E+03  9.668506E-01 -8.619334E+01  2.017774E-03 4.589061E+01  1.480301E-03 6.763547E+01 
 2.015771E-03 4.603721E+01  8.971952E-01 -6.118862E+01  3.921467E-01 2.727071E+01 
 1.488720E-03 6.745978E+01  3.919083E-01 2.721796E+01  9.013362E-01 -6.187207E+01 
1.386420E+03  9.669511E-01 -8.621564E+01  2.017754E-03 4.601178E+01  1.488024E-03 6.834990E+01 
 2.009287E-03 4.628630E+01  8.971367E-01 -6.120093E+01  3.922042E-01 2.726483E+01 
 1.487412E-03 6.823423E+01  3.919510E-01 2.722923E+01  9.012835E-01 -6.189604E+01 
1.386670E+03  9.669974E-01 -8.624714E+01  1.996681E-03 4.646278E+01  1.505227E-03 6.937601E+01 
 1.989453E-03 4.628358E+01  8.969078E-01 -6.121446E+01  3.923538E-01 2.725887E+01 
 1.506915E-03 6.956349E+01  3.920397E-01 2.723328E+01  9.010765E-01 -6.191850E+01 
1.386920E+03  9.671284E-01 -8.627132E+01  1.995631E-03 4.679101E+01  1.521390E-03 6.962596E+01 
 2.008352E-03 4.697880E+01  8.967354E-01 -6.122768E+01  3.925590E-01 2.724795E+01 
 1.519154E-03 6.952600E+01  3.922306E-01 2.723432E+01  9.010637E-01 -6.194103E+01 
1.387170E+03  9.673179E-01 -8.629517E+01  1.982214E-03 4.700681E+01  1.539115E-03 6.964449E+01 
 1.974035E-03 4.721043E+01  8.964740E-01 -6.123352E+01  3.925952E-01 2.723071E+01 
 1.532182E-03 6.966628E+01  3.922261E-01 2.723294E+01  9.008164E-01 -6.195554E+01 
1.387420E+03  9.673934E-01 -8.633090E+01  1.999805E-03 4.751011E+01  1.558757E-03 7.000728E+01 
 1.997856E-03 4.759377E+01  8.963320E-01 -6.124283E+01  3.927231E-01 2.722983E+01 
 1.551199E-03 6.990031E+01  3.923156E-01 2.724572E+01  9.007446E-01 -6.197464E+01 
1.387670E+03  9.675521E-01 -8.636019E+01  2.017567E-03 4.760838E+01  1.571412E-03 6.951728E+01 
 2.011195E-03 4.778378E+01  8.962073E-01 -6.125399E+01  3.929716E-01 2.723176E+01 
 1.573707E-03 6.976029E+01  3.924605E-01 2.726206E+01  9.005824E-01 -6.199430E+01 
1.387920E+03  9.676146E-01 -8.639654E+01  2.021483E-03 4.712273E+01  1.590240E-03 6.950537E+01 
 2.008575E-03 4.723759E+01  8.958214E-01 -6.126241E+01  3.931150E-01 2.722230E+01 
 1.582091E-03 6.956570E+01  3.926500E-01 2.727729E+01  9.004147E-01 -6.200092E+01 
1.388170E+03  9.676687E-01 -8.642902E+01  1.995232E-03 4.725148E+01  1.584944E-03 6.937336E+01 
 1.985048E-03 4.723490E+01  8.958084E-01 -6.125910E+01  3.933088E-01 2.721304E+01 
 1.575473E-03 6.947508E+01  3.928412E-01 2.727722E+01  9.004286E-01 -6.201303E+01 
1.388420E+03  9.678119E-01 -8.646428E+01  1.997667E-03 4.808870E+01  1.625144E-03 6.922373E+01 
 2.000766E-03 4.804959E+01  8.957225E-01 -6.127527E+01  3.934346E-01 2.720960E+01 
 1.613177E-03 6.931944E+01  3.930129E-01 2.728010E+01  9.003128E-01 -6.202536E+01 
1.388670E+03  9.679748E-01 -8.650267E+01  1.997538E-03 4.785284E+01  1.624635E-03 6.855386E+01 
 1.985312E-03 4.760975E+01  8.956850E-01 -6.128469E+01  3.936954E-01 2.721598E+01 
 1.620832E-03 6.863331E+01  3.932321E-01 2.728006E+01  9.001754E-01 -6.202758E+01 
1.388920E+03  9.680619E-01 -8.653737E+01  1.986461E-03 4.779869E+01  1.633749E-03 6.832060E+01 
 1.978685E-03 4.751744E+01  8.956994E-01 -6.129426E+01  3.938971E-01 2.720542E+01 
 1.633530E-03 6.845440E+01  3.934818E-01 2.726892E+01  9.001704E-01 -6.204163E+01 
1.389170E+03  9.682510E-01 -8.657779E+01  1.990753E-03 4.767011E+01  1.651590E-03 6.745426E+01 
 1.990455E-03 4.758125E+01  8.957497E-01 -6.131241E+01  3.940797E-01 2.720231E+01 
 1.642408E-03 6.790499E+01  3.937318E-01 2.726205E+01  9.000915E-01 -6.205273E+01 
1.389420E+03  9.684271E-01 -8.662174E+01  1.973329E-03 4.747594E+01  1.639947E-03 6.669707E+01 
 1.970374E-03 4.760673E+01  8.957199E-01 -6.132818E+01  3.943438E-01 2.718992E+01 
 1.645189E-03 6.690422E+01  3.939662E-01 2.724852E+01  9.000273E-01 -6.206606E+01 
1.389670E+03  9.685500E-01 -8.666280E+01  1.968999E-03 4.786666E+01  1.643530E-03 6.646412E+01 
 1.967343E-03 4.776636E+01  8.958053E-01 -6.134481E+01  3.945355E-01 2.717517E+01 
 1.641200E-03 6.640118E+01  3.941318E-01 2.722478E+01  8.998231E-01 -6.207696E+01 
1.389920E+03  9.686323E-01 -8.670212E+01  1.953070E-03 4.757776E+01  1.653973E-03 6.578557E+01 
 1.951645E-03 4.757361E+01  8.957514E-01 -6.135791E+01  3.946952E-01 2.716873E+01 
 1.657963E-03 6.605346E+01  3.944358E-01 2.720815E+01  8.998135E-01 -6.209331E+01 
1.390170E+03  9.686954E-01 -8.674036E+01  1.935772E-03 4.792779E+01  1.651828E-03 6.437137E+01 
 1.936422E-03 4.792854E+01  8.959134E-01 -6.137676E+01  3.949650E-01 2.714011E+01 
 1.657859E-03 6.479853E+01  3.946390E-01 2.718617E+01  8.997870E-01 -6.210680E+01 
1.390420E+03  9.687071E-01 -8.678236E+01  1.941445E-03 4.821980E+01  1.651145E-03 6.381616E+01 
 1.941132E-03 4.839382E+01  8.958572E-01 -6.140076E+01  3.950703E-01 2.711904E+01 
 1.646431E-03 6.420485E+01  3.947838E-01 2.715672E+01  8.996355E-01 -6.212799E+01 
1.390670E+03  9.688450E-01 -8.681756E+01  1.933752E-03 4.806290E+01  1.642052E-03 6.314831E+01 
 1.937647E-03 4.821682E+01  8.957727E-01 -6.141716E+01  3.951439E-01 2.710962E+01 
 1.638718E-03 6.340935E+01  3.949565E-01 2.714433E+01  8.995330E-01 -6.213859E+01 
1.390920E+03  9.688656E-01 -8.685769E+01  1.926370E-03 4.812687E+01  1.628910E-03 6.169095E+01 
 1.920287E-03 4.856160E+01  8.958221E-01 -6.143493E+01  3.953771E-01 2.709794E+01 
 1.623011E-03 6.189458E+01  3.951360E-01 2.713048E+01  8.993347E-01 -6.215414E+01 
1.391170E+03  9.690534E-01 -8.689406E+01  1.912704E-03 4.814325E+01  1.588420E-03 6.129154E+01 
 1.907874E-03 4.827653E+01  8.957816E-01 -6.145239E+01  3.954876E-01 2.708020E+01 
 1.594188E-03 6.137431E+01  3.953298E-01 2.709919E+01  8.992936E-01 -6.216960E+01 
1.391420E+03  9.690606E-01 -8.694637E+01  1.897107E-03 4.842827E+01  1.571417E-03 6.056319E+01 
 1.896907E-03 4.847684E+01  8.958156E-01 -6.147633E+01  3.956542E-01 2.705801E+01 
 1.571148E-03 6.080773E+01  3.954734E-01 2.708197E+01  8.991513E-01 -6.218283E+01 
1.391670E+03  9.689842E-01 -8.698606E+01  1.892700E-03 4.895950E+01  1.553010E-03 6.006631E+01 
 1.893483E-03 4.889757E+01  8.957932E-01 -6.149776E+01  3.957710E-01 2.704709E+01 
 1.546995E-03 6.024397E+01  3.956524E-01 2.705618E+01  8.989772E-01 -6.220377E+01 
1.391920E+03  9.689544E-01 -8.702768E+01  1.894536E-03 4.950310E+01  1.522352E-03 5.867412E+01 
 1.886407E-03 4.951742E+01  8.957007E-01 -6.151366E+01  3.959083E-01 2.704009E+01 
 1.526601E-03 5.909692E+01  3.958292E-01 2.704446E+01  8.988946E-01 -6.221205E+01 
1.392170E+03  9.688720E-01 -8.706709E+01  1.883236E-03 4.969041E+01  1.494233E-03 5.891550E+01 
 1.890093E-03 4.997325E+01  8.957011E-01 -6.153267E+01  3.961008E-01 2.702257E+01 
 1.488227E-03 5.918622E+01  3.960340E-01 2.702672E+01  8.987912E-01 -6.222416E+01 
1.392420E+03  9.688182E-01 -8.709997E+01  1.877380E-03 4.993881E+01  1.460305E-03 5.896511E+01 
 1.885642E-03 4.988775E+01  8.955823E-01 -6.155206E+01  3.963039E-01 2.700259E+01 
 1.467783E-03 5.907414E+01  3.962256E-01 2.699834E+01  8.986844E-01 -6.224320E+01 
1.392670E+03  9.687794E-01 -8.713101E+01  1.890117E-03 4.998413E+01  1.439460E-03 5.866005E+01 
 1.886077E-03 5.024128E+01  8.955790E-01 -6.157347E+01  3.965459E-01 2.698841E+01 
 1.447420E-03 5.860837E+01  3.964337E-01 2.697512E+01  8.986757E-01 -6.226778E+01 
1.392920E+03  9.685885E-01 -8.716795E+01  1.897004E-03 4.984714E+01  1.421314E-03 5.769757E+01 
 1.895082E-03 4.976709E+01  8.955042E-01 -6.158829E+01  3.968292E-01 2.697205E+01 
 1.421032E-03 5.799900E+01  3.967148E-01 2.695322E+01  8.986434E-01 -6.228960E+01 
1.393170E+03  9.684649E-01 -8.719995E+01  1.873646E-03 4.934269E+01  1.370316E-03 5.745551E+01 
 1.872569E-03 4.926660E+01  8.954092E-01 -6.161113E+01  3.970935E-01 2.695247E+01 
 1.376774E-03 5.786192E+01  3.969530E-01 2.692429E+01  8.985883E-01 -6.231054E+01 
1.393420E+03  9.683349E-01 -8.723698E+01  1.864867E-03 4.977405E+01  1.330142E-03 5.754935E+01 
 1.855565E-03 4.982211E+01  8.954069E-01 -6.163142E+01  3.973604E-01 2.693309E+01 
 1.332415E-03 5.857330E+01  3.971338E-01 2.689847E+01  8.985547E-01 -6.233160E+01 
1.393670E+03  9.681077E-01 -8.727413E+01  1.855858E-03 4.988888E+01  1.309260E-03 5.856922E+01 
 1.860751E-03 5.012202E+01  8.953287E-01 -6.164823E+01  3.976017E-01 2.691293E+01 
 1.298751E-03 5.903130E+01  3.974119E-01 2.686900E+01  8.985169E-01 -6.235774E+01 
1.393920E+03  9.679682E-01 -8.730035E+01  1.854069E-03 4.995562E+01  1.284582E-03 5.939735E+01 
