! Matrix data file written by TouchstoneData, EPCOS AG
! FILENAME: "newformat_LP86B_NB.s2p"
! COMMENT: "PCB QCC8D1_26  6 Jun 2006 S11-KEIN KOMMENTAR"
! INFO: nport=2, nfreq=1601
! DATE: "Wed Jan  9 15:27:59 2013"
! USER: "Michael Schemies"
!
! port | pin | signal
! -----|-----|--------
!   1  |  2  |  in
!   2  |  5  |  out
! --------------------
!
# MHZ S MA R 50
! freq  magS11 angS11  magS21 angS21  magS12 angS12  magS22 angS22
1.325420E+03  9.616159E-01 -9.004832E+01  2.507499E-03 1.187915E+02  2.484897E-03 1.193747E+02  8.975220E-01 1.751323E+02
1.325733E+03  9.617396E-01 -9.007612E+01  2.503565E-03 1.193095E+02  2.515528E-03 1.192845E+02  8.975534E-01 1.750908E+02
1.326045E+03  9.619249E-01 -9.011513E+01  2.495386E-03 1.194229E+02  2.514852E-03 1.189249E+02  8.977358E-01 1.750851E+02
1.326358E+03  9.618468E-01 -9.011974E+01  2.525949E-03 1.189966E+02  2.518981E-03 1.194498E+02  8.973268E-01 1.750467E+02
1.326670E+03  9.617992E-01 -9.016407E+01  2.508972E-03 1.197641E+02  2.532691E-03 1.193379E+02  8.975604E-01 1.750396E+02
1.326983E+03  9.621768E-01 -9.020129E+01  2.527835E-03 1.191702E+02  2.540599E-03 1.191200E+02  8.973755E-01 1.750081E+02
1.327295E+03  9.624857E-01 -9.021871E+01  2.546145E-03 1.196967E+02  2.544326E-03 1.197651E+02  8.972037E-01 1.749822E+02
1.327608E+03  9.621732E-01 -9.025541E+01  2.548996E-03 1.195646E+02  2.550338E-03 1.192090E+02  8.971417E-01 1.749697E+02
1.327920E+03  9.624696E-01 -9.029607E+01  2.565475E-03 1.195339E+02  2.561780E-03 1.189246E+02  8.971166E-01 1.749393E+02
1.328233E+03  9.622265E-01 -9.033920E+01  2.569994E-03 1.192474E+02  2.552406E-03 1.194649E+02  8.970297E-01 1.749252E+02
1.328545E+03  9.621362E-01 -9.037302E+01  2.574002E-03 1.193132E+02  2.567115E-03 1.195052E+02  8.972145E-01 1.748871E+02
1.328858E+03  9.624519E-01 -9.039151E+01  2.576765E-03 1.194137E+02  2.579616E-03 1.188995E+02  8.968569E-01 1.748739E+02
1.329170E+03  9.624093E-01 -9.043131E+01  2.583512E-03 1.195321E+02  2.596370E-03 1.191501E+02  8.969078E-01 1.748501E+02
1.329483E+03  9.625941E-01 -9.045787E+01  2.575088E-03 1.193601E+02  2.595914E-03 1.187925E+02  8.969709E-01 1.747975E+02
1.329795E+03  9.626989E-01 -9.048828E+01  2.591380E-03 1.193856E+02  2.581008E-03 1.192528E+02  8.968708E-01 1.747960E+02
1.330108E+03  9.626884E-01 -9.052530E+01  2.592755E-03 1.195094E+02  2.604555E-03 1.194786E+02  8.967021E-01 1.747689E+02
1.330420E+03  9.625378E-01 -9.056818E+01  2.587732E-03 1.199943E+02  2.604598E-03 1.194562E+02  8.968155E-01 1.747470E+02
1.330733E+03  9.627224E-01 -9.058547E+01  2.630910E-03 1.191858E+02  2.613081E-03 1.189209E+02  8.966443E-01 1.747260E+02
1.331045E+03  9.627283E-01 -9.062110E+01  2.632512E-03 1.193348E+02  2.641142E-03 1.193885E+02  8.965939E-01 1.747127E+02
1.331358E+03  9.631342E-01 -9.064152E+01  2.625528E-03 1.189485E+02  2.613136E-03 1.190220E+02  8.966301E-01 1.746899E+02
1.331670E+03  9.627941E-01 -9.068055E+01  2.639790E-03 1.188218E+02  2.637252E-03 1.189795E+02  8.965409E-01 1.746858E+02
1.331983E+03  9.627240E-01 -9.072889E+01  2.618181E-03 1.189994E+02  2.613506E-03 1.193636E+02  8.964751E-01 1.746683E+02
1.332295E+03  9.627643E-01 -9.075923E+01  2.616792E-03 1.190237E+02  2.630171E-03 1.194053E+02  8.962329E-01 1.746232E+02
1.332608E+03  9.626080E-01 -9.078913E+01  2.632366E-03 1.189657E+02  2.647337E-03 1.190892E+02  8.965686E-01 1.746081E+02
1.332920E+03  9.629343E-01 -9.081329E+01  2.626708E-03 1.192321E+02  2.624553E-03 1.192195E+02  8.969406E-01 1.745849E+02
1.333233E+03  9.626479E-01 -9.084717E+01  2.654967E-03 1.190693E+02  2.651141E-03 1.189278E+02  8.968055E-01 1.745678E+02
1.333545E+03  9.630099E-01 -9.091146E+01  2.658932E-03 1.192173E+02  2.658685E-03 1.191709E+02  8.967256E-01 1.745623E+02
1.333858E+03  9.630144E-01 -9.094206E+01  2.638637E-03 1.189926E+02  2.638068E-03 1.190763E+02  8.968826E-01 1.745274E+02
1.334170E+03  9.629628E-01 -9.096235E+01  2.664076E-03 1.196670E+02  2.665786E-03 1.193477E+02  8.966305E-01 1.744983E+02
1.334483E+03  9.626537E-01 -9.099928E+01  2.671442E-03 1.190013E+02  2.673330E-03 1.193690E+02  8.968627E-01 1.744737E+02
1.334795E+03  9.627227E-01 -9.102509E+01  2.641929E-03 1.190850E+02  2.662067E-03 1.191910E+02  8.970071E-01 1.744610E+02
1.335108E+03  9.628455E-01 -9.107694E+01  2.673444E-03 1.192607E+02  2.682352E-03 1.190369E+02  8.968914E-01 1.744455E+02
1.335420E+03  9.628959E-01 -9.112206E+01  2.660633E-03 1.192815E+02  2.668109E-03 1.191327E+02  8.969985E-01 1.744142E+02
1.335733E+03  9.629489E-01 -9.115266E+01  2.673505E-03 1.193545E+02  2.691242E-03 1.191978E+02  8.969679E-01 1.743962E+02
1.336045E+03  9.629862E-01 -9.117329E+01  2.693079E-03 1.192766E+02  2.701321E-03 1.192142E+02  8.972703E-01 1.743583E+02
1.336358E+03  9.631603E-01 -9.121382E+01  2.677024E-03 1.197677E+02  2.686993E-03 1.198967E+02  8.973968E-01 1.743403E+02
1.336670E+03  9.626123E-01 -9.125041E+01  2.676984E-03 1.195106E+02  2.702975E-03 1.197049E+02  8.971505E-01 1.743158E+02
1.336983E+03  9.626990E-01 -9.131458E+01  2.706639E-03 1.194881E+02  2.698776E-03 1.195251E+02  8.973496E-01 1.742712E+02
1.337295E+03  9.629283E-01 -9.135953E+01  2.713189E-03 1.196104E+02  2.712439E-03 1.194269E+02  8.974371E-01 1.742314E+02
1.337608E+03  9.627431E-01 -9.139139E+01  2.711485E-03 1.196698E+02  2.714319E-03 1.194176E+02  8.971759E-01 1.742011E+02
1.337920E+03  9.622909E-01 -9.143042E+01  2.715898E-03 1.194809E+02  2.703192E-03 1.199283E+02  8.971448E-01 1.741767E+02
1.338233E+03  9.625596E-01 -9.146236E+01  2.705223E-03 1.193267E+02  2.720090E-03 1.195718E+02  8.973470E-01 1.741614E+02
1.338545E+03  9.625087E-01 -9.149507E+01  2.747422E-03 1.197799E+02  2.745201E-03 1.197009E+02  8.971827E-01 1.741284E+02
1.338858E+03  9.626740E-01 -9.153808E+01  2.740304E-03 1.202073E+02  2.741631E-03 1.197771E+02  8.973600E-01 1.740911E+02
1.339170E+03  9.623980E-01 -9.156144E+01  2.749247E-03 1.195136E+02  2.765318E-03 1.190744E+02  8.973328E-01 1.740732E+02
1.339483E+03  9.618560E-01 -9.160317E+01  2.740850E-03 1.198464E+02  2.771211E-03 1.198704E+02  8.970432E-01 1.740440E+02
1.339795E+03  9.618851E-01 -9.164658E+01  2.768086E-03 1.196198E+02  2.770734E-03 1.196248E+02  8.970014E-01 1.740085E+02
1.340108E+03  9.615418E-01 -9.168925E+01  2.747772E-03 1.193968E+02  2.751492E-03 1.195349E+02  8.966102E-01 1.739843E+02
1.340420E+03  9.617198E-01 -9.172650E+01  2.772228E-03 1.200078E+02  2.789981E-03 1.194654E+02  8.970643E-01 1.739653E+02
1.340733E+03  9.613679E-01 -9.175729E+01  2.780224E-03 1.197912E+02  2.791285E-03 1.191736E+02  8.973179E-01 1.739088E+02
1.341045E+03  9.613947E-01 -9.179138E+01  2.776697E-03 1.193662E+02  2.792508E-03 1.199892E+02  8.967182E-01 1.738854E+02
1.341358E+03  9.613099E-01 -9.182802E+01  2.789188E-03 1.193908E+02  2.779921E-03 1.195185E+02  8.966493E-01 1.738819E+02
1.341670E+03  9.609259E-01 -9.185840E+01  2.796384E-03 1.196466E+02  2.781908E-03 1.196777E+02  8.964439E-01 1.738618E+02
1.341983E+03  9.610718E-01 -9.188538E+01  2.806681E-03 1.197358E+02  2.824293E-03 1.196886E+02  8.964861E-01 1.738296E+02
1.342295E+03  9.609008E-01 -9.192509E+01  2.811172E-03 1.195104E+02  2.826081E-03 1.197600E+02  8.965135E-01 1.738037E+02
1.342608E+03  9.607502E-01 -9.195304E+01  2.829566E-03 1.198440E+02  2.811209E-03 1.196089E+02  8.962151E-01 1.737811E+02
1.342920E+03  9.607962E-01 -9.197938E+01  2.835083E-03 1.194511E+02  2.814027E-03 1.197803E+02  8.958871E-01 1.737687E+02
1.343233E+03  9.606101E-01 -9.200843E+01  2.831918E-03 1.197910E+02  2.838332E-03 1.193462E+02  8.959987E-01 1.737337E+02
1.343545E+03  9.603008E-01 -9.205932E+01  2.841214E-03 1.199190E+02  2.848517E-03 1.193769E+02  8.955922E-01 1.737168E+02
1.343858E+03  9.603780E-01 -9.206844E+01  2.837442E-03 1.200387E+02  2.834260E-03 1.194176E+02  8.958197E-01 1.736971E+02
1.344170E+03  9.602634E-01 -9.211506E+01  2.855357E-03 1.196439E+02  2.839982E-03 1.196569E+02  8.959073E-01 1.736739E+02
1.344483E+03  9.600058E-01 -9.214687E+01  2.842498E-03 1.197710E+02  2.859020E-03 1.193016E+02  8.957492E-01 1.736453E+02
1.344795E+03  9.598804E-01 -9.217515E+01  2.858351E-03 1.194442E+02  2.835196E-03 1.192948E+02  8.954549E-01 1.736364E+02
1.345108E+03  9.600085E-01 -9.219285E+01  2.861873E-03 1.199294E+02  2.857498E-03 1.197742E+02  8.952505E-01 1.736259E+02
1.345420E+03  9.596423E-01 -9.222636E+01  2.872795E-03 1.198316E+02  2.863070E-03 1.196085E+02  8.954227E-01 1.735957E+02
1.345733E+03  9.596119E-01 -9.225711E+01  2.867750E-03 1.196474E+02  2.865043E-03 1.195292E+02  8.957645E-01 1.735734E+02
1.346045E+03  9.597079E-01 -9.229817E+01  2.886441E-03 1.197107E+02  2.867306E-03 1.192226E+02  8.954498E-01 1.735611E+02
1.346358E+03  9.593194E-01 -9.230560E+01  2.891356E-03 1.195654E+02  2.891053E-03 1.195726E+02  8.953353E-01 1.735372E+02
1.346670E+03  9.596201E-01 -9.233650E+01  2.887713E-03 1.196548E+02  2.888602E-03 1.195743E+02  8.953234E-01 1.735324E+02
1.346983E+03  9.593958E-01 -9.237476E+01  2.889640E-03 1.197852E+02  2.914998E-03 1.196713E+02  8.954554E-01 1.735002E+02
1.347295E+03  9.594300E-01 -9.238684E+01  2.886937E-03 1.196527E+02  2.895227E-03 1.192480E+02  8.955017E-01 1.734701E+02
1.347608E+03  9.592939E-01 -9.242186E+01  2.906192E-03 1.193967E+02  2.906727E-03 1.196840E+02  8.955577E-01 1.734656E+02
1.347920E+03  9.589516E-01 -9.246484E+01  2.913968E-03 1.195290E+02  2.914456E-03 1.193032E+02  8.956648E-01 1.734272E+02
1.348233E+03  9.590877E-01 -9.248551E+01  2.913182E-03 1.197781E+02  2.928362E-03 1.196827E+02  8.958621E-01 1.734277E+02
1.348545E+03  9.591891E-01 -9.252372E+01  2.935179E-03 1.195892E+02  2.935154E-03 1.197726E+02  8.955243E-01 1.733977E+02
1.348858E+03  9.588709E-01 -9.255044E+01  2.935251E-03 1.196413E+02  2.926343E-03 1.196944E+02  8.959112E-01 1.733664E+02
1.349170E+03  9.588563E-01 -9.257282E+01  2.913979E-03 1.200182E+02  2.950970E-03 1.196386E+02  8.960210E-01 1.733445E+02
1.349483E+03  9.589347E-01 -9.259940E+01  2.928917E-03 1.198447E+02  2.953230E-03 1.191340E+02  8.958939E-01 1.733082E+02
1.349795E+03  9.587635E-01 -9.263301E+01  2.940987E-03 1.196301E+02  2.945228E-03 1.195440E+02  8.960367E-01 1.732896E+02
1.350108E+03  9.587115E-01 -9.267037E+01  2.942841E-03 1.194619E+02  2.945093E-03 1.194361E+02  8.957943E-01 1.732657E+02
1.350420E+03  9.587266E-01 -9.269857E+01  2.956230E-03 1.196146E+02  2.951188E-03 1.194166E+02  8.961429E-01 1.732373E+02
1.350733E+03  9.587210E-01 -9.272468E+01  2.946812E-03 1.194393E+02  2.965230E-03 1.197513E+02  8.960372E-01 1.732032E+02
1.351045E+03  9.586326E-01 -9.275325E+01  2.947849E-03 1.193667E+02  2.954439E-03 1.193443E+02  8.959626E-01 1.731857E+02
1.351358E+03  9.587025E-01 -9.278647E+01  2.964713E-03 1.201923E+02  2.969358E-03 1.193309E+02  8.962829E-01 1.731546E+02
1.351670E+03  9.585058E-01 -9.281232E+01  2.959251E-03 1.199655E+02  2.997896E-03 1.196030E+02  8.960728E-01 1.731291E+02
1.351983E+03  9.585330E-01 -9.283456E+01  2.973832E-03 1.192078E+02  2.997657E-03 1.196347E+02  8.962580E-01 1.731060E+02
1.352295E+03  9.586491E-01 -9.286567E+01  2.971990E-03 1.193660E+02  3.002773E-03 1.196908E+02  8.960592E-01 1.730662E+02
1.352608E+03  9.584875E-01 -9.289292E+01  2.980996E-03 1.197829E+02  2.994466E-03 1.193100E+02  8.962785E-01 1.730356E+02
1.352920E+03  9.585884E-01 -9.292532E+01  2.992446E-03 1.194625E+02  2.984532E-03 1.197198E+02  8.960642E-01 1.730018E+02
1.353233E+03  9.583986E-01 -9.295652E+01  2.993045E-03 1.198499E+02  3.004011E-03 1.197477E+02  8.961638E-01 1.729646E+02
1.353545E+03  9.585049E-01 -9.298443E+01  3.014592E-03 1.200117E+02  2.999899E-03 1.196452E+02  8.961628E-01 1.729456E+02
1.353858E+03  9.583765E-01 -9.302439E+01  3.003796E-03 1.199310E+02  3.012176E-03 1.197433E+02  8.961700E-01 1.729110E+02
1.354170E+03  9.581678E-01 -9.303502E+01  3.011340E-03 1.196863E+02  3.048169E-03 1.196834E+02  8.962075E-01 1.728855E+02
1.354483E+03  9.581046E-01 -9.307678E+01  3.022962E-03 1.200441E+02  3.013205E-03 1.196668E+02  8.961351E-01 1.728521E+02
1.354795E+03  9.579808E-01 -9.310359E+01  3.036483E-03 1.201628E+02  3.033486E-03 1.197468E+02  8.959656E-01 1.728212E+02
1.355108E+03  9.580615E-01 -9.312227E+01  3.016191E-03 1.200757E+02  3.024004E-03 1.194065E+02  8.960765E-01 1.727952E+02
1.355420E+03  9.582635E-01 -9.315651E+01  3.039216E-03 1.195536E+02  3.032252E-03 1.194334E+02  8.960906E-01 1.727650E+02
1.355733E+03  9.582731E-01 -9.316665E+01  3.034429E-03 1.198601E+02  3.047912E-03 1.199739E+02  8.961081E-01 1.727395E+02
1.356045E+03  9.585149E-01 -9.321602E+01  3.020995E-03 1.195491E+02  3.039388E-03 1.200957E+02  8.958735E-01 1.727112E+02
1.356358E+03  9.585045E-01 -9.323747E+01  3.043281E-03 1.198967E+02  3.050824E-03 1.200019E+02  8.958086E-01 1.726826E+02
1.356670E+03  9.582875E-01 -9.327400E+01  3.061698E-03 1.199184E+02  3.055933E-03 1.195915E+02  8.958640E-01 1.726587E+02
1.356983E+03  9.584317E-01 -9.330612E+01  3.055771E-03 1.196812E+02  3.049213E-03 1.197244E+02  8.955458E-01 1.726270E+02
1.357295E+03  9.584626E-01 -9.334214E+01  3.074620E-03 1.199641E+02  3.068542E-03 1.196211E+02  8.958363E-01 1.725959E+02
1.357608E+03  9.587261E-01 -9.336693E+01  3.070892E-03 1.196934E+02  3.072405E-03 1.196293E+02  8.956235E-01 1.725598E+02
1.357920E+03  9.589182E-01 -9.340967E+01  3.082659E-03 1.199874E+02  3.076698E-03 1.194862E+02  8.956128E-01 1.725390E+02
1.358233E+03  9.588241E-01 -9.342636E+01  3.083538E-03 1.198693E+02  3.089912E-03 1.199772E+02  8.956389E-01 1.725039E+02
1.358545E+03  9.588591E-01 -9.346183E+01  3.094838E-03 1.200057E+02  3.069504E-03 1.198088E+02  8.954529E-01 1.724807E+02
1.358858E+03  9.588888E-01 -9.348752E+01  3.108309E-03 1.196981E+02  3.095894E-03 1.199652E+02  8.955013E-01 1.724585E+02
1.359170E+03  9.592814E-01 -9.352791E+01  3.092098E-03 1.199130E+02  3.096900E-03 1.196535E+02  8.951939E-01 1.724246E+02
1.359483E+03  9.591105E-01 -9.355869E+01  3.104283E-03 1.199649E+02  3.099954E-03 1.198138E+02  8.949009E-01 1.724143E+02
1.359795E+03  9.592824E-01 -9.359733E+01  3.095163E-03 1.199338E+02  3.100423E-03 1.197605E+02  8.949361E-01 1.723924E+02
1.360108E+03  9.593892E-01 -9.361719E+01  3.113647E-03 1.198103E+02  3.130595E-03 1.199463E+02  8.949399E-01 1.723777E+02
1.360420E+03  9.596727E-01 -9.365187E+01  3.133438E-03 1.199922E+02  3.119714E-03 1.198379E+02  8.947879E-01 1.723536E+02
1.360733E+03  9.597222E-01 -9.369157E+01  3.129368E-03 1.203354E+02  3.121111E-03 1.199438E+02  8.948149E-01 1.723271E+02
1.361045E+03  9.595765E-01 -9.373532E+01  3.139882E-03 1.200032E+02  3.149675E-03 1.196493E+02  8.951230E-01 1.723135E+02
1.361358E+03  9.597792E-01 -9.377816E+01  3.152239E-03 1.198917E+02  3.148305E-03 1.197475E+02  8.951657E-01 1.722853E+02
1.361670E+03  9.597683E-01 -9.382162E+01  3.167383E-03 1.200207E+02  3.150858E-03 1.199139E+02  8.951345E-01 1.722423E+02
1.361983E+03  9.599710E-01 -9.384689E+01  3.147642E-03 1.199869E+02  3.152835E-03 1.199233E+02  8.949447E-01 1.722151E+02
1.362295E+03  9.599349E-01 -9.390586E+01  3.174529E-03 1.196846E+02  3.137485E-03 1.200475E+02  8.949774E-01 1.722041E+02
1.362608E+03  9.600100E-01 -9.393005E+01  3.164249E-03 1.201024E+02  3.177701E-03 1.199785E+02  8.952811E-01 1.721755E+02
1.362920E+03  9.602201E-01 -9.397245E+01  3.165048E-03 1.199039E+02  3.179999E-03 1.199178E+02  8.950139E-01 1.721690E+02
1.363233E+03  9.601712E-01 -9.402147E+01  3.182685E-03 1.197642E+02  3.183121E-03 1.201418E+02  8.947370E-01 1.721161E+02
1.363545E+03  9.603815E-01 -9.404361E+01  3.186276E-03 1.198752E+02  3.182513E-03 1.200670E+02  8.948597E-01 1.721187E+02
1.363858E+03  9.602716E-01 -9.410190E+01  3.207783E-03 1.198505E+02  3.188350E-03 1.197091E+02  8.950453E-01 1.720608E+02
1.364170E+03  9.604591E-01 -9.412995E+01  3.189739E-03 1.199710E+02  3.209642E-03 1.200938E+02  8.949072E-01 1.720609E+02
1.364483E+03  9.604561E-01 -9.417024E+01  3.208502E-03 1.199825E+02  3.205781E-03 1.201702E+02  8.951008E-01 1.720233E+02
1.364795E+03  9.603253E-01 -9.421535E+01  3.213296E-03 1.200934E+02  3.193009E-03 1.201920E+02  8.946895E-01 1.720028E+02
1.365108E+03  9.605055E-01 -9.426197E+01  3.189967E-03 1.198655E+02  3.194557E-03 1.201010E+02  8.947158E-01 1.719859E+02
1.365420E+03  9.603244E-01 -9.431706E+01  3.226232E-03 1.201529E+02  3.226192E-03 1.201638E+02  8.947044E-01 1.719477E+02
1.365733E+03  9.605029E-01 -9.432924E+01  3.228381E-03 1.197164E+02  3.235023E-03 1.199891E+02  8.949991E-01 1.719382E+02
1.366045E+03  9.603735E-01 -9.436659E+01  3.236791E-03 1.198103E+02  3.238642E-03 1.196993E+02  8.951626E-01 1.718984E+02
1.366358E+03  9.602626E-01 -9.441742E+01  3.218700E-03 1.202693E+02  3.226059E-03 1.200450E+02  8.950278E-01 1.718656E+02
1.366670E+03  9.602814E-01 -9.445193E+01  3.236985E-03 1.199158E+02  3.249874E-03 1.200508E+02  8.950655E-01 1.718397E+02
1.366983E+03  9.600786E-01 -9.450251E+01  3.234472E-03 1.201144E+02  3.250592E-03 1.201413E+02  8.954399E-01 1.718239E+02
1.367295E+03  9.604202E-01 -9.454855E+01  3.265773E-03 1.199457E+02  3.254618E-03 1.200887E+02  8.951549E-01 1.717815E+02
1.367608E+03  9.603437E-01 -9.459609E+01  3.272301E-03 1.201363E+02  3.250677E-03 1.199963E+02  8.951494E-01 1.717671E+02
1.367920E+03  9.604135E-01 -9.464671E+01  3.276250E-03 1.202051E+02  3.272973E-03 1.199553E+02  8.954178E-01 1.717269E+02
1.368233E+03  9.602545E-01 -9.469823E+01  3.270926E-03 1.203759E+02  3.255359E-03 1.201616E+02  8.954766E-01 1.716827E+02
1.368545E+03  9.601003E-01 -9.473942E+01  3.278795E-03 1.202614E+02  3.264330E-03 1.199380E+02  8.952505E-01 1.716579E+02
1.368858E+03  9.602195E-01 -9.478054E+01  3.293714E-03 1.201352E+02  3.276888E-03 1.199468E+02  8.954483E-01 1.716130E+02
1.369170E+03  9.602077E-01 -9.483763E+01  3.291852E-03 1.200081E+02  3.283448E-03 1.203862E+02  8.954353E-01 1.715946E+02
1.369483E+03  9.601150E-01 -9.485544E+01  3.310925E-03 1.202340E+02  3.297153E-03 1.201801E+02  8.954680E-01 1.715622E+02
1.369795E+03  9.598036E-01 -9.492744E+01  3.316334E-03 1.204713E+02  3.294807E-03 1.200561E+02  8.955090E-01 1.715243E+02
1.370108E+03  9.598689E-01 -9.495402E+01  3.329213E-03 1.199674E+02  3.323833E-03 1.200713E+02  8.952751E-01 1.714815E+02
1.370420E+03  9.592993E-01 -9.500403E+01  3.318029E-03 1.200591E+02  3.320411E-03 1.203812E+02  8.952667E-01 1.714587E+02
1.370733E+03  9.596440E-01 -9.502896E+01  3.336388E-03 1.200633E+02  3.349346E-03 1.199349E+02  8.953707E-01 1.714320E+02
1.371045E+03  9.594460E-01 -9.508291E+01  3.329959E-03 1.201751E+02  3.325109E-03 1.201081E+02  8.948227E-01 1.713947E+02
1.371358E+03  9.591207E-01 -9.512737E+01  3.336947E-03 1.200729E+02  3.344195E-03 1.202356E+02  8.951641E-01 1.713624E+02
1.371670E+03  9.589234E-01 -9.516504E+01  3.336773E-03 1.198155E+02  3.336153E-03 1.199209E+02  8.949677E-01 1.713431E+02
1.371983E+03  9.585564E-01 -9.521044E+01  3.353663E-03 1.200136E+02  3.344826E-03 1.198254E+02  8.951318E-01 1.712840E+02
1.372295E+03  9.586754E-01 -9.523235E+01  3.361210E-03 1.197116E+02  3.349880E-03 1.200988E+02  8.952469E-01 1.712563E+02
1.372608E+03  9.586555E-01 -9.528606E+01  3.375620E-03 1.201594E+02  3.357607E-03 1.201854E+02  8.947219E-01 1.712196E+02
1.372920E+03  9.583990E-01 -9.531525E+01  3.355978E-03 1.198879E+02  3.386793E-03 1.203086E+02  8.950254E-01 1.712108E+02
1.373233E+03  9.579671E-01 -9.535238E+01  3.362743E-03 1.201601E+02  3.378587E-03 1.198718E+02  8.948552E-01 1.711592E+02
1.373545E+03  9.579568E-01 -9.540591E+01  3.378811E-03 1.199465E+02  3.360240E-03 1.199725E+02  8.947039E-01 1.711293E+02
1.373858E+03  9.575905E-01 -9.543067E+01  3.384833E-03 1.199522E+02  3.373622E-03 1.201437E+02  8.941716E-01 1.711221E+02
1.374170E+03  9.574451E-01 -9.547806E+01  3.395082E-03 1.199718E+02  3.414190E-03 1.198586E+02  8.943453E-01 1.710813E+02
1.374483E+03  9.571639E-01 -9.552338E+01  3.396703E-03 1.199215E+02  3.416282E-03 1.200697E+02  8.943044E-01 1.710620E+02
1.374795E+03  9.572122E-01 -9.555280E+01  3.408593E-03 1.197677E+02  3.407326E-03 1.198822E+02  8.938826E-01 1.710217E+02
1.375108E+03  9.568238E-01 -9.558211E+01  3.407474E-03 1.194921E+02  3.406393E-03 1.197884E+02  8.937903E-01 1.710101E+02
