! Matrix data file written by TouchstoneData, EPCOS AG
! FILENAME: "B3525_NB.S3P_newformat"
! COMMENT: "(B3525_NB.S3P) Agilent Technologies,E5071B,M"
! INFO: nport=3, nfreq=1601
! DATE: "Wed May  5 13:07:29 2010"
! USER: "Sergey Rostovtsev"
!
! port | pin | signal
! -----|-----|--------
!   1  |  2  |  in
!   2  |  4  |  out
!   3  |  6  |  out
! --------------------
! 
# MHZ S MA R 50
! freq  magS11 angS11  magS12 angS12  magS13 angS13  ...
1.475000E+03  9.292786E-01 -1.477361E+02  9.361706E-03 1.671941E+02  9.426229E-03 1.675997E+02 
 9.357062E-03 1.672405E+02  7.527612E-01 -8.089895E+01  5.922379E-01 7.899322E+00 
 9.408632E-03 1.676690E+02  5.923298E-01 7.946015E+00  7.532359E-01 -7.998564E+01 
1.475125E+03  9.296213E-01 -1.477682E+02  9.394918E-03 1.673014E+02  9.418603E-03 1.677220E+02 
 9.362407E-03 1.674214E+02  7.525474E-01 -8.089940E+01  5.925865E-01 7.873994E+00 
 9.414418E-03 1.676582E+02  5.925776E-01 7.915044E+00  7.530178E-01 -7.999499E+01 
1.475250E+03  9.292876E-01 -1.478119E+02  9.397276E-03 1.673898E+02  9.442337E-03 1.676736E+02 
 9.375804E-03 1.673808E+02  7.524281E-01 -8.090682E+01  5.927447E-01 7.841527E+00 
 9.425632E-03 1.676807E+02  5.926976E-01 7.899770E+00  7.527446E-01 -8.000444E+01 
1.475375E+03  9.290670E-01 -1.478437E+02  9.395827E-03 1.672617E+02  9.447992E-03 1.674645E+02 
 9.377585E-03 1.672058E+02  7.521987E-01 -8.092851E+01  5.928212E-01 7.813995E+00 
 9.429909E-03 1.676847E+02  5.928537E-01 7.870744E+00  7.526418E-01 -8.000962E+01 
1.475500E+03  9.292540E-01 -1.478700E+02  9.390755E-03 1.674174E+02  9.439076E-03 1.677499E+02 
 9.396746E-03 1.674141E+02  7.519687E-01 -8.092762E+01  5.929294E-01 7.807536E+00 
 9.431158E-03 1.675585E+02  5.931258E-01 7.858248E+00  7.523379E-01 -8.001339E+01 
1.475625E+03  9.290935E-01 -1.479244E+02  9.405535E-03 1.673449E+02  9.460051E-03 1.674905E+02 
 9.413757E-03 1.673919E+02  7.519118E-01 -8.094633E+01  5.932015E-01 7.769148E+00 
 9.438663E-03 1.676102E+02  5.931670E-01 7.828761E+00  7.523478E-01 -8.003961E+01 
1.475750E+03  9.289220E-01 -1.479485E+02  9.410409E-03 1.674063E+02  9.436327E-03 1.675787E+02 
 9.380641E-03 1.672612E+02  7.515528E-01 -8.095200E+01  5.932526E-01 7.749140E+00 
 9.434948E-03 1.676565E+02  5.931922E-01 7.810936E+00  7.521817E-01 -8.004679E+01 
1.475875E+03  9.291324E-01 -1.479804E+02  9.438946E-03 1.672883E+02  9.471429E-03 1.676184E+02 
 9.421347E-03 1.671726E+02  7.516530E-01 -8.097621E+01  5.934251E-01 7.713353E+00 
 9.463243E-03 1.676163E+02  5.935097E-01 7.769749E+00  7.519714E-01 -8.007535E+01 
1.476000E+03  9.290788E-01 -1.480288E+02  9.408286E-03 1.673603E+02  9.501332E-03 1.676061E+02 
 9.455598E-03 1.674598E+02  7.513307E-01 -8.097618E+01  5.935315E-01 7.690734E+00 
 9.465008E-03 1.678342E+02  5.935822E-01 7.755513E+00  7.518223E-01 -8.007763E+01 
1.476125E+03  9.289368E-01 -1.480584E+02  9.406022E-03 1.671941E+02  9.471047E-03 1.675904E+02 
 9.426012E-03 1.672472E+02  7.512150E-01 -8.100377E+01  5.937346E-01 7.643856E+00 
 9.480702E-03 1.676733E+02  5.935947E-01 7.720800E+00  7.518153E-01 -8.009668E+01 
1.476250E+03  9.292431E-01 -1.481017E+02  9.429898E-03 1.672294E+02  9.477352E-03 1.675306E+02 
 9.431136E-03 1.672519E+02  7.511213E-01 -8.103535E+01  5.937991E-01 7.628986E+00 
 9.489296E-03 1.676103E+02  5.938514E-01 7.686504E+00  7.514196E-01 -8.011757E+01 
1.476375E+03  9.289266E-01 -1.481345E+02  9.469935E-03 1.672890E+02  9.515673E-03 1.675034E+02 
 9.445436E-03 1.672322E+02  7.510064E-01 -8.102951E+01  5.940819E-01 7.609826E+00 
 9.485320E-03 1.674764E+02  5.940686E-01 7.676197E+00  7.512609E-01 -8.012992E+01 
1.476500E+03  9.291246E-01 -1.481487E+02  9.445012E-03 1.672993E+02  9.509803E-03 1.675237E+02 
 9.451506E-03 1.672862E+02  7.506617E-01 -8.105114E+01  5.940105E-01 7.579749E+00 
 9.476719E-03 1.677253E+02  5.941179E-01 7.645021E+00  7.509602E-01 -8.014892E+01 
1.476625E+03  9.291097E-01 -1.481870E+02  9.467668E-03 1.673596E+02  9.537576E-03 1.675884E+02 
 9.455108E-03 1.674385E+02  7.504298E-01 -8.108134E+01  5.944376E-01 7.571487E+00 
 9.528642E-03 1.676250E+02  5.942891E-01 7.612859E+00  7.510466E-01 -8.015393E+01 
1.476750E+03  9.294014E-01 -1.482304E+02  9.469052E-03 1.672800E+02  9.519508E-03 1.674800E+02 
 9.475999E-03 1.673308E+02  7.505394E-01 -8.108667E+01  5.944734E-01 7.550906E+00 
 9.506858E-03 1.676824E+02  5.946903E-01 7.597265E+00  7.508922E-01 -8.016918E+01 
1.476875E+03  9.297614E-01 -1.482728E+02  9.456970E-03 1.673680E+02  9.554039E-03 1.675545E+02 
 9.457286E-03 1.673268E+02  7.498494E-01 -8.110699E+01  5.947620E-01 7.511703E+00 
 9.517722E-03 1.675350E+02  5.943656E-01 7.575229E+00  7.507748E-01 -8.019357E+01 
1.477000E+03  9.300617E-01 -1.483015E+02  9.446491E-03 1.671633E+02  9.551696E-03 1.676441E+02 
 9.478650E-03 1.674015E+02  7.497355E-01 -8.112295E+01  5.947797E-01 7.473811E+00 
 9.553192E-03 1.677151E+02  5.947048E-01 7.551442E+00  7.503891E-01 -8.022136E+01 
1.477125E+03  9.299876E-01 -1.483495E+02  9.490520E-03 1.673521E+02  9.532219E-03 1.675319E+02 
 9.494410E-03 1.673759E+02  7.496513E-01 -8.114635E+01  5.951075E-01 7.464308E+00 
 9.555370E-03 1.676387E+02  5.947709E-01 7.521552E+00  7.504400E-01 -8.022454E+01 
1.477250E+03  9.302998E-01 -1.483808E+02  9.499320E-03 1.672927E+02  9.580640E-03 1.675636E+02 
 9.499024E-03 1.673836E+02  7.495385E-01 -8.116098E+01  5.950918E-01 7.435344E+00 
 9.565342E-03 1.677207E+02  5.948855E-01 7.494740E+00  7.501810E-01 -8.024491E+01 
1.477375E+03  9.307477E-01 -1.484450E+02  9.522424E-03 1.673402E+02  9.576295E-03 1.676081E+02 
 9.538597E-03 1.672111E+02  7.495586E-01 -8.117546E+01  5.952440E-01 7.403119E+00 
 9.580209E-03 1.676792E+02  5.952387E-01 7.479964E+00  7.500171E-01 -8.025768E+01 
1.477500E+03  9.307987E-01 -1.484870E+02  9.549178E-03 1.673760E+02  9.584059E-03 1.676841E+02 
 9.512737E-03 1.673063E+02  7.492928E-01 -8.118121E+01  5.954211E-01 7.388983E+00 
 9.589258E-03 1.676452E+02  5.952154E-01 7.454888E+00  7.499192E-01 -8.027818E+01 
1.477625E+03  9.311384E-01 -1.485335E+02  9.544727E-03 1.674256E+02  9.617474E-03 1.676295E+02 
 9.532669E-03 1.671785E+02  7.490606E-01 -8.120195E+01  5.957323E-01 7.356772E+00 
 9.609162E-03 1.676977E+02  5.952446E-01 7.437202E+00  7.497029E-01 -8.028782E+01 
1.477750E+03  9.316681E-01 -1.485625E+02  9.537202E-03 1.673247E+02  9.638568E-03 1.676249E+02 
 9.566642E-03 1.672075E+02  7.490645E-01 -8.122741E+01  5.957545E-01 7.345730E+00 
 9.643418E-03 1.676371E+02  5.955511E-01 7.408005E+00  7.494185E-01 -8.030589E+01 
1.477875E+03  9.318742E-01 -1.486357E+02  9.548980E-03 1.673374E+02  9.628198E-03 1.674660E+02 
 9.601487E-03 1.673260E+02  7.486879E-01 -8.123683E+01  5.957343E-01 7.300413E+00 
 9.656895E-03 1.675851E+02  5.955081E-01 7.384916E+00  7.492322E-01 -8.032166E+01 
1.478000E+03  9.322726E-01 -1.486782E+02  9.547474E-03 1.672948E+02  9.660286E-03 1.675548E+02 
 9.595884E-03 1.673795E+02  7.486171E-01 -8.125138E+01  5.961239E-01 7.316433E+00 
 9.660620E-03 1.676420E+02  5.955897E-01 7.360272E+00  7.493228E-01 -8.031993E+01 
1.478125E+03  9.320805E-01 -1.487328E+02  9.613200E-03 1.672747E+02  9.660008E-03 1.675983E+02 
 9.592858E-03 1.673005E+02  7.483972E-01 -8.126729E+01  5.962197E-01 7.286090E+00 
 9.655205E-03 1.674940E+02  5.958499E-01 7.337645E+00  7.492068E-01 -8.034320E+01 
1.478250E+03  9.322528E-01 -1.487991E+02  9.613101E-03 1.672431E+02  9.688142E-03 1.675900E+02 
 9.626047E-03 1.671720E+02  7.483168E-01 -8.129450E+01  5.962019E-01 7.250631E+00 
 9.691400E-03 1.677000E+02  5.959598E-01 7.321950E+00  7.490852E-01 -8.037472E+01 
1.478375E+03  9.324591E-01 -1.488497E+02  9.613400E-03 1.672863E+02  9.697985E-03 1.676945E+02 
 9.616012E-03 1.673949E+02  7.481078E-01 -8.131870E+01  5.962413E-01 7.241833E+00 
 9.687696E-03 1.676641E+02  5.960825E-01 7.287980E+00  7.487006E-01 -8.038581E+01 
1.478500E+03  9.329127E-01 -1.489014E+02  9.636648E-03 1.671242E+02  9.713673E-03 1.674192E+02 
 9.641520E-03 1.671033E+02  7.479423E-01 -8.133109E+01  5.965155E-01 7.225863E+00 
 9.716995E-03 1.675449E+02  5.961538E-01 7.270900E+00  7.487216E-01 -8.041042E+01 
1.478625E+03  9.330434E-01 -1.489656E+02  9.633220E-03 1.672252E+02  9.739339E-03 1.673835E+02 
 9.662778E-03 1.672286E+02  7.477309E-01 -8.134195E+01  5.965429E-01 7.199124E+00 
 9.725054E-03 1.675731E+02  5.962523E-01 7.271252E+00  7.484062E-01 -8.043519E+01 
1.478750E+03  9.333481E-01 -1.490062E+02  9.691255E-03 1.671954E+02  9.756892E-03 1.675041E+02 
 9.659007E-03 1.672286E+02  7.476907E-01 -8.136949E+01  5.967781E-01 7.183623E+00 
 9.743186E-03 1.675261E+02  5.964586E-01 7.218877E+00  7.484604E-01 -8.043372E+01 
1.478875E+03  9.334133E-01 -1.490816E+02  9.676538E-03 1.670950E+02  9.771180E-03 1.674754E+02 
 9.677262E-03 1.671913E+02  7.478342E-01 -8.143856E+01  5.969072E-01 7.171114E+00 
 9.760307E-03 1.676263E+02  5.969296E-01 7.148843E+00  7.482908E-01 -8.046355E+01 
1.479000E+03  9.338203E-01 -1.491499E+02  9.720811E-03 1.671725E+02  9.782064E-03 1.672687E+02 
 9.669321E-03 1.671808E+02  7.474662E-01 -8.140263E+01  5.971813E-01 7.155874E+00 
 9.772057E-03 1.675956E+02  5.968562E-01 7.191161E+00  7.480604E-01 -8.047288E+01 
1.479125E+03  9.334663E-01 -1.492218E+02  9.680694E-03 1.671350E+02  9.820498E-03 1.673807E+02 
 9.697616E-03 1.671315E+02  7.472797E-01 -8.143087E+01  5.971022E-01 7.156071E+00 
 9.780893E-03 1.675049E+02  5.970969E-01 7.166715E+00  7.476867E-01 -8.048164E+01 
1.479250E+03  9.337635E-01 -1.492858E+02  9.734822E-03 1.671612E+02  9.823856E-03 1.674396E+02 
 9.724270E-03 1.670021E+02  7.472856E-01 -8.143922E+01  5.974375E-01 7.117749E+00 
 9.826752E-03 1.674611E+02  5.971176E-01 7.151286E+00  7.477044E-01 -8.051554E+01 
1.479375E+03  9.338497E-01 -1.493517E+02  9.733085E-03 1.672013E+02  9.843159E-03 1.671951E+02 
 9.731527E-03 1.670347E+02  7.469272E-01 -8.147203E+01  5.975047E-01 7.067838E+00 
 9.830158E-03 1.673781E+02  5.973342E-01 7.119327E+00  7.475893E-01 -8.055552E+01 
1.479500E+03  9.341365E-01 -1.494211E+02  9.745710E-03 1.670750E+02  9.850879E-03 1.672511E+02 
 9.741033E-03 1.671359E+02  7.468677E-01 -8.148651E+01  5.976635E-01 7.083332E+00 
 9.826797E-03 1.672729E+02  5.974590E-01 7.096380E+00  7.475056E-01 -8.054562E+01 
1.479625E+03  9.341987E-01 -1.494772E+02  9.764949E-03 1.670186E+02  9.893387E-03 1.671949E+02 
 9.764848E-03 1.669701E+02  7.466475E-01 -8.149775E+01  5.978343E-01 7.038146E+00 
 9.835479E-03 1.673166E+02  5.975600E-01 7.086091E+00  7.473321E-01 -8.057624E+01 
1.479750E+03  9.340001E-01 -1.495599E+02  9.779012E-03 1.668356E+02  9.875430E-03 1.671431E+02 
 9.748044E-03 1.670073E+02  7.468150E-01 -8.157840E+01  5.979868E-01 7.030584E+00 
 9.864714E-03 1.672462E+02  5.979248E-01 7.010945E+00  7.471580E-01 -8.059952E+01 
1.479875E+03  9.341732E-01 -1.496267E+02  9.800337E-03 1.668840E+02  9.883938E-03 1.671404E+02 
 9.762364E-03 1.672084E+02  7.465108E-01 -8.153134E+01  5.981138E-01 7.014533E+00 
 9.888570E-03 1.671700E+02  5.980255E-01 7.040132E+00  7.469933E-01 -8.059595E+01 
1.480000E+03  9.342357E-01 -1.496956E+02  9.802176E-03 1.669631E+02  9.898628E-03 1.670300E+02 
 9.798599E-03 1.669382E+02  7.461924E-01 -8.155802E+01  5.983588E-01 6.995580E+00 
 9.902241E-03 1.670989E+02  5.979795E-01 7.031984E+00  7.469956E-01 -8.062300E+01 
1.480125E+03  9.341747E-01 -1.497629E+02  9.831901E-03 1.669052E+02  9.922452E-03 1.671185E+02 
 9.824139E-03 1.669985E+02  7.460081E-01 -8.159165E+01  5.987469E-01 6.943714E+00 
 9.902914E-03 1.672056E+02  5.980899E-01 6.999030E+00  7.471220E-01 -8.068799E+01 
1.480250E+03  9.344368E-01 -1.498381E+02  9.817875E-03 1.668873E+02  9.937989E-03 1.669397E+02 
 9.822171E-03 1.667821E+02  7.458123E-01 -8.159131E+01  5.984844E-01 6.954732E+00 
 9.942589E-03 1.669013E+02  5.983514E-01 6.999219E+00  7.463999E-01 -8.066533E+01 
1.480375E+03  9.343650E-01 -1.499141E+02  9.856393E-03 1.667309E+02  9.981320E-03 1.670308E+02 
 9.861455E-03 1.666551E+02  7.456770E-01 -8.162175E+01  5.985930E-01 6.922562E+00 
 9.962951E-03 1.670028E+02  5.984356E-01 6.971797E+00  7.462651E-01 -8.068395E+01 
1.480500E+03  9.340512E-01 -1.499906E+02  9.852830E-03 1.666373E+02  9.995592E-03 1.666285E+02 
 9.861693E-03 1.666299E+02  7.452766E-01 -8.163935E+01  5.988768E-01 6.933197E+00 
 9.972671E-03 1.668071E+02  5.984564E-01 6.943169E+00  7.462992E-01 -8.069640E+01 
1.480625E+03  9.341198E-01 -1.500458E+02  9.843488E-03 1.666021E+02  9.993981E-03 1.667809E+02 
 9.875430E-03 1.666482E+02  7.453094E-01 -8.165785E+01  5.990670E-01 6.907117E+00 
 9.993083E-03 1.667008E+02  5.986829E-01 6.937097E+00  7.461849E-01 -8.072539E+01 
1.480750E+03  9.340486E-01 -1.501124E+02  9.874100E-03 1.665852E+02  1.000577E-02 1.666225E+02 
 9.846854E-03 1.667463E+02  7.453587E-01 -8.167512E+01  5.992252E-01 6.889235E+00 
 9.999091E-03 1.665593E+02  5.989938E-01 6.929443E+00  7.459114E-01 -8.074427E+01 
1.480875E+03  9.340461E-01 -1.501881E+02  9.904328E-03 1.664205E+02  1.001212E-02 1.665299E+02 
 9.908376E-03 1.665859E+02  7.451726E-01 -8.169246E+01  5.989978E-01 6.881680E+00 
 9.989126E-03 1.667594E+02  5.990214E-01 6.910759E+00  7.456610E-01 -8.075494E+01 
1.481000E+03  9.336864E-01 -1.502394E+02  9.923309E-03 1.665383E+02  1.001660E-02 1.663981E+02 
 9.903085E-03 1.665102E+02  7.448674E-01 -8.171920E+01  5.995510E-01 6.844990E+00 
 1.001504E-02 1.663998E+02  5.991187E-01 6.892974E+00  7.455708E-01 -8.078633E+01 
1.481125E+03  9.340168E-01 -1.503078E+02  9.895802E-03 1.664134E+02  1.002404E-02 1.664219E+02 
 9.927468E-03 1.665229E+02  7.447235E-01 -8.175887E+01  5.994445E-01 6.840416E+00 
 1.001494E-02 1.665408E+02  5.993812E-01 6.879523E+00  7.453533E-01 -8.080146E+01 
1.481250E+03  9.337949E-01 -1.503851E+02  9.914219E-03 1.664224E+02  1.004515E-02 1.663848E+02 
 9.938515E-03 1.665245E+02  7.445848E-01 -8.176194E+01  5.997306E-01 6.842946E+00 
 1.004417E-02 1.663613E+02  5.996045E-01 6.854564E+00  7.452416E-01 -8.081587E+01 
1.481375E+03  9.336178E-01 -1.504548E+02  9.936513E-03 1.664329E+02  1.009139E-02 1.662645E+02 
 9.938835E-03 1.662513E+02  7.443666E-01 -8.178398E+01  5.998734E-01 6.834940E+00 
 1.004830E-02 1.662349E+02  5.995906E-01 6.853055E+00  7.449351E-01 -8.083642E+01 
1.481500E+03  9.333586E-01 -1.505233E+02  9.939156E-03 1.663042E+02  1.004698E-02 1.663144E+02 
 9.950960E-03 1.663785E+02  7.442584E-01 -8.180249E+01  5.999745E-01 6.797744E+00 
 1.007218E-02 1.660897E+02  5.999204E-01 6.836051E+00  7.447327E-01 -8.086510E+01 
1.481625E+03  9.332464E-01 -1.506006E+02  9.932155E-03 1.661941E+02  1.011634E-02 1.659910E+02 
 9.949929E-03 1.661390E+02  7.440608E-01 -8.183505E+01  6.002248E-01 6.790887E+00 
 1.007183E-02 1.661243E+02  6.001764E-01 6.825582E+00  7.447881E-01 -8.087519E+01 
1.481750E+03  9.330506E-01 -1.506631E+02  9.965945E-03 1.662246E+02  1.010036E-02 1.658174E+02 
 9.981401E-03 1.661793E+02  7.438888E-01 -8.186153E+01  6.002361E-01 6.777012E+00 
 1.006117E-02 1.658201E+02  6.004367E-01 6.806618E+00  7.444354E-01 -8.091664E+01 
1.481875E+03  9.329268E-01 -1.507122E+02  9.974221E-03 1.661256E+02  1.009490E-02 1.658954E+02 
 9.978172E-03 1.662376E+02  7.437526E-01 -8.188668E+01  6.004318E-01 6.756003E+00 
 1.008290E-02 1.659919E+02  6.005646E-01 6.789612E+00  7.442165E-01 -8.093263E+01 
1.482000E+03  9.327107E-01 -1.507932E+02  1.000818E-02 1.659951E+02  1.008039E-02 1.655826E+02 
 9.990058E-03 1.660407E+02  7.434789E-01 -8.190619E+01  6.006997E-01 6.738992E+00 
 1.007611E-02 1.657464E+02  6.006150E-01 6.776635E+00  7.441644E-01 -8.096472E+01 
1.482125E+03  9.326666E-01 -1.508493E+02  9.995212E-03 1.660997E+02  1.009548E-02 1.655686E+02 
 9.992048E-03 1.659605E+02  7.435047E-01 -8.192136E+01  6.010036E-01 6.729313E+00 
 1.009048E-02 1.658116E+02  6.010829E-01 6.770258E+00  7.440192E-01 -8.098747E+01 
1.482250E+03  9.322918E-01 -1.509153E+02  1.001368E-02 1.659747E+02  1.010404E-02 1.655662E+02 
 9.975519E-03 1.658771E+02  7.430165E-01 -8.195855E+01  6.012562E-01 6.721618E+00 
 1.009061E-02 1.655753E+02  6.010679E-01 6.740754E+00  7.438561E-01 -8.099690E+01 
1.482375E+03  9.320190E-01 -1.509718E+02  1.000487E-02 1.659289E+02  1.009685E-02 1.656345E+02 
 1.000747E-02 1.658910E+02  7.427619E-01 -8.197155E+01  6.011622E-01 6.698204E+00 
 1.007240E-02 1.655678E+02  6.012987E-01 6.729189E+00  7.432921E-01 -8.102706E+01 
1.482500E+03  9.318427E-01 -1.510355E+02  9.995776E-03 1.656778E+02  1.010160E-02 1.654430E+02 
 9.991335E-03 1.659139E+02  7.425781E-01 -8.199682E+01  6.013881E-01 6.698740E+00 
 1.010040E-02 1.655680E+02  6.014538E-01 6.718131E+00  7.432409E-01 -8.105658E+01 
1.482625E+03  9.315939E-01 -1.511053E+02  9.995799E-03 1.658282E+02  1.012566E-02 1.653990E+02 
 1.000955E-02 1.657801E+02  7.423707E-01 -8.202580E+01  6.015583E-01 6.687751E+00 
 1.007407E-02 1.654712E+02  6.018356E-01 6.688989E+00  7.428860E-01 -8.106042E+01 
1.482750E+03  9.312142E-01 -1.511570E+02  1.002108E-02 1.656965E+02  1.009233E-02 1.653172E+02 
 9.987332E-03 1.655332E+02  7.423830E-01 -8.205370E+01  6.018121E-01 6.671160E+00 
 1.008312E-02 1.653794E+02  6.021493E-01 6.672208E+00  7.427879E-01 -8.109387E+01 
1.482875E+03  9.311828E-01 -1.512237E+02  1.002223E-02 1.656218E+02  1.009269E-02 1.652992E+02 
 1.002311E-02 1.656594E+02  7.418427E-01 -8.205430E+01  6.021341E-01 6.640636E+00 
 1.010662E-02 1.654945E+02  6.021337E-01 6.678976E+00  7.426887E-01 -8.111395E+01 
1.483000E+03  9.307724E-01 -1.512859E+02  1.000046E-02 1.655600E+02  1.011191E-02 1.652706E+02 
 1.002380E-02 1.656170E+02  7.417929E-01 -8.206935E+01  6.023132E-01 6.622133E+00 
 1.009194E-02 1.654328E+02  6.024087E-01 6.678091E+00  7.423955E-01 -8.113828E+01 
1.483125E+03  9.304335E-01 -1.513313E+02  1.002739E-02 1.656181E+02  1.007790E-02 1.650152E+02 
 1.001122E-02 1.653927E+02  7.416098E-01 -8.208277E+01  6.025657E-01 6.609730E+00 
 1.008102E-02 1.651087E+02  6.027438E-01 6.663939E+00  7.422368E-01 -8.115387E+01 
1.483250E+03  9.299948E-01 -1.513842E+02  1.002535E-02 1.654483E+02  1.005526E-02 1.650883E+02 
 1.003481E-02 1.655415E+02  7.413877E-01 -8.211102E+01  6.027965E-01 6.605000E+00 
 1.006379E-02 1.650230E+02  6.028907E-01 6.636832E+00  7.420767E-01 -8.117383E+01 
1.483375E+03  9.300133E-01 -1.514503E+02  1.004130E-02 1.655032E+02  1.006261E-02 1.651374E+02 
 1.003448E-02 1.653643E+02  7.412531E-01 -8.212264E+01  6.029270E-01 6.588313E+00 
 1.006050E-02 1.650772E+02  6.032254E-01 6.625603E+00  7.417869E-01 -8.118337E+01 
1.483500E+03  9.299636E-01 -1.514913E+02  1.004198E-02 1.655244E+02  1.007198E-02 1.651973E+02 
 1.002579E-02 1.655419E+02  7.409176E-01 -8.213429E+01  6.033730E-01 6.578021E+00 
 1.006631E-02 1.652281E+02  6.034697E-01 6.620571E+00  7.416780E-01 -8.119707E+01 
1.483625E+03  9.298239E-01 -1.515474E+02  1.003453E-02 1.655171E+02  1.006831E-02 1.652040E+02 
 1.001825E-02 1.654458E+02  7.408983E-01 -8.215529E+01  6.036210E-01 6.547943E+00 
 1.006751E-02 1.652212E+02  6.038089E-01 6.602837E+00  7.415353E-01 -8.122548E+01 
1.483750E+03  9.294444E-01 -1.516012E+02  1.002775E-02 1.656380E+02  1.007442E-02 1.651147E+02 
 1.001942E-02 1.655503E+02  7.405585E-01 -8.218704E+01  6.039688E-01 6.548716E+00 
 1.005999E-02 1.651930E+02  6.040554E-01 6.569657E+00  7.413941E-01 -8.123890E+01 
1.483875E+03  9.295670E-01 -1.516580E+02  1.003354E-02 1.655043E+02  1.006283E-02 1.651949E+02 
 1.003246E-02 1.655144E+02  7.409765E-01 -8.225068E+01  6.043270E-01 6.536428E+00 
 1.004389E-02 1.651458E+02  6.047251E-01 6.518258E+00  7.411614E-01 -8.123989E+01 
1.484000E+03  9.292338E-01 -1.516808E+02  1.002837E-02 1.655897E+02  1.005371E-02 1.651909E+02 
 1.005028E-02 1.655633E+02  7.403755E-01 -8.222296E+01  6.045663E-01 6.511451E+00 
 1.003684E-02 1.652781E+02  6.046167E-01 6.552328E+00  7.409444E-01 -8.126826E+01 
1.484125E+03  9.290192E-01 -1.517500E+02  1.006735E-02 1.656178E+02  1.007158E-02 1.651988E+02 
 1.005300E-02 1.655780E+02  7.401797E-01 -8.223022E+01  6.049627E-01 6.499787E+00 
 1.006305E-02 1.654049E+02  6.049670E-01 6.527128E+00  7.410263E-01 -8.127903E+01 
1.484250E+03  9.289361E-01 -1.518115E+02  1.006878E-02 1.656112E+02  1.009521E-02 1.652279E+02 
