! Matrix data file written by TouchstoneData, EPCOS AG
! FILENAME: "B3524_WB.s2p"
! COMMENT: "(LU77C1_3_WB.s2p) EPCOS AG 11.03.10 17:14:47"
! INFO: nport=2, nfreq=1601
! DATE: "Tue Apr  6 13:00:43 2010"
! USER: "Sergey Rostovtsev"
!
! port | pin | signal
! -----|-----|--------
!   1  |  1  |  in
!   2  |  3  |  out
! --------------------
! 
# MHZ S MA R 50
! freq  magS11 angS11  magS21 angS21  magS12 angS12  magS22 angS22
5.000000E+01  9.971167E-01 -1.858927E+00  8.462667E-04 9.864553E+01  8.891576E-04 9.302596E+01  9.970385E-01 -2.155696E+00 
5.246875E+01  9.984301E-01 -2.099084E+00  7.476326E-04 8.839969E+01  7.469907E-04 8.798914E+01  9.980855E-01 -2.397735E+00 
5.493750E+01  9.982374E-01 -2.205467E+00  7.673939E-04 8.757903E+01  7.928160E-04 8.760881E+01  9.985464E-01 -2.493585E+00 
5.740625E+01  9.984716E-01 -2.291914E+00  7.714390E-04 8.654728E+01  7.553898E-04 8.604300E+01  9.983462E-01 -2.631816E+00 
5.987500E+01  9.988367E-01 -2.401464E+00  8.495108E-04 8.701022E+01  8.549138E-04 8.791631E+01  9.981748E-01 -2.754538E+00 
6.234375E+01  9.982629E-01 -2.453175E+00  8.690295E-04 7.858519E+01  8.482102E-04 7.891790E+01  9.977353E-01 -2.806975E+00 
6.481250E+01  9.987995E-01 -2.544760E+00  9.875987E-04 8.430825E+01  9.535270E-04 8.399947E+01  9.981130E-01 -2.936200E+00 
6.728125E+01  9.991266E-01 -2.658545E+00  9.079716E-04 8.794081E+01  9.284387E-04 8.716070E+01  9.983546E-01 -3.047265E+00 
6.975000E+01  9.989609E-01 -2.784692E+00  9.799010E-04 8.550044E+01  9.700006E-04 8.561630E+01  9.982255E-01 -3.177046E+00 
7.221875E+01  9.992542E-01 -2.874999E+00  9.848718E-04 8.780151E+01  9.951066E-04 8.682952E+01  9.980731E-01 -3.304605E+00 
7.468750E+01  9.982461E-01 -2.964156E+00  1.189998E-03 7.688925E+01  1.176080E-03 7.769609E+01  9.974929E-01 -3.400110E+00 
7.715625E+01  9.984445E-01 -3.071833E+00  1.066304E-03 8.492527E+01  1.076322E-03 8.337347E+01  9.976240E-01 -3.522478E+00 
7.962500E+01  9.986983E-01 -3.170820E+00  1.109148E-03 8.706393E+01  1.089844E-03 8.743766E+01  9.977330E-01 -3.656440E+00 
8.209375E+01  9.988063E-01 -3.261238E+00  1.158386E-03 8.559476E+01  1.159197E-03 8.465881E+01  9.978058E-01 -3.744829E+00 
8.456250E+01  9.982524E-01 -3.374420E+00  1.124365E-03 8.642652E+01  1.146778E-03 8.745012E+01  9.976118E-01 -3.885718E+00 
8.703125E+01  9.979987E-01 -3.436545E+00  1.120396E-03 8.842680E+01  1.127970E-03 9.008760E+01  9.974434E-01 -3.967728E+00 
8.950000E+01  9.982293E-01 -3.551369E+00  1.229950E-03 8.588946E+01  1.224168E-03 8.495207E+01  9.976599E-01 -4.082961E+00 
9.196875E+01  9.980731E-01 -3.642584E+00  1.257309E-03 8.471713E+01  1.256067E-03 8.366485E+01  9.975334E-01 -4.187330E+00 
9.443750E+01  9.982191E-01 -3.774280E+00  1.297024E-03 8.624773E+01  1.310554E-03 8.579876E+01  9.975253E-01 -4.322086E+00 
9.690625E+01  9.983012E-01 -3.826821E+00  1.314046E-03 8.579685E+01  1.352534E-03 8.571050E+01  9.981960E-01 -4.420911E+00 
9.937500E+01  9.979217E-01 -3.904135E+00  1.300145E-03 8.574468E+01  1.299673E-03 8.589072E+01  9.975690E-01 -4.492312E+00 
1.018438E+02  9.981098E-01 -4.025884E+00  1.425484E-03 8.466743E+01  1.426333E-03 8.475668E+01  9.975324E-01 -4.639685E+00 
1.043125E+02  9.982507E-01 -4.095060E+00  1.397093E-03 8.309772E+01  1.421788E-03 8.352853E+01  9.975711E-01 -4.740896E+00 
1.067812E+02  9.974874E-01 -4.170328E+00  1.461848E-03 8.561260E+01  1.466316E-03 8.508913E+01  9.972344E-01 -4.830070E+00 
1.092500E+02  9.979616E-01 -4.335357E+00  1.490415E-03 8.414957E+01  1.477727E-03 8.434440E+01  9.976967E-01 -4.992422E+00 
1.117188E+02  9.977527E-01 -4.375185E+00  1.601622E-03 8.213898E+01  1.616269E-03 8.358008E+01  9.970073E-01 -5.037712E+00 
1.141875E+02  9.978192E-01 -4.464271E+00  1.588542E-03 8.504224E+01  1.571649E-03 8.416752E+01  9.978643E-01 -5.148983E+00 
1.166562E+02  9.977491E-01 -4.558995E+00  1.614148E-03 8.406892E+01  1.593363E-03 8.427639E+01  9.977241E-01 -5.282362E+00 
1.191250E+02  9.980092E-01 -4.655333E+00  1.606588E-03 8.423086E+01  1.612892E-03 8.508070E+01  9.973955E-01 -5.367319E+00 
1.215938E+02  9.978326E-01 -4.723687E+00  1.709201E-03 8.510457E+01  1.698926E-03 8.447315E+01  9.975191E-01 -5.521059E+00 
1.240625E+02  9.976158E-01 -4.823702E+00  1.647849E-03 8.441693E+01  1.669455E-03 8.462904E+01  9.967017E-01 -5.603279E+00 
1.265312E+02  9.977947E-01 -4.942797E+00  1.745885E-03 8.471622E+01  1.727988E-03 8.414626E+01  9.972297E-01 -5.724625E+00 
1.290000E+02  9.975942E-01 -5.018310E+00  1.765271E-03 8.376310E+01  1.775279E-03 8.337349E+01  9.972275E-01 -5.818051E+00 
1.314688E+02  9.976675E-01 -5.140472E+00  1.786477E-03 8.403029E+01  1.781751E-03 8.413445E+01  9.971197E-01 -5.927374E+00 
1.339375E+02  9.974591E-01 -5.222134E+00  1.843467E-03 8.339971E+01  1.827459E-03 8.353666E+01  9.970454E-01 -6.046286E+00 
1.364062E+02  9.975039E-01 -5.260817E+00  1.782048E-03 8.576569E+01  1.796353E-03 8.569300E+01  9.960565E-01 -6.112880E+00 
1.388750E+02  9.977014E-01 -5.399539E+00  1.877086E-03 8.311666E+01  1.857311E-03 8.280404E+01  9.970526E-01 -6.246292E+00 
1.413438E+02  9.979993E-01 -5.459530E+00  1.917936E-03 8.444573E+01  1.907070E-03 8.384457E+01  9.974127E-01 -6.356780E+00 
1.438125E+02  9.975739E-01 -5.555686E+00  1.967390E-03 8.351551E+01  1.961158E-03 8.326817E+01  9.972027E-01 -6.466109E+00 
1.462812E+02  9.976349E-01 -5.650764E+00  2.000986E-03 8.248130E+01  2.029757E-03 8.257034E+01  9.971850E-01 -6.566734E+00 
1.487500E+02  9.975550E-01 -5.716808E+00  2.015279E-03 8.404322E+01  2.035177E-03 8.409601E+01  9.967756E-01 -6.670232E+00 
1.512188E+02  9.975418E-01 -5.825650E+00  2.077486E-03 8.287967E+01  2.071452E-03 8.267018E+01  9.973521E-01 -6.766301E+00 
1.536875E+02  9.975383E-01 -5.954458E+00  2.089319E-03 8.360198E+01  2.085598E-03 8.333911E+01  9.973609E-01 -6.914237E+00 
1.561562E+02  9.971922E-01 -6.031937E+00  2.103785E-03 8.341053E+01  2.135190E-03 8.350053E+01  9.969070E-01 -7.003105E+00 
1.586250E+02  9.971464E-01 -6.108785E+00  2.155618E-03 8.257316E+01  2.152420E-03 8.266749E+01  9.969996E-01 -7.131697E+00 
1.610938E+02  9.977436E-01 -6.147947E+00  2.156656E-03 8.334605E+01  2.173899E-03 8.324812E+01  9.974136E-01 -7.164397E+00 
1.635625E+02  9.975650E-01 -6.276422E+00  2.194127E-03 8.351399E+01  2.208020E-03 8.334558E+01  9.974028E-01 -7.287389E+00 
1.660312E+02  9.969302E-01 -6.390639E+00  2.276639E-03 8.245641E+01  2.280411E-03 8.316978E+01  9.966390E-01 -7.424674E+00 
1.685000E+02  9.972767E-01 -6.461383E+00  2.304006E-03 8.221588E+01  2.318530E-03 8.194937E+01  9.971612E-01 -7.521680E+00 
1.709688E+02  9.968230E-01 -6.538845E+00  2.322171E-03 8.253191E+01  2.312436E-03 8.264313E+01  9.965604E-01 -7.609046E+00 
1.734375E+02  9.968846E-01 -6.622832E+00  2.385544E-03 8.256719E+01  2.375957E-03 8.245903E+01  9.962286E-01 -7.666714E+00 
1.759062E+02  9.971282E-01 -6.729285E+00  2.382157E-03 8.263259E+01  2.379161E-03 8.289429E+01  9.967499E-01 -7.812459E+00 
1.783750E+02  9.966304E-01 -6.908172E+00  2.422096E-03 8.169178E+01  2.410636E-03 8.143523E+01  9.960843E-01 -8.050960E+00 
1.808438E+02  9.973803E-01 -6.914965E+00  2.451400E-03 8.117640E+01  2.478567E-03 8.111097E+01  9.972710E-01 -8.022566E+00 
1.833125E+02  9.974626E-01 -7.006683E+00  2.463810E-03 8.230102E+01  2.451061E-03 8.226542E+01  9.971909E-01 -8.151481E+00 
1.857812E+02  9.974950E-01 -7.084063E+00  2.490007E-03 8.215290E+01  2.506905E-03 8.185315E+01  9.971665E-01 -8.195546E+00 
1.882500E+02  9.965358E-01 -7.227170E+00  2.554833E-03 8.218867E+01  2.549671E-03 8.161378E+01  9.968255E-01 -8.362138E+00 
1.907188E+02  9.977951E-01 -7.328842E+00  2.592811E-03 8.151217E+01  2.589347E-03 8.158751E+01  9.978170E-01 -8.507186E+00 
1.931875E+02  9.961093E-01 -7.385266E+00  2.609070E-03 8.124797E+01  2.603603E-03 8.132074E+01  9.956695E-01 -8.527605E+00 
1.956562E+02  9.966343E-01 -7.521906E+00  2.620598E-03 8.160182E+01  2.627198E-03 8.144304E+01  9.959651E-01 -8.701481E+00 
1.981250E+02  9.968788E-01 -7.634000E+00  2.678718E-03 8.101692E+01  2.655797E-03 8.117716E+01  9.957718E-01 -8.798357E+00 
2.005938E+02  9.969118E-01 -7.721105E+00  2.744564E-03 8.115366E+01  2.739762E-03 8.111371E+01  9.963218E-01 -8.911615E+00 
2.030625E+02  9.966054E-01 -7.844497E+00  2.714424E-03 8.094962E+01  2.703646E-03 8.097452E+01  9.962638E-01 -9.043321E+00 
2.055312E+02  9.968174E-01 -7.915953E+00  2.795876E-03 8.103299E+01  2.773824E-03 8.054285E+01  9.965092E-01 -9.121330E+00 
2.080000E+02  9.967216E-01 -8.073710E+00  2.819525E-03 8.108003E+01  2.812663E-03 8.110036E+01  9.964271E-01 -9.262279E+00 
2.104688E+02  9.970115E-01 -8.006549E+00  2.853361E-03 8.085180E+01  2.845598E-03 8.085399E+01  9.965257E-01 -9.194755E+00 
2.129375E+02  9.964042E-01 -8.242088E+00  2.898821E-03 8.003887E+01  2.867245E-03 8.004487E+01  9.965424E-01 -9.473440E+00 
2.154062E+02  9.962368E-01 -8.342009E+00  2.913996E-03 8.088159E+01  2.890034E-03 8.084137E+01  9.962352E-01 -9.599982E+00 
2.178750E+02  9.961094E-01 -8.449243E+00  2.957868E-03 8.064955E+01  2.945174E-03 8.008495E+01  9.955565E-01 -9.733434E+00 
2.203438E+02  9.964115E-01 -8.540235E+00  2.998931E-03 8.001630E+01  2.983086E-03 8.031850E+01  9.958826E-01 -9.834191E+00 
2.228125E+02  9.960300E-01 -8.573503E+00  3.019709E-03 8.053252E+01  2.989109E-03 8.043339E+01  9.950649E-01 -9.824005E+00 
2.252812E+02  9.974002E-01 -8.703434E+00  3.021040E-03 7.972303E+01  3.011897E-03 7.952913E+01  9.973574E-01 -9.981822E+00 
2.277500E+02  9.967326E-01 -8.816710E+00  3.044515E-03 7.977472E+01  3.053730E-03 8.050964E+01  9.966164E-01 -1.009062E+01 
2.302188E+02  9.961692E-01 -8.923154E+00  3.096050E-03 7.980037E+01  3.102355E-03 7.986206E+01  9.961727E-01 -1.022506E+01 
2.326875E+02  9.956573E-01 -8.520292E+00  3.131878E-03 8.019374E+01  3.123566E-03 7.999858E+01  9.942390E-01 -9.881257E+00 
2.351562E+02  9.961866E-01 -8.933834E+00  3.135036E-03 7.991791E+01  3.150928E-03 8.009599E+01  9.952019E-01 -1.025219E+01 
2.376250E+02  9.960654E-01 -9.169071E+00  3.186088E-03 7.916910E+01  3.201384E-03 7.981451E+01  9.957069E-01 -1.055705E+01 
2.400938E+02  9.961090E-01 -9.280997E+00  3.226477E-03 7.937234E+01  3.230826E-03 7.975057E+01  9.956919E-01 -1.067729E+01 
2.425625E+02  9.961549E-01 -9.427184E+00  3.240275E-03 7.918244E+01  3.241159E-03 7.930811E+01  9.955416E-01 -1.082854E+01 
2.450312E+02  9.960144E-01 -9.501518E+00  3.336568E-03 7.982004E+01  3.312296E-03 7.960947E+01  9.959587E-01 -1.094341E+01 
2.475000E+02  9.956276E-01 -9.582331E+00  3.300111E-03 7.943616E+01  3.295045E-03 7.958901E+01  9.957661E-01 -1.099139E+01 
2.499688E+02  9.956340E-01 -9.690207E+00  3.340382E-03 7.923215E+01  3.313843E-03 7.908227E+01  9.957767E-01 -1.112332E+01 
2.524375E+02  9.957999E-01 -9.776034E+00  3.395899E-03 7.898250E+01  3.404460E-03 7.890839E+01  9.957690E-01 -1.125250E+01 
2.549062E+02  9.958583E-01 -9.884112E+00  3.419460E-03 7.864913E+01  3.411850E-03 7.900772E+01  9.958892E-01 -1.137605E+01 
2.573750E+02  9.954886E-01 -1.002849E+01  3.479461E-03 7.954832E+01  3.454950E-03 7.929014E+01  9.953737E-01 -1.156548E+01 
2.598438E+02  9.955846E-01 -1.001698E+01  3.466570E-03 7.879979E+01  3.454885E-03 7.868996E+01  9.954297E-01 -1.156978E+01 
2.623125E+02  9.954315E-01 -1.010669E+01  3.499138E-03 7.845986E+01  3.497848E-03 7.857373E+01  9.957382E-01 -1.166622E+01 
2.647812E+02  9.954227E-01 -1.023635E+01  3.545220E-03 7.846135E+01  3.539564E-03 7.872030E+01  9.958532E-01 -1.179987E+01 
2.672500E+02  9.954016E-01 -1.032056E+01  3.561239E-03 7.834839E+01  3.558007E-03 7.833028E+01  9.957034E-01 -1.192068E+01 
2.697188E+02  9.950868E-01 -1.042898E+01  3.615986E-03 7.752666E+01  3.603869E-03 7.743605E+01  9.951130E-01 -1.207659E+01 
2.721875E+02  9.952043E-01 -1.049468E+01  3.615826E-03 7.860003E+01  3.600024E-03 7.863506E+01  9.955981E-01 -1.215142E+01 
2.746562E+02  9.952423E-01 -1.057307E+01  3.627314E-03 7.811824E+01  3.633411E-03 7.812650E+01  9.952241E-01 -1.226093E+01 
2.771250E+02  9.951434E-01 -1.067304E+01  3.677664E-03 7.791639E+01  3.680759E-03 7.798804E+01  9.954217E-01 -1.238681E+01 
2.795938E+02  9.951188E-01 -1.076804E+01  3.714615E-03 7.794325E+01  3.679802E-03 7.805207E+01  9.953570E-01 -1.252446E+01 
2.820625E+02  9.947921E-01 -1.092115E+01  3.805715E-03 7.687378E+01  3.791451E-03 7.686554E+01  9.944697E-01 -1.273127E+01 
2.845312E+02  9.954169E-01 -1.092710E+01  3.763426E-03 7.765442E+01  3.774356E-03 7.833718E+01  9.950936E-01 -1.273252E+01 
2.870000E+02  9.950124E-01 -1.100779E+01  3.775649E-03 7.774454E+01  3.788725E-03 7.784053E+01  9.952875E-01 -1.284846E+01 
2.894688E+02  9.949058E-01 -1.110322E+01  3.854309E-03 7.745685E+01  3.858494E-03 7.778297E+01  9.952666E-01 -1.296561E+01 
2.919375E+02  9.950466E-01 -1.118728E+01  3.893744E-03 7.763678E+01  3.872207E-03 7.728988E+01  9.946741E-01 -1.309584E+01 
2.944062E+02  9.950210E-01 -1.129473E+01  3.878687E-03 7.738416E+01  3.878303E-03 7.709697E+01  9.945286E-01 -1.323116E+01 
2.968750E+02  9.952024E-01 -1.135174E+01  3.951135E-03 7.712548E+01  3.950846E-03 7.732452E+01  9.948184E-01 -1.329627E+01 
2.993438E+02  9.952802E-01 -1.143121E+01  3.955722E-03 7.711695E+01  3.943059E-03 7.726967E+01  9.949042E-01 -1.342708E+01 
3.018125E+02  9.950728E-01 -1.152661E+01  3.994338E-03 7.708927E+01  3.974703E-03 7.700894E+01  9.951290E-01 -1.354918E+01 
3.042812E+02  9.946204E-01 -1.164902E+01  4.020668E-03 7.666144E+01  4.013825E-03 7.680528E+01  9.949519E-01 -1.368367E+01 
3.067500E+02  9.939624E-01 -1.179291E+01  3.993787E-03 7.643406E+01  3.998261E-03 7.643105E+01  9.938242E-01 -1.385599E+01 
3.092188E+02  9.944287E-01 -1.179096E+01  4.093654E-03 7.707141E+01  4.089324E-03 7.696363E+01  9.947297E-01 -1.385653E+01 
3.116875E+02  9.947512E-01 -1.190465E+01  4.104153E-03 7.687225E+01  4.103980E-03 7.675471E+01  9.948870E-01 -1.401192E+01 
3.141562E+02  9.946080E-01 -1.201020E+01  4.142882E-03 7.665849E+01  4.144671E-03 7.665063E+01  9.948854E-01 -1.414396E+01 
3.166250E+02  9.945260E-01 -1.209174E+01  4.209927E-03 7.644594E+01  4.192648E-03 7.631616E+01  9.948807E-01 -1.427556E+01 
3.190938E+02  9.941847E-01 -1.220844E+01  4.177945E-03 7.638512E+01  4.157986E-03 7.653199E+01  9.942912E-01 -1.442176E+01 
3.215625E+02  9.944015E-01 -1.225431E+01  4.231596E-03 7.627905E+01  4.211888E-03 7.625030E+01  9.945361E-01 -1.445145E+01 
3.240312E+02  9.943283E-01 -1.236165E+01  4.265500E-03 7.613154E+01  4.245801E-03 7.621236E+01  9.945743E-01 -1.460354E+01 
3.265000E+02  9.945106E-01 -1.247471E+01  4.298400E-03 7.602599E+01  4.294033E-03 7.601661E+01  9.946257E-01 -1.473770E+01 
3.289688E+02  9.948557E-01 -1.256624E+01  4.287579E-03 7.565032E+01  4.283851E-03 7.572067E+01  9.945774E-01 -1.485704E+01 
3.314375E+02  9.935143E-01 -1.270967E+01  4.324477E-03 7.533806E+01  4.304825E-03 7.553312E+01  9.927241E-01 -1.503176E+01 
3.339062E+02  9.947604E-01 -1.271909E+01  4.391711E-03 7.579482E+01  4.381609E-03 7.575093E+01  9.943711E-01 -1.502639E+01 
3.363750E+02  9.945901E-01 -1.283238E+01  4.401817E-03 7.575608E+01  4.407269E-03 7.579134E+01  9.944292E-01 -1.516803E+01 
3.388438E+02  9.942392E-01 -1.289685E+01  4.436118E-03 7.545046E+01  4.438941E-03 7.538993E+01  9.938614E-01 -1.527639E+01 
3.413125E+02  9.945294E-01 -1.303608E+01  4.457704E-03 7.489395E+01  4.454449E-03 7.491868E+01  9.944870E-01 -1.541049E+01 
3.437812E+02  9.941869E-01 -1.315851E+01  4.499604E-03 7.498382E+01  4.486664E-03 7.515432E+01  9.936298E-01 -1.556385E+01 
3.462500E+02  9.948426E-01 -1.322567E+01  4.538351E-03 7.550581E+01  4.519023E-03 7.535653E+01  9.945964E-01 -1.562676E+01 
3.487188E+02  9.947204E-01 -1.331605E+01  4.552106E-03 7.522239E+01  4.569321E-03 7.508983E+01  9.943363E-01 -1.574713E+01 
3.511875E+02  9.942502E-01 -1.340291E+01  4.562545E-03 7.538717E+01  4.571300E-03 7.534783E+01  9.944977E-01 -1.588214E+01 
3.536562E+02  9.936093E-01 -1.349780E+01  4.578639E-03 7.506078E+01  4.584143E-03 7.523219E+01  9.939370E-01 -1.598039E+01 
3.561250E+02  9.922883E-01 -1.360925E+01  4.604720E-03 7.468502E+01  4.623861E-03 7.458028E+01  9.921503E-01 -1.613965E+01 
3.585938E+02  9.942648E-01 -1.365616E+01  4.696803E-03 7.507060E+01  4.658161E-03 7.474454E+01  9.942861E-01 -1.615525E+01 
3.610625E+02  9.941892E-01 -1.379741E+01  4.703533E-03 7.470308E+01  4.720510E-03 7.452057E+01  9.943952E-01 -1.630129E+01 
3.635312E+02  9.944152E-01 -1.389759E+01  4.729321E-03 7.472686E+01  4.710904E-03 7.490411E+01  9.942907E-01 -1.642806E+01 
3.660000E+02  9.945550E-01 -1.400082E+01  4.726611E-03 7.452966E+01  4.725678E-03 7.441610E+01  9.947865E-01 -1.656035E+01 
3.684688E+02  9.937785E-01 -1.410695E+01  4.789334E-03 7.418286E+01  4.811443E-03 7.437145E+01  9.934902E-01 -1.668365E+01 
3.709375E+02  9.947856E-01 -1.422031E+01  4.795215E-03 7.416982E+01  4.779697E-03 7.422658E+01  9.947670E-01 -1.676703E+01 
3.734062E+02  9.942150E-01 -1.432204E+01  4.858570E-03 7.455796E+01  4.847518E-03 7.444074E+01  9.938901E-01 -1.689921E+01 
3.758750E+02  9.944690E-01 -1.439965E+01  4.843836E-03 7.435926E+01  4.878748E-03 7.418894E+01  9.935891E-01 -1.699634E+01 
3.783438E+02  9.939724E-01 -1.454570E+01  4.873218E-03 7.439089E+01  4.877515E-03 7.426676E+01  9.929468E-01 -1.714971E+01 
3.808125E+02  9.918610E-01 -1.456987E+01  4.877121E-03 7.384092E+01  4.887239E-03 7.395762E+01  9.910513E-01 -1.719372E+01 
3.832812E+02  9.931100E-01 -1.467079E+01  4.935318E-03 7.401656E+01  4.956590E-03 7.414434E+01  9.925862E-01 -1.725448E+01 
3.857500E+02  9.946481E-01 -1.476740E+01  4.988217E-03 7.344588E+01  4.995713E-03 7.382841E+01  9.948185E-01 -1.738510E+01 
3.882188E+02  9.937734E-01 -1.486683E+01  5.003539E-03 7.412830E+01  5.027370E-03 7.411184E+01  9.936322E-01 -1.750364E+01 
3.906875E+02  9.936813E-01 -1.492005E+01  4.995830E-03 7.369658E+01  5.011004E-03 7.374614E+01  9.942627E-01 -1.760108E+01 
3.931562E+02  9.934997E-01 -1.502833E+01  5.044281E-03 7.335554E+01  5.024957E-03 7.323983E+01  9.927896E-01 -1.773199E+01 
3.956250E+02  9.939458E-01 -1.513934E+01  5.084586E-03 7.337836E+01  5.071383E-03 7.337832E+01  9.933987E-01 -1.784132E+01 
3.980938E+02  9.942071E-01 -1.523001E+01  5.122848E-03 7.321664E+01  5.112615E-03 7.318664E+01  9.938902E-01 -1.795783E+01 
4.005625E+02  9.937117E-01 -1.536107E+01  5.152260E-03 7.307078E+01  5.151249E-03 7.279782E+01  9.934477E-01 -1.807184E+01 
4.030312E+02  9.932872E-01 -1.543684E+01  5.161954E-03 7.303263E+01  5.165263E-03 7.307484E+01  9.931504E-01 -1.816811E+01 
4.055000E+02  9.927529E-01 -1.549666E+01  5.144032E-03 7.316331E+01  5.156884E-03 7.309944E+01  9.918206E-01 -1.826158E+01 
4.079688E+02  9.936671E-01 -1.563165E+01  5.194614E-03 7.283766E+01  5.184152E-03 7.266559E+01  9.932263E-01 -1.838396E+01 
4.104375E+02  9.919940E-01 -1.574228E+01  5.227159E-03 7.305424E+01  5.207931E-03 7.309352E+01  9.926071E-01 -1.844826E+01 
4.129062E+02  9.940080E-01 -1.574356E+01  5.260401E-03 7.303824E+01  5.272425E-03 7.293489E+01  9.934401E-01 -1.858179E+01 
4.153750E+02  9.937143E-01 -1.585062E+01  5.258255E-03 7.294022E+01  5.270059E-03 7.291312E+01  9.933346E-01 -1.868132E+01 
4.178438E+02  9.931322E-01 -1.593692E+01  5.280704E-03 7.280048E+01  5.277212E-03 7.295610E+01  9.921556E-01 -1.876787E+01 
4.203125E+02  9.934729E-01 -1.605335E+01  5.341524E-03 7.281533E+01  5.358724E-03 7.292152E+01  9.933186E-01 -1.887897E+01 
4.227812E+02  9.936870E-01 -1.610866E+01  5.381484E-03 7.259223E+01  5.368191E-03 7.252315E+01  9.935498E-01 -1.899799E+01 
4.252500E+02  9.936806E-01 -1.619512E+01  5.409380E-03 7.198166E+01  5.396849E-03 7.195872E+01  9.936209E-01 -1.912572E+01 
4.277188E+02  9.934670E-01 -1.630534E+01  5.429794E-03 7.239028E+01  5.424996E-03 7.235427E+01  9.935214E-01 -1.924396E+01 
4.301875E+02  9.932953E-01 -1.634454E+01  5.459052E-03 7.249873E+01  5.457487E-03 7.247653E+01  9.919943E-01 -1.928992E+01 
4.326562E+02  9.940641E-01 -1.647424E+01  5.481194E-03 7.222448E+01  5.453739E-03 7.229197E+01  9.932298E-01 -1.940331E+01 
4.351250E+02  9.941765E-01 -1.657148E+01  5.497125E-03 7.196517E+01  5.511160E-03 7.211292E+01  9.934125E-01 -1.950088E+01 
