! Matrix data file written by TouchstoneData, EPCOS AG
! FILENAME: "LU67B2_5_WB.s3p_newformat"
! COMMENT: "(LU67B2_5_WB.s3p) EPCOS AG 18.04.2011 16:08:"
! INFO: nport=3, nfreq=1601
! DATE: "Mon Apr 18 17:00:16 2011"
! USER: "Michael Schemies"
!
! port | pin | signal
! -----|-----|--------
!   1  |  2  |  input
!   2  |  4  |  output
!   3  |  6  |  output
! --------------------
! 
# MHZ S MA R 50
! freq  magS11 angS11  magS12 angS12  magS13 angS13  ...
1.000000E+02  9.996622E-01 -6.101878E+00  1.143245E-03 8.418731E+01  1.066041E-03 8.369900E+01 
 1.143530E-03 8.450779E+01  9.990072E-01 -4.452465E+00  2.874325E-02 8.528293E+01 
 1.065544E-03 8.344467E+01  2.872974E-02 8.521987E+01  9.978169E-01 -4.542928E+00 
1.036875E+02  9.995763E-01 -6.267962E+00  1.130381E-03 8.491288E+01  1.036380E-03 8.455072E+01 
 1.136077E-03 8.457747E+01  9.989306E-01 -4.578925E+00  2.973643E-02 8.510307E+01 
 1.025310E-03 8.424708E+01  2.971255E-02 8.504115E+01  9.976851E-01 -4.727928E+00 
1.073750E+02  9.984640E-01 -6.558288E+00  1.216758E-03 8.396324E+01  1.114699E-03 8.395140E+01 
 1.215559E-03 8.450271E+01  9.990628E-01 -4.736314E+00  3.096820E-02 8.483128E+01 
 1.105511E-03 8.401189E+01  3.091347E-02 8.495431E+01  9.989745E-01 -4.931473E+00 
1.110625E+02  9.991009E-01 -6.692691E+00  1.238923E-03 8.462621E+01  1.151969E-03 8.268601E+01 
 1.234909E-03 8.409650E+01  9.990154E-01 -4.939654E+00  3.200506E-02 8.483759E+01 
 1.149151E-03 8.248005E+01  3.205890E-02 8.474680E+01  9.981269E-01 -5.053399E+00 
1.147500E+02  9.994801E-01 -6.888399E+00  1.273195E-03 8.292440E+01  1.168866E-03 8.294119E+01 
 1.275533E-03 8.348684E+01  9.984961E-01 -5.129254E+00  3.304649E-02 8.483563E+01 
 1.165133E-03 8.261963E+01  3.305884E-02 8.458384E+01  9.986202E-01 -5.183435E+00 
1.184375E+02  9.994219E-01 -7.098376E+00  1.324612E-03 8.334916E+01  1.210662E-03 8.333087E+01 
 1.326166E-03 8.243847E+01  9.976664E-01 -5.320019E+00  3.412295E-02 8.440401E+01 
 1.217401E-03 8.277905E+01  3.413831E-02 8.427864E+01  9.983650E-01 -5.398478E+00 
1.221250E+02  9.997077E-01 -7.241432E+00  1.322012E-03 8.461616E+01  1.228276E-03 8.460094E+01 
 1.336313E-03 8.419079E+01  9.981253E-01 -5.463531E+00  3.510423E-02 8.423169E+01 
 1.217359E-03 8.507462E+01  3.509359E-02 8.420257E+01  9.981250E-01 -5.537643E+00 
1.258125E+02  9.996620E-01 -7.510966E+00  1.403105E-03 8.359924E+01  1.278906E-03 8.383112E+01 
 1.402938E-03 8.368125E+01  9.978982E-01 -5.630948E+00  3.617842E-02 8.448461E+01 
 1.285621E-03 8.400618E+01  3.612374E-02 8.445862E+01  9.970898E-01 -5.704351E+00 
1.295000E+02  9.995741E-01 -7.795301E+00  1.430233E-03 8.194698E+01  1.341923E-03 8.456482E+01 
 1.448220E-03 8.191518E+01  9.977051E-01 -5.801050E+00  3.713853E-02 8.406791E+01 
 1.323845E-03 8.416966E+01  3.714246E-02 8.406053E+01  9.974818E-01 -5.868677E+00 
1.331875E+02  9.996271E-01 -8.024101E+00  1.451560E-03 8.347733E+01  1.317992E-03 8.109693E+01 
 1.448776E-03 8.356095E+01  9.986446E-01 -6.006318E+00  3.841834E-02 8.376561E+01 
 1.320933E-03 8.156298E+01  3.841590E-02 8.368300E+01  9.990577E-01 -6.006893E+00 
1.368750E+02  9.994249E-01 -8.248175E+00  1.493799E-03 8.290814E+01  1.408026E-03 8.326985E+01 
 1.499845E-03 8.280613E+01  9.981520E-01 -6.167512E+00  3.944301E-02 8.362793E+01 
 1.398031E-03 8.361219E+01  3.943963E-02 8.353155E+01  9.983045E-01 -6.232917E+00 
1.405625E+02  9.986024E-01 -8.424197E+00  1.523024E-03 8.280366E+01  1.394485E-03 8.131303E+01 
 1.529298E-03 8.223748E+01  9.967172E-01 -6.261082E+00  4.036206E-02 8.361317E+01 
 1.389973E-03 8.187614E+01  4.032855E-02 8.350845E+01  9.974466E-01 -6.362038E+00 
1.442500E+02  9.998362E-01 -8.613531E+00  1.614708E-03 8.230937E+01  1.459813E-03 8.232677E+01 
 1.616498E-03 8.192387E+01  9.988945E-01 -6.502818E+00  4.152837E-02 8.335977E+01 
 1.465082E-03 8.265359E+01  4.153125E-02 8.328442E+01  9.982965E-01 -6.469624E+00 
1.479375E+02  9.982488E-01 -8.864619E+00  1.537275E-03 8.132385E+01  1.439197E-03 8.156168E+01 
 1.553160E-03 8.135050E+01  9.985931E-01 -6.579185E+00  4.263461E-02 8.309029E+01 
 1.433367E-03 8.153246E+01  4.255126E-02 8.303873E+01  9.981069E-01 -6.702785E+00 
1.516250E+02  9.993223E-01 -9.098541E+00  1.665559E-03 8.304986E+01  1.496805E-03 8.340465E+01 
 1.666788E-03 8.305886E+01  9.973126E-01 -6.836908E+00  4.372450E-02 8.303575E+01 
 1.488432E-03 8.320394E+01  4.367413E-02 8.304085E+01  9.976326E-01 -6.875834E+00 
1.553125E+02  9.995584E-01 -9.341573E+00  1.717747E-03 8.237131E+01  1.593841E-03 8.286315E+01 
 1.733535E-03 8.273585E+01  9.972903E-01 -7.070629E+00  4.465407E-02 8.259033E+01 
 1.573844E-03 8.310287E+01  4.464988E-02 8.257910E+01  9.976529E-01 -7.090714E+00 
1.590000E+02  9.994222E-01 -9.561917E+00  1.693317E-03 8.088732E+01  1.549185E-03 8.045434E+01 
 1.706915E-03 8.083460E+01  9.972113E-01 -7.181395E+00  4.568555E-02 8.257590E+01 
 1.546022E-03 8.075645E+01  4.563485E-02 8.261992E+01  9.980971E-01 -7.143336E+00 
1.626875E+02  9.997872E-01 -9.724022E+00  1.781155E-03 8.241881E+01  1.644392E-03 8.268535E+01 
 1.793702E-03 8.218113E+01  9.985010E-01 -7.326919E+00  4.678508E-02 8.242668E+01 
 1.628394E-03 8.184412E+01  4.674046E-02 8.242425E+01  9.986307E-01 -7.344900E+00 
1.663750E+02  9.982874E-01 -9.944492E+00  1.808437E-03 8.218597E+01  1.678334E-03 8.207959E+01 
 1.812809E-03 8.248955E+01  9.975502E-01 -7.470228E+00  4.783536E-02 8.230835E+01 
 1.674994E-03 8.240070E+01  4.775278E-02 8.230577E+01  9.975793E-01 -7.527229E+00 
1.700625E+02  9.979010E-01 -1.020733E+01  1.822941E-03 7.978615E+01  1.675620E-03 8.039731E+01 
 1.819532E-03 7.987561E+01  9.975139E-01 -7.642528E+00  4.918885E-02 8.210602E+01 
 1.683257E-03 8.085872E+01  4.908158E-02 8.214882E+01  9.975949E-01 -7.678383E+00 
1.737500E+02  9.982528E-01 -1.040744E+01  1.904976E-03 8.091768E+01  1.742821E-03 8.115083E+01 
 1.900476E-03 8.080919E+01  9.973967E-01 -7.828047E+00  5.004017E-02 8.189987E+01 
 1.738480E-03 8.143787E+01  4.987451E-02 8.188640E+01  9.964261E-01 -7.857431E+00 
1.774375E+02  9.993920E-01 -1.069694E+01  1.906439E-03 8.179836E+01  1.729621E-03 8.212675E+01 
 1.892268E-03 8.171032E+01  9.971866E-01 -8.116046E+00  5.089313E-02 8.168863E+01 
 1.717793E-03 8.176766E+01  5.078193E-02 8.160706E+01  9.958602E-01 -8.002122E+00 
1.811250E+02  9.985623E-01 -1.083303E+01  1.987983E-03 8.065966E+01  1.809386E-03 8.096663E+01 
 1.977578E-03 8.048088E+01  9.973965E-01 -8.127032E+00  5.189301E-02 8.160386E+01 
 1.781426E-03 8.046164E+01  5.195901E-02 8.165272E+01  9.969345E-01 -8.129835E+00 
1.848125E+02  9.996526E-01 -1.104571E+01  1.992326E-03 8.092783E+01  1.831266E-03 8.090070E+01 
 1.997238E-03 8.104806E+01  9.971609E-01 -8.298089E+00  5.288824E-02 8.151233E+01 
 1.806885E-03 8.119058E+01  5.281573E-02 8.160894E+01  9.973178E-01 -8.287912E+00 
1.885000E+02  9.992300E-01 -1.131704E+01  2.045930E-03 8.048812E+01  1.864393E-03 8.047514E+01 
 2.041796E-03 8.060050E+01  9.963792E-01 -8.478167E+00  5.404934E-02 8.125423E+01 
 1.864518E-03 8.057218E+01  5.403863E-02 8.123267E+01  9.972402E-01 -8.469970E+00 
1.921875E+02  9.993375E-01 -1.156353E+01  2.123046E-03 8.051780E+01  1.944453E-03 8.117304E+01 
 2.122978E-03 8.021016E+01  9.976903E-01 -8.717912E+00  5.524739E-02 8.097161E+01 
 1.925399E-03 8.066882E+01  5.526637E-02 8.112334E+01  9.972186E-01 -8.748358E+00 
1.958750E+02  9.985012E-01 -1.166472E+01  2.104663E-03 8.041655E+01  1.921061E-03 8.066470E+01 
 2.096318E-03 8.023982E+01  9.976237E-01 -8.777470E+00  5.639673E-02 8.094019E+01 
 1.936005E-03 8.083953E+01  5.628467E-02 8.089751E+01  9.962018E-01 -8.796204E+00 
1.995625E+02  9.989726E-01 -1.190435E+01  2.180099E-03 7.998414E+01  2.001161E-03 8.020446E+01 
 2.159270E-03 8.039247E+01  9.971433E-01 -8.949931E+00  5.720426E-02 8.075881E+01 
 1.989849E-03 8.012250E+01  5.725004E-02 8.077342E+01  9.968646E-01 -9.001914E+00 
2.032500E+02  9.994268E-01 -1.215603E+01  2.218740E-03 7.766016E+01  2.019308E-03 7.754783E+01 
 2.216980E-03 7.759157E+01  9.964180E-01 -9.112167E+00  5.822081E-02 8.074318E+01 
 2.000998E-03 7.743203E+01  5.816120E-02 8.071903E+01  9.962360E-01 -9.139316E+00 
2.069375E+02  9.991539E-01 -1.238715E+01  2.217729E-03 7.844799E+01  2.016601E-03 7.777198E+01 
 2.221088E-03 7.842524E+01  9.958635E-01 -9.309705E+00  5.945904E-02 8.063784E+01 
 2.015061E-03 7.791360E+01  5.934005E-02 8.060465E+01  9.969761E-01 -9.356473E+00 
2.106250E+02  9.980280E-01 -1.254033E+01  2.302247E-03 7.978223E+01  2.144919E-03 8.025843E+01 
 2.300063E-03 7.966034E+01  9.968947E-01 -9.491810E+00  6.047536E-02 8.052375E+01 
 2.134067E-03 8.048449E+01  6.049229E-02 8.056743E+01  9.955245E-01 -9.486178E+00 
2.143125E+02  9.990374E-01 -1.274542E+01  2.304196E-03 7.897979E+01  2.099131E-03 7.998668E+01 
 2.315232E-03 7.894255E+01  9.966453E-01 -9.501821E+00  6.158311E-02 8.001167E+01 
 2.102930E-03 8.022811E+01  6.151628E-02 8.011329E+01  9.968854E-01 -9.656481E+00 
2.180000E+02  9.987421E-01 -1.299772E+01  2.328816E-03 7.938765E+01  2.150339E-03 7.998610E+01 
 2.332026E-03 7.976296E+01  9.965464E-01 -9.783726E+00  6.248178E-02 7.979356E+01 
 2.145430E-03 8.013316E+01  6.243903E-02 7.978550E+01  9.961824E-01 -9.877118E+00 
2.216875E+02  9.983608E-01 -1.318615E+01  2.373410E-03 7.824317E+01  2.178262E-03 7.895093E+01 
 2.377863E-03 7.859621E+01  9.960005E-01 -9.933256E+00  6.343400E-02 7.984619E+01 
 2.181070E-03 7.920369E+01  6.342431E-02 7.977196E+01  9.961883E-01 -9.966170E+00 
2.253750E+02  9.999769E-01 -1.341285E+01  2.450956E-03 7.803272E+01  2.254574E-03 7.829116E+01 
 2.451211E-03 7.851527E+01  9.963619E-01 -1.008208E+01  6.462014E-02 7.987188E+01 
 2.267273E-03 7.835784E+01  6.463260E-02 7.983915E+01  9.979782E-01 -1.015937E+01 
2.290625E+02  9.969478E-01 -1.372114E+01  2.485473E-03 7.518178E+01  2.329641E-03 7.641886E+01 
 2.487175E-03 7.547043E+01  9.941931E-01 -1.025587E+01  6.585395E-02 7.945985E+01 
 2.321742E-03 7.655480E+01  6.592995E-02 7.941846E+01  9.938078E-01 -1.031238E+01 
2.327500E+02  9.991093E-01 -1.354256E+01  2.441888E-03 7.859466E+01  2.253360E-03 7.873138E+01 
 2.445946E-03 7.855864E+01  9.964690E-01 -1.012252E+01  6.678390E-02 7.953532E+01 
 2.238121E-03 7.854451E+01  6.679889E-02 7.954963E+01  9.963790E-01 -1.018706E+01 
2.364375E+02  9.983648E-01 -1.411454E+01  2.535084E-03 7.843886E+01  2.331348E-03 7.879088E+01 
 2.546928E-03 7.842188E+01  9.955789E-01 -1.049008E+01  6.778806E-02 7.910797E+01 
 2.318954E-03 7.849227E+01  6.783272E-02 7.915208E+01  9.968610E-01 -1.068113E+01 
2.401250E+02  9.989903E-01 -1.420425E+01  2.524681E-03 7.806714E+01  2.326728E-03 7.786620E+01 
 2.519685E-03 7.777038E+01  9.955168E-01 -1.062905E+01  6.882992E-02 7.912896E+01 
 2.332934E-03 7.782668E+01  6.866213E-02 7.903770E+01  9.963132E-01 -1.081107E+01 
2.438125E+02  9.979700E-01 -1.450468E+01  2.577435E-03 7.806389E+01  2.352065E-03 7.835734E+01 
 2.579886E-03 7.779771E+01  9.957725E-01 -1.088210E+01  7.008562E-02 7.876188E+01 
 2.363731E-03 7.818230E+01  6.989953E-02 7.876746E+01  9.960680E-01 -1.103569E+01 
2.475000E+02  9.972456E-01 -1.468796E+01  2.657066E-03 7.683832E+01  2.401314E-03 7.673645E+01 
 2.662028E-03 7.670780E+01  9.941493E-01 -1.097444E+01  7.097459E-02 7.863435E+01 
 2.403644E-03 7.649147E+01  7.090493E-02 7.857185E+01  9.942288E-01 -1.115456E+01 
2.511875E+02  9.992328E-01 -1.493223E+01  2.672690E-03 7.855699E+01  2.446759E-03 7.861583E+01 
 2.683067E-03 7.847507E+01  9.948595E-01 -1.112701E+01  7.205394E-02 7.855797E+01 
 2.452274E-03 7.827997E+01  7.214829E-02 7.849323E+01  9.952182E-01 -1.131968E+01 
2.548750E+02  9.983699E-01 -1.521222E+01  2.722036E-03 7.773694E+01  2.489365E-03 7.770446E+01 
 2.718059E-03 7.728541E+01  9.951840E-01 -1.129877E+01  7.308744E-02 7.826000E+01 
 2.482105E-03 7.743139E+01  7.306247E-02 7.834765E+01  9.957900E-01 -1.149259E+01 
2.585625E+02  9.974479E-01 -1.537171E+01  2.734888E-03 7.804038E+01  2.483733E-03 7.797686E+01 
 2.732488E-03 7.789586E+01  9.951390E-01 -1.145756E+01  7.393318E-02 7.820040E+01 
 2.480308E-03 7.789086E+01  7.379202E-02 7.825642E+01  9.949814E-01 -1.168139E+01 
2.622500E+02  9.979199E-01 -1.558358E+01  2.814635E-03 7.629438E+01  2.577255E-03 7.691066E+01 
 2.807326E-03 7.620991E+01  9.950579E-01 -1.162330E+01  7.493707E-02 7.816426E+01 
 2.591251E-03 7.648819E+01  7.482011E-02 7.809177E+01  9.945348E-01 -1.187968E+01 
2.659375E+02  9.975806E-01 -1.577256E+01  2.799584E-03 7.477925E+01  2.550239E-03 7.526041E+01 
 2.786911E-03 7.467873E+01  9.946970E-01 -1.174495E+01  7.594631E-02 7.807466E+01 
 2.551696E-03 7.516395E+01  7.583207E-02 7.792251E+01  9.935316E-01 -1.201566E+01 
2.696250E+02  9.980510E-01 -1.598998E+01  2.792672E-03 7.709307E+01  2.548178E-03 7.701004E+01 
 2.784398E-03 7.677495E+01  9.956039E-01 -1.191015E+01  7.743670E-02 7.771607E+01 
 2.536724E-03 7.703156E+01  7.727761E-02 7.767146E+01  9.945280E-01 -1.221576E+01 
2.733125E+02  9.977899E-01 -1.629411E+01  2.877766E-03 7.753933E+01  2.623200E-03 7.745730E+01 
 2.882668E-03 7.724781E+01  9.945443E-01 -1.207994E+01  7.845510E-02 7.743768E+01 
 2.632120E-03 7.724856E+01  7.830023E-02 7.747726E+01  9.945360E-01 -1.238914E+01 
2.770000E+02  9.975696E-01 -1.645640E+01  2.936113E-03 7.700447E+01  2.687513E-03 7.731157E+01 
 2.932732E-03 7.686228E+01  9.944547E-01 -1.223157E+01  7.923319E-02 7.731942E+01 
 2.683987E-03 7.697528E+01  7.913030E-02 7.742488E+01  9.940389E-01 -1.253578E+01 
2.806875E+02  9.968082E-01 -1.664377E+01  2.969785E-03 7.668427E+01  2.702012E-03 7.674962E+01 
 2.949876E-03 7.666241E+01  9.956290E-01 -1.242385E+01  8.035773E-02 7.720379E+01 
 2.693126E-03 7.678605E+01  8.018015E-02 7.732201E+01  9.944762E-01 -1.275221E+01 
2.843750E+02  9.977710E-01 -1.685021E+01  2.961344E-03 7.678079E+01  2.694563E-03 7.678779E+01 
 2.944150E-03 7.683819E+01  9.942498E-01 -1.253866E+01  8.143843E-02 7.701439E+01 
 2.698208E-03 7.654941E+01  8.109260E-02 7.702293E+01  9.938000E-01 -1.293867E+01 
2.880625E+02  9.981145E-01 -1.716084E+01  3.071134E-03 7.564602E+01  2.796044E-03 7.570412E+01 
 3.063358E-03 7.575892E+01  9.936714E-01 -1.268903E+01  8.232031E-02 7.684178E+01 
 2.786489E-03 7.533699E+01  8.217140E-02 7.689446E+01  9.930632E-01 -1.306971E+01 
2.917500E+02  9.975235E-01 -1.728651E+01  3.055370E-03 7.633692E+01  2.790580E-03 7.619899E+01 
 3.060133E-03 7.613888E+01  9.938449E-01 -1.288769E+01  8.320229E-02 7.654427E+01 
 2.777588E-03 7.574976E+01  8.320799E-02 7.657147E+01  9.920492E-01 -1.324498E+01 
2.954375E+02  9.984364E-01 -1.753101E+01  3.129076E-03 7.600921E+01  2.853509E-03 7.623240E+01 
 3.124450E-03 7.613995E+01  9.943519E-01 -1.300646E+01  8.431621E-02 7.641422E+01 
 2.845169E-03 7.628512E+01  8.419421E-02 7.641648E+01  9.934106E-01 -1.341462E+01 
2.991250E+02  9.968396E-01 -1.776459E+01  3.153954E-03 7.525116E+01  2.868750E-03 7.580506E+01 
 3.148699E-03 7.526667E+01  9.939042E-01 -1.317673E+01  8.532523E-02 7.637840E+01 
 2.843797E-03 7.546010E+01  8.519228E-02 7.627551E+01  9.936684E-01 -1.360470E+01 
3.028125E+02  9.961912E-01 -1.795493E+01  3.117633E-03 7.556950E+01  2.855140E-03 7.578657E+01 
 3.111541E-03 7.549127E+01  9.930311E-01 -1.333339E+01  8.638756E-02 7.629215E+01 
 2.842734E-03 7.568018E+01  8.625286E-02 7.629245E+01  9.932773E-01 -1.372613E+01 
3.065000E+02  9.974457E-01 -1.817982E+01  3.169480E-03 7.559924E+01  2.900719E-03 7.604941E+01 
 3.161262E-03 7.570510E+01  9.935846E-01 -1.353960E+01  8.757501E-02 7.613236E+01 
 2.906805E-03 7.585194E+01  8.764887E-02 7.613308E+01  9.942441E-01 -1.389256E+01 
3.101875E+02  9.980692E-01 -1.837421E+01  3.248244E-03 7.607936E+01  2.951643E-03 7.590883E+01 
 3.245683E-03 7.608138E+01  9.944277E-01 -1.371684E+01  8.879926E-02 7.585354E+01 
 2.947801E-03 7.585238E+01  8.880867E-02 7.581815E+01  9.941265E-01 -1.408147E+01 
3.138750E+02  9.976188E-01 -1.857842E+01  3.307322E-03 7.516275E+01  3.004957E-03 7.586158E+01 
 3.306558E-03 7.516880E+01  9.944432E-01 -1.387851E+01  8.978886E-02 7.551056E+01 
 3.012854E-03 7.564548E+01  8.959149E-02 7.553100E+01  9.932092E-01 -1.423883E+01 
3.175625E+02  9.968790E-01 -1.879732E+01  3.315957E-03 7.533061E+01  3.013204E-03 7.566659E+01 
 3.316367E-03 7.533446E+01  9.938787E-01 -1.406718E+01  9.049241E-02 7.542627E+01 
 3.002374E-03 7.565275E+01  9.040793E-02 7.539700E+01  9.928328E-01 -1.434729E+01 
3.212500E+02  9.967739E-01 -1.909258E+01  3.352010E-03 7.463573E+01  3.088125E-03 7.524822E+01 
 3.360315E-03 7.471410E+01  9.940165E-01 -1.425988E+01  9.168850E-02 7.533878E+01 
 3.086228E-03 7.530609E+01  9.161991E-02 7.527584E+01  9.927491E-01 -1.448533E+01 
3.249375E+02  9.969176E-01 -1.931834E+01  3.372544E-03 7.375451E+01  3.077716E-03 7.412175E+01 
 3.364242E-03 7.376669E+01  9.941667E-01 -1.439091E+01  9.292448E-02 7.520373E+01 
 3.086008E-03 7.410927E+01  9.284012E-02 7.517904E+01  9.929166E-01 -1.463660E+01 
3.286250E+02  9.974366E-01 -1.948456E+01  3.389379E-03 7.405971E+01  3.082271E-03 7.445537E+01 
 3.395606E-03 7.410908E+01  9.926359E-01 -1.459483E+01  9.393772E-02 7.506581E+01 
 3.079966E-03 7.458756E+01  9.375943E-02 7.506876E+01  9.926457E-01 -1.480821E+01 
3.323125E+02  9.967629E-01 -1.965221E+01  3.437227E-03 7.437806E+01  3.121702E-03 7.487587E+01 
 3.448020E-03 7.454513E+01  9.926886E-01 -1.475918E+01  9.488795E-02 7.481404E+01 
 3.130964E-03 7.511181E+01  9.474098E-02 7.490740E+01  9.932538E-01 -1.491311E+01 
3.360000E+02  9.980455E-01 -1.987074E+01  3.482460E-03 7.434663E+01  3.166772E-03 7.496167E+01 
 3.490858E-03 7.430785E+01  9.926174E-01 -1.491152E+01  9.559814E-02 7.467289E+01 
 3.175874E-03 7.514830E+01  9.551825E-02 7.472042E+01  9.927162E-01 -1.509421E+01 
3.396875E+02  9.966961E-01 -2.004890E+01  3.478562E-03 7.414628E+01  3.184717E-03 7.502440E+01 
 3.491990E-03 7.418861E+01  9.922345E-01 -1.506146E+01  9.661598E-02 7.460913E+01 
 3.194044E-03 7.494654E+01  9.636974E-02 7.456076E+01  9.923696E-01 -1.522465E+01 
3.433750E+02  9.970992E-01 -2.033196E+01  3.539209E-03 7.425692E+01  3.227600E-03 7.462251E+01 
 3.550799E-03 7.412640E+01  9.920331E-01 -1.524059E+01  9.770967E-02 7.445110E+01 
 3.228639E-03 7.452134E+01  9.748127E-02 7.431448E+01  9.920418E-01 -1.542268E+01 
3.470625E+02  9.975462E-01 -2.056168E+01  3.642091E-03 7.428725E+01  3.321025E-03 7.437983E+01 
 3.662915E-03 7.433141E+01  9.931551E-01 -1.542982E+01  9.915982E-02 7.417615E+01 
 3.324748E-03 7.456341E+01  9.898602E-02 7.419241E+01  9.921538E-01 -1.556236E+01 
3.507500E+02  9.974433E-01 -2.077130E+01  3.623029E-03 7.305659E+01  3.297829E-03 7.389080E+01 
 3.632008E-03 7.314188E+01  9.936109E-01 -1.558664E+01  1.001137E-01 7.398170E+01 
 3.305044E-03 7.365200E+01  1.000109E-01 7.391886E+01  9.923624E-01 -1.566250E+01 
3.544375E+02  9.971207E-01 -2.093639E+01  3.659218E-03 7.384488E+01  3.326058E-03 7.431392E+01 
 3.661833E-03 7.382413E+01  9.917734E-01 -1.565282E+01  1.008404E-01 7.391214E+01 
 3.349122E-03 7.408434E+01  1.007533E-01 7.382422E+01  9.913422E-01 -1.576493E+01 
3.581250E+02  9.976930E-01 -2.123037E+01  3.778662E-03 7.242850E+01  3.429222E-03 7.281151E+01 
 3.784602E-03 7.254885E+01  9.919605E-01 -1.592697E+01  1.016359E-01 7.372969E+01 
 3.436779E-03 7.290850E+01  1.016115E-01 7.369081E+01  9.908474E-01 -1.604303E+01 
3.618125E+02  9.978622E-01 -2.142960E+01  3.698989E-03 7.238889E+01  3.351557E-03 7.256678E+01 
 3.708666E-03 7.216685E+01  9.922311E-01 -1.609213E+01  1.026840E-01 7.356987E+01 
 3.358556E-03 7.255676E+01  1.027491E-01 7.363174E+01  9.908219E-01 -1.615254E+01 
3.655000E+02  9.971732E-01 -2.162346E+01  3.732665E-03 7.271797E+01  3.384130E-03 7.294603E+01 
 3.734000E-03 7.273142E+01  9.914891E-01 -1.624312E+01  1.039232E-01 7.346804E+01 
 3.399567E-03 7.294825E+01  1.039779E-01 7.347632E+01  9.910396E-01 -1.626645E+01 
3.691875E+02  9.970770E-01 -2.188235E+01  3.760924E-03 7.321135E+01  3.419455E-03 7.405238E+01 
 3.764902E-03 7.318642E+01  9.911979E-01 -1.643523E+01  1.049420E-01 7.320645E+01 
 3.434731E-03 7.382146E+01  1.049165E-01 7.308378E+01  9.915713E-01 -1.645068E+01 
3.728750E+02  9.970178E-01 -2.214442E+01  3.804165E-03 7.305477E+01  3.461397E-03 7.389045E+01 
