! S-Parameter for B3521 in Touchstone format with Magnitude (lin) and Phase 
! Normalised impedance: 50 Ohm. Measurement system: 50 Ohm. Ta=25°C
! B3521_SB.S2P not matched. Measurement full 2-port calibrated incl. Port.Ext. 
! Start: 1.3GHz, Stop: 1.8GHz, Span 500MHz 801 Pts., Step 312kHz.
! Date: 21/03/07 - EPCOS SAW COM WT AE PD; AB
!
# MHZ S MA R 50
! freq  magS11 angS11  magS21 angS21  magS12 angS12  magS22 angS22
1.300000E+03  9.676685E-01 -7.491579E+01  2.369824E-04 1.706093E+02  2.323036E-04 1.696126E+02  9.564306E-01 -8.052716E+01 
1.300312E+03  9.677001E-01 -7.493310E+01  2.379440E-04 1.707317E+02  2.265719E-04 1.713523E+02  9.563065E-01 -8.054617E+01 
1.300625E+03  9.676856E-01 -7.495604E+01  2.277088E-04 1.700195E+02  2.232397E-04 1.697447E+02  9.564611E-01 -8.056668E+01 
1.300938E+03  9.676491E-01 -7.498689E+01  2.225351E-04 1.713643E+02  2.179525E-04 1.685013E+02  9.564121E-01 -8.058951E+01 
1.301250E+03  9.677357E-01 -7.500598E+01  2.174761E-04 1.698283E+02  2.119510E-04 1.724000E+02  9.565028E-01 -8.062498E+01 
1.301562E+03  9.677328E-01 -7.503718E+01  2.113525E-04 1.713980E+02  2.156799E-04 1.710212E+02  9.564281E-01 -8.063994E+01 
1.301875E+03  9.676705E-01 -7.504719E+01  2.192845E-04 1.717153E+02  2.187531E-04 1.715299E+02  9.566369E-01 -8.066724E+01 
1.302188E+03  9.676378E-01 -7.506922E+01  2.209843E-04 1.711994E+02  2.162425E-04 1.727846E+02  9.566187E-01 -8.069451E+01 
1.302500E+03  9.678478E-01 -7.509385E+01  2.263318E-04 1.727174E+02  2.270688E-04 1.719337E+02  9.565527E-01 -8.071376E+01 
1.302812E+03  9.678111E-01 -7.511778E+01  2.199738E-04 1.723354E+02  2.198485E-04 1.719568E+02  9.567136E-01 -8.074176E+01 
1.303125E+03  9.678733E-01 -7.515123E+01  2.314995E-04 1.735149E+02  2.267353E-04 1.728060E+02  9.567712E-01 -8.076207E+01 
1.303438E+03  9.679026E-01 -7.516961E+01  2.248797E-04 1.696265E+02  2.213505E-04 1.699628E+02  9.567647E-01 -8.080078E+01 
1.303750E+03  9.679865E-01 -7.519549E+01  2.192169E-04 1.711995E+02  2.196193E-04 1.705399E+02  9.567021E-01 -8.082650E+01 
1.304062E+03  9.679474E-01 -7.521778E+01  2.238053E-04 1.687040E+02  2.220674E-04 1.700027E+02  9.569140E-01 -8.085704E+01 
1.304375E+03  9.681086E-01 -7.524991E+01  2.193033E-04 1.696593E+02  2.170333E-04 1.697914E+02  9.567470E-01 -8.088298E+01 
1.304688E+03  9.681725E-01 -7.526720E+01  2.153226E-04 1.697777E+02  2.183229E-04 1.699289E+02  9.568394E-01 -8.090969E+01 
1.305000E+03  9.681032E-01 -7.529903E+01  2.043508E-04 1.681761E+02  2.083516E-04 1.700413E+02  9.568209E-01 -8.093293E+01 
1.305312E+03  9.681674E-01 -7.532472E+01  2.116472E-04 1.698915E+02  2.050353E-04 1.716817E+02  9.568418E-01 -8.096891E+01 
1.305625E+03  9.680838E-01 -7.534660E+01  2.159905E-04 1.735646E+02  2.095099E-04 1.714370E+02  9.568852E-01 -8.100092E+01 
1.305938E+03  9.682537E-01 -7.537675E+01  2.164020E-04 1.714539E+02  2.207684E-04 1.712183E+02  9.569060E-01 -8.102490E+01 
1.306250E+03  9.680738E-01 -7.539773E+01  2.163455E-04 1.726846E+02  2.169203E-04 1.719267E+02  9.569269E-01 -8.105275E+01 
1.306562E+03  9.681794E-01 -7.542513E+01  2.145176E-04 1.728211E+02  2.095589E-04 1.710727E+02  9.569539E-01 -8.108214E+01 
1.306875E+03  9.681124E-01 -7.545013E+01  2.140085E-04 1.728145E+02  2.227507E-04 1.737582E+02  9.568436E-01 -8.110144E+01 
1.307188E+03  9.681187E-01 -7.547217E+01  2.219418E-04 1.728002E+02  2.184575E-04 1.717876E+02  9.570075E-01 -8.113585E+01 
1.307500E+03  9.683446E-01 -7.548996E+01  2.196159E-04 1.710391E+02  2.177345E-04 1.710428E+02  9.567856E-01 -8.116216E+01 
1.307812E+03  9.683663E-01 -7.551365E+01  2.244204E-04 1.698892E+02  2.206404E-04 1.702048E+02  9.570481E-01 -8.119481E+01 
1.308125E+03  9.681901E-01 -7.555386E+01  2.166651E-04 1.678963E+02  2.157865E-04 1.688068E+02  9.570134E-01 -8.122661E+01 
1.308438E+03  9.684319E-01 -7.557815E+01  2.129747E-04 1.668934E+02  2.146242E-04 1.687619E+02  9.571112E-01 -8.126551E+01 
1.308750E+03  9.683966E-01 -7.559301E+01  2.155341E-04 1.671184E+02  2.114680E-04 1.675708E+02  9.572523E-01 -8.128570E+01 
1.309062E+03  9.685958E-01 -7.562063E+01  2.001045E-04 1.681986E+02  2.117396E-04 1.658122E+02  9.570542E-01 -8.131448E+01 
1.309375E+03  9.684449E-01 -7.565087E+01  1.993948E-04 1.644090E+02  1.947323E-04 1.657708E+02  9.571336E-01 -8.134069E+01 
1.309688E+03  9.685138E-01 -7.567948E+01  1.982347E-04 1.686925E+02  2.028666E-04 1.668906E+02  9.570678E-01 -8.137029E+01 
1.310000E+03  9.685343E-01 -7.571182E+01  1.984553E-04 1.671103E+02  1.841912E-04 1.687099E+02  9.570378E-01 -8.141282E+01 
1.310312E+03  9.684702E-01 -7.573058E+01  2.020364E-04 1.706431E+02  1.940738E-04 1.695001E+02  9.570809E-01 -8.143218E+01 
1.310625E+03  9.685843E-01 -7.576127E+01  1.966966E-04 1.673646E+02  1.862087E-04 1.675818E+02  9.571273E-01 -8.147755E+01 
1.310938E+03  9.685473E-01 -7.578930E+01  1.971587E-04 1.704220E+02  1.875979E-04 1.719200E+02  9.569981E-01 -8.150119E+01 
1.311250E+03  9.685924E-01 -7.581834E+01  1.969970E-04 1.720790E+02  1.940019E-04 1.709082E+02  9.570920E-01 -8.153608E+01 
1.311562E+03  9.686596E-01 -7.584992E+01  2.021893E-04 1.736174E+02  1.956989E-04 1.718530E+02  9.570290E-01 -8.157709E+01 
1.311875E+03  9.685578E-01 -7.587374E+01  2.013749E-04 1.710642E+02  2.031979E-04 1.718846E+02  9.570958E-01 -8.161010E+01 
1.312188E+03  9.686664E-01 -7.590390E+01  2.020217E-04 1.718525E+02  2.019022E-04 1.724904E+02  9.569842E-01 -8.162931E+01 
1.312500E+03  9.686212E-01 -7.593176E+01  2.033038E-04 1.723762E+02  2.075066E-04 1.714570E+02  9.570136E-01 -8.166423E+01 
1.312812E+03  9.685571E-01 -7.596465E+01  2.083293E-04 1.719491E+02  2.046833E-04 1.709223E+02  9.569017E-01 -8.169871E+01 
1.313125E+03  9.686128E-01 -7.599148E+01  2.147297E-04 1.708459E+02  2.106837E-04 1.702964E+02  9.568862E-01 -8.172956E+01 
1.313438E+03  9.683379E-01 -7.601406E+01  2.083229E-04 1.679086E+02  2.031675E-04 1.682180E+02  9.568146E-01 -8.177022E+01 
1.313750E+03  9.684699E-01 -7.605037E+01  2.098315E-04 1.683315E+02  2.173934E-04 1.680446E+02  9.565517E-01 -8.179111E+01 
1.314062E+03  9.684724E-01 -7.607921E+01  2.113041E-04 1.661474E+02  2.051595E-04 1.667637E+02  9.566417E-01 -8.182273E+01 
1.314375E+03  9.681758E-01 -7.610033E+01  2.056070E-04 1.669239E+02  2.067705E-04 1.658300E+02  9.566115E-01 -8.186069E+01 
1.314688E+03  9.681876E-01 -7.612411E+01  1.967627E-04 1.665861E+02  1.955341E-04 1.657055E+02  9.564283E-01 -8.188402E+01 
1.315000E+03  9.682354E-01 -7.615070E+01  1.963790E-04 1.661080E+02  1.959703E-04 1.656929E+02  9.564391E-01 -8.193082E+01 
1.315312E+03  9.678655E-01 -7.617428E+01  1.922190E-04 1.676880E+02  1.979961E-04 1.660610E+02  9.562143E-01 -8.194459E+01 
1.315625E+03  9.679718E-01 -7.619711E+01  1.971066E-04 1.683154E+02  1.911119E-04 1.666739E+02  9.560520E-01 -8.197675E+01 
1.315938E+03  9.677248E-01 -7.622367E+01  1.913014E-04 1.707837E+02  1.999569E-04 1.679599E+02  9.560741E-01 -8.200120E+01 
1.316250E+03  9.678764E-01 -7.625414E+01  1.906464E-04 1.679296E+02  1.978200E-04 1.679843E+02  9.559573E-01 -8.202689E+01 
1.316562E+03  9.677409E-01 -7.627307E+01  2.056504E-04 1.678214E+02  1.955418E-04 1.665788E+02  9.558570E-01 -8.206077E+01 
1.316875E+03  9.678048E-01 -7.628800E+01  1.928848E-04 1.669460E+02  1.968771E-04 1.664738E+02  9.558609E-01 -8.207523E+01 
1.317188E+03  9.677260E-01 -7.631110E+01  1.966598E-04 1.673476E+02  1.863183E-04 1.665573E+02  9.557617E-01 -8.211262E+01 
1.317500E+03  9.676432E-01 -7.634464E+01  1.939259E-04 1.672246E+02  1.948386E-04 1.685113E+02  9.558513E-01 -8.213989E+01 
1.317812E+03  9.676002E-01 -7.636756E+01  1.988064E-04 1.673162E+02  1.973112E-04 1.680865E+02  9.557942E-01 -8.216858E+01 
1.318125E+03  9.676048E-01 -7.638921E+01  1.984224E-04 1.660974E+02  2.049805E-04 1.654022E+02  9.558229E-01 -8.219166E+01 
1.318438E+03  9.674842E-01 -7.640388E+01  2.001552E-04 1.663825E+02  1.955252E-04 1.656821E+02  9.556500E-01 -8.221400E+01 
1.318750E+03  9.675631E-01 -7.643926E+01  2.031231E-04 1.646061E+02  1.974666E-04 1.640292E+02  9.555160E-01 -8.226242E+01 
1.319062E+03  9.674156E-01 -7.646447E+01  1.968758E-04 1.611973E+02  2.027158E-04 1.620274E+02  9.556772E-01 -8.227003E+01 
1.319375E+03  9.674634E-01 -7.648391E+01  1.960054E-04 1.604031E+02  2.001596E-04 1.626900E+02  9.556576E-01 -8.230331E+01 
1.319688E+03  9.672955E-01 -7.652005E+01  1.874828E-04 1.628693E+02  1.956049E-04 1.626568E+02  9.556231E-01 -8.232782E+01 
1.320000E+03  9.672253E-01 -7.653812E+01  1.892600E-04 1.599029E+02  1.874642E-04 1.597301E+02  9.553352E-01 -8.235696E+01 
1.320312E+03  9.673232E-01 -7.656931E+01  1.777067E-04 1.603275E+02  1.776436E-04 1.607998E+02  9.555425E-01 -8.237796E+01 
1.320625E+03  9.672870E-01 -7.657848E+01  1.840888E-04 1.637067E+02  1.777611E-04 1.643339E+02  9.553772E-01 -8.241010E+01 
1.320938E+03  9.673357E-01 -7.659995E+01  1.809860E-04 1.620822E+02  1.805968E-04 1.614917E+02  9.554258E-01 -8.242120E+01 
1.321250E+03  9.673437E-01 -7.662416E+01  1.820776E-04 1.614343E+02  1.806616E-04 1.626525E+02  9.554370E-01 -8.246260E+01 
1.321562E+03  9.670285E-01 -7.664518E+01  1.720782E-04 1.623364E+02  1.760624E-04 1.635064E+02  9.554325E-01 -8.249058E+01 
1.321875E+03  9.670643E-01 -7.667868E+01  1.704531E-04 1.615111E+02  1.795897E-04 1.614873E+02  9.552505E-01 -8.251920E+01 
1.322188E+03  9.671688E-01 -7.670052E+01  1.766677E-04 1.612402E+02  1.787524E-04 1.617800E+02  9.553135E-01 -8.253876E+01 
1.322500E+03  9.670782E-01 -7.672301E+01  1.734249E-04 1.606852E+02  1.739831E-04 1.610546E+02  9.553429E-01 -8.256691E+01 
1.322812E+03  9.670129E-01 -7.674041E+01  1.728757E-04 1.608053E+02  1.688305E-04 1.600931E+02  9.552368E-01 -8.259651E+01 
1.323125E+03  9.671087E-01 -7.677864E+01  1.719102E-04 1.592186E+02  1.733085E-04 1.602498E+02  9.552659E-01 -8.261297E+01 
1.323438E+03  9.668369E-01 -7.680119E+01  1.783826E-04 1.595391E+02  1.789644E-04 1.589837E+02  9.551250E-01 -8.265011E+01 
1.323750E+03  9.670173E-01 -7.681667E+01  1.670770E-04 1.617567E+02  1.670770E-04 1.603195E+02  9.551804E-01 -8.266448E+01 
1.324062E+03  9.667389E-01 -7.683249E+01  1.717712E-04 1.603271E+02  1.729266E-04 1.602903E+02  9.551444E-01 -8.269286E+01 
1.324375E+03  9.667348E-01 -7.685412E+01  1.664332E-04 1.598067E+02  1.665407E-04 1.578951E+02  9.549847E-01 -8.271776E+01 
1.324688E+03  9.668441E-01 -7.687910E+01  1.684432E-04 1.592595E+02  1.639121E-04 1.613878E+02  9.550438E-01 -8.276014E+01 
1.325000E+03  9.669112E-01 -7.688972E+01  1.769627E-04 1.608365E+02  1.676189E-04 1.605859E+02  9.551460E-01 -8.276800E+01 
1.325312E+03  9.667587E-01 -7.692191E+01  1.732231E-04 1.598463E+02  1.772674E-04 1.617181E+02  9.553148E-01 -8.279225E+01 
1.325625E+03  9.669025E-01 -7.694445E+01  1.681583E-04 1.567413E+02  1.676060E-04 1.566349E+02  9.553219E-01 -8.282174E+01 
1.325938E+03  9.667535E-01 -7.696963E+01  1.580393E-04 1.574385E+02  1.628827E-04 1.566563E+02  9.551923E-01 -8.284109E+01 
1.326250E+03  9.669728E-01 -7.698906E+01  1.642942E-04 1.585155E+02  1.653621E-04 1.565503E+02  9.553267E-01 -8.287585E+01 
1.326562E+03  9.667975E-01 -7.700202E+01  1.604773E-04 1.548144E+02  1.633518E-04 1.558125E+02  9.556111E-01 -8.288715E+01 
1.326875E+03  9.670880E-01 -7.704406E+01  1.547465E-04 1.556806E+02  1.534898E-04 1.539035E+02  9.555582E-01 -8.293445E+01 
1.327188E+03  9.669614E-01 -7.706175E+01  1.499801E-04 1.574833E+02  1.491701E-04 1.541671E+02  9.555375E-01 -8.295658E+01 
1.327500E+03  9.669891E-01 -7.709861E+01  1.545616E-04 1.555541E+02  1.451896E-04 1.571425E+02  9.555327E-01 -8.299893E+01 
1.327812E+03  9.671456E-01 -7.711320E+01  1.429621E-04 1.608090E+02  1.351684E-04 1.544727E+02  9.557539E-01 -8.302201E+01 
1.328125E+03  9.670884E-01 -7.713451E+01  1.449119E-04 1.613358E+02  1.437407E-04 1.576326E+02  9.557165E-01 -8.304578E+01 
1.328438E+03  9.671048E-01 -7.717066E+01  1.490671E-04 1.593919E+02  1.470981E-04 1.584808E+02  9.557905E-01 -8.309014E+01 
1.328750E+03  9.672839E-01 -7.718282E+01  1.505086E-04 1.596704E+02  1.480928E-04 1.598248E+02  9.558189E-01 -8.310692E+01 
1.329062E+03  9.671767E-01 -7.721151E+01  1.478917E-04 1.597393E+02  1.495676E-04 1.572894E+02  9.559503E-01 -8.313192E+01 
1.329375E+03  9.673156E-01 -7.723143E+01  1.485114E-04 1.594821E+02  1.499608E-04 1.570127E+02  9.560011E-01 -8.316850E+01 
1.329688E+03  9.672809E-01 -7.725146E+01  1.431849E-04 1.588646E+02  1.485215E-04 1.583576E+02  9.560645E-01 -8.320801E+01 
1.330000E+03  9.673614E-01 -7.728871E+01  1.433708E-04 1.585201E+02  1.445593E-04 1.592558E+02  9.562022E-01 -8.324242E+01 
1.330312E+03  9.673910E-01 -7.731350E+01  1.492950E-04 1.601480E+02  1.469408E-04 1.586572E+02  9.559482E-01 -8.326803E+01 
1.330625E+03  9.674404E-01 -7.734039E+01  1.481323E-04 1.583544E+02  1.476526E-04 1.566653E+02  9.560746E-01 -8.330246E+01 
1.330938E+03  9.674901E-01 -7.737119E+01  1.426100E-04 1.564180E+02  1.436735E-04 1.563682E+02  9.561686E-01 -8.333412E+01 
1.331250E+03  9.673600E-01 -7.739981E+01  1.443774E-04 1.592699E+02  1.474037E-04 1.568654E+02  9.563040E-01 -8.337026E+01 
1.331562E+03  9.673790E-01 -7.743917E+01  1.434248E-04 1.557851E+02  1.423611E-04 1.579385E+02  9.561539E-01 -8.340415E+01 
1.331875E+03  9.674870E-01 -7.745474E+01  1.412317E-04 1.565918E+02  1.441787E-04 1.568825E+02  9.562395E-01 -8.344396E+01 
1.332188E+03  9.675058E-01 -7.747982E+01  1.347580E-04 1.536996E+02  1.350537E-04 1.532986E+02  9.561228E-01 -8.347045E+01 
1.332500E+03  9.673634E-01 -7.750796E+01  1.376404E-04 1.582975E+02  1.412803E-04 1.553994E+02  9.562809E-01 -8.350530E+01 
1.332812E+03  9.673859E-01 -7.754513E+01  1.353662E-04 1.573287E+02  1.310067E-04 1.558775E+02  9.564456E-01 -8.354559E+01 
1.333125E+03  9.674432E-01 -7.757326E+01  1.377515E-04 1.571570E+02  1.385849E-04 1.598948E+02  9.563796E-01 -8.357066E+01 
1.333438E+03  9.673568E-01 -7.759031E+01  1.400938E-04 1.544222E+02  1.427265E-04 1.560688E+02  9.563647E-01 -8.361263E+01 
1.333750E+03  9.674748E-01 -7.761379E+01  1.405912E-04 1.562021E+02  1.426002E-04 1.543329E+02  9.562990E-01 -8.364614E+01 
1.334062E+03  9.673821E-01 -7.765235E+01  1.373744E-04 1.525055E+02  1.381154E-04 1.548338E+02  9.563324E-01 -8.367746E+01 
1.334375E+03  9.674944E-01 -7.766985E+01  1.319426E-04 1.532524E+02  1.364394E-04 1.550427E+02  9.561766E-01 -8.371230E+01 
1.334688E+03  9.674433E-01 -7.770699E+01  1.325640E-04 1.551262E+02  1.368076E-04 1.524067E+02  9.560542E-01 -8.373550E+01 
1.335000E+03  9.676654E-01 -7.773278E+01  1.304836E-04 1.531415E+02  1.256106E-04 1.534520E+02  9.561937E-01 -8.376952E+01 
1.335312E+03  9.677234E-01 -7.776523E+01  1.282623E-04 1.520240E+02  1.321712E-04 1.494632E+02  9.562278E-01 -8.379739E+01 
1.335625E+03  9.674731E-01 -7.779551E+01  1.323696E-04 1.528734E+02  1.297695E-04 1.510447E+02  9.561155E-01 -8.384023E+01 
1.335938E+03  9.674641E-01 -7.781842E+01  1.332834E-04 1.517379E+02  1.305819E-04 1.506611E+02  9.560316E-01 -8.387219E+01 
1.336250E+03  9.675673E-01 -7.784500E+01  1.301341E-04 1.535059E+02  1.329124E-04 1.517548E+02  9.561632E-01 -8.390971E+01 
1.336562E+03  9.675250E-01 -7.789317E+01  1.252979E-04 1.524424E+02  1.271181E-04 1.524393E+02  9.559197E-01 -8.394056E+01 
1.336875E+03  9.674127E-01 -7.791577E+01  1.197443E-04 1.520091E+02  1.289768E-04 1.495664E+02  9.559287E-01 -8.397904E+01 
1.337188E+03  9.674455E-01 -7.795345E+01  1.241546E-04 1.490945E+02  1.243064E-04 1.501290E+02  9.559288E-01 -8.400882E+01 
1.337500E+03  9.674721E-01 -7.798345E+01  1.181174E-04 1.491438E+02  1.208390E-04 1.497805E+02  9.558856E-01 -8.403708E+01 
1.337812E+03  9.674453E-01 -7.801276E+01  1.226535E-04 1.515656E+02  1.215959E-04 1.523149E+02  9.559914E-01 -8.407690E+01 
1.338125E+03  9.672518E-01 -7.803905E+01  1.224061E-04 1.493247E+02  1.217449E-04 1.496467E+02  9.558142E-01 -8.410353E+01 
1.338438E+03  9.672422E-01 -7.807250E+01  1.226698E-04 1.539416E+02  1.154631E-04 1.504440E+02  9.557028E-01 -8.413996E+01 
1.338750E+03  9.671872E-01 -7.809446E+01  1.283302E-04 1.508311E+02  1.198955E-04 1.494542E+02  9.556964E-01 -8.417073E+01 
1.339062E+03  9.670789E-01 -7.814219E+01  1.146772E-04 1.507823E+02  1.212370E-04 1.496188E+02  9.556628E-01 -8.419984E+01 
1.339375E+03  9.669136E-01 -7.817376E+01  1.264255E-04 1.497234E+02  1.282599E-04 1.488880E+02  9.554727E-01 -8.423565E+01 
1.339688E+03  9.668518E-01 -7.819694E+01  1.192193E-04 1.483839E+02  1.204180E-04 1.465958E+02  9.555391E-01 -8.425984E+01 
1.340000E+03  9.669448E-01 -7.822656E+01  1.134107E-04 1.473906E+02  1.114933E-04 1.479903E+02  9.552273E-01 -8.429285E+01 
1.340312E+03  9.669199E-01 -7.826683E+01  1.096056E-04 1.444001E+02  1.128246E-04 1.450760E+02  9.552875E-01 -8.431933E+01 
1.340625E+03  9.666401E-01 -7.829674E+01  1.065892E-04 1.446512E+02  1.070507E-04 1.430228E+02  9.552027E-01 -8.435507E+01 
1.340938E+03  9.665598E-01 -7.832022E+01  1.081843E-04 1.457331E+02  1.084842E-04 1.440923E+02  9.550802E-01 -8.438194E+01 
1.341250E+03  9.664766E-01 -7.835348E+01  1.157927E-04 1.481172E+02  1.137714E-04 1.500941E+02  9.548805E-01 -8.441745E+01 
1.341562E+03  9.664922E-01 -7.837997E+01  1.091550E-04 1.468147E+02  1.035156E-04 1.452946E+02  9.548217E-01 -8.444369E+01 
1.341875E+03  9.662689E-01 -7.839785E+01  1.077298E-04 1.444807E+02  1.122037E-04 1.483705E+02  9.547743E-01 -8.446784E+01 
1.342188E+03  9.660906E-01 -7.843599E+01  1.099174E-04 1.458587E+02  1.104403E-04 1.474861E+02  9.547398E-01 -8.450182E+01 
1.342500E+03  9.658641E-01 -7.847319E+01  1.154992E-04 1.470975E+02  1.083522E-04 1.473173E+02  9.547376E-01 -8.452290E+01 
1.342812E+03  9.658635E-01 -7.849463E+01  1.122591E-04 1.447465E+02  1.079895E-04 1.422072E+02  9.546266E-01 -8.455650E+01 
1.343125E+03  9.657658E-01 -7.851863E+01  1.082651E-04 1.471640E+02  1.068312E-04 1.475063E+02  9.544439E-01 -8.458332E+01 
1.343438E+03  9.657430E-01 -7.854013E+01  1.071619E-04 1.465295E+02  1.065471E-04 1.434829E+02  9.544113E-01 -8.460559E+01 
1.343750E+03  9.654837E-01 -7.856307E+01  1.109919E-04 1.460738E+02  1.110969E-04 1.469289E+02  9.542937E-01 -8.462667E+01 
1.344062E+03  9.655163E-01 -7.860615E+01  1.037114E-04 1.431268E+02  1.074138E-04 1.420155E+02  9.542924E-01 -8.465293E+01 
1.344375E+03  9.654376E-01 -7.862815E+01  1.037628E-04 1.424511E+02  1.049335E-04 1.427042E+02  9.543275E-01 -8.467999E+01 
1.344688E+03  9.652852E-01 -7.865414E+01  1.065621E-04 1.393369E+02  9.790233E-05 1.424105E+02  9.542700E-01 -8.470994E+01 
1.345000E+03  9.653478E-01 -7.868098E+01  1.012988E-04 1.401440E+02  1.043252E-04 1.444865E+02  9.542389E-01 -8.472808E+01 
1.345312E+03  9.650674E-01 -7.869930E+01  1.040665E-04 1.387957E+02  1.026870E-04 1.423430E+02  9.541549E-01 -8.475025E+01 
1.345625E+03  9.648951E-01 -7.873272E+01  1.024566E-04 1.398751E+02  1.068569E-04 1.422145E+02  9.542219E-01 -8.477761E+01 
1.345938E+03  9.649114E-01 -7.875369E+01  1.113621E-04 1.355559E+02  1.096064E-04 1.357065E+02  9.542118E-01 -8.481296E+01 
1.346250E+03  9.646903E-01 -7.878279E+01  1.059062E-04 1.338895E+02  9.747469E-05 1.365186E+02  9.542527E-01 -8.483342E+01 
1.346562E+03  9.648719E-01 -7.881165E+01  9.475454E-05 1.339103E+02  9.960794E-05 1.367565E+02  9.542631E-01 -8.485621E+01 
1.346875E+03  9.648262E-01 -7.882945E+01  9.369799E-05 1.371841E+02  9.503814E-05 1.370631E+02  9.543871E-01 -8.488196E+01 
1.347188E+03  9.645849E-01 -7.885280E+01  1.013706E-04 1.404084E+02  9.233053E-05 1.407390E+02  9.544582E-01 -8.491624E+01 
1.347500E+03  9.646151E-01 -7.887862E+01  1.001683E-04 1.399563E+02  1.062956E-04 1.343359E+02  9.544598E-01 -8.494553E+01 
1.347812E+03  9.643781E-01 -7.890903E+01  1.022803E-04 1.377755E+02  1.010090E-04 1.390052E+02  9.543790E-01 -8.497526E+01 
1.348125E+03  9.644355E-01 -7.892647E+01  1.027693E-04 1.381241E+02  1.034391E-04 1.378795E+02  9.546268E-01 -8.499758E+01 
1.348438E+03  9.643079E-01 -7.896446E+01  1.019111E-04 1.358091E+02  9.512856E-05 1.351627E+02  9.546498E-01 -8.503051E+01 
