! Matrix data file written by TouchstoneData, EPCOS AG
! FILENAME: "newformat_LP86B_WB.s2p"
! COMMENT: "PCB QCC8D1_26  6 Jun 2006 S11-KEIN KOMMENTAR"
! INFO: nport=2, nfreq=1601
! DATE: "Wed Jan  9 15:29:11 2013"
! USER: "Michael Schemies"
!
! port | pin | signal
! -----|-----|--------
!   1  |  2  |  in
!   2  |  5  |  out
! --------------------
!
# MHZ S MA R 50
! freq  magS11 angS11  magS21 angS21  magS12 angS12  magS22 angS22
1.000000E+01  9.994879E-01 -7.038377E-01  2.226205E-04 9.188776E+01  2.414079E-04 8.440177E+01  9.992724E-01 -3.031151E+00
1.186875E+01  9.994257E-01 -8.255253E-01  3.709462E-04 9.725054E+01  3.982453E-04 9.706645E+01  9.993824E-01 -3.618900E+00
1.373750E+01  9.998188E-01 -1.158976E+00  3.150114E-04 6.302029E+01  3.187794E-04 6.100972E+01  9.996756E-01 -4.251873E+00
1.560625E+01  9.997489E-01 -1.093721E+00  4.295973E-04 8.874921E+01  4.233552E-04 9.046131E+01  9.993413E-01 -4.764371E+00
1.747500E+01  9.992146E-01 -1.156412E+00  5.055085E-04 8.524548E+01  4.903954E-04 8.631597E+01  9.993890E-01 -5.287068E+00
1.934375E+01  9.994830E-01 -1.333505E+00  4.448696E-04 8.505727E+01  4.361451E-04 8.888399E+01  9.992378E-01 -5.875176E+00
2.121250E+01  9.991729E-01 -1.374711E+00  5.537647E-04 9.235426E+01  5.534694E-04 9.124528E+01  9.984105E-01 -6.375143E+00
2.308125E+01  9.990519E-01 -1.622289E+00  6.086998E-04 8.333356E+01  6.352660E-04 8.343764E+01  9.986421E-01 -6.989788E+00
2.495000E+01  9.995357E-01 -1.692526E+00  6.686859E-04 8.004195E+01  6.308344E-04 7.972631E+01  9.983507E-01 -7.506077E+00
2.681875E+01  9.992031E-01 -1.702220E+00  7.664455E-04 8.269380E+01  7.489719E-04 8.430867E+01  9.982099E-01 -8.068699E+00
2.868750E+01  9.990663E-01 -2.057735E+00  7.168486E-04 8.604429E+01  7.034874E-04 8.576833E+01  9.989375E-01 -8.704245E+00
3.055625E+01  9.976653E-01 -2.408675E+00  8.840244E-04 7.868736E+01  8.558006E-04 8.037230E+01  9.984563E-01 -9.329882E+00
3.242500E+01  9.985583E-01 -2.334668E+00  9.336920E-04 8.529621E+01  9.204954E-04 8.392323E+01  9.981451E-01 -9.864510E+00
3.429375E+01  9.988317E-01 -2.380354E+00  8.673894E-04 8.323472E+01  8.949688E-04 8.378137E+01  9.980491E-01 -1.039036E+01
3.616250E+01  9.986768E-01 -2.489836E+00  9.814569E-04 8.418778E+01  9.880553E-04 8.396586E+01  9.981367E-01 -1.093281E+01
3.803125E+01  9.990535E-01 -2.610001E+00  1.061626E-03 8.298132E+01  1.074969E-03 8.358146E+01  9.974561E-01 -1.147924E+01
3.990000E+01  9.992515E-01 -2.730462E+00  1.073955E-03 8.525987E+01  1.069454E-03 8.488739E+01  9.976675E-01 -1.204214E+01
4.176875E+01  9.976539E-01 -2.978589E+00  1.157042E-03 8.412277E+01  1.138582E-03 8.385569E+01  9.975178E-01 -1.251158E+01
4.363750E+01  9.984130E-01 -3.049061E+00  1.213342E-03 8.268546E+01  1.224853E-03 8.183632E+01  9.971665E-01 -1.313872E+01
4.550625E+01  9.987623E-01 -3.057496E+00  1.214589E-03 8.446404E+01  1.181230E-03 8.488382E+01  9.970340E-01 -1.368323E+01
4.737500E+01  9.987744E-01 -3.125867E+00  1.254038E-03 8.214013E+01  1.244345E-03 8.211255E+01  9.967278E-01 -1.425396E+01
4.924375E+01  9.988867E-01 -3.250944E+00  1.309314E-03 8.090665E+01  1.304629E-03 8.055998E+01  9.969299E-01 -1.476445E+01
5.111250E+01  9.989443E-01 -3.397825E+00  1.369608E-03 8.020897E+01  1.349811E-03 8.081342E+01  9.966386E-01 -1.532211E+01
5.298125E+01  9.987924E-01 -3.558944E+00  1.425718E-03 8.076117E+01  1.418040E-03 7.977765E+01  9.966515E-01 -1.589542E+01
5.485000E+01  9.985348E-01 -3.681134E+00  1.489649E-03 8.147914E+01  1.494990E-03 8.165333E+01  9.961737E-01 -1.641495E+01
5.671875E+01  9.985933E-01 -3.811745E+00  1.491466E-03 7.941914E+01  1.501096E-03 7.973657E+01  9.962592E-01 -1.697220E+01
5.858750E+01  9.987187E-01 -3.947817E+00  1.526171E-03 7.896340E+01  1.563099E-03 7.945181E+01  9.962258E-01 -1.753253E+01
6.045625E+01  9.987028E-01 -4.075743E+00  1.629338E-03 7.945325E+01  1.623449E-03 7.933490E+01  9.959390E-01 -1.810898E+01
6.232500E+01  9.982592E-01 -4.201482E+00  1.663986E-03 7.949643E+01  1.686411E-03 7.913453E+01  9.956123E-01 -1.862375E+01
6.419375E+01  9.985211E-01 -4.322377E+00  1.682685E-03 7.754254E+01  1.670733E-03 7.852008E+01  9.956059E-01 -1.919303E+01
6.606250E+01  9.987270E-01 -4.448346E+00  1.726804E-03 7.726736E+01  1.702070E-03 7.709233E+01  9.952173E-01 -1.974651E+01
6.793125E+01  9.983415E-01 -4.578099E+00  1.840249E-03 7.811048E+01  1.829913E-03 7.838232E+01  9.954222E-01 -2.027944E+01
6.980000E+01  9.986005E-01 -4.705888E+00  1.875177E-03 7.662660E+01  1.853779E-03 7.708806E+01  9.951189E-01 -2.087769E+01
7.166875E+01  9.983957E-01 -4.831276E+00  1.904560E-03 7.643233E+01  1.896736E-03 7.749537E+01  9.941435E-01 -2.141275E+01
7.353750E+01  9.984527E-01 -4.946517E+00  1.930132E-03 7.775611E+01  1.903106E-03 7.736227E+01  9.943842E-01 -2.192833E+01
7.540625E+01  9.985900E-01 -5.071492E+00  1.987096E-03 7.613380E+01  1.998094E-03 7.613328E+01  9.945178E-01 -2.247078E+01
7.727500E+01  9.984882E-01 -5.229564E+00  2.032895E-03 7.550314E+01  2.033871E-03 7.552249E+01  9.943392E-01 -2.302521E+01
7.914375E+01  9.981569E-01 -5.369540E+00  2.064048E-03 7.542377E+01  2.066446E-03 7.501434E+01  9.943420E-01 -2.360262E+01
8.101250E+01  9.981563E-01 -5.472384E+00  2.121340E-03 7.528154E+01  2.107966E-03 7.495213E+01  9.938466E-01 -2.411159E+01
8.288125E+01  9.980214E-01 -5.597178E+00  2.231616E-03 7.467835E+01  2.205662E-03 7.482535E+01  9.939238E-01 -2.465468E+01
8.475000E+01  9.984505E-01 -5.723716E+00  2.242302E-03 7.527461E+01  2.204683E-03 7.511363E+01  9.934741E-01 -2.519370E+01
8.661875E+01  9.980653E-01 -5.860843E+00  2.282616E-03 7.399504E+01  2.288252E-03 7.444888E+01  9.935384E-01 -2.576266E+01
8.848750E+01  9.977488E-01 -5.976848E+00  2.252600E-03 7.473154E+01  2.255515E-03 7.494577E+01  9.926545E-01 -2.631018E+01
9.035625E+01  9.981638E-01 -6.095116E+00  2.373978E-03 7.244487E+01  2.377801E-03 7.256310E+01  9.928247E-01 -2.681388E+01
9.222500E+01  9.983486E-01 -6.217947E+00  2.428640E-03 7.278789E+01  2.403427E-03 7.309451E+01  9.929964E-01 -2.736141E+01
9.409375E+01  9.981684E-01 -6.348684E+00  2.441433E-03 7.203032E+01  2.451477E-03 7.217065E+01  9.926405E-01 -2.788706E+01
9.596250E+01  9.981621E-01 -6.496092E+00  2.482650E-03 7.267176E+01  2.487397E-03 7.275789E+01  9.924746E-01 -2.843464E+01
9.783125E+01  9.979085E-01 -6.574433E+00  2.568727E-03 7.260281E+01  2.611094E-03 7.310609E+01  9.915699E-01 -2.895361E+01
9.970000E+01  9.978489E-01 -6.717769E+00  2.567283E-03 7.172938E+01  2.573573E-03 7.190612E+01  9.919956E-01 -2.948694E+01
1.015687E+02  9.980112E-01 -6.852689E+00  2.607030E-03 7.122487E+01  2.637434E-03 7.136613E+01  9.916167E-01 -3.002043E+01
1.034375E+02  9.977911E-01 -6.988157E+00  2.686306E-03 7.085379E+01  2.679593E-03 7.131916E+01  9.913173E-01 -3.056875E+01
1.053062E+02  9.978166E-01 -7.134875E+00  2.752279E-03 7.111204E+01  2.719697E-03 7.088541E+01  9.910051E-01 -3.111375E+01
1.071750E+02  9.977067E-01 -7.227007E+00  2.798009E-03 7.040068E+01  2.800788E-03 7.040282E+01  9.908971E-01 -3.163084E+01
1.090437E+02  9.977438E-01 -7.378012E+00  2.798808E-03 6.998274E+01  2.814361E-03 7.015076E+01  9.908462E-01 -3.214951E+01
1.109125E+02  9.979109E-01 -7.493063E+00  2.837100E-03 7.011487E+01  2.836743E-03 7.026801E+01  9.909309E-01 -3.266959E+01
1.127812E+02  9.975824E-01 -7.614505E+00  2.892122E-03 6.948088E+01  2.903017E-03 6.927032E+01  9.904818E-01 -3.321422E+01
1.146500E+02  9.974644E-01 -7.765370E+00  2.939759E-03 6.929547E+01  2.935734E-03 6.896881E+01  9.897530E-01 -3.380551E+01
1.165187E+02  9.975081E-01 -7.861680E+00  2.967199E-03 6.788505E+01  2.963430E-03 6.800235E+01  9.899687E-01 -3.425659E+01
1.183875E+02  9.978173E-01 -7.987168E+00  2.934679E-03 6.872023E+01  2.981115E-03 6.854770E+01  9.893444E-01 -3.477982E+01
1.202562E+02  9.975943E-01 -8.127457E+00  3.033021E-03 6.840757E+01  3.019302E-03 6.818726E+01  9.885225E-01 -3.531617E+01
1.221250E+02  9.975454E-01 -8.259265E+00  3.124272E-03 6.695425E+01  3.117428E-03 6.701136E+01  9.892288E-01 -3.583687E+01
1.239937E+02  9.972283E-01 -8.364661E+00  3.072295E-03 6.873140E+01  3.092054E-03 6.847059E+01  9.881475E-01 -3.637299E+01
1.258625E+02  9.974585E-01 -8.487567E+00  3.184156E-03 6.656538E+01  3.186886E-03 6.607261E+01  9.884445E-01 -3.686185E+01
1.277312E+02  9.975430E-01 -8.614195E+00  3.266708E-03 6.688118E+01  3.256532E-03 6.693966E+01  9.882650E-01 -3.737705E+01
1.296000E+02  9.973442E-01 -8.736834E+00  3.223075E-03 6.748288E+01  3.236132E-03 6.636425E+01  9.880351E-01 -3.792173E+01
1.314688E+02  9.975368E-01 -8.873682E+00  3.299229E-03 6.598686E+01  3.305763E-03 6.593529E+01  9.877527E-01 -3.842426E+01
1.333375E+02  9.973629E-01 -8.980099E+00  3.359027E-03 6.508989E+01  3.347900E-03 6.613851E+01  9.869388E-01 -3.889946E+01
1.352062E+02  9.973934E-01 -9.113042E+00  3.406420E-03 6.497655E+01  3.388231E-03 6.536401E+01  9.872140E-01 -3.943896E+01
1.370750E+02  9.972979E-01 -9.254632E+00  3.424717E-03 6.514353E+01  3.402285E-03 6.527306E+01  9.872058E-01 -3.993707E+01
1.389437E+02  9.974139E-01 -9.368374E+00  3.484055E-03 6.465669E+01  3.466737E-03 6.474688E+01  9.868269E-01 -4.046324E+01
1.408125E+02  9.973150E-01 -9.512321E+00  3.520334E-03 6.375372E+01  3.495244E-03 6.440980E+01  9.865721E-01 -4.097844E+01
1.426813E+02  9.971266E-01 -9.606781E+00  3.498033E-03 6.402367E+01  3.514237E-03 6.395037E+01  9.860719E-01 -4.147991E+01
1.445500E+02  9.969031E-01 -9.730542E+00  3.600202E-03 6.328222E+01  3.584215E-03 6.386016E+01  9.857619E-01 -4.199736E+01
1.464187E+02  9.974743E-01 -9.852032E+00  3.619375E-03 6.290102E+01  3.597427E-03 6.321178E+01  9.855817E-01 -4.247438E+01
1.482875E+02  9.971785E-01 -9.986852E+00  3.663296E-03 6.384981E+01  3.670359E-03 6.353326E+01  9.852305E-01 -4.299841E+01
1.501562E+02  9.967069E-01 -1.012632E+01  3.695984E-03 6.189916E+01  3.688903E-03 6.202831E+01  9.839116E-01 -4.353063E+01
1.520250E+02  9.970511E-01 -1.022241E+01  3.752839E-03 6.273104E+01  3.736325E-03 6.330509E+01  9.846646E-01 -4.399335E+01
1.538937E+02  9.970022E-01 -1.034051E+01  3.730869E-03 6.199940E+01  3.724003E-03 6.188103E+01  9.847395E-01 -4.450560E+01
1.557625E+02  9.970324E-01 -1.047579E+01  3.779498E-03 6.191245E+01  3.780672E-03 6.208077E+01  9.842154E-01 -4.499190E+01
1.576312E+02  9.970209E-01 -1.059944E+01  3.862607E-03 6.135523E+01  3.853108E-03 6.177138E+01  9.841949E-01 -4.548769E+01
1.595000E+02  9.965095E-01 -1.071188E+01  3.862308E-03 6.098912E+01  3.837141E-03 6.146527E+01  9.829240E-01 -4.598796E+01
1.613688E+02  9.970533E-01 -1.083631E+01  3.899796E-03 6.102276E+01  3.881922E-03 6.098109E+01  9.833074E-01 -4.647293E+01
1.632375E+02  9.969268E-01 -1.095968E+01  3.962171E-03 6.080495E+01  3.960557E-03 6.104924E+01  9.829220E-01 -4.697087E+01
1.651062E+02  9.968728E-01 -1.109061E+01  3.999092E-03 6.066936E+01  3.987370E-03 6.065624E+01  9.830395E-01 -4.747097E+01
1.669750E+02  9.970060E-01 -1.122956E+01  4.040519E-03 6.052216E+01  4.012585E-03 6.036035E+01  9.824750E-01 -4.797471E+01
1.688438E+02  9.966597E-01 -1.131008E+01  4.075522E-03 6.020019E+01  4.062940E-03 6.043510E+01  9.822162E-01 -4.842655E+01
1.707125E+02  9.967998E-01 -1.144150E+01  4.104926E-03 5.961540E+01  4.112800E-03 5.968719E+01  9.819147E-01 -4.890699E+01
1.725812E+02  9.964629E-01 -1.156841E+01  4.158044E-03 5.922630E+01  4.138042E-03 5.979219E+01  9.815628E-01 -4.940754E+01
1.744500E+02  9.966791E-01 -1.169094E+01  4.167493E-03 5.866113E+01  4.129887E-03 5.872451E+01  9.818369E-01 -4.989190E+01
1.763187E+02  9.965376E-01 -1.183171E+01  4.225525E-03 5.848311E+01  4.208133E-03 5.874050E+01  9.813725E-01 -5.041270E+01
1.781875E+02  9.965592E-01 -1.193080E+01  4.275234E-03 5.853301E+01  4.233545E-03 5.849937E+01  9.806974E-01 -5.086471E+01
1.800563E+02  9.965939E-01 -1.206207E+01  4.270373E-03 5.812786E+01  4.262154E-03 5.827481E+01  9.804374E-01 -5.133970E+01
1.819250E+02  9.962862E-01 -1.219160E+01  4.294554E-03 5.781326E+01  4.278465E-03 5.810222E+01  9.800417E-01 -5.181955E+01
1.837937E+02  9.967177E-01 -1.230523E+01  4.362208E-03 5.738440E+01  4.347600E-03 5.757536E+01  9.800272E-01 -5.229102E+01
1.856625E+02  9.956444E-01 -1.243290E+01  4.354395E-03 5.741689E+01  4.327189E-03 5.751554E+01  9.788291E-01 -5.276172E+01
1.875312E+02  9.963216E-01 -1.252659E+01  4.387243E-03 5.698747E+01  4.378666E-03 5.723016E+01  9.792338E-01 -5.321851E+01
1.894000E+02  9.965141E-01 -1.266168E+01  4.439333E-03 5.627161E+01  4.423492E-03 5.651866E+01  9.789067E-01 -5.370337E+01
1.912687E+02  9.962810E-01 -1.279001E+01  4.481456E-03 5.632833E+01  4.473580E-03 5.627677E+01  9.789878E-01 -5.418741E+01
1.931375E+02  9.962158E-01 -1.292832E+01  4.501724E-03 5.634162E+01  4.523726E-03 5.621608E+01  9.787339E-01 -5.469243E+01
1.950062E+02  9.959293E-01 -1.301791E+01  4.556815E-03 5.573582E+01  4.550285E-03 5.568311E+01  9.778152E-01 -5.512063E+01
1.968750E+02  9.960614E-01 -1.315418E+01  4.573842E-03 5.558848E+01  4.570282E-03 5.596768E+01  9.779383E-01 -5.559159E+01
1.987437E+02  9.962148E-01 -1.326535E+01  4.611940E-03 5.516357E+01  4.611999E-03 5.554719E+01  9.775255E-01 -5.605274E+01
2.006125E+02  9.961780E-01 -1.340432E+01  4.640915E-03 5.497952E+01  4.621614E-03 5.475907E+01  9.772295E-01 -5.652317E+01
2.024812E+02  9.960417E-01 -1.351879E+01  4.679060E-03 5.454910E+01  4.679939E-03 5.473425E+01  9.774145E-01 -5.700539E+01
2.043500E+02  9.960842E-01 -1.363418E+01  4.678364E-03 5.431984E+01  4.686751E-03 5.481830E+01  9.764077E-01 -5.743487E+01
2.062188E+02  9.958023E-01 -1.375804E+01  4.742304E-03 5.398837E+01  4.713010E-03 5.427492E+01  9.763967E-01 -5.793233E+01
2.080875E+02  9.961653E-01 -1.389132E+01  4.764975E-03 5.367343E+01  4.767050E-03 5.370748E+01  9.761810E-01 -5.837140E+01
2.099562E+02  9.959078E-01 -1.399067E+01  4.824701E-03 5.321072E+01  4.776367E-03 5.344405E+01  9.758073E-01 -5.885188E+01
2.118250E+02  9.957712E-01 -1.415248E+01  4.830343E-03 5.265477E+01  4.817887E-03 5.295196E+01  9.751667E-01 -5.934985E+01
2.136937E+02  9.959951E-01 -1.424530E+01  4.854247E-03 5.285981E+01  4.839245E-03 5.282013E+01  9.747141E-01 -5.974218E+01
2.155625E+02  9.957246E-01 -1.436463E+01  4.871541E-03 5.248905E+01  4.862057E-03 5.265805E+01  9.745798E-01 -6.018984E+01
2.174312E+02  9.958493E-01 -1.449452E+01  4.919143E-03 5.230556E+01  4.924376E-03 5.249977E+01  9.744769E-01 -6.063955E+01
2.193000E+02  9.955970E-01 -1.463860E+01  4.952770E-03 5.230296E+01  4.931941E-03 5.228394E+01  9.743780E-01 -6.110888E+01
2.211687E+02  9.949394E-01 -1.471359E+01  4.951067E-03 5.189662E+01  4.925551E-03 5.201275E+01  9.733760E-01 -6.154291E+01
2.230375E+02  9.954278E-01 -1.486098E+01  5.003438E-03 5.139977E+01  4.981952E-03 5.149156E+01  9.735925E-01 -6.201059E+01
2.249062E+02  9.957088E-01 -1.497682E+01  5.049191E-03 5.136588E+01  5.039448E-03 5.139628E+01  9.734979E-01 -6.245362E+01
2.267750E+02  9.954865E-01 -1.509580E+01  5.066632E-03 5.097076E+01  5.036623E-03 5.107423E+01  9.733888E-01 -6.289809E+01
2.286437E+02  9.954725E-01 -1.524180E+01  5.094769E-03 5.035093E+01  5.090902E-03 5.069865E+01  9.726842E-01 -6.335480E+01
2.305125E+02  9.952806E-01 -1.533560E+01  5.090682E-03 5.013911E+01  5.089511E-03 5.049388E+01  9.723319E-01 -6.377590E+01
2.323812E+02  9.953044E-01 -1.547283E+01  5.143766E-03 4.997450E+01  5.142808E-03 5.029800E+01  9.722631E-01 -6.423435E+01
2.342500E+02  9.955302E-01 -1.559587E+01  5.146004E-03 4.945385E+01  5.169333E-03 4.941346E+01  9.723088E-01 -6.465236E+01
2.361187E+02  9.958053E-01 -1.573145E+01  5.195163E-03 4.942256E+01  5.192416E-03 4.971820E+01  9.722640E-01 -6.511800E+01
2.379875E+02  9.952209E-01 -1.587155E+01  5.196493E-03 4.921922E+01  5.192560E-03 4.914736E+01  9.717857E-01 -6.558257E+01
2.398562E+02  9.952541E-01 -1.595204E+01  5.218965E-03 4.902061E+01  5.237444E-03 4.897561E+01  9.712405E-01 -6.598109E+01
2.417250E+02  9.955222E-01 -1.608694E+01  5.263286E-03 4.857538E+01  5.257386E-03 4.878765E+01  9.713419E-01 -6.641086E+01
2.435938E+02  9.953205E-01 -1.620774E+01  5.285479E-03 4.841175E+01  5.287752E-03 4.867967E+01  9.708985E-01 -6.684771E+01
2.454625E+02  9.951753E-01 -1.633428E+01  5.291096E-03 4.795002E+01  5.305357E-03 4.795342E+01  9.705497E-01 -6.727851E+01
2.473312E+02  9.944824E-01 -1.646795E+01  5.333587E-03 4.736251E+01  5.327497E-03 4.750273E+01  9.696496E-01 -6.772899E+01
2.492000E+02  9.951080E-01 -1.657424E+01  5.359075E-03 4.760408E+01  5.339431E-03 4.764142E+01  9.700015E-01 -6.811455E+01
2.510687E+02  9.951723E-01 -1.670244E+01  5.399855E-03 4.761935E+01  5.409321E-03 4.776913E+01  9.696387E-01 -6.853874E+01
2.529375E+02  9.949228E-01 -1.682664E+01  5.394426E-03 4.701365E+01  5.394367E-03 4.709999E+01  9.696771E-01 -6.897313E+01
2.548062E+02  9.951434E-01 -1.695529E+01  5.438225E-03 4.690056E+01  5.442425E-03 4.703615E+01  9.692654E-01 -6.942446E+01
2.566750E+02  9.946670E-01 -1.704051E+01  5.461684E-03 4.635305E+01  5.449393E-03 4.671163E+01  9.685623E-01 -6.982418E+01
2.585437E+02  9.950902E-01 -1.718533E+01  5.503957E-03 4.612538E+01  5.497827E-03 4.603746E+01  9.682682E-01 -7.024460E+01
2.604125E+02  9.952479E-01 -1.730974E+01  5.504517E-03 4.600425E+01  5.533209E-03 4.644133E+01  9.679719E-01 -7.066708E+01
2.622812E+02  9.949491E-01 -1.742924E+01  5.532501E-03 4.560142E+01  5.542076E-03 4.565038E+01  9.677743E-01 -7.109110E+01
2.641500E+02  9.951355E-01 -1.755792E+01  5.568405E-03 4.567626E+01  5.559351E-03 4.572175E+01  9.675598E-01 -7.150289E+01
2.660188E+02  9.946478E-01 -1.767001E+01  5.551484E-03 4.539939E+01  5.556506E-03 4.542865E+01  9.669536E-01 -7.189981E+01
2.678875E+02  9.947672E-01 -1.779653E+01  5.604209E-03 4.478114E+01  5.604587E-03 4.501074E+01  9.669612E-01 -7.229080E+01
2.697562E+02  9.948009E-01 -1.792627E+01  5.618286E-03 4.467763E+01  5.628559E-03 4.481429E+01  9.669389E-01 -7.272595E+01
2.716250E+02  9.949031E-01 -1.804361E+01  5.648632E-03 4.436191E+01  5.632341E-03 4.451646E+01  9.666035E-01 -7.313769E+01
2.734937E+02  9.945377E-01 -1.820161E+01  5.683111E-03 4.430549E+01  5.701388E-03 4.423546E+01  9.659401E-01 -7.361160E+01
2.753625E+02  9.949845E-01 -1.828410E+01  5.657954E-03 4.424403E+01  5.663964E-03 4.406238E+01  9.655178E-01 -7.394185E+01
2.772312E+02  9.947313E-01 -1.841199E+01  5.691629E-03 4.371832E+01  5.708383E-03 4.407051E+01  9.653366E-01 -7.434206E+01
2.791000E+02  9.944735E-01 -1.855381E+01  5.731552E-03 4.317977E+01  5.721360E-03 4.354949E+01  9.651423E-01 -7.476861E+01
2.809688E+02  9.944904E-01 -1.866998E+01  5.754526E-03 4.324178E+01  5.758194E-03 4.346729E+01  9.649525E-01 -7.515613E+01
2.828375E+02  9.940806E-01 -1.878866E+01  5.766743E-03 4.302952E+01  5.761081E-03 4.293302E+01  9.640605E-01 -7.556170E+01
2.847063E+02  9.945112E-01 -1.890431E+01  5.826475E-03 4.262338E+01  5.782041E-03 4.288846E+01  9.645192E-01 -7.595230E+01
2.865750E+02  9.944238E-01 -1.904197E+01  5.806796E-03 4.246898E+01  5.806691E-03 4.250761E+01  9.641782E-01 -7.636135E+01
2.884437E+02  9.944754E-01 -1.916826E+01  5.844074E-03 4.196557E+01  5.822821E-03 4.198777E+01  9.638567E-01 -7.678304E+01
2.903125E+02  9.943632E-01 -1.930242E+01  5.845214E-03 4.195789E+01  5.874274E-03 4.214567E+01  9.639148E-01 -7.719003E+01
2.921812E+02  9.941745E-01 -1.940133E+01  5.853260E-03 4.185318E+01  5.848173E-03 4.176967E+01  9.631364E-01 -7.755777E+01
2.940500E+02  9.945222E-01 -1.952851E+01  5.876148E-03 4.122704E+01  5.899647E-03 4.149229E+01  9.627373E-01 -7.796333E+01
2.959187E+02  9.942437E-01 -1.965806E+01  5.865758E-03 4.119141E+01  5.899573E-03 4.132704E+01  9.625640E-01 -7.833486E+01
2.977875E+02  9.945819E-01 -1.979094E+01  5.933904E-03 4.098468E+01  5.931724E-03 4.107592E+01  9.626475E-01 -7.874064E+01
2.996562E+02  9.941306E-01 -1.993219E+01  5.930773E-03 4.072762E+01  5.930796E-03 4.076592E+01  9.622063E-01 -7.916513E+01
3.015250E+02  9.941102E-01 -2.002426E+01  5.942609E-03 4.036177E+01  5.950225E-03 4.048803E+01  9.617371E-01 -7.949083E+01
3.033938E+02  9.940038E-01 -2.016421E+01  5.975752E-03 4.016440E+01  5.982990E-03 4.034379E+01  9.615921E-01 -7.988761E+01
3.052625E+02  9.941879E-01 -2.027792E+01  5.975692E-03 4.015093E+01  6.002690E-03 4.003581E+01  9.613262E-01 -8.029691E+01
