! Matrix data file written by TouchstoneData, EPCOS AG
! FILENAME: "B3524_NB.s2p"
! COMMENT: "(LU77C1_3_NB.s2p) EPCOS AG 11.03.10 17:14:47"
! INFO: nport=2, nfreq=1601
! DATE: "Tue Apr  6 13:00:36 2010"
! USER: "Sergey Rostovtsev"
!
! port | pin | signal
! -----|-----|--------
!   1  |  1  |  in
!   2  |  3  |  out
! --------------------
! 
# MHZ S MA R 50
! freq  magS11 angS11  magS21 angS21  magS12 angS12  magS22 angS22
1.375420E+03  9.703157E-01 -5.809076E+01  3.542947E-03 4.910234E+01  3.538455E-03 4.906838E+01  9.647650E-01 -6.733524E+01 
1.375670E+03  9.703406E-01 -5.811157E+01  3.557260E-03 4.893233E+01  3.550714E-03 4.911238E+01  9.649034E-01 -6.733129E+01 
1.375920E+03  9.701840E-01 -5.813368E+01  3.561969E-03 4.906276E+01  3.565572E-03 4.888853E+01  9.650805E-01 -6.735381E+01 
1.376170E+03  9.700693E-01 -5.814994E+01  3.551689E-03 4.899548E+01  3.563480E-03 4.893761E+01  9.650818E-01 -6.736936E+01 
1.376420E+03  9.699807E-01 -5.817185E+01  3.531683E-03 4.879840E+01  3.554168E-03 4.878730E+01  9.651465E-01 -6.738476E+01 
1.376670E+03  9.699264E-01 -5.820559E+01  3.534447E-03 4.910858E+01  3.555244E-03 4.913321E+01  9.653682E-01 -6.741228E+01 
1.376920E+03  9.698639E-01 -5.821659E+01  3.539797E-03 4.891174E+01  3.546771E-03 4.899679E+01  9.654261E-01 -6.743420E+01 
1.377170E+03  9.696600E-01 -5.824799E+01  3.531972E-03 4.889449E+01  3.519911E-03 4.880689E+01  9.654231E-01 -6.745746E+01 
1.377420E+03  9.694075E-01 -5.827661E+01  3.510038E-03 4.875494E+01  3.524071E-03 4.878292E+01  9.651720E-01 -6.748077E+01 
1.377670E+03  9.694243E-01 -5.828772E+01  3.539270E-03 4.857497E+01  3.513753E-03 4.891106E+01  9.653056E-01 -6.749705E+01 
1.377920E+03  9.693377E-01 -5.830400E+01  3.505621E-03 4.867940E+01  3.503265E-03 4.862084E+01  9.654460E-01 -6.752245E+01 
1.378170E+03  9.693230E-01 -5.832495E+01  3.487748E-03 4.891125E+01  3.523766E-03 4.868603E+01  9.656589E-01 -6.754338E+01 
1.378420E+03  9.693760E-01 -5.835035E+01  3.473443E-03 4.862088E+01  3.467676E-03 4.875610E+01  9.658378E-01 -6.756795E+01 
1.378670E+03  9.692842E-01 -5.836614E+01  3.468526E-03 4.890231E+01  3.480706E-03 4.886624E+01  9.660121E-01 -6.759206E+01 
1.378920E+03  9.692033E-01 -5.838940E+01  3.477734E-03 4.920088E+01  3.467640E-03 4.906123E+01  9.661174E-01 -6.761218E+01 
1.379170E+03  9.689317E-01 -5.842194E+01  3.463015E-03 4.884509E+01  3.455979E-03 4.887994E+01  9.660842E-01 -6.764348E+01 
1.379420E+03  9.689484E-01 -5.843321E+01  3.446816E-03 4.908923E+01  3.434529E-03 4.893154E+01  9.659784E-01 -6.765810E+01 
1.379670E+03  9.688588E-01 -5.845931E+01  3.429693E-03 4.892358E+01  3.421520E-03 4.890613E+01  9.661517E-01 -6.768802E+01 
1.379920E+03  9.688756E-01 -5.846891E+01  3.415679E-03 4.906467E+01  3.424191E-03 4.921319E+01  9.660804E-01 -6.770471E+01 
1.380170E+03  9.688253E-01 -5.848788E+01  3.435769E-03 4.926311E+01  3.410416E-03 4.920973E+01  9.663954E-01 -6.773858E+01 
1.380420E+03  9.686026E-01 -5.851990E+01  3.425530E-03 4.940380E+01  3.422241E-03 4.915536E+01  9.663755E-01 -6.776106E+01 
1.380670E+03  9.686065E-01 -5.853382E+01  3.423520E-03 4.916174E+01  3.412007E-03 4.901098E+01  9.664766E-01 -6.777932E+01 
1.380920E+03  9.686672E-01 -5.855975E+01  3.393927E-03 4.893212E+01  3.392106E-03 4.863016E+01  9.664748E-01 -6.781545E+01 
1.381170E+03  9.682265E-01 -5.857274E+01  3.388686E-03 4.942209E+01  3.399935E-03 4.912615E+01  9.664245E-01 -6.783363E+01 
1.381420E+03  9.683156E-01 -5.859116E+01  3.384809E-03 4.928591E+01  3.396201E-03 4.908048E+01  9.663590E-01 -6.785698E+01 
1.381670E+03  9.683726E-01 -5.859545E+01  3.370657E-03 4.893963E+01  3.382934E-03 4.931717E+01  9.662645E-01 -6.786957E+01 
1.381920E+03  9.685478E-01 -5.860235E+01  3.376719E-03 4.930562E+01  3.365576E-03 4.912609E+01  9.663854E-01 -6.789282E+01 
1.382170E+03  9.685033E-01 -5.863688E+01  3.352668E-03 4.954411E+01  3.355337E-03 4.954644E+01  9.665680E-01 -6.790467E+01 
1.382420E+03  9.683770E-01 -5.865066E+01  3.371744E-03 4.923720E+01  3.349955E-03 4.932531E+01  9.665452E-01 -6.794000E+01 
1.382670E+03  9.684293E-01 -5.866748E+01  3.348480E-03 4.964412E+01  3.351300E-03 4.928616E+01  9.666116E-01 -6.795954E+01 
1.382920E+03  9.684806E-01 -5.869277E+01  3.344721E-03 4.973286E+01  3.329099E-03 4.946805E+01  9.666627E-01 -6.799039E+01 
1.383170E+03  9.683651E-01 -5.872968E+01  3.332664E-03 4.954049E+01  3.323433E-03 4.910579E+01  9.666173E-01 -6.802330E+01 
1.383420E+03  9.684017E-01 -5.873609E+01  3.334355E-03 4.937831E+01  3.330657E-03 4.947760E+01  9.664971E-01 -6.805213E+01 
1.383670E+03  9.682376E-01 -5.875662E+01  3.304476E-03 4.940055E+01  3.300640E-03 4.923909E+01  9.665189E-01 -6.808225E+01 
1.383920E+03  9.683232E-01 -5.876892E+01  3.302666E-03 4.947711E+01  3.302756E-03 4.954484E+01  9.664483E-01 -6.809466E+01 
1.384170E+03  9.682154E-01 -5.879676E+01  3.313996E-03 4.947556E+01  3.279577E-03 4.914155E+01  9.663914E-01 -6.811096E+01 
1.384420E+03  9.682492E-01 -5.881796E+01  3.268543E-03 4.940850E+01  3.282788E-03 4.970780E+01  9.664935E-01 -6.813201E+01 
1.384670E+03  9.682365E-01 -5.883544E+01  3.274522E-03 4.961312E+01  3.270385E-03 4.971666E+01  9.665602E-01 -6.816532E+01 
1.384920E+03  9.680696E-01 -5.885911E+01  3.258339E-03 4.950969E+01  3.280704E-03 4.970114E+01  9.666752E-01 -6.818680E+01 
1.385170E+03  9.679038E-01 -5.887922E+01  3.264477E-03 4.968348E+01  3.276751E-03 4.971092E+01  9.667159E-01 -6.821383E+01 
1.385420E+03  9.677407E-01 -5.890099E+01  3.261652E-03 4.934666E+01  3.261641E-03 4.944919E+01  9.666827E-01 -6.825033E+01 
1.385670E+03  9.674345E-01 -5.890618E+01  3.233281E-03 4.936264E+01  3.248857E-03 4.907159E+01  9.666692E-01 -6.826482E+01 
1.385920E+03  9.673622E-01 -5.892255E+01  3.243974E-03 4.936841E+01  3.231760E-03 4.910949E+01  9.664965E-01 -6.829393E+01 
1.386170E+03  9.674352E-01 -5.893994E+01  3.229797E-03 4.949692E+01  3.201180E-03 4.931832E+01  9.664449E-01 -6.831184E+01 
1.386420E+03  9.673853E-01 -5.894992E+01  3.205724E-03 4.906039E+01  3.199798E-03 4.925761E+01  9.665643E-01 -6.832965E+01 
1.386670E+03  9.673821E-01 -5.897918E+01  3.169063E-03 4.929052E+01  3.196811E-03 4.877077E+01  9.667391E-01 -6.835136E+01 
1.386920E+03  9.672560E-01 -5.898736E+01  3.156093E-03 4.885264E+01  3.166217E-03 4.897732E+01  9.667492E-01 -6.839082E+01 
1.387170E+03  9.671883E-01 -5.901348E+01  3.171390E-03 4.896208E+01  3.126263E-03 4.925581E+01  9.667773E-01 -6.841951E+01 
1.387420E+03  9.670119E-01 -5.902394E+01  3.126011E-03 4.919015E+01  3.156956E-03 4.923723E+01  9.667539E-01 -6.844010E+01 
1.387670E+03  9.667564E-01 -5.902754E+01  3.135882E-03 4.921736E+01  3.118211E-03 4.903658E+01  9.667852E-01 -6.846865E+01 
1.387920E+03  9.666833E-01 -5.903369E+01  3.108567E-03 4.894039E+01  3.083713E-03 4.885773E+01  9.665615E-01 -6.849314E+01 
1.388170E+03  9.665620E-01 -5.904995E+01  3.077274E-03 4.944284E+01  3.090317E-03 4.925051E+01  9.665316E-01 -6.851053E+01 
1.388420E+03  9.667359E-01 -5.906080E+01  3.051948E-03 4.944824E+01  3.041974E-03 4.954890E+01  9.665162E-01 -6.853276E+01 
1.388670E+03  9.666201E-01 -5.907233E+01  3.052132E-03 4.961255E+01  3.049225E-03 4.919250E+01  9.665882E-01 -6.855271E+01 
1.388920E+03  9.665428E-01 -5.908845E+01  3.020211E-03 4.944411E+01  3.007400E-03 4.935059E+01  9.665505E-01 -6.857850E+01 
1.389170E+03  9.667191E-01 -5.910317E+01  3.016788E-03 4.967741E+01  2.996086E-03 4.963123E+01  9.667167E-01 -6.861177E+01 
1.389420E+03  9.666521E-01 -5.911040E+01  3.007802E-03 4.932599E+01  3.007455E-03 4.973895E+01  9.666476E-01 -6.864168E+01 
1.389670E+03  9.666825E-01 -5.911731E+01  2.985561E-03 4.987288E+01  2.980794E-03 4.969409E+01  9.665970E-01 -6.867022E+01 
1.389920E+03  9.669303E-01 -5.913350E+01  2.957949E-03 4.988457E+01  2.943210E-03 4.964520E+01  9.664833E-01 -6.869388E+01 
1.390170E+03  9.669801E-01 -5.914222E+01  2.935313E-03 4.974545E+01  2.937726E-03 4.995622E+01  9.664419E-01 -6.871519E+01 
1.390420E+03  9.671167E-01 -5.916127E+01  2.913223E-03 5.007817E+01  2.931700E-03 5.066778E+01  9.662157E-01 -6.873883E+01 
1.390670E+03  9.674680E-01 -5.918014E+01  2.885438E-03 5.056226E+01  2.910715E-03 5.069961E+01  9.662536E-01 -6.876027E+01 
1.390920E+03  9.675603E-01 -5.917682E+01  2.897693E-03 5.085497E+01  2.890103E-03 5.090709E+01  9.660781E-01 -6.877529E+01 
1.391170E+03  9.676408E-01 -5.921194E+01  2.876345E-03 5.115921E+01  2.885592E-03 5.098287E+01  9.663740E-01 -6.880941E+01 
1.391420E+03  9.676337E-01 -5.923692E+01  2.874076E-03 5.131450E+01  2.872058E-03 5.125816E+01  9.661026E-01 -6.884231E+01 
1.391670E+03  9.677668E-01 -5.925956E+01  2.846354E-03 5.112091E+01  2.850455E-03 5.121236E+01  9.660794E-01 -6.886402E+01 
1.391920E+03  9.677688E-01 -5.927210E+01  2.831057E-03 5.149548E+01  2.843865E-03 5.113454E+01  9.659700E-01 -6.890503E+01 
1.392170E+03  9.678519E-01 -5.929232E+01  2.821661E-03 5.150058E+01  2.831528E-03 5.162953E+01  9.657006E-01 -6.893047E+01 
1.392420E+03  9.678012E-01 -5.931807E+01  2.816772E-03 5.254343E+01  2.815653E-03 5.188469E+01  9.654633E-01 -6.895499E+01 
1.392670E+03  9.678649E-01 -5.935149E+01  2.789771E-03 5.253514E+01  2.788287E-03 5.194343E+01  9.655336E-01 -6.897674E+01 
1.392920E+03  9.678952E-01 -5.937429E+01  2.784926E-03 5.249312E+01  2.764866E-03 5.279551E+01  9.655354E-01 -6.900482E+01 
1.393170E+03  9.680162E-01 -5.940116E+01  2.784275E-03 5.287867E+01  2.776679E-03 5.283674E+01  9.653204E-01 -6.902834E+01 
1.393420E+03  9.678475E-01 -5.944010E+01  2.740404E-03 5.343235E+01  2.762914E-03 5.287158E+01  9.653751E-01 -6.906602E+01 
1.393670E+03  9.678168E-01 -5.946362E+01  2.756868E-03 5.337915E+01  2.750727E-03 5.295957E+01  9.650820E-01 -6.910279E+01 
1.393920E+03  9.677892E-01 -5.948014E+01  2.727424E-03 5.384129E+01  2.737316E-03 5.369419E+01  9.649943E-01 -6.913120E+01 
1.394170E+03  9.678743E-01 -5.949970E+01  2.729065E-03 5.377031E+01  2.730366E-03 5.397305E+01  9.648204E-01 -6.916610E+01 
1.394420E+03  9.677705E-01 -5.952622E+01  2.711741E-03 5.440007E+01  2.714950E-03 5.437660E+01  9.645240E-01 -6.919206E+01 
1.394670E+03  9.679392E-01 -5.955497E+01  2.702678E-03 5.461094E+01  2.712517E-03 5.489807E+01  9.645346E-01 -6.920790E+01 
1.394920E+03  9.682358E-01 -5.957151E+01  2.691418E-03 5.478661E+01  2.677645E-03 5.489817E+01  9.644629E-01 -6.923396E+01 
1.395170E+03  9.684432E-01 -5.960255E+01  2.664128E-03 5.547563E+01  2.703759E-03 5.488109E+01  9.642533E-01 -6.924489E+01 
1.395420E+03  9.685833E-01 -5.963407E+01  2.691015E-03 5.541896E+01  2.670342E-03 5.555162E+01  9.641413E-01 -6.926854E+01 
1.395670E+03  9.686921E-01 -5.965615E+01  2.658028E-03 5.574315E+01  2.672544E-03 5.569013E+01  9.640043E-01 -6.929818E+01 
1.395920E+03  9.687143E-01 -5.968170E+01  2.662958E-03 5.592365E+01  2.649158E-03 5.636389E+01  9.639803E-01 -6.932791E+01 
1.396170E+03  9.687105E-01 -5.969940E+01  2.644280E-03 5.638488E+01  2.637107E-03 5.599403E+01  9.636969E-01 -6.934837E+01 
1.396420E+03  9.687720E-01 -5.972279E+01  2.647454E-03 5.694378E+01  2.638454E-03 5.638566E+01  9.633174E-01 -6.935550E+01 
1.396670E+03  9.688828E-01 -5.974424E+01  2.653131E-03 5.724905E+01  2.630244E-03 5.744163E+01  9.629527E-01 -6.937995E+01 
1.396920E+03  9.690605E-01 -5.977306E+01  2.626993E-03 5.788066E+01  2.611804E-03 5.755343E+01  9.628104E-01 -6.938603E+01 
1.397170E+03  9.691901E-01 -5.979792E+01  2.637473E-03 5.831074E+01  2.619690E-03 5.827855E+01  9.625514E-01 -6.939719E+01 
1.397420E+03  9.690990E-01 -5.983669E+01  2.635400E-03 5.844433E+01  2.634526E-03 5.849344E+01  9.623850E-01 -6.940617E+01 
1.397670E+03  9.689822E-01 -5.984901E+01  2.629388E-03 5.838300E+01  2.632685E-03 5.844155E+01  9.621906E-01 -6.941989E+01 
1.397920E+03  9.690289E-01 -5.988614E+01  2.656309E-03 5.839426E+01  2.640405E-03 5.876103E+01  9.622336E-01 -6.942919E+01 
1.398170E+03  9.690232E-01 -5.991158E+01  2.603167E-03 5.912302E+01  2.631756E-03 5.942530E+01  9.619615E-01 -6.944388E+01 
1.398420E+03  9.690050E-01 -5.993155E+01  2.636916E-03 5.952006E+01  2.649290E-03 5.927866E+01  9.619347E-01 -6.945348E+01 
1.398670E+03  9.690315E-01 -5.995517E+01  2.632045E-03 5.976173E+01  2.632487E-03 5.999819E+01  9.618664E-01 -6.946663E+01 
1.398920E+03  9.692431E-01 -5.997890E+01  2.617988E-03 6.004210E+01  2.659375E-03 6.005054E+01  9.617526E-01 -6.945708E+01 
1.399170E+03  9.692245E-01 -6.000815E+01  2.658805E-03 5.971242E+01  2.668752E-03 6.020657E+01  9.618990E-01 -6.947162E+01 
1.399420E+03  9.693115E-01 -6.003128E+01  2.645885E-03 6.005597E+01  2.662610E-03 5.991856E+01  9.619603E-01 -6.947226E+01 
1.399670E+03  9.692061E-01 -6.006414E+01  2.654648E-03 5.995029E+01  2.655347E-03 5.978154E+01  9.621008E-01 -6.948817E+01 
1.399920E+03  9.690657E-01 -6.009269E+01  2.654694E-03 6.020535E+01  2.685565E-03 6.002560E+01  9.621185E-01 -6.950490E+01 
1.400170E+03  9.692291E-01 -6.012207E+01  2.665382E-03 6.038304E+01  2.663129E-03 5.980506E+01  9.623893E-01 -6.952249E+01 
1.400420E+03  9.689610E-01 -6.014812E+01  2.652007E-03 6.016939E+01  2.658145E-03 6.014878E+01  9.623767E-01 -6.954074E+01 
1.400670E+03  9.689222E-01 -6.017020E+01  2.661751E-03 6.058507E+01  2.661953E-03 5.997079E+01  9.626603E-01 -6.956477E+01 
1.400920E+03  9.688014E-01 -6.018934E+01  2.661467E-03 6.023152E+01  2.642151E-03 6.027877E+01  9.626551E-01 -6.958723E+01 
1.401170E+03  9.689545E-01 -6.021791E+01  2.640304E-03 6.029291E+01  2.627525E-03 6.008442E+01  9.628466E-01 -6.960709E+01 
1.401420E+03  9.688959E-01 -6.024881E+01  2.631887E-03 6.060432E+01  2.631564E-03 6.055712E+01  9.628705E-01 -6.963392E+01 
1.401670E+03  9.689323E-01 -6.027029E+01  2.619981E-03 6.051796E+01  2.650452E-03 6.085730E+01  9.630974E-01 -6.966009E+01 
1.401920E+03  9.689018E-01 -6.030129E+01  2.639770E-03 6.097847E+01  2.624827E-03 6.085767E+01  9.630870E-01 -6.967965E+01 
1.402170E+03  9.687377E-01 -6.032282E+01  2.663554E-03 6.098682E+01  2.637348E-03 6.093620E+01  9.632105E-01 -6.970119E+01 
1.402420E+03  9.688198E-01 -6.035954E+01  2.651009E-03 6.062740E+01  2.630043E-03 6.142779E+01  9.630746E-01 -6.972529E+01 
1.402670E+03  9.688021E-01 -6.037347E+01  2.610758E-03 6.096633E+01  2.653337E-03 6.046851E+01  9.632390E-01 -6.975073E+01 
1.402920E+03  9.687517E-01 -6.038898E+01  2.631356E-03 6.064553E+01  2.625488E-03 6.079815E+01  9.632943E-01 -6.975822E+01 
1.403170E+03  9.686483E-01 -6.042912E+01  2.621691E-03 6.071065E+01  2.610105E-03 6.065711E+01  9.634605E-01 -6.978704E+01 
1.403420E+03  9.684435E-01 -6.045482E+01  2.614092E-03 6.042099E+01  2.616252E-03 6.076986E+01  9.634140E-01 -6.981250E+01 
1.403670E+03  9.684140E-01 -6.048279E+01  2.587689E-03 6.027373E+01  2.596151E-03 6.049219E+01  9.634747E-01 -6.984653E+01 
1.403920E+03  9.683422E-01 -6.051151E+01  2.601954E-03 6.069689E+01  2.575308E-03 6.117319E+01  9.636049E-01 -6.987010E+01 
1.404170E+03  9.680616E-01 -6.054401E+01  2.563600E-03 6.107879E+01  2.586751E-03 6.074151E+01  9.637177E-01 -6.990253E+01 
1.404420E+03  9.682284E-01 -6.057114E+01  2.573457E-03 6.072744E+01  2.565896E-03 6.057906E+01  9.635829E-01 -6.992960E+01 
1.404670E+03  9.679750E-01 -6.058209E+01  2.556610E-03 6.098864E+01  2.575906E-03 6.084135E+01  9.637384E-01 -6.996110E+01 
1.404920E+03  9.682493E-01 -6.061244E+01  2.531723E-03 6.082977E+01  2.534884E-03 6.074721E+01  9.637421E-01 -6.998092E+01 
1.405170E+03  9.680689E-01 -6.064376E+01  2.520434E-03 6.129207E+01  2.542381E-03 6.140916E+01  9.639023E-01 -7.000031E+01 
1.405420E+03  9.681553E-01 -6.066886E+01  2.543084E-03 6.104856E+01  2.533586E-03 6.106183E+01  9.639183E-01 -7.002958E+01 
1.405670E+03  9.679210E-01 -6.069539E+01  2.525656E-03 6.152323E+01  2.513297E-03 6.088446E+01  9.639395E-01 -7.005687E+01 
1.405920E+03  9.677209E-01 -6.072096E+01  2.522398E-03 6.114197E+01  2.518963E-03 6.075102E+01  9.640691E-01 -7.007760E+01 
1.406170E+03  9.678309E-01 -6.075469E+01  2.516652E-03 6.087892E+01  2.514392E-03 6.090151E+01  9.639898E-01 -7.012339E+01 
1.406420E+03  9.677895E-01 -6.078630E+01  2.495483E-03 6.061846E+01  2.505079E-03 6.070842E+01  9.639357E-01 -7.014884E+01 
1.406670E+03  9.677236E-01 -6.081584E+01  2.487487E-03 6.087310E+01  2.484268E-03 6.077732E+01  9.640440E-01 -7.016254E+01 
1.406920E+03  9.674516E-01 -6.083606E+01  2.449753E-03 6.072708E+01  2.445983E-03 6.122759E+01  9.639559E-01 -7.020203E+01 
1.407170E+03  9.672571E-01 -6.086660E+01  2.444319E-03 6.085712E+01  2.459382E-03 6.110490E+01  9.640773E-01 -7.022283E+01 
1.407420E+03  9.674347E-01 -6.088398E+01  2.432705E-03 6.082624E+01  2.431156E-03 6.071031E+01  9.640996E-01 -7.024409E+01 
1.407670E+03  9.671494E-01 -6.090752E+01  2.414770E-03 6.054320E+01  2.398887E-03 6.096563E+01  9.640174E-01 -7.027633E+01 
1.407920E+03  9.672222E-01 -6.094165E+01  2.385988E-03 6.087090E+01  2.382234E-03 6.110017E+01  9.642568E-01 -7.030047E+01 
1.408170E+03  9.671956E-01 -6.096982E+01  2.363038E-03 6.103425E+01  2.376975E-03 6.116775E+01  9.641016E-01 -7.034274E+01 
1.408420E+03  9.670246E-01 -6.099935E+01  2.362963E-03 6.109113E+01  2.356183E-03 6.118637E+01  9.641495E-01 -7.036174E+01 
1.408670E+03  9.667193E-01 -6.102696E+01  2.343780E-03 6.162720E+01  2.323866E-03 6.190619E+01  9.639692E-01 -7.038782E+01 
1.408920E+03  9.665909E-01 -6.105503E+01  2.320114E-03 6.154022E+01  2.324969E-03 6.196239E+01  9.640417E-01 -7.041456E+01 
1.409170E+03  9.663887E-01 -6.108545E+01  2.297489E-03 6.173581E+01  2.314050E-03 6.243747E+01  9.637051E-01 -7.044386E+01 
1.409420E+03  9.662460E-01 -6.110255E+01  2.319360E-03 6.231588E+01  2.297003E-03 6.233601E+01  9.638276E-01 -7.046401E+01 
1.409670E+03  9.659079E-01 -6.113084E+01  2.276106E-03 6.241741E+01  2.255906E-03 6.160963E+01  9.636872E-01 -7.050417E+01 
1.409920E+03  9.658332E-01 -6.115614E+01  2.268979E-03 6.263433E+01  2.252244E-03 6.291747E+01  9.636063E-01 -7.053209E+01 
1.410170E+03  9.657391E-01 -6.118436E+01  2.235659E-03 6.321377E+01  2.234976E-03 6.294733E+01  9.636653E-01 -7.055835E+01 
1.410420E+03  9.656161E-01 -6.120245E+01  2.212493E-03 6.314916E+01  2.226742E-03 6.335202E+01  9.636144E-01 -7.057431E+01 
1.410670E+03  9.655982E-01 -6.123139E+01  2.213777E-03 6.337056E+01  2.220491E-03 6.341494E+01  9.636546E-01 -7.059298E+01 
1.410920E+03  9.656072E-01 -6.125127E+01  2.192855E-03 6.367352E+01  2.186857E-03 6.359715E+01  9.637346E-01 -7.062247E+01 
1.411170E+03  9.656533E-01 -6.127556E+01  2.169391E-03 6.402077E+01  2.194634E-03 6.425108E+01  9.638128E-01 -7.064643E+01 
1.411420E+03  9.655324E-01 -6.128453E+01  2.176100E-03 6.417372E+01  2.169404E-03 6.412578E+01  9.640107E-01 -7.067317E+01 
1.411670E+03  9.654225E-01 -6.129983E+01  2.140048E-03 6.437248E+01  2.165530E-03 6.470005E+01  9.638995E-01 -7.069073E+01 
1.411920E+03  9.654003E-01 -6.132650E+01  2.138107E-03 6.533532E+01  2.134155E-03 6.500509E+01  9.640539E-01 -7.072646E+01 
1.412170E+03  9.654651E-01 -6.134983E+01  2.132150E-03 6.551088E+01  2.118341E-03 6.502537E+01  9.640373E-01 -7.074242E+01 
1.412420E+03  9.654596E-01 -6.136330E+01  2.120036E-03 6.562649E+01  2.120183E-03 6.560379E+01  9.639950E-01 -7.078349E+01 
1.412670E+03  9.653942E-01 -6.138102E+01  2.113078E-03 6.538611E+01  2.127991E-03 6.536635E+01  9.639811E-01 -7.080929E+01 
1.412920E+03  9.655326E-01 -6.140696E+01  2.086913E-03 6.535480E+01  2.099006E-03 6.592217E+01  9.640727E-01 -7.083218E+01 
1.413170E+03  9.653803E-01 -6.143987E+01  2.082173E-03 6.660229E+01  2.054424E-03 6.637632E+01  9.639945E-01 -7.086928E+01 
1.413420E+03  9.654605E-01 -6.145795E+01  2.038745E-03 6.679876E+01  2.047613E-03 6.691982E+01  9.641220E-01 -7.089088E+01 
1.413670E+03  9.651301E-01 -6.149471E+01  2.057153E-03 6.752114E+01  2.049147E-03 6.737511E+01  9.640761E-01 -7.091155E+01 
1.413920E+03  9.651890E-01 -6.151006E+01  2.016191E-03 6.805083E+01  2.015314E-03 6.843042E+01  9.643352E-01 -7.094873E+01 
1.414170E+03  9.652733E-01 -6.152745E+01  2.026516E-03 6.753817E+01  2.007320E-03 6.820684E+01  9.642568E-01 -7.097630E+01 
1.414420E+03  9.651711E-01 -6.154935E+01  2.003876E-03 6.851473E+01  1.994341E-03 6.827610E+01  9.642611E-01 -7.101348E+01 
