! Matrix data file written by TouchstoneData, EPCOS AG
! FILENAME: "B3525_WB.S3P_newformat"
! COMMENT: "(B3525_WB.S3P) Agilent Technologies,E5071B,M"
! INFO: nport=3, nfreq=1601
! DATE: "Wed May  5 13:07:33 2010"
! USER: "Sergey Rostovtsev"
!
! port | pin | signal
! -----|-----|--------
!   1  |  2  |  in
!   2  |  4  |  out
!   3  |  6  |  out
! --------------------
! 
# MHZ S MA R 50
! freq  magS11 angS11  magS12 angS12  magS13 angS13  ...
3.000000E-01  1.000960E+00 -1.149039E-03  6.114487E-05 9.432610E+01  1.753473E-05 -1.174549E+02 
 1.620334E-05 1.339026E+02  1.000963E+00 2.133293E-02  1.383496E-04 9.771616E+01 
 9.736212E-06 -1.401594E+02  1.285164E-04 8.447923E+01  1.000703E+00 -6.537774E-02 
2.174813E+00  9.996663E-01 -2.139112E-01  2.214588E-05 1.276037E+02  1.476810E-05 9.494649E+01 
 1.561917E-05 9.349569E+01  9.998132E-01 -1.084464E-01  7.933759E-04 8.922894E+01 
 1.981817E-05 9.745041E+01  8.107137E-04 8.915174E+01  9.996030E-01 -1.382383E-01 
4.049625E+00  9.995666E-01 -3.862946E-01  4.748293E-05 7.062821E+01  5.198266E-05 8.520145E+01 
 4.398534E-05 6.604499E+01  9.999746E-01 -2.291486E-01  1.567319E-03 8.952778E+01 
 4.587341E-05 1.059686E+02  1.563403E-03 8.970942E+01  9.995577E-01 -2.398342E-01 
5.924438E+00  9.995520E-01 -5.892460E-01  1.804746E-05 1.339203E+02  2.616041E-05 7.540347E+01 
 4.349356E-05 8.929642E+01  9.996877E-01 -2.913525E-01  2.206942E-03 8.926369E+01 
 3.939322E-05 1.164931E+02  2.200777E-03 8.914046E+01  9.996638E-01 -3.061918E-01 
7.799250E+00  9.999356E-01 -7.866040E-01  8.466999E-05 6.911458E+01  9.290434E-05 6.395261E+01 
 7.249474E-05 5.320068E+01  9.995694E-01 -4.060235E-01  2.848138E-03 8.976174E+01 
 8.469007E-05 5.678425E+01  2.848266E-03 8.992137E+01  9.995661E-01 -4.184766E-01 
9.674063E+00  9.997577E-01 -9.765252E-01  1.267773E-04 8.695017E+01  1.180413E-04 7.443292E+01 
 1.188617E-04 7.805084E+01  9.994644E-01 -4.962793E-01  3.782557E-03 8.914508E+01 
 1.227722E-04 7.639301E+01  3.773675E-03 8.969906E+01  9.995916E-01 -5.229815E-01 
1.154888E+01  9.998654E-01 -1.140971E+00  4.391021E-05 3.914094E+01  4.665122E-05 -3.971394E+00 
 6.133558E-05 6.805833E+00  9.995080E-01 -6.007289E-01  4.585250E-03 8.951253E+01 
 4.486979E-05 2.990609E+01  4.566632E-03 8.955905E+01  9.993745E-01 -5.798422E-01 
1.342369E+01  9.992980E-01 -1.316967E+00  1.790313E-04 9.001777E+01  1.352468E-04 7.109282E+01 
 1.674735E-04 9.135568E+01  9.992422E-01 -6.929405E-01  5.240491E-03 8.695919E+01 
 1.426156E-04 7.387587E+01  5.229046E-03 8.659839E+01  9.990396E-01 -6.905137E-01 
1.529850E+01  9.993560E-01 -1.514035E+00  1.113842E-04 1.071535E+02  9.556030E-05 1.258392E+02 
 1.124162E-04 1.115344E+02  9.991496E-01 -8.034021E-01  5.859560E-03 8.897411E+01 
 1.008364E-04 1.311335E+02  5.853916E-03 8.898266E+01  9.993736E-01 -7.938098E-01 
1.717331E+01  9.993993E-01 -1.689918E+00  1.467152E-04 8.231707E+01  1.146616E-04 1.080872E+02 
 1.468551E-04 8.021642E+01  9.993912E-01 -8.945579E-01  6.627199E-03 8.892824E+01 
 1.008990E-04 1.050382E+02  6.605193E-03 8.886876E+01  9.993067E-01 -8.919035E-01 
1.904812E+01  9.995945E-01 -1.878746E+00  1.709307E-04 8.640621E+01  2.090413E-04 8.570117E+01 
 2.015014E-04 8.690685E+01  9.991032E-01 -1.004607E+00  7.440515E-03 8.938396E+01 
 2.127061E-04 9.134682E+01  7.449601E-03 8.916638E+01  9.993736E-01 -9.923004E-01 
2.092294E+01  9.991715E-01 -2.059367E+00  1.609022E-04 5.745870E+01  1.349100E-04 4.895118E+01 
 1.764028E-04 6.108327E+01  9.993791E-01 -1.080309E+00  8.110918E-03 8.845646E+01 
 1.491544E-04 6.546898E+01  8.109041E-03 8.851527E+01  9.992566E-01 -1.073688E+00 
2.279775E+01  9.995483E-01 -2.250986E+00  1.543688E-04 1.009504E+02  1.696954E-04 9.542104E+01 
 1.249973E-04 1.035989E+02  9.991976E-01 -1.180030E+00  8.741239E-03 8.842466E+01 
 1.501646E-04 9.547916E+01  8.737476E-03 8.813113E+01  9.992811E-01 -1.197611E+00 
2.467256E+01  9.994159E-01 -2.446117E+00  1.777845E-04 8.781444E+01  1.609533E-04 7.799128E+01 
 1.830864E-04 8.300751E+01  9.990520E-01 -1.266080E+00  9.545386E-03 8.860869E+01 
 1.575582E-04 8.127894E+01  9.558594E-03 8.883456E+01  9.991926E-01 -1.276269E+00 
2.654737E+01  9.990099E-01 -2.594970E+00  5.441511E-04 7.582960E+01  5.990244E-04 7.366966E+01 
 5.461256E-04 7.678192E+01  9.982958E-01 -1.393957E+00  9.977701E-03 9.043905E+01 
 6.100557E-04 7.595082E+01  9.972315E-03 9.052818E+01  9.980864E-01 -1.416283E+00 
2.842219E+01  9.990029E-01 -2.774757E+00  1.684987E-04 7.546894E+01  1.947097E-04 8.268188E+01 
 2.019108E-04 7.807100E+01  9.991429E-01 -1.486977E+00  1.094542E-02 8.867459E+01 
 1.987566E-04 8.142703E+01  1.092343E-02 8.835029E+01  9.987438E-01 -1.464326E+00 
3.029700E+01  9.993084E-01 -2.972342E+00  1.529652E-04 8.058424E+01  1.861609E-04 9.041792E+01 
 1.517627E-04 8.812104E+01  9.994517E-01 -1.568511E+00  1.171747E-02 8.824296E+01 
 1.844663E-04 8.603515E+01  1.171536E-02 8.815618E+01  9.990936E-01 -1.557639E+00 
3.217181E+01  9.988985E-01 -3.162133E+00  2.909615E-04 8.587366E+01  2.720376E-04 9.012532E+01 
 2.716061E-04 8.933591E+01  9.990723E-01 -1.671448E+00  1.250806E-02 8.775561E+01 
 2.849368E-04 9.343276E+01  1.255815E-02 8.769850E+01  9.989275E-01 -1.687830E+00 
3.404662E+01  9.990122E-01 -3.348805E+00  1.581086E-04 9.818922E+01  1.730946E-04 1.037452E+02 
 2.100001E-04 9.621193E+01  9.990913E-01 -1.759103E+00  1.317820E-02 8.820671E+01 
 2.162029E-04 9.948021E+01  1.317498E-02 8.822289E+01  9.990339E-01 -1.770939E+00 
3.592144E+01  9.987847E-01 -3.524301E+00  3.598392E-04 7.631955E+01  3.651493E-04 7.871127E+01 
 3.474157E-04 7.686999E+01  9.986909E-01 -1.856758E+00  1.395801E-02 8.757101E+01 
 3.489675E-04 7.684646E+01  1.396669E-02 8.751701E+01  9.982890E-01 -1.849446E+00 
3.779625E+01  9.988751E-01 -3.689362E+00  2.455707E-04 5.053891E+01  2.305542E-04 4.820151E+01 
 2.542743E-04 5.332629E+01  9.989441E-01 -1.941573E+00  1.466204E-02 8.778903E+01 
 2.450121E-04 5.108108E+01  1.466569E-02 8.769738E+01  9.986948E-01 -1.962842E+00 
3.967106E+01  9.986007E-01 -3.869823E+00  2.760711E-04 8.392745E+01  3.209401E-04 8.343253E+01 
 3.064898E-04 8.254177E+01  9.994394E-01 -2.042858E+00  1.534608E-02 8.775779E+01 
 3.210118E-04 8.494153E+01  1.537050E-02 8.758070E+01  9.990519E-01 -2.039444E+00 
4.154588E+01  9.986685E-01 -4.076441E+00  3.419625E-04 8.579324E+01  3.211674E-04 8.430520E+01 
 3.185488E-04 8.941365E+01  9.992091E-01 -2.135711E+00  1.602007E-02 8.751830E+01 
 2.940231E-04 8.926968E+01  1.601799E-02 8.744965E+01  9.986954E-01 -2.153991E+00 
4.342069E+01  9.984807E-01 -4.238600E+00  3.153970E-04 8.697605E+01  3.138452E-04 9.027359E+01 
 3.589290E-04 8.345684E+01  9.989806E-01 -2.291769E+00  1.673289E-02 8.750139E+01 
 3.356480E-04 8.650277E+01  1.671014E-02 8.743023E+01  9.988499E-01 -2.254506E+00 
4.529550E+01  9.981195E-01 -4.408573E+00  3.810992E-04 8.377044E+01  4.495578E-04 7.679042E+01 
 3.711838E-04 8.618616E+01  9.985230E-01 -2.339678E+00  1.761112E-02 8.703601E+01 
 4.692551E-04 7.524248E+01  1.763299E-02 8.700305E+01  9.981095E-01 -2.360003E+00 
4.717031E+01  9.982972E-01 -4.593565E+00  3.179520E-04 7.778259E+01  3.528840E-04 8.430400E+01 
 3.813313E-04 7.726030E+01  9.987139E-01 -2.414415E+00  1.822240E-02 8.716537E+01 
 3.610264E-04 8.614052E+01  1.820552E-02 8.720399E+01  9.983623E-01 -2.421898E+00 
4.904512E+01  9.986140E-01 -4.773608E+00  3.844780E-04 8.697872E+01  4.024088E-04 8.423136E+01 
 3.925862E-04 8.536374E+01  9.985100E-01 -2.537158E+00  1.892108E-02 8.707020E+01 
 3.738281E-04 8.856230E+01  1.891196E-02 8.709490E+01  9.984433E-01 -2.522326E+00 
5.091994E+01  9.983875E-01 -4.947028E+00  3.660939E-04 9.058260E+01  3.658832E-04 9.398354E+01 
 3.664810E-04 8.463043E+01  9.985445E-01 -2.619277E+00  1.963973E-02 8.717051E+01 
 3.515212E-04 9.361837E+01  1.964898E-02 8.709733E+01  9.985714E-01 -2.615757E+00 
5.279475E+01  9.982599E-01 -5.157150E+00  4.090360E-04 7.547715E+01  3.812940E-04 7.782963E+01 
 4.022523E-04 7.916318E+01  9.985515E-01 -2.721708E+00  2.044822E-02 8.679974E+01 
 4.087719E-04 7.713275E+01  2.045995E-02 8.670890E+01  9.981368E-01 -2.721957E+00 
5.466956E+01  9.981131E-01 -5.312111E+00  3.727816E-04 8.143179E+01  4.388216E-04 7.686222E+01 
 3.738673E-04 7.963311E+01  9.983166E-01 -2.783459E+00  2.106263E-02 8.687540E+01 
 4.552448E-04 7.265199E+01  2.106515E-02 8.681578E+01  9.983693E-01 -2.800617E+00 
5.654438E+01  9.981102E-01 -5.511430E+00  4.083058E-04 8.510553E+01  4.347689E-04 8.296677E+01 
 3.829759E-04 8.273394E+01  9.984793E-01 -2.902208E+00  2.183760E-02 8.657560E+01 
 4.435356E-04 8.313409E+01  2.185707E-02 8.655909E+01  9.983241E-01 -2.899878E+00 
5.841919E+01  9.977404E-01 -5.711294E+00  4.258597E-04 7.819655E+01  4.035715E-04 7.990490E+01 
 3.753695E-04 8.479638E+01  9.984920E-01 -2.998770E+00  2.252519E-02 8.660145E+01 
 3.976555E-04 8.266346E+01  2.253271E-02 8.655567E+01  9.982267E-01 -3.009162E+00 
6.029400E+01  9.980668E-01 -5.845370E+00  4.735387E-04 8.760691E+01  4.576342E-04 8.401783E+01 
 4.812165E-04 8.992851E+01  9.985193E-01 -3.130940E+00  2.321895E-02 8.668149E+01 
 4.561015E-04 8.333798E+01  2.323258E-02 8.665242E+01  9.981930E-01 -3.114182E+00 
6.216881E+01  9.971919E-01 -6.054722E+00  5.481533E-04 8.001136E+01  5.977506E-04 9.669844E+01 
 5.608310E-04 8.331032E+01  9.973234E-01 -3.166154E+00  2.421907E-02 8.605453E+01 
 6.349017E-04 9.533297E+01  2.423009E-02 8.599945E+01  9.976126E-01 -3.157768E+00 
6.404363E+01  9.977753E-01 -6.215702E+00  4.773006E-04 8.213727E+01  4.576247E-04 7.869755E+01 
 4.569125E-04 8.348446E+01  9.981754E-01 -3.282826E+00  2.477145E-02 8.658912E+01 
 4.485414E-04 7.822193E+01  2.480227E-02 8.650777E+01  9.979376E-01 -3.277917E+00 
6.591844E+01  9.979666E-01 -6.418028E+00  4.528100E-04 8.098033E+01  5.166519E-04 8.002393E+01 
 4.591251E-04 8.068179E+01  9.982265E-01 -3.365930E+00  2.555295E-02 8.605220E+01 
 5.064132E-04 8.484889E+01  2.551118E-02 8.611229E+01  9.980105E-01 -3.386297E+00 
6.779325E+01  9.976068E-01 -6.592733E+00  5.112496E-04 8.156305E+01  5.135876E-04 8.455965E+01 
 5.235371E-04 8.451892E+01  9.981629E-01 -3.477556E+00  2.625019E-02 8.611806E+01 
 5.109454E-04 8.420250E+01  2.621797E-02 8.607776E+01  9.982756E-01 -3.469445E+00 
6.966806E+01  9.979563E-01 -6.800226E+00  5.221839E-04 8.115533E+01  5.062272E-04 8.148631E+01 
 5.137756E-04 7.967788E+01  9.981420E-01 -3.602664E+00  2.694927E-02 8.594689E+01 
 5.144000E-04 7.913415E+01  2.693271E-02 8.591964E+01  9.981592E-01 -3.578962E+00 
7.154287E+01  9.969974E-01 -6.957968E+00  5.133677E-04 8.421997E+01  5.513508E-04 8.184397E+01 
 5.200397E-04 8.188207E+01  9.976879E-01 -3.691992E+00  2.750990E-02 8.600435E+01 
 5.507937E-04 8.305375E+01  2.749112E-02 8.602454E+01  9.975823E-01 -3.679543E+00 
7.341769E+01  9.973570E-01 -7.129153E+00  5.783690E-04 8.518603E+01  5.588477E-04 8.835803E+01 
 5.342161E-04 8.433086E+01  9.978578E-01 -3.765783E+00  2.824402E-02 8.560949E+01 
 5.590653E-04 8.571815E+01  2.826965E-02 8.557150E+01  9.976285E-01 -3.762861E+00 
7.529250E+01  9.974570E-01 -7.312190E+00  5.406373E-04 7.974528E+01  5.710202E-04 7.355628E+01 
 5.551361E-04 8.061921E+01  9.977932E-01 -3.858147E+00  2.887065E-02 8.578821E+01 
 5.775825E-04 7.227774E+01  2.888195E-02 8.570471E+01  9.977895E-01 -3.848254E+00 
7.716731E+01  9.977094E-01 -7.492097E+00  5.457038E-04 8.169958E+01  5.623854E-04 8.312125E+01 
 5.600541E-04 7.924268E+01  9.977171E-01 -3.960147E+00  2.970807E-02 8.579591E+01 
 5.564447E-04 8.260483E+01  2.970082E-02 8.580678E+01  9.976640E-01 -3.944834E+00 
7.904212E+01  9.974786E-01 -7.707487E+00  5.718426E-04 8.475150E+01  5.772773E-04 8.961831E+01 
 5.745509E-04 8.518793E+01  9.975133E-01 -4.092944E+00  3.041375E-02 8.543125E+01 
 5.858501E-04 9.050602E+01  3.039314E-02 8.544584E+01  9.974743E-01 -4.085170E+00 
8.091694E+01  9.968858E-01 -7.843137E+00  5.587184E-04 7.367205E+01  5.693332E-04 7.409679E+01 
 5.357393E-04 7.264165E+01  9.975248E-01 -4.125028E+00  3.131360E-02 8.573370E+01 
 5.850601E-04 7.429451E+01  3.130740E-02 8.572485E+01  9.973227E-01 -4.132840E+00 
8.279175E+01  9.971985E-01 -8.016368E+00  5.705530E-04 8.146680E+01  6.148611E-04 8.478926E+01 
 5.943873E-04 7.968201E+01  9.977263E-01 -4.242327E+00  3.192321E-02 8.535932E+01 
 6.354531E-04 8.373975E+01  3.192688E-02 8.525168E+01  9.974077E-01 -4.216952E+00 
8.466656E+01  9.969495E-01 -8.204036E+00  6.337457E-04 8.734211E+01  6.112579E-04 8.471401E+01 
 6.496456E-04 8.593015E+01  9.977750E-01 -4.321762E+00  3.255045E-02 8.528739E+01 
 6.206489E-04 8.409557E+01  3.255637E-02 8.535848E+01  9.976239E-01 -4.322680E+00 
8.654138E+01  9.973408E-01 -8.364578E+00  6.227568E-04 8.956828E+01  5.865378E-04 8.891958E+01 
 6.308222E-04 8.789449E+01  9.975470E-01 -4.424509E+00  3.332368E-02 8.517298E+01 
 5.857260E-04 8.951149E+01  3.330405E-02 8.519017E+01  9.975016E-01 -4.452829E+00 
8.841619E+01  9.960786E-01 -8.586415E+00  5.664173E-04 7.974155E+01  5.865817E-04 7.563011E+01 
 5.722114E-04 8.021367E+01  9.972662E-01 -4.522010E+00  3.384648E-02 8.472711E+01 
 5.928373E-04 7.681848E+01  3.384734E-02 8.471404E+01  9.968469E-01 -4.537590E+00 
9.029100E+01  9.965606E-01 -8.700888E+00  6.731983E-04 8.528242E+01  6.051959E-04 8.435052E+01 
 6.809732E-04 8.535901E+01  9.974106E-01 -4.611996E+00  3.488398E-02 8.515139E+01 
 6.012658E-04 8.319730E+01  3.490089E-02 8.513642E+01  9.968748E-01 -4.615884E+00 
9.216581E+01  9.966704E-01 -8.903403E+00  6.811206E-04 7.751735E+01  6.391422E-04 8.342545E+01 
 6.676541E-04 7.773884E+01  9.972188E-01 -4.721574E+00  3.546117E-02 8.467973E+01 
 6.398512E-04 8.401107E+01  3.546937E-02 8.468076E+01  9.968865E-01 -4.731454E+00 
9.404063E+01  9.965574E-01 -9.106263E+00  6.044982E-04 8.234307E+01  6.522754E-04 8.353536E+01 
 6.092394E-04 8.400480E+01  9.974367E-01 -4.809173E+00  3.601173E-02 8.511237E+01 
 6.323638E-04 8.367404E+01  3.602181E-02 8.509863E+01  9.967600E-01 -4.828275E+00 
9.591544E+01  9.968244E-01 -9.265410E+00  7.504858E-04 7.771837E+01  7.355539E-04 8.066143E+01 
 7.416688E-04 7.882398E+01  9.973883E-01 -4.898224E+00  3.708088E-02 8.458668E+01 
 7.566046E-04 7.971791E+01  3.708651E-02 8.455412E+01  9.970679E-01 -4.925338E+00 
9.779025E+01  9.958625E-01 -9.426699E+00  5.973330E-04 7.732163E+01  6.529381E-04 8.734160E+01 
 5.891739E-04 7.973420E+01  9.968028E-01 -4.993373E+00  3.751785E-02 8.452196E+01 
 6.495671E-04 8.588163E+01  3.753833E-02 8.450168E+01  9.962625E-01 -4.981962E+00 
9.966506E+01  9.966034E-01 -9.629405E+00  7.378830E-04 7.940285E+01  7.432399E-04 8.005875E+01 
 7.370840E-04 7.994381E+01  9.971948E-01 -5.087791E+00  3.838955E-02 8.436915E+01 
 7.216506E-04 7.994355E+01  3.836936E-02 8.437831E+01  9.964581E-01 -5.106359E+00 
1.015399E+02  9.962715E-01 -9.816264E+00  7.434812E-04 8.426055E+01  7.427583E-04 8.463399E+01 
 7.341833E-04 8.343722E+01  9.971770E-01 -5.181635E+00  3.900228E-02 8.408252E+01 
 7.623800E-04 8.554966E+01  3.902905E-02 8.407454E+01  9.968250E-01 -5.192016E+00 
1.034147E+02  9.963604E-01 -9.982258E+00  8.233917E-04 8.112732E+01  7.977797E-04 8.124045E+01 
 8.044212E-04 7.940183E+01  9.966597E-01 -5.275963E+00  3.976985E-02 8.428285E+01 
 8.069163E-04 8.005604E+01  3.977224E-02 8.423242E+01  9.967058E-01 -5.287155E+00 
1.052895E+02  9.965118E-01 -1.016857E+01  7.672731E-04 7.941476E+01  7.812032E-04 7.842220E+01 
 7.671442E-04 8.018063E+01  9.967412E-01 -5.404488E+00  4.040811E-02 8.412874E+01 
 7.714850E-04 7.930887E+01  4.042290E-02 8.408816E+01  9.965008E-01 -5.397838E+00 
1.071643E+02  9.963678E-01 -1.034606E+01  8.444919E-04 8.340053E+01  8.412634E-04 8.485352E+01 
 8.647150E-04 8.252826E+01  9.966424E-01 -5.465616E+00  4.125171E-02 8.406813E+01 
 8.436271E-04 8.394582E+01  4.123377E-02 8.407991E+01  9.964426E-01 -5.481359E+00 
1.090391E+02  9.960773E-01 -1.053247E+01  7.811564E-04 7.949411E+01  7.785141E-04 7.766356E+01 
 7.704483E-04 7.976050E+01  9.967350E-01 -5.566187E+00  4.186244E-02 8.403477E+01 
 7.719381E-04 7.951533E+01  4.187024E-02 8.397782E+01  9.964757E-01 -5.588428E+00 
1.109139E+02  9.959654E-01 -1.073025E+01  7.350045E-04 8.171147E+01  7.655825E-04 8.117016E+01 
 7.377097E-04 8.207656E+01  9.965226E-01 -5.668546E+00  4.259107E-02 8.398328E+01 
 7.742567E-04 8.059108E+01  4.262010E-02 8.393381E+01  9.964209E-01 -5.672946E+00 
1.127887E+02  9.963379E-01 -1.093032E+01  8.683034E-04 8.419068E+01  8.447749E-04 8.153227E+01 
 8.697581E-04 8.278994E+01  9.965123E-01 -5.757995E+00  4.330584E-02 8.371732E+01 
 8.484710E-04 8.194546E+01  4.332390E-02 8.372292E+01  9.959298E-01 -5.800701E+00 
1.146636E+02  9.960526E-01 -1.113705E+01  8.215065E-04 8.512779E+01  8.331909E-04 8.606746E+01 
 8.094052E-04 8.710776E+01  9.966117E-01 -5.907780E+00  4.378275E-02 8.372633E+01 
 8.324650E-04 8.583295E+01  4.379575E-02 8.374287E+01  9.960517E-01 -5.936409E+00 
1.165384E+02  9.956603E-01 -1.127013E+01  9.199665E-04 8.078146E+01  9.184161E-04 8.290296E+01 
 9.017268E-04 8.100301E+01  9.963068E-01 -5.952618E+00  4.463525E-02 8.356476E+01 
 9.151642E-04 8.280824E+01  4.466394E-02 8.354832E+01  9.961450E-01 -5.983857E+00 
1.184132E+02  9.961332E-01 -1.143113E+01  8.552390E-04 8.063095E+01  8.712875E-04 8.127840E+01 
 8.712334E-04 8.117675E+01  9.963592E-01 -6.052052E+00  4.538653E-02 8.336200E+01 
 8.778009E-04 8.023025E+01  4.543233E-02 8.335974E+01  9.959755E-01 -6.083340E+00 
1.202880E+02  9.960275E-01 -1.160822E+01  8.995898E-04 7.976809E+01  8.680085E-04 8.377327E+01 
 9.142985E-04 8.088698E+01  9.963865E-01 -6.149005E+00  4.624545E-02 8.328054E+01 
 8.806219E-04 8.342184E+01  4.633605E-02 8.327422E+01  9.960850E-01 -6.170519E+00 
1.221628E+02  9.961610E-01 -1.182214E+01  9.099384E-04 8.300080E+01  9.338454E-04 8.370670E+01 
 9.222666E-04 8.323500E+01  9.959412E-01 -6.246299E+00  4.695567E-02 8.334123E+01 
 9.677329E-04 8.391326E+01  4.698406E-02 8.330807E+01  9.957290E-01 -6.277556E+00 
1.240376E+02  9.946119E-01 -1.196324E+01  9.242448E-04 7.479309E+01  8.686564E-04 7.469663E+01 
 9.388820E-04 7.321722E+01  9.952166E-01 -6.298117E+00  4.732929E-02 8.323578E+01 
 8.652548E-04 7.389879E+01  4.740422E-02 8.318628E+01  9.952138E-01 -6.353542E+00 
1.259124E+02  9.956557E-01 -1.213484E+01  8.839160E-04 8.202835E+01  9.308871E-04 8.183438E+01 
 8.862342E-04 8.137494E+01  9.959370E-01 -6.418472E+00  4.836219E-02 8.298532E+01 
 9.266431E-04 8.202558E+01  4.839400E-02 8.293316E+01  9.954699E-01 -6.481433E+00 
1.277873E+02  9.954895E-01 -1.233704E+01  9.105200E-04 8.261827E+01  8.771422E-04 7.982631E+01 
 8.962084E-04 8.253360E+01  9.959235E-01 -6.519920E+00  4.892654E-02 8.286698E+01 
 8.873092E-04 7.927529E+01  4.897760E-02 8.283814E+01  9.954179E-01 -6.554304E+00 
1.296621E+02  9.958512E-01 -1.251605E+01  9.185113E-04 8.146630E+01  9.429073E-04 7.957528E+01 
 9.119856E-04 8.150055E+01  9.959369E-01 -6.616156E+00  4.974873E-02 8.283560E+01 
 9.566399E-04 8.145043E+01  4.981326E-02 8.275919E+01  9.956971E-01 -6.661488E+00 
1.315369E+02  9.956400E-01 -1.271562E+01  9.790864E-04 7.653036E+01  9.973234E-04 8.048041E+01 
 9.787652E-04 7.571096E+01  9.958842E-01 -6.712035E+00  5.028234E-02 8.277421E+01 
 9.771382E-04 8.054164E+01  5.037447E-02 8.272367E+01  9.955295E-01 -6.755143E+00 
1.334117E+02  9.953883E-01 -1.286181E+01  1.028830E-03 8.515193E+01  9.438272E-04 8.521421E+01 
 1.027545E-03 8.267177E+01  9.952239E-01 -6.767386E+00  5.113120E-02 8.257440E+01 
 9.448285E-04 8.396133E+01  5.118633E-02 8.253640E+01  9.954029E-01 -6.834885E+00 
1.352865E+02  9.955788E-01 -1.303067E+01  8.800716E-04 7.769965E+01  9.113706E-04 7.475636E+01 
 8.693147E-04 7.769923E+01  9.953303E-01 -6.902291E+00  5.175705E-02 8.279196E+01 
 8.972397E-04 7.493125E+01  5.186943E-02 8.274734E+01  9.949523E-01 -6.942432E+00 
1.371613E+02  9.955550E-01 -1.323080E+01  9.947089E-04 8.289718E+01  9.867111E-04 8.310130E+01 
 9.670435E-04 8.197990E+01  9.956187E-01 -6.986289E+00  5.264220E-02 8.260071E+01 
 1.009094E-03 8.196171E+01  5.265705E-02 8.257257E+01  9.954511E-01 -7.040117E+00 
1.390361E+02  9.958291E-01 -1.342648E+01  9.415340E-04 8.028566E+01  9.845335E-04 8.013866E+01 
