! S-Parameter for B3521 in Touchstone format with Magnitude (lin) and Phase 
! Normalised impedance: 50 Ohm. Measurement system: 50 Ohm. Ta=25°C
! B3521_WB.S2P not matched. Measurement full 2-port calibrated incl. Port.Ext. 
! Start: 10MHz, Stop: 4000MHz, Span 3990MHz 1601 Pts., Step 2.49MHz.
! Date: 21/03/07 - EPCOS SAW COM WT AE PD; AB
!
# MHZ S MA R 50
! freq  magS11 angS11  magS21 angS21  magS12 angS12  magS22 angS22
1.000000E+01  9.994849E-01 -6.167160E-01  9.179377E-05 8.519799E+01  8.509634E-05 8.974665E+01  9.994546E-01 -5.977466E-01 
1.249375E+01  9.996608E-01 -7.405374E-01  9.371400E-06 -2.000580E+00  2.287654E-05 -5.552544E+01  9.994431E-01 -7.190246E-01 
1.498750E+01  9.994250E-01 -9.329019E-01  8.953313E-05 -5.211079E+01  7.954668E-05 -5.791019E+01  9.997696E-01 -1.016385E+00 
1.748125E+01  9.991038E-01 -9.761410E-01  1.157337E-05 -1.021357E+02  7.051199E-06 -1.528991E+02  1.000098E+00 -1.008746E+00 
1.997500E+01  9.993266E-01 -1.177915E+00  6.553454E-05 5.408074E+01  7.651774E-05 5.312660E+01  9.996901E-01 -1.145690E+00 
2.246875E+01  9.990333E-01 -1.324027E+00  1.047701E-04 -1.737583E+02  1.072021E-04 -1.735463E+02  9.986194E-01 -1.310492E+00 
2.496250E+01  9.991658E-01 -1.432071E+00  5.686596E-05 1.263814E+02  4.516044E-05 1.291719E+02  9.982549E-01 -1.400197E+00 
2.745625E+01  9.993036E-01 -1.543502E+00  4.808321E-05 -8.041815E+00  4.873458E-05 -8.100357E+00  9.998628E-01 -1.687131E+00 
2.995000E+01  9.981430E-01 -1.849327E+00  5.678142E-05 1.945108E+01  4.687583E-05 2.242396E+01  9.993833E-01 -1.981798E+00 
3.244375E+01  9.982869E-01 -1.971444E+00  8.591294E-05 -1.208383E+02  8.510063E-05 -1.235044E+02  9.988288E-01 -2.160123E+00 
3.493750E+01  9.987259E-01 -2.050767E+00  2.455262E-05 -9.801514E+01  1.995815E-05 -9.080218E+01  9.988069E-01 -2.214953E+00 
3.743125E+01  9.982562E-01 -2.199281E+00  1.117339E-04 -1.655204E+02  1.103859E-04 -1.645143E+02  9.986848E-01 -2.354387E+00 
3.992500E+01  9.987474E-01 -2.321829E+00  4.830099E-05 -7.723265E+01  5.287139E-05 -8.535166E+01  9.989262E-01 -2.466749E+00 
4.241875E+01  9.979281E-01 -2.535627E+00  1.149133E-05 -9.165144E+01  1.191256E-05 -1.293098E+02  9.995267E-01 -2.453037E+00 
4.491250E+01  9.978830E-01 -2.625811E+00  3.111897E-04 1.465681E+02  3.124958E-04 1.463753E+02  9.978025E-01 -2.717943E+00 
4.740625E+01  9.984937E-01 -2.683747E+00  2.756552E-05 5.447181E+01  2.346700E-05 5.965773E+01  9.986886E-01 -2.893675E+00 
4.990000E+01  9.986758E-01 -2.810192E+00  5.625827E-05 6.207097E+01  5.255571E-05 6.562889E+01  9.990656E-01 -2.946960E+00 
5.239375E+01  9.983843E-01 -2.977120E+00  4.410352E-05 1.696564E+02  4.338961E-05 1.672616E+02  9.988774E-01 -3.091665E+00 
5.488750E+01  9.984463E-01 -3.122017E+00  1.046646E-04 1.235225E+02  1.073531E-04 1.225567E+02  9.986336E-01 -3.262193E+00 
5.738125E+01  9.986278E-01 -3.284652E+00  1.929401E-05 -1.435212E+02  1.890962E-05 -1.539098E+02  9.988400E-01 -3.427085E+00 
5.987500E+01  9.985700E-01 -3.437550E+00  4.235069E-05 9.435436E+01  3.888550E-05 9.460101E+01  9.985455E-01 -3.610145E+00 
6.236875E+01  9.977905E-01 -3.601677E+00  1.663940E-04 -4.018811E+01  1.587106E-04 -4.104165E+01  9.979572E-01 -3.778666E+00 
6.486250E+01  9.984608E-01 -3.711480E+00  3.740927E-05 -2.514627E+01  3.760954E-05 -2.790861E+01  9.985875E-01 -3.899747E+00 
6.735625E+01  9.983571E-01 -3.860662E+00  2.950756E-05 1.583663E+02  3.792260E-05 1.568053E+02  9.985364E-01 -4.070607E+00 
6.985000E+01  9.983812E-01 -4.009116E+00  2.070878E-05 -3.593458E+01  1.837266E-05 -4.844059E+01  9.986212E-01 -4.225923E+00 
7.234375E+01  9.977889E-01 -4.137069E+00  1.034025E-04 1.539071E+02  1.029354E-04 1.537097E+02  9.979552E-01 -4.350907E+00 
7.483750E+01  9.982864E-01 -4.285429E+00  3.498022E-05 3.951695E+01  2.517588E-05 3.773500E+01  9.981495E-01 -4.526739E+00 
7.733125E+01  9.980548E-01 -4.432098E+00  6.722328E-05 1.256479E+02  6.211132E-05 1.266300E+02  9.982220E-01 -4.688691E+00 
7.982500E+01  9.979474E-01 -4.603823E+00  1.954617E-05 1.316884E+02  1.469945E-05 1.365382E+02  9.980417E-01 -4.870633E+00 
8.231875E+01  9.979689E-01 -4.705403E+00  4.552605E-05 4.565012E+01  4.126100E-05 4.082870E+01  9.980408E-01 -4.980307E+00 
8.481250E+01  9.980233E-01 -4.862258E+00  3.078936E-05 -4.483737E+01  2.209017E-05 -4.795027E+01  9.981237E-01 -5.157765E+00 
8.730625E+01  9.980817E-01 -5.004063E+00  4.262985E-05 7.160025E+01  4.619016E-05 6.654292E+01  9.982971E-01 -5.306181E+00 
8.980000E+01  9.974508E-01 -5.125383E+00  5.881543E-05 -7.683003E+00  5.191598E-05 -8.891542E+00  9.977160E-01 -5.464264E+00 
9.229375E+01  9.979721E-01 -5.276222E+00  1.339963E-05 8.553803E+01  1.749269E-05 1.299880E+02  9.979197E-01 -5.600729E+00 
9.478750E+01  9.980893E-01 -5.421434E+00  3.192698E-05 -1.766755E+01  2.875816E-05 -4.886981E+00  9.980162E-01 -5.762087E+00 
9.728125E+01  9.981736E-01 -5.595203E+00  9.194700E-06 -1.626769E+02  1.415865E-05 -1.522571E+02  9.980211E-01 -5.931402E+00 
9.977500E+01  9.980597E-01 -5.690329E+00  1.882475E-05 -1.318301E+02  2.896429E-05 -1.567247E+02  9.979091E-01 -6.046554E+00 
1.022687E+02  9.978494E-01 -5.842073E+00  6.304052E-05 1.138742E+02  6.627577E-05 1.145026E+02  9.978996E-01 -6.206175E+00 
1.047625E+02  9.979804E-01 -6.016071E+00  2.953391E-05 7.627759E+01  2.525107E-05 7.941853E+01  9.981286E-01 -6.428807E+00 
1.072562E+02  9.975862E-01 -6.138117E+00  1.867007E-05 -1.755013E+02  2.194586E-05 -1.542389E+02  9.974043E-01 -6.575767E+00 
1.097500E+02  9.978351E-01 -6.274924E+00  2.945240E-06 1.322326E+02  4.971246E-06 -1.428413E+02  9.980079E-01 -6.722530E+00 
1.122438E+02  9.978659E-01 -6.433781E+00  4.071036E-06 1.351690E+02  4.769088E-06 1.086639E+02  9.981214E-01 -6.874292E+00 
1.147375E+02  9.978684E-01 -6.576127E+00  8.880258E-05 3.979139E+01  7.486788E-05 3.723146E+01  9.981351E-01 -7.026243E+00 
1.172313E+02  9.978293E-01 -6.704242E+00  3.273523E-05 9.475302E+01  4.188774E-05 9.400995E+01  9.980379E-01 -7.144182E+00 
1.197250E+02  9.978283E-01 -6.839245E+00  1.620889E-05 3.190049E+01  1.835898E-05 1.554848E+01  9.980840E-01 -7.311370E+00 
1.222188E+02  9.979227E-01 -6.989677E+00  4.520992E-06 -1.486164E+02  6.951810E-06 -1.737829E+02  9.981485E-01 -7.465896E+00 
1.247125E+02  9.971820E-01 -7.141990E+00  2.722241E-05 7.402340E+01  1.932486E-05 6.747283E+01  9.973408E-01 -7.657973E+00 
1.272062E+02  9.975395E-01 -7.263632E+00  3.415582E-05 -3.293056E+00  2.894372E-05 9.941643E+00  9.977116E-01 -7.747116E+00 
1.297000E+02  9.978593E-01 -7.406400E+00  2.559376E-05 1.174307E+01  3.149145E-05 3.111481E+01  9.980063E-01 -7.910260E+00 
1.321937E+02  9.977268E-01 -7.559943E+00  5.569704E-05 6.660222E+01  4.952564E-05 7.658253E+01  9.979669E-01 -8.058942E+00 
1.346875E+02  9.975551E-01 -7.684144E+00  3.052774E-05 1.661144E+02  2.303448E-05 1.495829E+02  9.975756E-01 -8.175027E+00 
1.371813E+02  9.975317E-01 -7.831070E+00  2.213408E-05 -2.853957E+01  2.557380E-05 -2.036158E+01  9.976925E-01 -8.343863E+00 
1.396750E+02  9.973943E-01 -7.983740E+00  5.923036E-05 5.602853E+01  5.845653E-05 4.562165E+01  9.975394E-01 -8.494799E+00 
1.421687E+02  9.973529E-01 -8.130136E+00  2.310586E-05 2.147409E+01  2.389925E-05 2.286063E+01  9.973618E-01 -8.672023E+00 
1.446625E+02  9.972546E-01 -8.242600E+00  3.346945E-05 5.168854E+00  3.207769E-05 3.324909E+00  9.972090E-01 -8.786324E+00 
1.471562E+02  9.972135E-01 -8.387511E+00  3.505239E-05 3.107344E+01  3.261158E-05 2.689734E+01  9.971911E-01 -8.937078E+00 
1.496500E+02  9.973012E-01 -8.541381E+00  2.285335E-05 9.889330E+01  1.927782E-05 1.044945E+02  9.970440E-01 -9.098002E+00 
1.521438E+02  9.967171E-01 -8.669430E+00  1.738406E-05 -1.666400E+02  2.065516E-05 -1.690219E+02  9.966460E-01 -9.211241E+00 
1.546375E+02  9.971142E-01 -8.822265E+00  5.712272E-05 2.311042E+01  5.315495E-05 2.127261E+01  9.968212E-01 -9.391983E+00 
1.571312E+02  9.970493E-01 -8.962687E+00  2.049928E-05 1.511050E+02  1.039028E-05 1.237659E+02  9.967770E-01 -9.546569E+00 
1.596250E+02  9.967790E-01 -9.119600E+00  6.533877E-06 9.101387E+01  9.323628E-06 9.095954E+01  9.967079E-01 -9.722219E+00 
1.621188E+02  9.968035E-01 -9.232429E+00  4.203676E-05 1.313704E+02  4.399622E-05 1.360728E+02  9.965910E-01 -9.847178E+00 
1.646125E+02  9.967405E-01 -9.386402E+00  2.312638E-05 -2.321918E+01  2.964603E-05 -2.917842E+01  9.964593E-01 -1.000022E+01 
1.671062E+02  9.968821E-01 -9.532392E+00  3.291374E-05 9.556559E+01  3.108272E-05 9.724479E+01  9.964098E-01 -1.015764E+01 
1.696000E+02  9.959876E-01 -9.679212E+00  4.911470E-05 -7.735767E+01  3.914550E-05 -8.086418E+01  9.955614E-01 -1.029383E+01 
1.720938E+02  9.967263E-01 -9.807555E+00  6.592694E-06 1.504784E+02  6.929676E-06 1.470588E+02  9.962211E-01 -1.045746E+01 
1.745875E+02  9.966730E-01 -9.956794E+00  2.658599E-05 8.631746E+01  1.465885E-05 8.871032E+01  9.963835E-01 -1.061179E+01 
1.770813E+02  9.966545E-01 -1.011229E+01  2.750017E-05 5.726743E+01  2.849472E-05 6.925227E+01  9.963414E-01 -1.078173E+01 
1.795750E+02  9.962234E-01 -1.022207E+01  3.008832E-05 1.946383E+01  3.908272E-05 9.775907E+00  9.961842E-01 -1.089651E+01 
1.820687E+02  9.966174E-01 -1.037557E+01  2.667854E-05 8.679026E+00  3.849358E-05 1.130364E+00  9.963609E-01 -1.105283E+01 
1.845625E+02  9.965450E-01 -1.052323E+01  4.567253E-05 1.089415E+01  3.661902E-05 1.194044E+01  9.962848E-01 -1.120815E+01 
1.870563E+02  9.953321E-01 -1.068128E+01  3.236063E-05 5.453039E+01  3.871656E-05 6.758634E+01  9.948209E-01 -1.136019E+01 
1.895500E+02  9.964336E-01 -1.078123E+01  4.280718E-05 1.454076E+02  4.664483E-05 1.462827E+02  9.960963E-01 -1.147301E+01 
1.920437E+02  9.963924E-01 -1.093034E+01  1.533546E-05 9.160676E+01  1.310145E-05 8.571754E+01  9.960023E-01 -1.162922E+01 
1.945375E+02  9.961014E-01 -1.108648E+01  3.282428E-05 3.459111E+01  2.469120E-05 4.328351E+01  9.959555E-01 -1.179232E+01 
1.970312E+02  9.959293E-01 -1.119200E+01  4.273887E-06 -1.553554E+02  1.041701E-05 -1.250204E+02  9.956130E-01 -1.192081E+01 
1.995250E+02  9.961889E-01 -1.135320E+01  1.531371E-05 1.520142E+02  1.535556E-05 1.278011E+02  9.957046E-01 -1.205954E+01 
2.020188E+02  9.959362E-01 -1.149055E+01  3.417894E-05 3.072747E+01  2.717408E-05 3.000712E+01  9.956290E-01 -1.221766E+01 
2.045125E+02  9.957383E-01 -1.167286E+01  3.227581E-05 5.168833E+01  3.479134E-05 6.301589E+01  9.951922E-01 -1.243037E+01 
2.070062E+02  9.956747E-01 -1.177196E+01  5.706267E-05 4.291429E+01  5.760145E-05 3.172950E+01  9.951841E-01 -1.250010E+01 
2.095000E+02  9.957614E-01 -1.191588E+01  3.029825E-05 6.968819E+01  2.918961E-05 7.871492E+01  9.951799E-01 -1.266158E+01 
2.119938E+02  9.956389E-01 -1.206230E+01  3.132667E-05 1.851606E+01  2.697203E-05 1.967247E+01  9.950225E-01 -1.281910E+01 
2.144875E+02  9.950892E-01 -1.218017E+01  3.564794E-05 1.114636E+02  3.774374E-05 1.048234E+02  9.945956E-01 -1.294083E+01 
2.169812E+02  9.952762E-01 -1.233544E+01  4.810648E-05 1.239869E+02  4.740736E-05 1.308908E+02  9.945718E-01 -1.310053E+01 
2.194750E+02  9.950847E-01 -1.248416E+01  2.713468E-05 1.655119E+02  2.734821E-05 1.594166E+02  9.944644E-01 -1.327163E+01 
2.219688E+02  9.949868E-01 -1.266000E+01  3.064643E-05 1.170232E+02  3.937721E-05 1.118049E+02  9.941374E-01 -1.345272E+01 
2.244625E+02  9.951627E-01 -1.275536E+01  4.156442E-05 7.256763E+01  3.583552E-05 8.595023E+01  9.939038E-01 -1.355854E+01 
2.269563E+02  9.949033E-01 -1.290067E+01  3.625006E-05 8.197833E+01  3.495993E-05 7.945488E+01  9.940419E-01 -1.372155E+01 
2.294500E+02  9.949629E-01 -1.307129E+01  4.274062E-05 1.034851E+02  5.008411E-05 1.042688E+02  9.937866E-01 -1.390975E+01 
2.319437E+02  9.939782E-01 -1.319154E+01  1.611651E-05 1.131000E+02  1.853015E-05 1.164848E+02  9.931124E-01 -1.401732E+01 
2.344375E+02  9.945478E-01 -1.335310E+01  7.970363E-06 -1.110273E+02  2.392963E-06 -4.127807E+01  9.935053E-01 -1.419255E+01 
2.369313E+02  9.945705E-01 -1.350164E+01  3.110490E-05 8.700571E+01  2.646953E-05 7.796100E+01  9.936730E-01 -1.437059E+01 
2.394250E+02  9.943687E-01 -1.366310E+01  1.004474E-05 4.692461E+01  8.640047E-06 1.002838E+02  9.935565E-01 -1.455185E+01 
2.419187E+02  9.943263E-01 -1.377563E+01  3.417686E-05 1.284540E+02  3.627025E-05 1.449241E+02  9.934441E-01 -1.467029E+01 
2.444125E+02  9.943964E-01 -1.392883E+01  2.989651E-05 5.058053E+01  2.715008E-05 5.494448E+01  9.936000E-01 -1.483824E+01 
2.469062E+02  9.945857E-01 -1.407128E+01  4.708118E-05 7.760005E+01  4.845248E-05 6.414401E+01  9.936358E-01 -1.499337E+01 
2.494000E+02  9.931644E-01 -1.421812E+01  6.657750E-05 9.461917E+01  6.643762E-05 9.131106E+01  9.924521E-01 -1.514462E+01 
2.518938E+02  9.944939E-01 -1.433656E+01  3.254035E-05 1.057525E+02  3.195346E-05 1.042686E+02  9.937215E-01 -1.528379E+01 
2.543875E+02  9.948413E-01 -1.449227E+01  3.671190E-05 1.432926E+02  2.928164E-05 1.301042E+02  9.939798E-01 -1.544361E+01 
2.568813E+02  9.948916E-01 -1.465283E+01  9.342356E-06 -1.769811E+02  1.498235E-05 1.730880E+02  9.941611E-01 -1.561171E+01 
2.593750E+02  9.946376E-01 -1.475508E+01  1.758507E-05 1.535789E+02  1.293964E-05 1.522650E+02  9.940103E-01 -1.572971E+01 
2.618687E+02  9.949338E-01 -1.490440E+01  1.872979E-05 1.312177E+02  1.720145E-05 1.364526E+02  9.943728E-01 -1.588215E+01 
2.643625E+02  9.948449E-01 -1.505494E+01  2.159839E-05 6.706026E+01  2.008847E-05 7.835001E+01  9.945835E-01 -1.603862E+01 
2.668562E+02  9.940905E-01 -1.524189E+01  6.611375E-05 5.610596E+01  5.296095E-05 6.714317E+01  9.937928E-01 -1.623290E+01 
2.693500E+02  9.948370E-01 -1.530306E+01  5.703849E-05 7.761671E+01  5.221773E-05 8.443239E+01  9.944076E-01 -1.631145E+01 
2.718438E+02  9.951983E-01 -1.545542E+01  2.879881E-05 1.360386E+02  3.045673E-05 1.389567E+02  9.944344E-01 -1.647042E+01 
2.743375E+02  9.950375E-01 -1.560422E+01  2.494000E-05 6.989960E+01  2.466010E-05 8.627596E+01  9.944896E-01 -1.662953E+01 
2.768313E+02  9.946484E-01 -1.571649E+01  4.135683E-05 6.055810E+01  4.367709E-05 7.580983E+01  9.941341E-01 -1.672884E+01 
2.793250E+02  9.948870E-01 -1.586259E+01  4.291226E-05 9.144714E+01  4.639294E-05 8.593182E+01  9.943629E-01 -1.687912E+01 
2.818188E+02  9.948412E-01 -1.600249E+01  1.952548E-05 9.647850E+01  1.742231E-05 7.546697E+01  9.944422E-01 -1.704744E+01 
2.843125E+02  9.946237E-01 -1.617472E+01  3.855751E-05 3.352639E+01  3.203388E-05 3.305843E+01  9.942495E-01 -1.721347E+01 
2.868062E+02  9.944781E-01 -1.626817E+01  5.596851E-05 8.548215E+01  5.479702E-05 7.809351E+01  9.940865E-01 -1.731742E+01 
2.893000E+02  9.946721E-01 -1.641302E+01  6.508746E-05 1.070995E+02  5.668832E-05 9.842988E+01  9.942697E-01 -1.746390E+01 
2.917937E+02  9.946513E-01 -1.656779E+01  9.939003E-06 9.284583E+01  1.530815E-05 3.850797E+01  9.941546E-01 -1.764124E+01 
2.942875E+02  9.939973E-01 -1.666547E+01  5.447234E-05 6.036770E+01  6.052915E-05 5.655590E+01  9.936985E-01 -1.775216E+01 
2.967812E+02  9.946662E-01 -1.684167E+01  4.260233E-05 7.961954E+01  4.037222E-05 6.169450E+01  9.937768E-01 -1.790633E+01 
2.992750E+02  9.945457E-01 -1.695710E+01  3.304740E-05 4.074187E+01  3.293191E-05 4.710463E+01  9.936913E-01 -1.805804E+01 
3.017688E+02  9.944758E-01 -1.713124E+01  3.330130E-05 3.153676E+01  3.485271E-05 2.689145E+01  9.936289E-01 -1.822891E+01 
3.042625E+02  9.941535E-01 -1.723502E+01  2.353125E-05 5.027497E+01  1.287578E-05 5.181072E+01  9.935088E-01 -1.834507E+01 
3.067563E+02  9.944369E-01 -1.737754E+01  3.535734E-05 8.209076E+01  3.605421E-05 8.083295E+01  9.937605E-01 -1.848771E+01 
3.092500E+02  9.942761E-01 -1.754593E+01  8.062587E-06 1.603588E+02  8.822181E-06 1.719663E+02  9.936849E-01 -1.865542E+01 
3.117437E+02  9.932905E-01 -1.764320E+01  3.641438E-05 1.421401E+01  4.855379E-05 1.072943E+01  9.928173E-01 -1.877336E+01 
3.142375E+02  9.940697E-01 -1.778879E+01  4.097527E-05 6.040238E+01  4.373049E-05 5.720943E+01  9.934764E-01 -1.893444E+01 
3.167312E+02  9.944259E-01 -1.793251E+01  4.692273E-05 4.998386E+01  5.083446E-05 5.525586E+01  9.936374E-01 -1.909047E+01 
3.192250E+02  9.943011E-01 -1.808383E+01  3.302007E-05 1.193182E+02  2.971197E-05 1.047743E+02  9.938806E-01 -1.924325E+01 
3.217188E+02  9.945116E-01 -1.818956E+01  2.462757E-05 7.888427E+01  2.250566E-05 7.747209E+01  9.935040E-01 -1.936158E+01 
3.242125E+02  9.943411E-01 -1.835232E+01  1.598206E-05 -4.804907E+01  1.609275E-05 -3.982254E+01  9.936321E-01 -1.951625E+01 
3.267063E+02  9.943478E-01 -1.850267E+01  8.694339E-06 -1.686179E+02  1.271192E-05 1.151081E+02  9.935456E-01 -1.967249E+01 
3.292000E+02  9.931518E-01 -1.865294E+01  2.397828E-05 9.009662E+01  1.863842E-05 9.140377E+01  9.928517E-01 -1.983019E+01 
3.316938E+02  9.941199E-01 -1.874855E+01  3.624590E-05 9.819822E+01  2.888302E-05 8.876703E+01  9.935965E-01 -1.994094E+01 
3.341875E+02  9.941670E-01 -1.889166E+01  3.215541E-05 4.237959E+01  2.883532E-05 3.513261E+01  9.935014E-01 -2.009348E+01 
3.366812E+02  9.944246E-01 -1.903931E+01  3.009530E-05 1.166533E+02  2.835500E-05 1.040564E+02  9.936049E-01 -2.024591E+01 
3.391750E+02  9.938504E-01 -1.915171E+01  1.277520E-05 4.939405E+01  6.470677E-06 1.787658E+01  9.929296E-01 -2.036378E+01 
3.416687E+02  9.940974E-01 -1.930505E+01  1.428785E-05 2.019293E+01  1.906273E-05 2.832775E+01  9.931501E-01 -2.050974E+01 
3.441625E+02  9.940138E-01 -1.944606E+01  2.484412E-05 1.037448E+02  3.492509E-05 1.121749E+02  9.930694E-01 -2.067041E+01 
3.466562E+02  9.934675E-01 -1.961900E+01  3.068121E-05 1.070327E+02  2.670597E-05 1.144830E+02  9.926630E-01 -2.084837E+01 
3.491500E+02  9.935974E-01 -1.969837E+01  2.215589E-05 1.351532E+02  2.011511E-05 1.295624E+02  9.928091E-01 -2.093774E+01 
3.516438E+02  9.936345E-01 -1.983863E+01  2.223984E-05 -1.265350E+00  1.579724E-05 1.419661E+01  9.926975E-01 -2.109045E+01 
3.541375E+02  9.935206E-01 -1.999599E+01  3.490570E-05 6.969156E+01  3.062493E-05 7.569318E+01  9.923819E-01 -2.125628E+01 
3.566313E+02  9.926004E-01 -2.011309E+01  5.805585E-05 9.817245E+01  5.629170E-05 1.149317E+02  9.917962E-01 -2.138930E+01 
3.591250E+02  9.930433E-01 -2.025409E+01  2.498799E-05 2.657663E+01  1.822999E-05 4.126820E+01  9.917900E-01 -2.153958E+01 
3.616187E+02  9.929413E-01 -2.040135E+01  2.086323E-05 1.171561E+02  2.264254E-05 9.452787E+01  9.915886E-01 -2.168594E+01 
3.641125E+02  9.926989E-01 -2.057133E+01  3.419876E-05 8.259359E+01  3.026766E-05 7.953331E+01  9.913782E-01 -2.186844E+01 
3.666062E+02  9.924043E-01 -2.065836E+01  1.157268E-05 -7.581200E+01  1.026317E-05 -5.074050E+01  9.909361E-01 -2.197656E+01 
3.691000E+02  9.925612E-01 -2.080758E+01  2.211663E-05 1.695249E+02  2.173026E-05 1.728738E+02  9.909665E-01 -2.213219E+01 
3.715938E+02  9.925673E-01 -2.096170E+01  9.067701E-06 1.467997E+02  4.484661E-06 1.567749E+02  9.908728E-01 -2.229616E+01 
3.740875E+02  9.916357E-01 -2.109656E+01  2.037629E-05 1.228285E+02  1.478358E-05 1.561774E+02  9.900369E-01 -2.243978E+01 
3.765813E+02  9.920419E-01 -2.122659E+01  1.843989E-05 6.794176E+01  1.961135E-05 5.667392E+01  9.904591E-01 -2.259661E+01 
3.790750E+02  9.922126E-01 -2.138996E+01  3.893479E-05 1.993749E+01  2.540937E-05 2.732921E+01  9.904756E-01 -2.276358E+01 
3.815688E+02  9.921248E-01 -2.154872E+01  3.985438E-05 1.197528E+02  3.396038E-05 1.237089E+02  9.901818E-01 -2.294903E+01 
3.840625E+02  9.916269E-01 -2.166200E+01  3.223363E-05 1.118511E+02  2.748857E-05 1.181462E+02  9.899301E-01 -2.306181E+01 
3.865562E+02  9.917621E-01 -2.181467E+01  4.695493E-06 1.763027E+02  5.098362E-06 -1.696140E+02  9.900783E-01 -2.323782E+01 
3.890500E+02  9.918749E-01 -2.196631E+01  4.794711E-05 1.002908E+02  4.903589E-05 8.800326E+01  9.902427E-01 -2.339146E+01 
3.915437E+02  9.908528E-01 -2.211244E+01  3.223371E-05 9.743773E+01  2.494893E-05 1.178670E+02  9.894331E-01 -2.355979E+01 
3.940375E+02  9.916678E-01 -2.222709E+01  2.150873E-05 2.279380E+01  2.391885E-05 4.213852E+01  9.902109E-01 -2.369701E+01 
3.965312E+02  9.914089E-01 -2.238448E+01  1.135113E-05 5.748438E+01  5.753867E-06 4.088294E+01  9.904237E-01 -2.386421E+01 
