! Matrix data file written by TouchstoneData, EPCOS AG
! FILENAME: "LT34A_1_NB.s2p"
! COMMENT: "PCB: 2022; PINNING: 2/5; PORTEXT1: 87.4PS; P"
! INFO: nport=2, nfreq=1601
! DATE: "Fri Feb 22 08:53:21 2008"
! USER: "Aleksander Breg"
!
# MHZ S MA R 50
! freq  magS11 angS11  magS21 angS21  magS12 angS12  magS22 angS22
1.501500E+03  9.106416E-01 -1.211920E+02  1.089482E-02 1.476385E+02  1.090529E-02 1.474887E+02  9.123285E-01 -1.244623E+02 
1.501625E+03  9.106686E-01 -1.212478E+02  1.090685E-02 1.476496E+02  1.091807E-02 1.474143E+02  9.123151E-01 -1.244972E+02 
1.501750E+03  9.103597E-01 -1.212994E+02  1.091011E-02 1.476530E+02  1.092948E-02 1.474780E+02  9.122439E-01 -1.245367E+02 
1.501875E+03  9.102283E-01 -1.213578E+02  1.092166E-02 1.476118E+02  1.093661E-02 1.474096E+02  9.121417E-01 -1.245694E+02 
1.502000E+03  9.101515E-01 -1.214092E+02  1.093973E-02 1.476035E+02  1.095097E-02 1.474073E+02  9.122551E-01 -1.245978E+02 
1.502125E+03  9.099439E-01 -1.214722E+02  1.094862E-02 1.474908E+02  1.096205E-02 1.473400E+02  9.123420E-01 -1.246446E+02 
1.502250E+03  9.097070E-01 -1.215299E+02  1.096195E-02 1.474270E+02  1.097521E-02 1.472831E+02  9.122635E-01 -1.246892E+02 
1.502375E+03  9.095135E-01 -1.215880E+02  1.096597E-02 1.473162E+02  1.098016E-02 1.471192E+02  9.123723E-01 -1.247181E+02 
1.502500E+03  9.093957E-01 -1.216413E+02  1.095223E-02 1.472099E+02  1.097332E-02 1.470664E+02  9.123687E-01 -1.247599E+02 
1.502625E+03  9.090763E-01 -1.216928E+02  1.095064E-02 1.472437E+02  1.096132E-02 1.470237E+02  9.123547E-01 -1.247883E+02 
1.502750E+03  9.087774E-01 -1.217638E+02  1.095004E-02 1.472409E+02  1.096791E-02 1.470607E+02  9.123970E-01 -1.248395E+02 
1.502875E+03  9.085437E-01 -1.218178E+02  1.096100E-02 1.472337E+02  1.097794E-02 1.470571E+02  9.124764E-01 -1.248855E+02 
1.503000E+03  9.082081E-01 -1.218746E+02  1.097123E-02 1.472021E+02  1.098510E-02 1.469744E+02  9.124384E-01 -1.249224E+02 
1.503125E+03  9.079754E-01 -1.219306E+02  1.098599E-02 1.470989E+02  1.100042E-02 1.469164E+02  9.123873E-01 -1.249746E+02 
1.503250E+03  9.076861E-01 -1.219841E+02  1.098802E-02 1.470295E+02  1.099540E-02 1.468523E+02  9.124359E-01 -1.250084E+02 
1.503375E+03  9.073849E-01 -1.220381E+02  1.098891E-02 1.469506E+02  1.100680E-02 1.467975E+02  9.126021E-01 -1.250586E+02 
1.503500E+03  9.071643E-01 -1.220962E+02  1.099122E-02 1.469163E+02  1.101232E-02 1.467292E+02  9.125085E-01 -1.251129E+02 
1.503625E+03  9.068208E-01 -1.221580E+02  1.099701E-02 1.468049E+02  1.101195E-02 1.466454E+02  9.125982E-01 -1.251547E+02 
1.503750E+03  9.065666E-01 -1.222141E+02  1.098607E-02 1.467523E+02  1.099952E-02 1.465530E+02  9.124263E-01 -1.252048E+02 
1.503875E+03  9.062241E-01 -1.222746E+02  1.098113E-02 1.466895E+02  1.099651E-02 1.465406E+02  9.125139E-01 -1.252573E+02 
1.504000E+03  9.059920E-01 -1.223256E+02  1.096175E-02 1.466768E+02  1.098331E-02 1.465196E+02  9.125036E-01 -1.253001E+02 
1.504125E+03  9.054777E-01 -1.223884E+02  1.096451E-02 1.467366E+02  1.098476E-02 1.465180E+02  9.124257E-01 -1.253566E+02 
1.504250E+03  9.050713E-01 -1.224369E+02  1.097124E-02 1.466907E+02  1.098684E-02 1.464971E+02  9.123624E-01 -1.254003E+02 
1.504375E+03  9.047821E-01 -1.224807E+02  1.098106E-02 1.466419E+02  1.099496E-02 1.464810E+02  9.122013E-01 -1.254508E+02 
1.504500E+03  9.043084E-01 -1.225425E+02  1.098222E-02 1.466026E+02  1.100289E-02 1.464539E+02  9.121476E-01 -1.255018E+02 
1.504625E+03  9.039281E-01 -1.225936E+02  1.098599E-02 1.465466E+02  1.100139E-02 1.463593E+02  9.120861E-01 -1.255464E+02 
1.504750E+03  9.035527E-01 -1.226449E+02  1.098874E-02 1.465122E+02  1.100630E-02 1.462994E+02  9.119130E-01 -1.256039E+02 
1.504875E+03  9.030493E-01 -1.226956E+02  1.098614E-02 1.464179E+02  1.100191E-02 1.462952E+02  9.117520E-01 -1.256557E+02 
1.505000E+03  9.026973E-01 -1.227477E+02  1.098255E-02 1.463083E+02  1.100438E-02 1.461980E+02  9.116069E-01 -1.257020E+02 
1.505125E+03  9.023575E-01 -1.227959E+02  1.097579E-02 1.462680E+02  1.099230E-02 1.461203E+02  9.113779E-01 -1.257568E+02 
1.505250E+03  9.017665E-01 -1.228364E+02  1.096473E-02 1.462419E+02  1.098156E-02 1.461079E+02  9.112409E-01 -1.258031E+02 
1.505375E+03  9.012709E-01 -1.228730E+02  1.094674E-02 1.462668E+02  1.097162E-02 1.461527E+02  9.111754E-01 -1.258532E+02 
1.505500E+03  9.009369E-01 -1.229154E+02  1.094813E-02 1.462814E+02  1.096823E-02 1.461349E+02  9.108923E-01 -1.258961E+02 
1.505625E+03  9.005293E-01 -1.229508E+02  1.096338E-02 1.462522E+02  1.098214E-02 1.460961E+02  9.106835E-01 -1.259514E+02 
1.505750E+03  9.000925E-01 -1.229967E+02  1.095703E-02 1.461845E+02  1.097426E-02 1.460364E+02  9.103890E-01 -1.259989E+02 
1.505875E+03  8.997739E-01 -1.230320E+02  1.095907E-02 1.461514E+02  1.097962E-02 1.460136E+02  9.103154E-01 -1.260430E+02 
1.506000E+03  8.994023E-01 -1.230619E+02  1.095216E-02 1.460655E+02  1.098269E-02 1.459486E+02  9.100869E-01 -1.260888E+02 
1.506125E+03  8.991576E-01 -1.230921E+02  1.093791E-02 1.459878E+02  1.095896E-02 1.458959E+02  9.098158E-01 -1.261324E+02 
1.506250E+03  8.987330E-01 -1.231357E+02  1.092427E-02 1.459951E+02  1.094443E-02 1.458688E+02  9.097118E-01 -1.261801E+02 
1.506375E+03  8.983741E-01 -1.231642E+02  1.091305E-02 1.460457E+02  1.093339E-02 1.459259E+02  9.094313E-01 -1.262274E+02 
1.506500E+03  8.980521E-01 -1.232000E+02  1.090272E-02 1.461156E+02  1.093108E-02 1.459816E+02  9.093120E-01 -1.262717E+02 
1.506625E+03  8.977385E-01 -1.232227E+02  1.091499E-02 1.460901E+02  1.094201E-02 1.460169E+02  9.091186E-01 -1.263226E+02 
1.506750E+03  8.976993E-01 -1.232490E+02  1.092683E-02 1.460624E+02  1.094763E-02 1.459958E+02  9.089433E-01 -1.263671E+02 
1.506875E+03  8.975604E-01 -1.232756E+02  1.091878E-02 1.459768E+02  1.094670E-02 1.459315E+02  9.086903E-01 -1.264244E+02 
1.507000E+03  8.974980E-01 -1.232961E+02  1.091082E-02 1.460258E+02  1.093388E-02 1.459068E+02  9.085331E-01 -1.264646E+02 
1.507125E+03  8.974972E-01 -1.233326E+02  1.090860E-02 1.460477E+02  1.093435E-02 1.459423E+02  9.082541E-01 -1.265043E+02 
1.507250E+03  8.974912E-01 -1.233659E+02  1.091768E-02 1.459917E+02  1.093486E-02 1.459284E+02  9.080452E-01 -1.265508E+02 
1.507375E+03  8.973860E-01 -1.234041E+02  1.090030E-02 1.459206E+02  1.093209E-02 1.459009E+02  9.077441E-01 -1.266121E+02 
1.507500E+03  8.973462E-01 -1.234276E+02  1.089623E-02 1.459743E+02  1.092749E-02 1.459120E+02  9.074440E-01 -1.266541E+02 
1.507625E+03  8.972707E-01 -1.234728E+02  1.090220E-02 1.460043E+02  1.091685E-02 1.459445E+02  9.070669E-01 -1.266960E+02 
1.507750E+03  8.975403E-01 -1.234997E+02  1.090094E-02 1.460319E+02  1.092492E-02 1.459516E+02  9.068510E-01 -1.267383E+02 
1.507875E+03  8.976163E-01 -1.235472E+02  1.090723E-02 1.459391E+02  1.093192E-02 1.458720E+02  9.065725E-01 -1.267853E+02 
1.508000E+03  8.976416E-01 -1.236026E+02  1.088689E-02 1.459150E+02  1.091128E-02 1.458364E+02  9.063964E-01 -1.268357E+02 
1.508125E+03  8.976583E-01 -1.236496E+02  1.087184E-02 1.459573E+02  1.090706E-02 1.458937E+02  9.060174E-01 -1.268690E+02 
1.508250E+03  8.977448E-01 -1.236858E+02  1.088977E-02 1.460437E+02  1.091872E-02 1.459419E+02  9.057498E-01 -1.269150E+02 
1.508375E+03  8.978014E-01 -1.237353E+02  1.088499E-02 1.459690E+02  1.091299E-02 1.459057E+02  9.053872E-01 -1.269551E+02 
1.508500E+03  8.978798E-01 -1.237852E+02  1.088053E-02 1.459617E+02  1.090815E-02 1.458927E+02  9.051489E-01 -1.269954E+02 
1.508625E+03  8.978989E-01 -1.238333E+02  1.087360E-02 1.459554E+02  1.090287E-02 1.459473E+02  9.048727E-01 -1.270435E+02 
1.508750E+03  8.980890E-01 -1.238874E+02  1.087474E-02 1.459992E+02  1.090044E-02 1.459787E+02  9.046441E-01 -1.270815E+02 
1.508875E+03  8.979350E-01 -1.239326E+02  1.087056E-02 1.460404E+02  1.089968E-02 1.460113E+02  9.043970E-01 -1.271347E+02 
1.509000E+03  8.981805E-01 -1.239845E+02  1.086824E-02 1.460825E+02  1.089504E-02 1.460416E+02  9.039670E-01 -1.271626E+02 
1.509125E+03  8.983110E-01 -1.240468E+02  1.087751E-02 1.460957E+02  1.090411E-02 1.460253E+02  9.037714E-01 -1.272119E+02 
1.509250E+03  8.981904E-01 -1.240965E+02  1.087657E-02 1.460257E+02  1.090320E-02 1.459885E+02  9.034809E-01 -1.272536E+02 
1.509375E+03  8.981017E-01 -1.241602E+02  1.086669E-02 1.460605E+02  1.090487E-02 1.460394E+02  9.032399E-01 -1.272996E+02 
1.509500E+03  8.981572E-01 -1.242248E+02  1.088672E-02 1.460920E+02  1.091405E-02 1.460814E+02  9.028497E-01 -1.273486E+02 
1.509625E+03  8.981124E-01 -1.242839E+02  1.087700E-02 1.460608E+02  1.091373E-02 1.460040E+02  9.025923E-01 -1.273890E+02 
1.509750E+03  8.979999E-01 -1.243316E+02  1.087551E-02 1.460400E+02  1.090973E-02 1.460335E+02  9.020974E-01 -1.274282E+02 
1.509875E+03  8.980992E-01 -1.243992E+02  1.086418E-02 1.460788E+02  1.090311E-02 1.460703E+02  9.017348E-01 -1.274758E+02 
1.510000E+03  8.981033E-01 -1.244611E+02  1.087429E-02 1.461048E+02  1.091282E-02 1.461183E+02  9.013497E-01 -1.275118E+02 
1.510125E+03  8.978920E-01 -1.245254E+02  1.088783E-02 1.461051E+02  1.091973E-02 1.461005E+02  9.010135E-01 -1.275516E+02 
1.510250E+03  8.978882E-01 -1.245847E+02  1.088708E-02 1.460474E+02  1.092416E-02 1.460383E+02  9.005116E-01 -1.275968E+02 
1.510375E+03  8.977691E-01 -1.246499E+02  1.087388E-02 1.460385E+02  1.090788E-02 1.459953E+02  9.000414E-01 -1.276294E+02 
1.510500E+03  8.976770E-01 -1.247108E+02  1.086128E-02 1.461078E+02  1.089599E-02 1.460565E+02  8.996492E-01 -1.276767E+02 
1.510625E+03  8.974114E-01 -1.247791E+02  1.085602E-02 1.461905E+02  1.089113E-02 1.461762E+02  8.991803E-01 -1.277100E+02 
1.510750E+03  8.971781E-01 -1.248351E+02  1.087090E-02 1.462224E+02  1.090960E-02 1.462055E+02  8.986384E-01 -1.277499E+02 
1.510875E+03  8.970672E-01 -1.249014E+02  1.087081E-02 1.462332E+02  1.090849E-02 1.462071E+02  8.982065E-01 -1.277731E+02 
1.511000E+03  8.968094E-01 -1.249613E+02  1.087893E-02 1.461919E+02  1.090950E-02 1.462336E+02  8.975761E-01 -1.278031E+02 
1.511125E+03  8.966295E-01 -1.250297E+02  1.088078E-02 1.462728E+02  1.091296E-02 1.462274E+02  8.968441E-01 -1.278226E+02 
1.511250E+03  8.962676E-01 -1.250925E+02  1.087881E-02 1.463569E+02  1.091517E-02 1.462735E+02  8.963820E-01 -1.278341E+02 
1.511375E+03  8.959778E-01 -1.251457E+02  1.089558E-02 1.464052E+02  1.092394E-02 1.463677E+02  8.959833E-01 -1.278473E+02 
1.511500E+03  8.957236E-01 -1.252014E+02  1.090836E-02 1.464115E+02  1.094080E-02 1.463967E+02  8.955929E-01 -1.278596E+02 
1.511625E+03  8.954008E-01 -1.252626E+02  1.092746E-02 1.464329E+02  1.095767E-02 1.463811E+02  8.952104E-01 -1.278694E+02 
1.511750E+03  8.950386E-01 -1.253189E+02  1.093933E-02 1.463547E+02  1.097668E-02 1.463488E+02  8.947998E-01 -1.278817E+02 
1.511875E+03  8.948596E-01 -1.253708E+02  1.094534E-02 1.463046E+02  1.097146E-02 1.462944E+02  8.942864E-01 -1.278926E+02 
1.512000E+03  8.943774E-01 -1.254287E+02  1.093025E-02 1.462593E+02  1.096586E-02 1.462159E+02  8.939067E-01 -1.278930E+02 
1.512125E+03  8.940946E-01 -1.254708E+02  1.092503E-02 1.463108E+02  1.095836E-02 1.462518E+02  8.938298E-01 -1.278869E+02 
1.512250E+03  8.938859E-01 -1.255231E+02  1.093647E-02 1.463829E+02  1.096897E-02 1.463611E+02  8.937375E-01 -1.278829E+02 
1.512375E+03  8.935915E-01 -1.255703E+02  1.096121E-02 1.463651E+02  1.098590E-02 1.463395E+02  8.937566E-01 -1.278790E+02 
1.512500E+03  8.933661E-01 -1.256163E+02  1.095459E-02 1.463174E+02  1.099556E-02 1.462621E+02  8.937936E-01 -1.278949E+02 
1.512625E+03  8.930015E-01 -1.256694E+02  1.096300E-02 1.463243E+02  1.099548E-02 1.463078E+02  8.940214E-01 -1.278962E+02 
1.512750E+03  8.928435E-01 -1.257207E+02  1.097730E-02 1.463631E+02  1.101086E-02 1.462779E+02  8.940561E-01 -1.279015E+02 
1.512875E+03  8.924240E-01 -1.257722E+02  1.098056E-02 1.462289E+02  1.102016E-02 1.461526E+02  8.943621E-01 -1.279111E+02 
1.513000E+03  8.921258E-01 -1.258163E+02  1.095563E-02 1.462520E+02  1.100510E-02 1.461827E+02  8.946065E-01 -1.279334E+02 
1.513125E+03  8.919007E-01 -1.258616E+02  1.097459E-02 1.464287E+02  1.100243E-02 1.463125E+02  8.947274E-01 -1.279432E+02 
1.513250E+03  8.914812E-01 -1.259044E+02  1.100971E-02 1.463620E+02  1.103835E-02 1.462868E+02  8.949997E-01 -1.279571E+02 
1.513375E+03  8.912521E-01 -1.259477E+02  1.101829E-02 1.462786E+02  1.105855E-02 1.461830E+02  8.953841E-01 -1.279826E+02 
1.513500E+03  8.910838E-01 -1.259865E+02  1.103670E-02 1.462277E+02  1.107436E-02 1.461173E+02  8.956390E-01 -1.280178E+02 
1.513625E+03  8.905977E-01 -1.260228E+02  1.103288E-02 1.460346E+02  1.106637E-02 1.459557E+02  8.959840E-01 -1.280367E+02 
1.513750E+03  8.905255E-01 -1.260541E+02  1.101889E-02 1.460265E+02  1.105024E-02 1.459430E+02  8.964177E-01 -1.280623E+02 
1.513875E+03  8.903970E-01 -1.260994E+02  1.102294E-02 1.461001E+02  1.104977E-02 1.460129E+02  8.967266E-01 -1.280996E+02 
1.514000E+03  8.902087E-01 -1.261352E+02  1.102605E-02 1.460168E+02  1.106213E-02 1.459192E+02  8.970785E-01 -1.281401E+02 
1.514125E+03  8.900012E-01 -1.261653E+02  1.103559E-02 1.459245E+02  1.106162E-02 1.458597E+02  8.972840E-01 -1.281851E+02 
1.514250E+03  8.898940E-01 -1.262029E+02  1.101035E-02 1.459182E+02  1.103945E-02 1.458151E+02  8.975239E-01 -1.282285E+02 
1.514375E+03  8.898283E-01 -1.262297E+02  1.101965E-02 1.460106E+02  1.105967E-02 1.458995E+02  8.977863E-01 -1.282648E+02 
1.514500E+03  8.896509E-01 -1.262571E+02  1.102525E-02 1.459437E+02  1.105890E-02 1.458388E+02  8.981167E-01 -1.283019E+02 
1.514625E+03  8.898365E-01 -1.262844E+02  1.101490E-02 1.458790E+02  1.104775E-02 1.457704E+02  8.983119E-01 -1.283468E+02 
1.514750E+03  8.900578E-01 -1.263154E+02  1.101831E-02 1.459668E+02  1.104651E-02 1.458410E+02  8.985875E-01 -1.283904E+02 
1.514875E+03  8.901712E-01 -1.263577E+02  1.104332E-02 1.459736E+02  1.107307E-02 1.458629E+02  8.987081E-01 -1.284396E+02 
1.515000E+03  8.902008E-01 -1.263890E+02  1.106266E-02 1.458076E+02  1.109003E-02 1.457242E+02  8.989103E-01 -1.284883E+02 
1.515125E+03  8.904320E-01 -1.264212E+02  1.105236E-02 1.457073E+02  1.108053E-02 1.455613E+02  8.991331E-01 -1.285305E+02 
1.515250E+03  8.906556E-01 -1.264513E+02  1.103959E-02 1.456446E+02  1.106189E-02 1.454546E+02  8.991859E-01 -1.285818E+02 
1.515375E+03  8.909635E-01 -1.264922E+02  1.102081E-02 1.456949E+02  1.104132E-02 1.455086E+02  8.994966E-01 -1.286229E+02 
1.515500E+03  8.914077E-01 -1.265333E+02  1.102763E-02 1.456206E+02  1.105367E-02 1.455045E+02  8.997929E-01 -1.286793E+02 
1.515625E+03  8.916584E-01 -1.265834E+02  1.101375E-02 1.456668E+02  1.104519E-02 1.454580E+02  8.999188E-01 -1.287277E+02 
1.515750E+03  8.921765E-01 -1.266297E+02  1.101345E-02 1.456209E+02  1.104619E-02 1.454556E+02  9.001307E-01 -1.287871E+02 
1.515875E+03  8.924894E-01 -1.266821E+02  1.101787E-02 1.456068E+02  1.104879E-02 1.454188E+02  9.001925E-01 -1.288450E+02 
1.516000E+03  8.930508E-01 -1.267369E+02  1.101875E-02 1.456161E+02  1.104347E-02 1.453709E+02  9.002188E-01 -1.289027E+02 
1.516125E+03  8.934575E-01 -1.268056E+02  1.101602E-02 1.455775E+02  1.104868E-02 1.453579E+02  9.003437E-01 -1.289518E+02 
1.516250E+03  8.938902E-01 -1.268658E+02  1.101241E-02 1.454840E+02  1.104154E-02 1.453022E+02  9.004611E-01 -1.290055E+02 
1.516375E+03  8.944166E-01 -1.269386E+02  1.100841E-02 1.454832E+02  1.104290E-02 1.452737E+02  9.005502E-01 -1.290634E+02 
1.516500E+03  8.946983E-01 -1.270123E+02  1.100822E-02 1.453936E+02  1.103205E-02 1.452097E+02  9.007209E-01 -1.291145E+02 
1.516625E+03  8.949350E-01 -1.270713E+02  1.098383E-02 1.453998E+02  1.101562E-02 1.452071E+02  9.006673E-01 -1.291724E+02 
1.516750E+03  8.953374E-01 -1.271539E+02  1.098441E-02 1.454331E+02  1.100678E-02 1.452405E+02  9.006748E-01 -1.292392E+02 
1.516875E+03  8.955673E-01 -1.272291E+02  1.098962E-02 1.454953E+02  1.100892E-02 1.452483E+02  9.005072E-01 -1.292988E+02 
1.517000E+03  8.958569E-01 -1.273115E+02  1.099344E-02 1.454778E+02  1.101624E-02 1.452508E+02  9.004785E-01 -1.293511E+02 
1.517125E+03  8.959608E-01 -1.273902E+02  1.099340E-02 1.454349E+02  1.101578E-02 1.451758E+02  9.005290E-01 -1.294065E+02 
1.517250E+03  8.961261E-01 -1.274574E+02  1.099571E-02 1.453299E+02  1.101937E-02 1.451412E+02  9.004778E-01 -1.294576E+02 
1.517375E+03  8.962529E-01 -1.275405E+02  1.098847E-02 1.452570E+02  1.100972E-02 1.450328E+02  9.003094E-01 -1.295109E+02 
1.517500E+03  8.966020E-01 -1.276251E+02  1.097042E-02 1.452252E+02  1.099238E-02 1.450070E+02  9.002689E-01 -1.295626E+02 
1.517625E+03  8.967681E-01 -1.277020E+02  1.096617E-02 1.452747E+02  1.099186E-02 1.450620E+02  9.002055E-01 -1.296079E+02 
1.517750E+03  8.967108E-01 -1.277798E+02  1.095711E-02 1.452473E+02  1.098065E-02 1.449991E+02  9.000307E-01 -1.296587E+02 
1.517875E+03  8.968991E-01 -1.278625E+02  1.094446E-02 1.452266E+02  1.097176E-02 1.449798E+02  9.000609E-01 -1.297137E+02 
1.518000E+03  8.969413E-01 -1.279445E+02  1.094349E-02 1.452715E+02  1.095160E-02 1.449826E+02  8.998622E-01 -1.297725E+02 
1.518125E+03  8.970615E-01 -1.280203E+02  1.094339E-02 1.452969E+02  1.095934E-02 1.450216E+02  8.997901E-01 -1.298303E+02 
1.518250E+03  8.970504E-01 -1.281007E+02  1.093632E-02 1.452623E+02  1.094998E-02 1.449853E+02  8.997965E-01 -1.298685E+02 
1.518375E+03  8.970803E-01 -1.281875E+02  1.092751E-02 1.452412E+02  1.094652E-02 1.450223E+02  8.996554E-01 -1.299118E+02 
1.518500E+03  8.972703E-01 -1.282672E+02  1.092417E-02 1.452718E+02  1.095402E-02 1.450064E+02  8.996211E-01 -1.299690E+02 
1.518625E+03  8.973748E-01 -1.283465E+02  1.092380E-02 1.451891E+02  1.093769E-02 1.449853E+02  8.994622E-01 -1.300119E+02 
1.518750E+03  8.972555E-01 -1.284397E+02  1.091636E-02 1.452250E+02  1.092972E-02 1.450038E+02  8.993621E-01 -1.300537E+02 
1.518875E+03  8.973506E-01 -1.285162E+02  1.090656E-02 1.452128E+02  1.091988E-02 1.449646E+02  8.994259E-01 -1.300980E+02 
1.519000E+03  8.972750E-01 -1.285920E+02  1.090298E-02 1.452298E+02  1.091854E-02 1.449892E+02  8.994986E-01 -1.301494E+02 
1.519125E+03  8.974266E-01 -1.286729E+02  1.089302E-02 1.452370E+02  1.091350E-02 1.449116E+02  8.994100E-01 -1.302056E+02 
1.519250E+03  8.974959E-01 -1.287597E+02  1.088878E-02 1.452073E+02  1.090221E-02 1.449411E+02  8.993249E-01 -1.302474E+02 
1.519375E+03  8.972281E-01 -1.288327E+02  1.088823E-02 1.452562E+02  1.089384E-02 1.449628E+02  8.994002E-01 -1.302945E+02 
1.519500E+03  8.972793E-01 -1.289235E+02  1.088535E-02 1.452059E+02  1.089955E-02 1.449621E+02  8.993349E-01 -1.303421E+02 
1.519625E+03  8.972979E-01 -1.290081E+02  1.087948E-02 1.452249E+02  1.089531E-02 1.449316E+02  8.993100E-01 -1.303954E+02 
1.519750E+03  8.975556E-01 -1.290776E+02  1.087387E-02 1.451829E+02  1.089268E-02 1.448947E+02  8.994043E-01 -1.304376E+02 
1.519875E+03  8.974483E-01 -1.291698E+02  1.085520E-02 1.451601E+02  1.087461E-02 1.449234E+02  8.994233E-01 -1.304778E+02 
1.520000E+03  8.975871E-01 -1.292543E+02  1.083647E-02 1.451823E+02  1.085450E-02 1.449136E+02  8.994881E-01 -1.305320E+02 
1.520125E+03  8.975791E-01 -1.293464E+02  1.083113E-02 1.452730E+02  1.084441E-02 1.449601E+02  8.995230E-01 -1.305923E+02 
1.520250E+03  8.975939E-01 -1.294273E+02  1.083558E-02 1.453057E+02  1.084941E-02 1.450467E+02  8.996388E-01 -1.306471E+02 
1.520375E+03  8.974223E-01 -1.295130E+02  1.083480E-02 1.453130E+02  1.084395E-02 1.450894E+02  8.996234E-01 -1.306939E+02 
1.520500E+03  8.976543E-01 -1.296031E+02  1.083737E-02 1.453369E+02  1.084571E-02 1.450528E+02  8.996837E-01 -1.307495E+02 
1.520625E+03  8.976924E-01 -1.296942E+02  1.084189E-02 1.453039E+02  1.084273E-02 1.450233E+02  8.997214E-01 -1.307989E+02 
1.520750E+03  8.977460E-01 -1.297897E+02  1.083454E-02 1.453082E+02  1.084712E-02 1.450917E+02  8.997684E-01 -1.308539E+02 
1.520875E+03  8.977820E-01 -1.298895E+02  1.082448E-02 1.452929E+02  1.083837E-02 1.450544E+02  8.998134E-01 -1.309129E+02 
1.521000E+03  8.977540E-01 -1.299830E+02  1.081976E-02 1.452488E+02  1.083235E-02 1.450447E+02  8.998416E-01 -1.309731E+02 
1.521125E+03  8.976509E-01 -1.300738E+02  1.081155E-02 1.452838E+02  1.082329E-02 1.450399E+02  8.999752E-01 -1.310275E+02 
