! Matrix data file written by TouchstoneData, EPCOS AG
! FILENAME: "newformat_LZ04A_NB.s4p"
! COMMENT: "(LZ04A_NB.s4p) Epcos AG 31.01.2012 10:23:42"
! INFO: nport=4, nfreq=1601
! DATE: "Tue Jan 31 14:53:53 2012"
! USER: "Wilfried Schott"
!
! port | pin | signal
! -----|-----|--------
!   1  |  1  |   IN
!   2  |  5  |  OUT CH3
!   3  |  6  |  OUT CH1
!   4  |  7  |  OUT CH2
! --------------------
! 
# MHZ S MA R 50
! freq  magS11 angS11  magS12 angS12  magS13 angS13  magS14 angS14  ...
4.289200E+02  9.712658E-01 -5.270234E+01  1.136995E-03 -1.556621E+02  1.655043E-04 1.766474E+02  3.077148E-04 7.952595E+01 
1.145456E-03 -1.561018E+02  9.881705E-01 -2.181072E+01  1.307495E-02 7.138333E+01  2.148363E-03 -1.469456E+02 
1.659470E-04 -1.796886E+02  1.308474E-02 7.138237E+01  9.836307E-01 -2.226479E+01  2.715697E-02 6.784206E+01 
2.902124E-04 7.858067E+01  2.139926E-03 -1.468407E+02  2.730234E-02 6.770966E+01  9.859435E-01 -2.134264E+01 
4.289263E+02  9.711976E-01 -5.271188E+01  1.147448E-03 -1.565526E+02  1.617088E-04 1.783273E+02  2.911605E-04 7.937913E+01 
1.142729E-03 -1.568763E+02  9.881430E-01 -2.181224E+01  1.306501E-02 7.133323E+01  2.146266E-03 -1.470543E+02 
1.659856E-04 1.791332E+02  1.307864E-02 7.139733E+01  9.835331E-01 -2.226557E+01  2.714637E-02 6.783645E+01 
2.947134E-04 8.113261E+01  2.139987E-03 -1.468759E+02  2.728182E-02 6.772524E+01  9.858788E-01 -2.134548E+01 
4.289325E+02  9.711818E-01 -5.270949E+01  1.140159E-03 -1.575376E+02  1.563025E-04 1.775674E+02  3.004469E-04 7.840715E+01 
1.146784E-03 -1.577567E+02  9.881421E-01 -2.181473E+01  1.306344E-02 7.133845E+01  2.146534E-03 -1.469514E+02 
1.587189E-04 -1.778261E+02  1.308785E-02 7.137263E+01  9.836441E-01 -2.226751E+01  2.715553E-02 6.784258E+01 
2.996038E-04 7.894725E+01  2.152396E-03 -1.469181E+02  2.729562E-02 6.774842E+01  9.859909E-01 -2.134099E+01 
4.289388E+02  9.712413E-01 -5.271920E+01  1.149387E-03 -1.586001E+02  1.669789E-04 1.751341E+02  3.047214E-04 7.890974E+01 
1.147094E-03 -1.588139E+02  9.880680E-01 -2.181818E+01  1.306148E-02 7.133558E+01  2.151725E-03 -1.469469E+02 
1.657134E-04 1.764536E+02  1.308675E-02 7.136824E+01  9.836421E-01 -2.227265E+01  2.714924E-02 6.781236E+01 
2.983218E-04 7.906136E+01  2.149813E-03 -1.470639E+02  2.729169E-02 6.772084E+01  9.859522E-01 -2.134776E+01 
4.289450E+02  9.711157E-01 -5.272042E+01  1.147963E-03 -1.594484E+02  1.664963E-04 1.796508E+02  2.992571E-04 7.974734E+01 
1.140768E-03 -1.600365E+02  9.881161E-01 -2.182241E+01  1.306745E-02 7.136895E+01  2.163955E-03 -1.470542E+02 
1.584457E-04 1.732043E+02  1.307224E-02 7.137414E+01  9.835716E-01 -2.227221E+01  2.715098E-02 6.782020E+01 
3.078378E-04 7.801999E+01  2.156411E-03 -1.470634E+02  2.728947E-02 6.771070E+01  9.860861E-01 -2.134451E+01 
4.289513E+02  9.709869E-01 -5.272827E+01  1.153255E-03 -1.605388E+02  1.589316E-04 1.766988E+02  3.013523E-04 7.911934E+01 
1.140294E-03 -1.607116E+02  9.879157E-01 -2.181634E+01  1.306568E-02 7.135550E+01  2.150106E-03 -1.470845E+02 
1.641257E-04 1.759975E+02  1.307306E-02 7.135807E+01  9.835479E-01 -2.227124E+01  2.715261E-02 6.783661E+01 
3.066148E-04 7.974644E+01  2.150871E-03 -1.471004E+02  2.728802E-02 6.771966E+01  9.859188E-01 -2.134800E+01 
4.289575E+02  9.710699E-01 -5.273082E+01  1.151527E-03 -1.623344E+02  1.656697E-04 -1.786613E+02  3.044547E-04 7.950290E+01 
1.141316E-03 -1.624753E+02  9.878780E-01 -2.182870E+01  1.305726E-02 7.139881E+01  2.155689E-03 -1.469684E+02 
1.583192E-04 1.752822E+02  1.308017E-02 7.137928E+01  9.836116E-01 -2.227554E+01  2.715043E-02 6.781748E+01 
2.943182E-04 7.902824E+01  2.161131E-03 -1.472297E+02  2.728744E-02 6.771638E+01  9.859635E-01 -2.134145E+01 
4.289638E+02  9.709588E-01 -5.273586E+01  1.148055E-03 -1.630795E+02  1.539182E-04 -1.793342E+02  3.001599E-04 7.918493E+01 
1.141443E-03 -1.631040E+02  9.878001E-01 -2.182770E+01  1.305105E-02 7.133613E+01  2.159271E-03 -1.471733E+02 
1.553611E-04 1.797146E+02  1.307769E-02 7.136902E+01  9.835924E-01 -2.228305E+01  2.715514E-02 6.780677E+01 
2.988062E-04 7.945994E+01  2.152982E-03 -1.470862E+02  2.728640E-02 6.771953E+01  9.859125E-01 -2.135114E+01 
4.289700E+02  9.709196E-01 -5.274651E+01  1.142128E-03 -1.648715E+02  1.654782E-04 -1.782362E+02  2.976356E-04 8.100104E+01 
1.136852E-03 -1.640760E+02  9.878340E-01 -2.182989E+01  1.306034E-02 7.140562E+01  2.157091E-03 -1.470409E+02 
1.603295E-04 1.773861E+02  1.306387E-02 7.136426E+01  9.835283E-01 -2.227818E+01  2.714323E-02 6.781874E+01 
3.067029E-04 7.572481E+01  2.155567E-03 -1.469960E+02  2.728792E-02 6.771423E+01  9.859204E-01 -2.134571E+01 
4.289762E+02  9.708241E-01 -5.273837E+01  1.145834E-03 -1.657854E+02  1.631018E-04 1.766460E+02  2.995268E-04 8.025752E+01 
1.143082E-03 -1.657719E+02  9.877332E-01 -2.183109E+01  1.305367E-02 7.134796E+01  2.160226E-03 -1.473918E+02 
1.671128E-04 -1.792029E+02  1.306713E-02 7.136563E+01  9.834747E-01 -2.227686E+01  2.714665E-02 6.782768E+01 
3.040248E-04 7.765214E+01  2.152708E-03 -1.470602E+02  2.727607E-02 6.773560E+01  9.859013E-01 -2.134706E+01 
4.289825E+02  9.707700E-01 -5.274638E+01  1.153093E-03 -1.670233E+02  1.654682E-04 1.785636E+02  2.983122E-04 8.060574E+01 
1.144387E-03 -1.681219E+02  9.877107E-01 -2.183572E+01  1.305070E-02 7.138859E+01  2.160825E-03 -1.470843E+02 
1.552785E-04 -1.761941E+02  1.306841E-02 7.137487E+01  9.835344E-01 -2.227881E+01  2.715629E-02 6.780785E+01 
2.973049E-04 7.680328E+01  2.163294E-03 -1.472571E+02  2.728056E-02 6.770353E+01  9.859699E-01 -2.135293E+01 
4.289888E+02  9.707890E-01 -5.275414E+01  1.156805E-03 -1.687012E+02  1.670365E-04 -1.798589E+02  3.072110E-04 8.002726E+01 
1.135925E-03 -1.690823E+02  9.875975E-01 -2.183899E+01  1.305083E-02 7.138174E+01  2.159245E-03 -1.470847E+02 
1.697543E-04 1.791210E+02  1.306602E-02 7.140991E+01  9.835066E-01 -2.228491E+01  2.714659E-02 6.781439E+01 
3.006270E-04 7.699031E+01  2.167125E-03 -1.472333E+02  2.728678E-02 6.771030E+01  9.859788E-01 -2.135147E+01 
4.289950E+02  9.706121E-01 -5.274647E+01  1.139517E-03 -1.704350E+02  1.555407E-04 -1.779157E+02  3.174114E-04 7.784659E+01 
1.132198E-03 -1.707620E+02  9.875284E-01 -2.184192E+01  1.305917E-02 7.134009E+01  2.165237E-03 -1.473499E+02 
1.671999E-04 -1.778394E+02  1.306295E-02 7.141681E+01  9.835078E-01 -2.227593E+01  2.714975E-02 6.782425E+01 
2.935744E-04 7.937967E+01  2.153421E-03 -1.470336E+02  2.728787E-02 6.772697E+01  9.859203E-01 -2.135308E+01 
4.290013E+02  9.706696E-01 -5.275714E+01  1.130181E-03 -1.722005E+02  1.762460E-04 1.781803E+02  2.887380E-04 7.933915E+01 
1.139934E-03 -1.726225E+02  9.874819E-01 -2.184649E+01  1.305359E-02 7.134365E+01  2.166701E-03 -1.469275E+02 
1.701027E-04 -1.795720E+02  1.306143E-02 7.140811E+01  9.835639E-01 -2.227954E+01  2.714560E-02 6.781601E+01 
3.098490E-04 7.931248E+01  2.166048E-03 -1.472795E+02  2.727751E-02 6.771374E+01  9.858390E-01 -2.135452E+01 
4.290075E+02  9.705212E-01 -5.276080E+01  1.136755E-03 -1.738520E+02  1.701422E-04 1.783031E+02  3.110885E-04 7.783900E+01 
1.116985E-03 -1.743591E+02  9.873335E-01 -2.183868E+01  1.303500E-02 7.138894E+01  2.179453E-03 -1.470122E+02 
1.640933E-04 -1.768685E+02  1.306026E-02 7.141587E+01  9.834968E-01 -2.227774E+01  2.714441E-02 6.782272E+01 
3.068002E-04 7.929951E+01  2.160258E-03 -1.471253E+02  2.728989E-02 6.770758E+01  9.859842E-01 -2.135842E+01 
4.290138E+02  9.705319E-01 -5.276076E+01  1.123458E-03 -1.758706E+02  1.549393E-04 -1.797818E+02  2.943109E-04 7.953400E+01 
1.127079E-03 -1.764707E+02  9.872857E-01 -2.184635E+01  1.303925E-02 7.140048E+01  2.179580E-03 -1.472168E+02 
1.610383E-04 -1.771395E+02  1.305750E-02 7.146597E+01  9.835304E-01 -2.228372E+01  2.714855E-02 6.779749E+01 
3.047860E-04 7.760101E+01  2.161608E-03 -1.474506E+02  2.727748E-02 6.772991E+01  9.858966E-01 -2.135676E+01 
4.290200E+02  9.704684E-01 -5.276473E+01  1.121294E-03 -1.781902E+02  1.727006E-04 1.768778E+02  2.980925E-04 7.847950E+01 
1.113518E-03 -1.783233E+02  9.872607E-01 -2.183777E+01  1.305878E-02 7.145668E+01  2.169681E-03 -1.473556E+02 
1.601518E-04 -1.780942E+02  1.305719E-02 7.142723E+01  9.835238E-01 -2.228637E+01  2.714737E-02 6.781541E+01 
3.026604E-04 7.980925E+01  2.164241E-03 -1.473599E+02  2.728845E-02 6.773188E+01  9.858761E-01 -2.136570E+01 
4.290263E+02  9.703227E-01 -5.277013E+01  1.109632E-03 -1.799729E+02  1.621353E-04 1.795849E+02  3.130638E-04 7.864855E+01 
1.103184E-03 -1.799717E+02  9.872343E-01 -2.184876E+01  1.303899E-02 7.142552E+01  2.175179E-03 -1.472158E+02 
1.674824E-04 -1.787540E+02  1.306055E-02 7.148804E+01  9.834621E-01 -2.228705E+01  2.714266E-02 6.780348E+01 
2.970550E-04 7.655279E+01  2.169774E-03 -1.475691E+02  2.727345E-02 6.771779E+01  9.858302E-01 -2.135828E+01 
4.290325E+02  9.703290E-01 -5.277105E+01  1.083325E-03 1.774219E+02  1.614750E-04 -1.772583E+02  3.092251E-04 7.872623E+01 
1.087273E-03 1.773451E+02  9.872314E-01 -2.184483E+01  1.303867E-02 7.140327E+01  2.177333E-03 -1.474530E+02 
1.665026E-04 -1.776184E+02  1.305491E-02 7.143128E+01  9.835313E-01 -2.228986E+01  2.713810E-02 6.780393E+01 
3.068067E-04 7.636091E+01  2.167076E-03 -1.475212E+02  2.728368E-02 6.772146E+01  9.860834E-01 -2.136314E+01 
4.290387E+02  9.702075E-01 -5.277869E+01  1.101297E-03 1.753222E+02  1.829103E-04 1.779837E+02  2.977027E-04 7.790449E+01 
1.088646E-03 1.754542E+02  9.872083E-01 -2.185232E+01  1.304328E-02 7.141904E+01  2.177001E-03 -1.475773E+02 
1.689761E-04 1.799870E+02  1.305479E-02 7.144289E+01  9.834923E-01 -2.229178E+01  2.714040E-02 6.782411E+01 
3.141239E-04 7.558653E+01  2.175046E-03 -1.475026E+02  2.726774E-02 6.770933E+01  9.858024E-01 -2.136064E+01 
4.290450E+02  9.701513E-01 -5.277687E+01  1.082360E-03 1.731653E+02  1.625340E-04 -1.796295E+02  3.021458E-04 7.972463E+01 
1.073697E-03 1.727162E+02  9.870041E-01 -2.185031E+01  1.304235E-02 7.144864E+01  2.174917E-03 -1.475333E+02 
1.621876E-04 -1.775392E+02  1.305500E-02 7.149530E+01  9.835638E-01 -2.229277E+01  2.713561E-02 6.782569E+01 
2.949468E-04 7.821898E+01  2.176316E-03 -1.474910E+02  2.727505E-02 6.769584E+01  9.860383E-01 -2.136531E+01 
4.290513E+02  9.700947E-01 -5.278074E+01  1.076177E-03 1.700167E+02  1.745333E-04 1.780457E+02  3.044249E-04 7.679589E+01 
1.067270E-03 1.704292E+02  9.869475E-01 -2.185077E+01  1.303658E-02 7.142387E+01  2.173182E-03 -1.476110E+02 
1.641179E-04 1.751527E+02  1.305663E-02 7.148625E+01  9.835562E-01 -2.229163E+01  2.712600E-02 6.778155E+01 
3.114682E-04 7.775779E+01  2.167620E-03 -1.473266E+02  2.726507E-02 6.769995E+01  9.858320E-01 -2.136976E+01 
4.290575E+02  9.700005E-01 -5.278206E+01  1.052672E-03 1.679589E+02  1.658892E-04 1.777155E+02  3.001534E-04 7.682027E+01 
1.055234E-03 1.678882E+02  9.868862E-01 -2.185051E+01  1.305299E-02 7.143736E+01  2.181922E-03 -1.474551E+02 
1.605787E-04 1.799140E+02  1.306033E-02 7.152766E+01  9.834248E-01 -2.229196E+01  2.713904E-02 6.782311E+01 
3.113935E-04 7.789620E+01  2.179248E-03 -1.473791E+02  2.727398E-02 6.773175E+01  9.858808E-01 -2.135952E+01 
4.290638E+02  9.700324E-01 -5.278999E+01  1.035007E-03 1.645332E+02  1.681755E-04 1.774419E+02  3.025978E-04 7.970584E+01 
1.035346E-03 1.650183E+02  9.868441E-01 -2.185268E+01  1.304748E-02 7.146552E+01  2.176478E-03 -1.476078E+02 
1.640233E-04 1.787048E+02  1.305405E-02 7.152335E+01  9.835207E-01 -2.229402E+01  2.713306E-02 6.781845E+01 
3.021698E-04 7.855471E+01  2.174430E-03 -1.477085E+02  2.725883E-02 6.770403E+01  9.857544E-01 -2.136605E+01 
4.290700E+02  9.699837E-01 -5.278106E+01  1.027122E-03 1.615426E+02  1.589562E-04 -1.797167E+02  2.931103E-04 7.602287E+01 
1.020236E-03 1.623154E+02  9.866609E-01 -2.184572E+01  1.303841E-02 7.151921E+01  2.182930E-03 -1.478728E+02 
1.678110E-04 1.782734E+02  1.305381E-02 7.153558E+01  9.833875E-01 -2.229514E+01  2.713748E-02 6.783289E+01 
3.008621E-04 7.573369E+01  2.169287E-03 -1.475968E+02  2.727247E-02 6.773197E+01  9.858825E-01 -2.136187E+01 
4.290763E+02  9.698339E-01 -5.278815E+01  1.018137E-03 1.592102E+02  1.734485E-04 1.794723E+02  3.019015E-04 7.746589E+01 
1.009817E-03 1.585689E+02  9.866410E-01 -2.185234E+01  1.304461E-02 7.144673E+01  2.176674E-03 -1.480291E+02 
1.688839E-04 1.766282E+02  1.305560E-02 7.149970E+01  9.834606E-01 -2.229849E+01  2.712860E-02 6.779295E+01 
2.995271E-04 7.780141E+01  2.182933E-03 -1.476585E+02  2.726768E-02 6.771714E+01  9.859119E-01 -2.136734E+01 
4.290825E+02  9.697724E-01 -5.278796E+01  9.943935E-04 1.560252E+02  1.697702E-04 1.777751E+02  3.040762E-04 7.646259E+01 
9.914406E-04 1.552754E+02  9.865443E-01 -2.185339E+01  1.305885E-02 7.149433E+01  2.193885E-03 -1.479720E+02 
1.678271E-04 -1.787799E+02  1.306319E-02 7.152231E+01  9.833571E-01 -2.229990E+01  2.714162E-02 6.781017E+01 
3.007357E-04 7.742776E+01  2.184118E-03 -1.477720E+02  2.726142E-02 6.772850E+01  9.858088E-01 -2.136950E+01 
4.290888E+02  9.695625E-01 -5.279097E+01  9.748631E-04 1.526446E+02  1.697663E-04 1.764566E+02  2.986455E-04 7.615356E+01 
9.717572E-04 1.521228E+02  9.864711E-01 -2.184572E+01  1.304103E-02 7.155201E+01  2.192015E-03 -1.476451E+02 
1.622772E-04 1.778448E+02  1.305583E-02 7.151212E+01  9.834206E-01 -2.229913E+01  2.713332E-02 6.782472E+01 
2.965322E-04 7.650955E+01  2.198320E-03 -1.481046E+02  2.727057E-02 6.771029E+01  9.859908E-01 -2.137267E+01 
4.290950E+02  9.695983E-01 -5.279553E+01  9.574851E-04 1.488266E+02  1.600859E-04 1.760946E+02  2.895636E-04 7.646476E+01 
9.444067E-04 1.481348E+02  9.864525E-01 -2.185062E+01  1.303850E-02 7.151450E+01  2.190143E-03 -1.476107E+02 
1.698423E-04 1.748492E+02  1.305803E-02 7.157562E+01  9.833466E-01 -2.230283E+01  2.712951E-02 6.779651E+01 
3.085648E-04 7.713503E+01  2.176489E-03 -1.479555E+02  2.727061E-02 6.773900E+01  9.857860E-01 -2.137181E+01 
4.291012E+02  9.695030E-01 -5.279345E+01  9.380114E-04 1.440584E+02  1.699371E-04 1.799612E+02  2.962710E-04 7.733021E+01 
9.288507E-04 1.442775E+02  9.862916E-01 -2.184909E+01  1.304075E-02 7.149710E+01  2.182620E-03 -1.478085E+02 
1.661654E-04 -1.774370E+02  1.306270E-02 7.153683E+01  9.833874E-01 -2.229997E+01  2.713823E-02 6.781358E+01 
2.952745E-04 7.800877E+01  2.182524E-03 -1.479757E+02  2.726068E-02 6.771103E+01  9.858844E-01 -2.138176E+01 
4.291075E+02  9.694361E-01 -5.279604E+01  9.278986E-04 1.405437E+02  1.682559E-04 1.766553E+02  2.913125E-04 7.629657E+01 
9.193946E-04 1.409841E+02  9.863191E-01 -2.185081E+01  1.304728E-02 7.153824E+01  2.187967E-03 -1.478804E+02 
1.707316E-04 1.778611E+02  1.306584E-02 7.157283E+01  9.833529E-01 -2.230342E+01  2.712442E-02 6.780446E+01 
2.917678E-04 7.736706E+01  2.183135E-03 -1.482318E+02  2.725594E-02 6.775943E+01  9.857640E-01 -2.137408E+01 
4.291138E+02  9.693846E-01 -5.279009E+01  8.998461E-04 1.356660E+02  1.542703E-04 1.779792E+02  2.961238E-04 7.568287E+01 
8.932524E-04 1.360705E+02  9.861464E-01 -2.184916E+01  1.304075E-02 7.152391E+01  2.179410E-03 -1.481348E+02 
1.488735E-04 1.765145E+02  1.305769E-02 7.153080E+01  9.834506E-01 -2.229843E+01  2.713307E-02 6.779295E+01 
2.910303E-04 7.784457E+01  2.181180E-03 -1.479439E+02  2.727112E-02 6.771039E+01  9.858670E-01 -2.137509E+01 
4.291200E+02  9.692628E-01 -5.279195E+01  8.694921E-04 1.312475E+02  1.566240E-04 1.747435E+02  2.927994E-04 7.649198E+01 
8.781583E-04 1.313022E+02  9.860594E-01 -2.184138E+01  1.303685E-02 7.155547E+01  2.187746E-03 -1.481217E+02 
1.549495E-04 1.750303E+02  1.305609E-02 7.157980E+01  9.834084E-01 -2.230592E+01  2.713623E-02 6.782955E+01 
2.907951E-04 7.720147E+01  2.181981E-03 -1.481171E+02  2.724912E-02 6.774678E+01  9.858258E-01 -2.137578E+01 
4.291263E+02  9.691651E-01 -5.279138E+01  8.508065E-04 1.268837E+02  1.591359E-04 1.760705E+02  2.904030E-04 7.841235E+01 
8.585247E-04 1.254479E+02  9.859518E-01 -2.184450E+01  1.304805E-02 7.152084E+01  2.191956E-03 -1.480591E+02 
1.606088E-04 1.792160E+02  1.305634E-02 7.153525E+01  9.834560E-01 -2.230427E+01  2.713887E-02 6.781413E+01 
2.899782E-04 7.837971E+01  2.181423E-03 -1.481573E+02  2.725477E-02 6.772277E+01  9.857732E-01 -2.138263E+01 
4.291325E+02  9.692098E-01 -5.279907E+01  8.353127E-04 1.211746E+02  1.511728E-04 1.765941E+02  2.875685E-04 7.593535E+01 
8.374275E-04 1.209319E+02  9.859840E-01 -2.184405E+01  1.303980E-02 7.153121E+01  2.186622E-03 -1.483486E+02 
1.593907E-04 1.789579E+02  1.306548E-02 7.160911E+01  9.833387E-01 -2.230375E+01  2.711762E-02 6.781524E+01 
2.883148E-04 7.652074E+01  2.194951E-03 -1.483740E+02  2.726138E-02 6.773040E+01  9.856899E-01 -2.137531E+01 
4.291388E+02  9.690544E-01 -5.279423E+01  8.196938E-04 1.154329E+02  1.551036E-04 1.751410E+02  2.943004E-04 7.557929E+01 
8.109243E-04 1.150794E+02  9.859157E-01 -2.183708E+01  1.304792E-02 7.159056E+01  2.196495E-03 -1.482376E+02 
1.568160E-04 1.718078E+02  1.305908E-02 7.161546E+01  9.833753E-01 -2.229987E+01  2.713012E-02 6.780081E+01 
2.860484E-04 7.819289E+01  2.186407E-03 -1.487099E+02  2.726796E-02 6.772131E+01  9.857734E-01 -2.138238E+01 
4.291450E+02  9.690417E-01 -5.279657E+01  8.027530E-04 1.094789E+02  1.501065E-04 1.782615E+02  2.858479E-04 7.667756E+01 
7.911199E-04 1.092151E+02  9.857531E-01 -2.183611E+01  1.304128E-02 7.160213E+01  2.183669E-03 -1.483503E+02 
1.569018E-04 1.781346E+02  1.305174E-02 7.159189E+01  9.833137E-01 -2.230134E+01  2.711858E-02 6.780986E+01 
2.926413E-04 7.890529E+01  2.185600E-03 -1.484464E+02  2.726283E-02 6.773113E+01  9.858043E-01 -2.138428E+01 
4.291513E+02  9.688736E-01 -5.279512E+01  7.935213E-04 1.022904E+02  1.530201E-04 -1.794323E+02  2.871256E-04 7.541757E+01 
7.881338E-04 1.031205E+02  9.857581E-01 -2.183472E+01  1.304844E-02 7.162503E+01  2.184176E-03 -1.482214E+02 
1.479678E-04 1.798844E+02  1.306751E-02 7.161035E+01  9.833408E-01 -2.230950E+01  2.713158E-02 6.781944E+01 
2.941359E-04 7.753763E+01  2.197707E-03 -1.483010E+02  2.726325E-02 6.773967E+01  9.857442E-01 -2.138158E+01 
4.291575E+02  9.690380E-01 -5.278792E+01  7.734384E-04 9.761761E+01  1.418176E-04 1.777024E+02  2.983119E-04 7.867104E+01 
7.741975E-04 9.660176E+01  9.858199E-01 -2.184327E+01  1.304116E-02 7.155006E+01  2.187746E-03 -1.484237E+02 
1.499623E-04 1.748701E+02  1.306628E-02 7.164758E+01  9.833222E-01 -2.231238E+01  2.712441E-02 6.780067E+01 
2.906169E-04 7.552892E+01  2.183047E-03 -1.487234E+02  2.725981E-02 6.773235E+01  9.858268E-01 -2.138617E+01 
4.291637E+02  9.688853E-01 -5.278692E+01  7.755108E-04 9.014802E+01  1.460113E-04 1.764252E+02  2.940862E-04 7.737295E+01 
7.561667E-04 8.943408E+01  9.855741E-01 -2.183449E+01  1.304949E-02 7.161134E+01  2.186463E-03 -1.486013E+02 
1.456861E-04 1.747870E+02  1.306535E-02 7.163596E+01  9.833765E-01 -2.230416E+01  2.713031E-02 6.782730E+01 
2.908091E-04 7.519511E+01  2.189031E-03 -1.483865E+02  2.726512E-02 6.772820E+01  9.858143E-01 -2.138632E+01 
4.291700E+02  9.687972E-01 -5.279045E+01  7.611088E-04 8.282754E+01  1.353507E-04 1.789987E+02  2.953694E-04 7.717726E+01 
7.694254E-04 8.228371E+01  9.855838E-01 -2.182840E+01  1.304884E-02 7.164018E+01  2.186066E-03 -1.487610E+02 
1.339679E-04 1.768476E+02  1.307154E-02 7.163192E+01  9.833356E-01 -2.230956E+01  2.712664E-02 6.779317E+01 
2.896545E-04 7.687384E+01  2.179075E-03 -1.488277E+02  2.726018E-02 6.771048E+01  9.857162E-01 -2.139007E+01 
4.291763E+02  9.688149E-01 -5.279221E+01  7.556342E-04 7.519714E+01  1.370322E-04 1.770504E+02  2.862791E-04 7.674342E+01 
7.614294E-04 7.542617E+01  9.855694E-01 -2.182988E+01  1.304568E-02 7.160546E+01  2.197931E-03 -1.486821E+02 
1.425459E-04 -1.798214E+02  1.307148E-02 7.166525E+01  9.833474E-01 -2.230742E+01  2.712448E-02 6.781812E+01 
2.884647E-04 7.552081E+01  2.188377E-03 -1.487889E+02  2.726311E-02 6.773875E+01  9.857534E-01 -2.138938E+01 
4.291825E+02  9.688505E-01 -5.278783E+01  7.607603E-04 6.796261E+01  1.258710E-04 -1.793450E+02  2.937877E-04 7.714583E+01 
7.701316E-04 6.788620E+01  9.854578E-01 -2.182121E+01  1.304950E-02 7.156768E+01  2.189086E-03 -1.486896E+02 
1.442642E-04 1.779801E+02  1.307696E-02 7.162318E+01  9.832714E-01 -2.230605E+01  2.713253E-02 6.782203E+01 
2.954078E-04 7.777089E+01  2.181927E-03 -1.487832E+02  2.726318E-02 6.772812E+01  9.856266E-01 -2.139096E+01 
