! Matrix data file written by TouchstoneData, EPCOS AG
! FILENAME: "newformat_LZ07A_NB.s3p"
! COMMENT: "(LZ07A_NB.s3p) Epcos AG 31.01.2012 10:33:43"
! INFO: nport=3, nfreq=1601
! DATE: "Tue Jan 31 14:34:30 2012"
! USER: "Wilfried Schott"
!
! port | pin | signal
! -----|-----|--------
!   1  |  1  |  IN
!   2  |  5  |  OUT CH2
!   3  |  7  |  OUT CH3
! --------------------
! 
# MHZ S MA R 50
! freq  magS11 angS11  magS12 angS12  magS13 angS13  ...
3.100000E+02  9.899459E-01 -2.882721E+01  2.699308E-04 1.746767E+02  2.901633E-04 -6.904041E+01 
2.593411E-04 1.740721E+02  9.922012E-01 -1.650449E+01  2.737983E-03 7.226208E+01 
3.011126E-04 -6.559111E+01  2.725080E-03 7.240883E+01  9.906761E-01 -1.712961E+01 
3.100063E+02  9.899283E-01 -2.882577E+01  2.655406E-04 1.741636E+02  2.838630E-04 -6.968840E+01 
2.617131E-04 1.741620E+02  9.921146E-01 -1.650823E+01  2.744049E-03 7.241805E+01 
2.911732E-04 -6.985299E+01  2.738972E-03 7.236648E+01  9.907679E-01 -1.713427E+01 
3.100125E+02  9.899395E-01 -2.883028E+01  2.716181E-04 1.750016E+02  2.894269E-04 -7.172806E+01 
2.718489E-04 1.748497E+02  9.922361E-01 -1.651041E+01  2.737845E-03 7.241491E+01 
2.800109E-04 -7.111725E+01  2.731967E-03 7.220375E+01  9.907428E-01 -1.713050E+01 
3.100188E+02  9.899788E-01 -2.882902E+01  2.887543E-04 1.774134E+02  2.656633E-04 -7.530850E+01 
2.821942E-04 1.743678E+02  9.921719E-01 -1.650822E+01  2.729434E-03 7.221288E+01 
2.722816E-04 -7.727774E+01  2.736646E-03 7.234249E+01  9.908678E-01 -1.713521E+01 
3.100250E+02  9.899964E-01 -2.883849E+01  3.120296E-04 1.753930E+02  2.547811E-04 -7.670838E+01 
3.116042E-04 1.768219E+02  9.920791E-01 -1.650549E+01  2.731944E-03 7.238698E+01 
2.552825E-04 -7.527237E+01  2.726332E-03 7.223591E+01  9.908382E-01 -1.713114E+01 
3.100312E+02  9.899117E-01 -2.883695E+01  3.210280E-04 1.759998E+02  2.611580E-04 -7.970459E+01 
3.067435E-04 1.753721E+02  9.921267E-01 -1.651349E+01  2.731936E-03 7.247809E+01 
2.536894E-04 -8.143765E+01  2.731682E-03 7.259643E+01  9.908273E-01 -1.713474E+01 
3.100375E+02  9.899143E-01 -2.884233E+01  3.374988E-04 1.766821E+02  2.467669E-04 -8.333268E+01 
3.326347E-04 1.757039E+02  9.920877E-01 -1.652338E+01  2.734063E-03 7.231265E+01 
2.424443E-04 -8.268690E+01  2.730053E-03 7.224664E+01  9.909105E-01 -1.713433E+01 
3.100437E+02  9.899701E-01 -2.885113E+01  3.492680E-04 1.776608E+02  2.397386E-04 -8.453164E+01 
3.458305E-04 1.772489E+02  9.919795E-01 -1.652049E+01  2.733478E-03 7.227372E+01 
2.496568E-04 -8.584337E+01  2.736585E-03 7.221453E+01  9.909772E-01 -1.713484E+01 
3.100500E+02  9.899126E-01 -2.885102E+01  3.695058E-04 1.778173E+02  2.295636E-04 -8.810075E+01 
3.526343E-04 1.779432E+02  9.919431E-01 -1.652826E+01  2.738731E-03 7.232361E+01 
2.351025E-04 -8.953113E+01  2.720721E-03 7.234811E+01  9.909448E-01 -1.713764E+01 
3.100562E+02  9.899664E-01 -2.885157E+01  3.858174E-04 1.769895E+02  2.269526E-04 -9.132932E+01 
3.746977E-04 1.755502E+02  9.919692E-01 -1.653506E+01  2.730854E-03 7.251744E+01 
2.373211E-04 -8.870711E+01  2.726518E-03 7.246176E+01  9.909631E-01 -1.713434E+01 
3.100625E+02  9.898868E-01 -2.885066E+01  4.038289E-04 1.757649E+02  2.166056E-04 -9.305731E+01 
3.895597E-04 1.762592E+02  9.919104E-01 -1.653826E+01  2.732784E-03 7.212808E+01 
2.199449E-04 -9.189169E+01  2.721888E-03 7.233125E+01  9.910157E-01 -1.713647E+01 
3.100688E+02  9.899226E-01 -2.886007E+01  4.215688E-04 1.762325E+02  2.093136E-04 -9.584207E+01 
4.145352E-04 1.755282E+02  9.918199E-01 -1.653973E+01  2.718978E-03 7.229090E+01 
2.155549E-04 -9.596299E+01  2.726211E-03 7.240384E+01  9.910365E-01 -1.713345E+01 
3.100750E+02  9.898333E-01 -2.886637E+01  4.479118E-04 1.750701E+02  2.045077E-04 -9.926226E+01 
4.301267E-04 1.760348E+02  9.918108E-01 -1.653920E+01  2.728075E-03 7.244050E+01 
2.128391E-04 -9.971504E+01  2.732765E-03 7.217671E+01  9.910489E-01 -1.713462E+01 
3.100813E+02  9.898439E-01 -2.886448E+01  4.607872E-04 1.752584E+02  2.076160E-04 -1.015121E+02 
4.442662E-04 1.759300E+02  9.917480E-01 -1.653964E+01  2.726207E-03 7.235635E+01 
1.935304E-04 -1.011694E+02  2.717886E-03 7.252188E+01  9.911166E-01 -1.713705E+01 
3.100875E+02  9.897455E-01 -2.886834E+01  4.783976E-04 1.755179E+02  1.917063E-04 -1.054373E+02 
4.724510E-04 1.740760E+02  9.917594E-01 -1.654733E+01  2.731154E-03 7.234286E+01 
1.902783E-04 -1.038758E+02  2.728157E-03 7.239455E+01  9.911584E-01 -1.713548E+01 
3.100938E+02  9.898095E-01 -2.887245E+01  4.961311E-04 1.744372E+02  1.946650E-04 -1.086215E+02 
4.915326E-04 1.749518E+02  9.917090E-01 -1.655091E+01  2.715828E-03 7.255450E+01 
1.852171E-04 -1.052330E+02  2.714278E-03 7.229637E+01  9.912006E-01 -1.713669E+01 
3.101000E+02  9.898289E-01 -2.887844E+01  5.317472E-04 1.742358E+02  1.812171E-04 -1.096510E+02 
5.125399E-04 1.751159E+02  9.916332E-01 -1.655407E+01  2.724942E-03 7.234419E+01 
1.709756E-04 -1.092371E+02  2.725620E-03 7.223367E+01  9.911405E-01 -1.713989E+01 
3.101062E+02  9.897557E-01 -2.888307E+01  5.514546E-04 1.731074E+02  1.765280E-04 -1.122034E+02 
5.439907E-04 1.732279E+02  9.916030E-01 -1.655921E+01  2.731934E-03 7.235422E+01 
1.707562E-04 -1.099476E+02  2.733385E-03 7.240670E+01  9.911576E-01 -1.714129E+01 
3.101125E+02  9.895851E-01 -2.888692E+01  5.788723E-04 1.739815E+02  1.757550E-04 -1.093970E+02 
5.676118E-04 1.728048E+02  9.914716E-01 -1.656419E+01  2.731156E-03 7.238256E+01 
1.723794E-04 -1.134396E+02  2.733272E-03 7.216818E+01  9.912459E-01 -1.714110E+01 
3.101187E+02  9.896399E-01 -2.889091E+01  6.015778E-04 1.729289E+02  1.643833E-04 -1.186821E+02 
5.968627E-04 1.729248E+02  9.914467E-01 -1.656387E+01  2.737953E-03 7.236300E+01 
1.799082E-04 -1.169576E+02  2.723155E-03 7.239767E+01  9.912642E-01 -1.714354E+01 
3.101250E+02  9.895080E-01 -2.889930E+01  6.246648E-04 1.716287E+02  1.668067E-04 -1.200256E+02 
6.393371E-04 1.711345E+02  9.913428E-01 -1.657011E+01  2.722478E-03 7.251708E+01 
1.674087E-04 -1.203893E+02  2.724854E-03 7.221382E+01  9.912560E-01 -1.714118E+01 
3.101313E+02  9.895177E-01 -2.890023E+01  6.684468E-04 1.709414E+02  1.761654E-04 -1.239634E+02 
6.704269E-04 1.704859E+02  9.913511E-01 -1.657426E+01  2.722954E-03 7.217394E+01 
1.596444E-04 -1.221194E+02  2.726565E-03 7.243370E+01  9.912417E-01 -1.714062E+01 
3.101375E+02  9.895384E-01 -2.890755E+01  7.112867E-04 1.705204E+02  1.752475E-04 -1.227830E+02 
7.079836E-04 1.696352E+02  9.911887E-01 -1.658043E+01  2.729369E-03 7.229228E+01 
1.667036E-04 -1.250455E+02  2.723163E-03 7.267597E+01  9.913226E-01 -1.714810E+01 
3.101438E+02  9.894167E-01 -2.890938E+01  7.435673E-04 1.694147E+02  1.507606E-04 -1.275593E+02 
7.410853E-04 1.689939E+02  9.911194E-01 -1.658091E+01  2.719473E-03 7.224892E+01 
1.584286E-04 -1.243015E+02  2.721825E-03 7.228649E+01  9.913197E-01 -1.714659E+01 
3.101500E+02  9.893376E-01 -2.891828E+01  7.794078E-04 1.687860E+02  1.550488E-04 -1.333943E+02 
7.888490E-04 1.687818E+02  9.910389E-01 -1.658740E+01  2.724024E-03 7.247797E+01 
1.613422E-04 -1.309000E+02  2.716408E-03 7.220610E+01  9.913029E-01 -1.714879E+01 
3.101562E+02  9.892974E-01 -2.892166E+01  8.301484E-04 1.673850E+02  1.510090E-04 -1.334342E+02 
8.348048E-04 1.673760E+02  9.909105E-01 -1.658537E+01  2.703771E-03 7.237653E+01 
1.621161E-04 -1.352472E+02  2.719374E-03 7.247111E+01  9.913631E-01 -1.714962E+01 
3.101625E+02  9.892470E-01 -2.892231E+01  8.832565E-04 1.662866E+02  1.586293E-04 -1.366406E+02 
8.876529E-04 1.660629E+02  9.907165E-01 -1.659226E+01  2.725052E-03 7.232943E+01 
1.505807E-04 -1.351777E+02  2.716679E-03 7.240724E+01  9.914446E-01 -1.715609E+01 
3.101687E+02  9.890165E-01 -2.893292E+01  9.448117E-04 1.646296E+02  1.466088E-04 -1.426228E+02 
9.383751E-04 1.645225E+02  9.906395E-01 -1.659540E+01  2.713082E-03 7.239309E+01 
1.411728E-04 -1.377502E+02  2.714197E-03 7.248612E+01  9.913830E-01 -1.715861E+01 
3.101750E+02  9.889656E-01 -2.892751E+01  1.009936E-03 1.631531E+02  1.471601E-04 -1.416757E+02 
1.000896E-03 1.622562E+02  9.905971E-01 -1.659512E+01  2.713801E-03 7.261405E+01 
1.315757E-04 -1.414519E+02  2.717992E-03 7.257299E+01  9.913600E-01 -1.715653E+01 
3.101812E+02  9.888389E-01 -2.893331E+01  1.068003E-03 1.607283E+02  1.470874E-04 -1.454688E+02 
1.070284E-03 1.607181E+02  9.904056E-01 -1.660280E+01  2.718219E-03 7.256232E+01 
1.476113E-04 -1.443370E+02  2.706870E-03 7.255362E+01  9.914897E-01 -1.715377E+01 
3.101875E+02  9.886942E-01 -2.894275E+01  1.143220E-03 1.593584E+02  1.351604E-04 -1.466799E+02 
1.140021E-03 1.589951E+02  9.902594E-01 -1.660165E+01  2.719144E-03 7.241850E+01 
1.477776E-04 -1.486229E+02  2.724796E-03 7.251197E+01  9.915073E-01 -1.715844E+01 
3.101938E+02  9.886355E-01 -2.894394E+01  1.226660E-03 1.569293E+02  1.360455E-04 -1.491424E+02 
1.226047E-03 1.563040E+02  9.901345E-01 -1.660545E+01  2.720838E-03 7.256752E+01 
1.324447E-04 -1.488280E+02  2.711526E-03 7.237692E+01  9.914773E-01 -1.716270E+01 
3.102000E+02  9.884044E-01 -2.894715E+01  1.306901E-03 1.546287E+02  1.327317E-04 -1.517095E+02 
1.308133E-03 1.541481E+02  9.899304E-01 -1.660465E+01  2.715996E-03 7.260567E+01 
1.330373E-04 -1.466900E+02  2.719335E-03 7.270962E+01  9.914884E-01 -1.716283E+01 
3.102063E+02  9.883059E-01 -2.894254E+01  1.384679E-03 1.514263E+02  1.271025E-04 -1.510454E+02 
1.376660E-03 1.513776E+02  9.897922E-01 -1.661033E+01  2.721861E-03 7.265457E+01 
1.369998E-04 -1.530109E+02  2.709597E-03 7.258197E+01  9.915383E-01 -1.716406E+01 
3.102125E+02  9.882343E-01 -2.894684E+01  1.468167E-03 1.489071E+02  1.399100E-04 -1.527507E+02 
1.479713E-03 1.482042E+02  9.895254E-01 -1.660951E+01  2.723170E-03 7.255424E+01 
1.374402E-04 -1.539031E+02  2.715180E-03 7.256288E+01  9.915388E-01 -1.716663E+01 
3.102188E+02  9.880581E-01 -2.894864E+01  1.576639E-03 1.453501E+02  1.287004E-04 -1.530331E+02 
1.586240E-03 1.449815E+02  9.893762E-01 -1.660667E+01  2.733494E-03 7.246766E+01 
1.288326E-04 -1.575955E+02  2.713315E-03 7.254180E+01  9.915813E-01 -1.716911E+01 
3.102250E+02  9.878871E-01 -2.894215E+01  1.690004E-03 1.419906E+02  1.239951E-04 -1.602796E+02 
1.684391E-03 1.412005E+02  9.892046E-01 -1.660236E+01  2.719980E-03 7.270786E+01 
1.293186E-04 -1.574488E+02  2.712168E-03 7.273796E+01  9.915355E-01 -1.716462E+01 
3.102312E+02  9.876227E-01 -2.894375E+01  1.788908E-03 1.379248E+02  1.399863E-04 -1.608920E+02 
1.789073E-03 1.380619E+02  9.889926E-01 -1.659672E+01  2.732460E-03 7.261376E+01 
1.293822E-04 -1.544865E+02  2.724820E-03 7.243080E+01  9.916153E-01 -1.717529E+01 
3.102375E+02  9.874848E-01 -2.894092E+01  1.902904E-03 1.339297E+02  1.320003E-04 -1.610110E+02 
1.906155E-03 1.337216E+02  9.886566E-01 -1.659136E+01  2.729746E-03 7.258278E+01 
1.382499E-04 -1.603938E+02  2.721066E-03 7.261671E+01  9.915697E-01 -1.717438E+01 
3.102437E+02  9.873426E-01 -2.892363E+01  1.997461E-03 1.292765E+02  1.359652E-04 -1.606387E+02 
1.999055E-03 1.292303E+02  9.886755E-01 -1.658118E+01  2.734206E-03 7.248495E+01 
1.332773E-04 -1.646618E+02  2.728001E-03 7.280026E+01  9.916057E-01 -1.717788E+01 
3.102500E+02  9.871126E-01 -2.892723E+01  2.123221E-03 1.242559E+02  1.441596E-04 -1.665825E+02 
2.130135E-03 1.242813E+02  9.881881E-01 -1.657679E+01  2.731567E-03 7.275141E+01 
1.360468E-04 -1.612579E+02  2.723305E-03 7.275459E+01  9.914922E-01 -1.716985E+01 
3.102563E+02  9.870941E-01 -2.891959E+01  2.236203E-03 1.194104E+02  1.417288E-04 -1.649581E+02 
2.231011E-03 1.188896E+02  9.881688E-01 -1.656385E+01  2.719875E-03 7.251600E+01 
1.395994E-04 -1.678343E+02  2.720219E-03 7.269683E+01  9.916041E-01 -1.717640E+01 
3.102625E+02  9.869951E-01 -2.891239E+01  2.327788E-03 1.138278E+02  1.397536E-04 -1.681784E+02 
2.343510E-03 1.136212E+02  9.879538E-01 -1.655556E+01  2.721616E-03 7.272383E+01 
1.368772E-04 -1.625159E+02  2.727670E-03 7.250181E+01  9.915807E-01 -1.717840E+01 
3.102688E+02  9.868828E-01 -2.890128E+01  2.446053E-03 1.078507E+02  1.343540E-04 -1.652475E+02 
2.423934E-03 1.080226E+02  9.879330E-01 -1.653485E+01  2.733780E-03 7.272793E+01 
1.395937E-04 -1.694456E+02  2.730375E-03 7.268922E+01  9.916478E-01 -1.718486E+01 
3.102750E+02  9.868334E-01 -2.889637E+01  2.507132E-03 1.016117E+02  1.437909E-04 -1.707528E+02 
2.513037E-03 1.018105E+02  9.878001E-01 -1.652435E+01  2.727378E-03 7.265307E+01 
1.387805E-04 -1.747934E+02  2.724695E-03 7.272295E+01  9.915118E-01 -1.718491E+01 
3.102812E+02  9.866780E-01 -2.888838E+01  2.573127E-03 9.568645E+01  1.314937E-04 -1.688819E+02 
2.576920E-03 9.561391E+01  9.876284E-01 -1.650954E+01  2.728376E-03 7.250422E+01 
1.389649E-04 -1.720711E+02  2.729103E-03 7.263104E+01  9.916252E-01 -1.718515E+01 
3.102875E+02  9.867237E-01 -2.887236E+01  2.615945E-03 8.907819E+01  1.496402E-04 -1.744918E+02 
2.619552E-03 8.932556E+01  9.877099E-01 -1.649187E+01  2.734767E-03 7.264321E+01 
1.508701E-04 -1.725241E+02  2.729124E-03 7.262170E+01  9.916672E-01 -1.719213E+01 
3.102937E+02  9.867001E-01 -2.886521E+01  2.643108E-03 8.291876E+01  1.506012E-04 -1.758600E+02 
2.648275E-03 8.284647E+01  9.876514E-01 -1.647731E+01  2.729094E-03 7.275437E+01 
1.358979E-04 -1.770928E+02  2.736001E-03 7.276028E+01  9.915965E-01 -1.719074E+01 
3.103000E+02  9.867520E-01 -2.885516E+01  2.645376E-03 7.628253E+01  1.454007E-04 -1.774648E+02 
2.653181E-03 7.625088E+01  9.877654E-01 -1.646154E+01  2.726400E-03 7.282780E+01 
1.458928E-04 -1.759397E+02  2.728519E-03 7.266349E+01  9.916163E-01 -1.719308E+01 
3.103062E+02  9.866357E-01 -2.884456E+01  2.631564E-03 6.941850E+01  1.458351E-04 -1.767140E+02 
2.633347E-03 6.969577E+01  9.877509E-01 -1.644714E+01  2.739976E-03 7.263228E+01 
1.493866E-04 -1.786190E+02  2.739504E-03 7.265125E+01  9.917313E-01 -1.719570E+01 
3.103125E+02  9.867325E-01 -2.883471E+01  2.613092E-03 6.300038E+01  1.475889E-04 -1.778446E+02 
2.610017E-03 6.311325E+01  9.876624E-01 -1.643462E+01  2.734946E-03 7.270592E+01 
1.525060E-04 -1.797068E+02  2.741518E-03 7.290861E+01  9.916701E-01 -1.719841E+01 
3.103188E+02  9.866748E-01 -2.882076E+01  2.562617E-03 5.630371E+01  1.561585E-04 1.729436E+02 
2.561699E-03 5.655244E+01  9.878831E-01 -1.642394E+01  2.730346E-03 7.240777E+01 
1.530963E-04 -1.783356E+02  2.736892E-03 7.247441E+01  9.916131E-01 -1.719715E+01 
3.103250E+02  9.866586E-01 -2.881388E+01  2.478348E-03 4.911097E+01  1.559848E-04 1.789361E+02 
2.490379E-03 4.937027E+01  9.879028E-01 -1.640656E+01  2.745367E-03 7.242474E+01 
1.466983E-04 1.770491E+02  2.737161E-03 7.254302E+01  9.916111E-01 -1.719764E+01 
3.103313E+02  9.868181E-01 -2.880355E+01  2.382633E-03 4.277044E+01  1.602753E-04 1.741446E+02 
2.391491E-03 4.283031E+01  9.880261E-01 -1.639447E+01  2.738966E-03 7.234433E+01 
1.542607E-04 1.760790E+02  2.738493E-03 7.226860E+01  9.916880E-01 -1.720191E+01 
3.103375E+02  9.868667E-01 -2.879778E+01  2.270245E-03 3.565061E+01  1.559749E-04 1.735658E+02 
2.290383E-03 3.606906E+01  9.882770E-01 -1.638033E+01  2.744419E-03 7.219204E+01 
1.627277E-04 1.760824E+02  2.724903E-03 7.237431E+01  9.916494E-01 -1.720093E+01 
3.103438E+02  9.870214E-01 -2.877761E+01  2.137916E-03 2.928142E+01  1.793726E-04 1.675510E+02 
2.146275E-03 2.949154E+01  9.882885E-01 -1.636929E+01  2.728425E-03 7.210491E+01 
1.655050E-04 1.711916E+02  2.726733E-03 7.242230E+01  9.916898E-01 -1.720926E+01 
3.103500E+02  9.871977E-01 -2.876208E+01  2.004287E-03 2.294341E+01  1.698531E-04 1.677022E+02 
1.982548E-03 2.339577E+01  9.885114E-01 -1.635436E+01  2.732036E-03 7.217042E+01 
1.658343E-04 1.683739E+02  2.714360E-03 7.228499E+01  9.916870E-01 -1.721251E+01 
3.103562E+02  9.873026E-01 -2.875521E+01  1.836598E-03 1.757527E+01  1.678701E-04 1.628037E+02 
1.825748E-03 1.734099E+01  9.887485E-01 -1.635061E+01  2.721385E-03 7.249190E+01 
1.653393E-04 1.669409E+02  2.722198E-03 7.254965E+01  9.916096E-01 -1.721193E+01 
3.103625E+02  9.875788E-01 -2.875012E+01  1.667782E-03 1.229598E+01  1.601129E-04 1.661754E+02 
1.666852E-03 1.185794E+01  9.889649E-01 -1.633531E+01  2.714660E-03 7.244298E+01 
1.624373E-04 1.635097E+02  2.715577E-03 7.225016E+01  9.917221E-01 -1.720965E+01 
3.103687E+02  9.878834E-01 -2.874788E+01  1.510893E-03 7.585211E+00  1.652167E-04 1.619548E+02 
1.505056E-03 7.826896E+00  9.891610E-01 -1.633100E+01  2.725619E-03 7.274509E+01 
1.496430E-04 1.641215E+02  2.720346E-03 7.239846E+01  9.917018E-01 -1.721366E+01 
3.103750E+02  9.882572E-01 -2.874662E+01  1.344299E-03 3.309597E+00  1.490787E-04 1.653172E+02 
1.340158E-03 4.024267E+00  9.895895E-01 -1.633222E+01  2.714576E-03 7.264555E+01 
1.677122E-04 1.634378E+02  2.725330E-03 7.259418E+01  9.916230E-01 -1.721029E+01 
3.103813E+02  9.884163E-01 -2.873986E+01  1.194184E-03 4.099004E-01  1.704952E-04 1.616759E+02 
1.193328E-03 -9.467880E-02  9.898535E-01 -1.632594E+01  2.721215E-03 7.266560E+01 
1.652501E-04 1.579808E+02  2.710614E-03 7.269320E+01  9.917479E-01 -1.722200E+01 
3.103875E+02  9.886428E-01 -2.873912E+01  1.057207E-03 -2.979640E+00  1.712252E-04 1.590062E+02 
1.056560E-03 -2.597487E+00  9.901288E-01 -1.632196E+01  2.723357E-03 7.260394E+01 
1.603194E-04 1.599179E+02  2.718303E-03 7.269179E+01  9.917465E-01 -1.721779E+01 
3.103938E+02  9.889184E-01 -2.875290E+01  9.405386E-04 -4.610792E+00  1.607685E-04 1.641920E+02 
9.333319E-04 -5.207631E+00  9.902552E-01 -1.632915E+01  2.724404E-03 7.263518E+01 
1.556130E-04 1.600804E+02  2.716048E-03 7.260114E+01  9.915944E-01 -1.721757E+01 
3.104000E+02  9.891685E-01 -2.875654E+01  8.390533E-04 -5.538316E+00  1.710133E-04 1.592073E+02 
8.318143E-04 -5.041776E+00  9.905396E-01 -1.632393E+01  2.724096E-03 7.271182E+01 
1.620174E-04 1.624524E+02  2.731971E-03 7.270235E+01  9.916932E-01 -1.722222E+01 
3.104062E+02  9.892865E-01 -2.875846E+01  7.277504E-04 -5.956111E+00  1.519228E-04 1.568139E+02 
7.356624E-04 -5.422592E+00  9.907582E-01 -1.633036E+01  2.721046E-03 7.269052E+01 
1.659836E-04 1.588358E+02  2.720088E-03 7.263418E+01  9.917127E-01 -1.722682E+01 
3.104125E+02  9.894812E-01 -2.876375E+01  6.610779E-04 -6.347544E+00  1.587575E-04 1.537994E+02 
6.511466E-04 -5.504664E+00  9.909499E-01 -1.633674E+01  2.729591E-03 7.275854E+01 
1.584806E-04 1.598493E+02  2.724897E-03 7.269930E+01  9.916542E-01 -1.723233E+01 
3.104187E+02  9.897296E-01 -2.876988E+01  5.772274E-04 -5.233961E+00  1.629530E-04 1.590652E+02 
5.714661E-04 -3.926737E+00  9.911075E-01 -1.634387E+01  2.740979E-03 7.273954E+01 
1.626015E-04 1.590653E+02  2.723787E-03 7.267687E+01  9.916056E-01 -1.723381E+01 
3.104250E+02  9.898787E-01 -2.877478E+01  5.048685E-04 -2.180972E+00  1.599007E-04 1.569649E+02 
5.028486E-04 -1.716469E+00  9.912605E-01 -1.634341E+01  2.731517E-03 7.287538E+01 
1.622307E-04 1.589216E+02  2.722738E-03 7.287956E+01  9.915869E-01 -1.722741E+01 
3.104312E+02  9.899341E-01 -2.878438E+01  4.550501E-04 2.263011E+00  1.677029E-04 1.596964E+02 
4.591937E-04 1.647986E+00  9.914763E-01 -1.635578E+01  2.734179E-03 7.263928E+01 
1.652875E-04 1.551825E+02  2.732024E-03 7.260874E+01  9.915840E-01 -1.723072E+01 
3.104375E+02  9.901008E-01 -2.879733E+01  4.147001E-04 5.031534E+00  1.613798E-04 1.600842E+02 
4.185975E-04 6.508977E+00  9.916064E-01 -1.635612E+01  2.728330E-03 7.290101E+01 
1.585571E-04 1.547057E+02  2.721565E-03 7.288477E+01  9.915462E-01 -1.722558E+01 
3.104438E+02  9.903477E-01 -2.880145E+01  3.824941E-04 1.029694E+01  1.523713E-04 1.556958E+02 
3.914671E-04 1.176424E+01  9.917170E-01 -1.636378E+01  2.737772E-03 7.291756E+01 
1.559130E-04 1.540144E+02  2.730517E-03 7.277479E+01  9.916020E-01 -1.723235E+01 
3.104500E+02  9.902012E-01 -2.881345E+01  3.648806E-04 1.509127E+01  1.752137E-04 1.557106E+02 
3.608115E-04 1.722168E+01  9.918099E-01 -1.637411E+01  2.740776E-03 7.273910E+01 
1.642340E-04 1.545532E+02  2.740681E-03 7.255556E+01  9.914923E-01 -1.723370E+01 
3.104563E+02  9.903333E-01 -2.882138E+01  3.516937E-04 2.069605E+01  1.619792E-04 1.530270E+02 
3.519021E-04 2.161122E+01  9.919675E-01 -1.637948E+01  2.747120E-03 7.272457E+01 
1.722910E-04 1.524405E+02  2.731302E-03 7.258200E+01  9.915125E-01 -1.723753E+01 
3.104625E+02  9.904148E-01 -2.882886E+01  3.359498E-04 2.711756E+01  1.683857E-04 1.542331E+02 
3.401636E-04 2.558093E+01  9.919428E-01 -1.638417E+01  2.733753E-03 7.263776E+01 
