! Matrix data file written by TouchstoneData, EPCOS AG
! FILENAME: "newformat_LZ05A_NB.s3p"
! COMMENT: "(LZ05A_NB.s3p) Epcos AG 31.01.2012 10:27:16"
! INFO: nport=3, nfreq=1601
! DATE: "Tue Jan 31 14:09:12 2012"
! USER: "Wilfried Schott"
!
! port | pin | signal
! -----|-----|--------
!   1  |  1  |  IN
!   2  |  5  |  OUT CH3
!   3  |  7  |  OUT CH2
! --------------------
! 
# MHZ S MA R 50
! freq  magS11 angS11  magS12 angS12  magS13 angS13  ...
4.289200E+02  9.838560E-01 -3.411219E+01  5.211307E-04 -4.026219E+01  2.431774E-04 -1.372715E+02 
5.271575E-04 -4.000911E+01  9.865388E-01 -1.967570E+01  3.033221E-03 6.937887E+01 
2.431041E-04 -1.350617E+02  3.051341E-03 6.944458E+01  9.882156E-01 -2.012832E+01 
4.289263E+02  9.836540E-01 -3.410983E+01  5.274287E-04 -4.278299E+01  2.409243E-04 -1.375586E+02 
5.273388E-04 -4.231157E+01  9.863562E-01 -1.966930E+01  3.034298E-03 6.940716E+01 
2.458760E-04 -1.383398E+02  3.036605E-03 6.946051E+01  9.882210E-01 -2.013337E+01 
4.289325E+02  9.836411E-01 -3.411340E+01  5.359247E-04 -4.630384E+01  2.436755E-04 -1.373191E+02 
5.380569E-04 -4.602559E+01  9.862316E-01 -1.967060E+01  3.038085E-03 6.937637E+01 
2.383011E-04 -1.390981E+02  3.046810E-03 6.927622E+01  9.880993E-01 -2.012889E+01 
4.289388E+02  9.836378E-01 -3.411384E+01  5.397186E-04 -5.004515E+01  2.373801E-04 -1.354739E+02 
5.357790E-04 -4.899513E+01  9.863308E-01 -1.966768E+01  3.033394E-03 6.940985E+01 
2.505447E-04 -1.370231E+02  3.032678E-03 6.945936E+01  9.881279E-01 -2.012745E+01 
4.289450E+02  9.836288E-01 -3.411353E+01  5.380710E-04 -5.091910E+01  2.398995E-04 -1.373985E+02 
5.472285E-04 -5.085773E+01  9.861821E-01 -1.966699E+01  3.037763E-03 6.925191E+01 
2.437962E-04 -1.374236E+02  3.040218E-03 6.935554E+01  9.881277E-01 -2.013113E+01 
4.289513E+02  9.833757E-01 -3.411381E+01  5.502697E-04 -5.470156E+01  2.560915E-04 -1.372712E+02 
5.532707E-04 -5.514833E+01  9.862526E-01 -1.966892E+01  3.027887E-03 6.950633E+01 
2.479961E-04 -1.377437E+02  3.038881E-03 6.928251E+01  9.880680E-01 -2.013378E+01 
4.289575E+02  9.834801E-01 -3.411167E+01  5.534095E-04 -5.749334E+01  2.465806E-04 -1.392538E+02 
5.552564E-04 -5.914980E+01  9.860946E-01 -1.966391E+01  3.037726E-03 6.921364E+01 
2.378752E-04 -1.381661E+02  3.044462E-03 6.919650E+01  9.880250E-01 -2.013761E+01 
4.289638E+02  9.835008E-01 -3.411161E+01  5.545160E-04 -6.132567E+01  2.467883E-04 -1.409964E+02 
5.539582E-04 -5.985893E+01  9.862564E-01 -1.967033E+01  3.042208E-03 6.932224E+01 
2.550455E-04 -1.400531E+02  3.030102E-03 6.952138E+01  9.880513E-01 -2.014034E+01 
4.289700E+02  9.833558E-01 -3.411411E+01  5.628452E-04 -6.327566E+01  2.451587E-04 -1.376738E+02 
5.644405E-04 -6.420856E+01  9.860707E-01 -1.966596E+01  3.032824E-03 6.938243E+01 
2.420934E-04 -1.358375E+02  3.040461E-03 6.926601E+01  9.880295E-01 -2.013367E+01 
4.289762E+02  9.833375E-01 -3.411805E+01  5.749804E-04 -6.632436E+01  2.514607E-04 -1.384340E+02 
5.662234E-04 -6.769084E+01  9.860165E-01 -1.967413E+01  3.027580E-03 6.933460E+01 
2.468580E-04 -1.405731E+02  3.037225E-03 6.945635E+01  9.880431E-01 -2.014213E+01 
4.289825E+02  9.832852E-01 -3.411225E+01  5.632926E-04 -6.980876E+01  2.550101E-04 -1.385026E+02 
5.683738E-04 -6.969420E+01  9.859672E-01 -1.966893E+01  3.031321E-03 6.931410E+01 
2.496753E-04 -1.400780E+02  3.045648E-03 6.940402E+01  9.881507E-01 -2.014007E+01 
4.289888E+02  9.833039E-01 -3.411290E+01  5.754386E-04 -7.348081E+01  2.537224E-04 -1.391056E+02 
5.776643E-04 -7.255833E+01  9.858709E-01 -1.966609E+01  3.027006E-03 6.946010E+01 
2.510768E-04 -1.409793E+02  3.034054E-03 6.941641E+01  9.881300E-01 -2.014206E+01 
4.289950E+02  9.832507E-01 -3.411124E+01  5.780135E-04 -7.642387E+01  2.458430E-04 -1.381703E+02 
5.776590E-04 -7.716429E+01  9.860214E-01 -1.966497E+01  3.044799E-03 6.936307E+01 
2.494952E-04 -1.420758E+02  3.040075E-03 6.924745E+01  9.880543E-01 -2.014785E+01 
4.290013E+02  9.830867E-01 -3.410573E+01  5.818647E-04 -7.904839E+01  2.603128E-04 -1.394693E+02 
5.896464E-04 -7.998596E+01  9.858162E-01 -1.966383E+01  3.029075E-03 6.926060E+01 
2.553244E-04 -1.397126E+02  3.029979E-03 6.922847E+01  9.880183E-01 -2.013770E+01 
4.290075E+02  9.831235E-01 -3.411339E+01  5.928004E-04 -8.371939E+01  2.535512E-04 -1.414685E+02 
5.986984E-04 -8.240756E+01  9.858386E-01 -1.966208E+01  3.032339E-03 6.934125E+01 
2.538633E-04 -1.419265E+02  3.027590E-03 6.915838E+01  9.880158E-01 -2.014178E+01 
4.290138E+02  9.830958E-01 -3.410971E+01  5.982907E-04 -8.725429E+01  2.565387E-04 -1.394971E+02 
5.899576E-04 -8.627600E+01  9.858863E-01 -1.966329E+01  3.026252E-03 6.927845E+01 
2.550354E-04 -1.426828E+02  3.030596E-03 6.923649E+01  9.880541E-01 -2.014987E+01 
4.290200E+02  9.830343E-01 -3.411717E+01  5.947092E-04 -8.989639E+01  2.531836E-04 -1.406030E+02 
5.910833E-04 -8.963220E+01  9.858029E-01 -1.965829E+01  3.027219E-03 6.940503E+01 
2.486370E-04 -1.431765E+02  3.044073E-03 6.963027E+01  9.880216E-01 -2.014877E+01 
4.290263E+02  9.831439E-01 -3.411539E+01  6.084631E-04 -9.326804E+01  2.593504E-04 -1.431076E+02 
6.083684E-04 -9.309545E+01  9.857960E-01 -1.965829E+01  3.029521E-03 6.921728E+01 
2.527371E-04 -1.426225E+02  3.044112E-03 6.905468E+01  9.879930E-01 -2.014283E+01 
4.290325E+02  9.830404E-01 -3.410727E+01  6.023859E-04 -9.609512E+01  2.543538E-04 -1.428177E+02 
5.998608E-04 -9.668066E+01  9.856836E-01 -1.965898E+01  3.026064E-03 6.930649E+01 
2.613157E-04 -1.425098E+02  3.038825E-03 6.927287E+01  9.879140E-01 -2.014888E+01 
4.290387E+02  9.830198E-01 -3.411760E+01  6.134912E-04 -9.962460E+01  2.590769E-04 -1.431051E+02 
6.036783E-04 -9.980341E+01  9.857640E-01 -1.965350E+01  3.030306E-03 6.922807E+01 
2.534584E-04 -1.433713E+02  3.036908E-03 6.942725E+01  9.880227E-01 -2.014951E+01 
4.290450E+02  9.829635E-01 -3.410555E+01  6.137411E-04 -1.025083E+02  2.598403E-04 -1.433028E+02 
6.070505E-04 -1.032802E+02  9.856910E-01 -1.965097E+01  3.041943E-03 6.937809E+01 
2.660559E-04 -1.407493E+02  3.046222E-03 6.944305E+01  9.879340E-01 -2.014949E+01 
4.290513E+02  9.829657E-01 -3.410962E+01  6.176418E-04 -1.069337E+02  2.680057E-04 -1.446768E+02 
6.172560E-04 -1.065787E+02  9.857514E-01 -1.966016E+01  3.029878E-03 6.930964E+01 
2.528792E-04 -1.433703E+02  3.037489E-03 6.938757E+01  9.879813E-01 -2.015091E+01 
4.290575E+02  9.828853E-01 -3.411341E+01  6.168424E-04 -1.101071E+02  2.699232E-04 -1.430248E+02 
6.183768E-04 -1.104025E+02  9.857668E-01 -1.964849E+01  3.036312E-03 6.935542E+01 
2.630231E-04 -1.463402E+02  3.030111E-03 6.930985E+01  9.879826E-01 -2.015215E+01 
4.290638E+02  9.828718E-01 -3.410904E+01  6.187520E-04 -1.128818E+02  2.637961E-04 -1.451554E+02 
6.175650E-04 -1.134412E+02  9.856593E-01 -1.965294E+01  3.046398E-03 6.933758E+01 
2.567761E-04 -1.449705E+02  3.035044E-03 6.929309E+01  9.879798E-01 -2.015508E+01 
4.290700E+02  9.828905E-01 -3.410843E+01  6.238278E-04 -1.168210E+02  2.719928E-04 -1.455796E+02 
6.220675E-04 -1.169691E+02  9.858228E-01 -1.965031E+01  3.028659E-03 6.931914E+01 
2.612806E-04 -1.455498E+02  3.029739E-03 6.947004E+01  9.879420E-01 -2.015379E+01 
4.290763E+02  9.828527E-01 -3.410266E+01  6.263993E-04 -1.203486E+02  2.574553E-04 -1.453295E+02 
6.242482E-04 -1.201419E+02  9.856983E-01 -1.965122E+01  3.031451E-03 6.945283E+01 
2.665235E-04 -1.450054E+02  3.043931E-03 6.915428E+01  9.879258E-01 -2.015327E+01 
4.290825E+02  9.828957E-01 -3.410960E+01  6.359094E-04 -1.238085E+02  2.668400E-04 -1.465120E+02 
6.290379E-04 -1.237728E+02  9.856680E-01 -1.964292E+01  3.031699E-03 6.933130E+01 
2.551899E-04 -1.459183E+02  3.041335E-03 6.931317E+01  9.878268E-01 -2.015806E+01 
4.290888E+02  9.829020E-01 -3.410729E+01  6.389659E-04 -1.267762E+02  2.675581E-04 -1.471061E+02 
6.201994E-04 -1.265927E+02  9.856291E-01 -1.964349E+01  3.030304E-03 6.938013E+01 
2.638787E-04 -1.462033E+02  3.042568E-03 6.953095E+01  9.878833E-01 -2.015889E+01 
4.290950E+02  9.829617E-01 -3.410845E+01  6.272253E-04 -1.296088E+02  2.555499E-04 -1.483590E+02 
6.295891E-04 -1.300400E+02  9.856220E-01 -1.963779E+01  3.038487E-03 6.958449E+01 
2.675290E-04 -1.469188E+02  3.046738E-03 6.956111E+01  9.878258E-01 -2.015421E+01 
4.291012E+02  9.828547E-01 -3.410172E+01  6.288727E-04 -1.340770E+02  2.777735E-04 -1.463755E+02 
6.348226E-04 -1.331336E+02  9.856578E-01 -1.963990E+01  3.041421E-03 6.933636E+01 
2.660571E-04 -1.457605E+02  3.041141E-03 6.946377E+01  9.878903E-01 -2.016349E+01 
4.291075E+02  9.828226E-01 -3.410503E+01  6.323921E-04 -1.368186E+02  2.614372E-04 -1.500298E+02 
6.266630E-04 -1.364080E+02  9.856685E-01 -1.963453E+01  3.038040E-03 6.931006E+01 
2.559229E-04 -1.483832E+02  3.045023E-03 6.960841E+01  9.878240E-01 -2.016576E+01 
4.291138E+02  9.827382E-01 -3.410339E+01  6.347084E-04 -1.401905E+02  2.716082E-04 -1.488707E+02 
6.245735E-04 -1.408476E+02  9.855983E-01 -1.963482E+01  3.033006E-03 6.944188E+01 
2.666325E-04 -1.485955E+02  3.040400E-03 6.943274E+01  9.878447E-01 -2.016518E+01 
4.291200E+02  9.828928E-01 -3.410390E+01  6.461038E-04 -1.432534E+02  2.680203E-04 -1.494828E+02 
6.473145E-04 -1.436934E+02  9.857288E-01 -1.963667E+01  3.022802E-03 6.945679E+01 
2.644186E-04 -1.483043E+02  3.039044E-03 6.931164E+01  9.879026E-01 -2.016762E+01 
4.291263E+02  9.828536E-01 -3.409445E+01  6.468717E-04 -1.466594E+02  2.672749E-04 -1.504631E+02 
6.439175E-04 -1.462723E+02  9.856582E-01 -1.963190E+01  3.034610E-03 6.945386E+01 
2.685800E-04 -1.491879E+02  3.042174E-03 6.932303E+01  9.878350E-01 -2.016858E+01 
4.291325E+02  9.828063E-01 -3.409286E+01  6.421924E-04 -1.493004E+02  2.590357E-04 -1.520441E+02 
6.362653E-04 -1.493768E+02  9.856560E-01 -1.963209E+01  3.042283E-03 6.938752E+01 
2.699283E-04 -1.503590E+02  3.046223E-03 6.947961E+01  9.877779E-01 -2.017285E+01 
4.291388E+02  9.827425E-01 -3.409856E+01  6.456499E-04 -1.528620E+02  2.742390E-04 -1.506725E+02 
6.377430E-04 -1.530190E+02  9.856806E-01 -1.962440E+01  3.036610E-03 6.946700E+01 
2.672708E-04 -1.500984E+02  3.050201E-03 6.945789E+01  9.878108E-01 -2.016933E+01 
4.291450E+02  9.828277E-01 -3.409786E+01  6.433762E-04 -1.559647E+02  2.604718E-04 -1.524248E+02 
6.367586E-04 -1.562272E+02  9.857105E-01 -1.962752E+01  3.045289E-03 6.932885E+01 
2.641653E-04 -1.525370E+02  3.055132E-03 6.956051E+01  9.877482E-01 -2.016976E+01 
4.291513E+02  9.829447E-01 -3.410155E+01  6.491233E-04 -1.590538E+02  2.636609E-04 -1.550608E+02 
6.413056E-04 -1.589640E+02  9.856933E-01 -1.962599E+01  3.042032E-03 6.945838E+01 
2.660391E-04 -1.529729E+02  3.049936E-03 6.958872E+01  9.876298E-01 -2.016652E+01 
4.291575E+02  9.828361E-01 -3.409900E+01  6.355189E-04 -1.618621E+02  2.712146E-04 -1.542836E+02 
6.296156E-04 -1.625752E+02  9.857227E-01 -1.962465E+01  3.030979E-03 6.933767E+01 
2.643117E-04 -1.546829E+02  3.042201E-03 6.927131E+01  9.876159E-01 -2.016829E+01 
4.291637E+02  9.828519E-01 -3.410327E+01  6.424711E-04 -1.645405E+02  2.687804E-04 -1.545184E+02 
6.311687E-04 -1.650567E+02  9.857750E-01 -1.962484E+01  3.036036E-03 6.921211E+01 
2.597479E-04 -1.520267E+02  3.041574E-03 6.933846E+01  9.878326E-01 -2.017350E+01 
4.291700E+02  9.828528E-01 -3.409873E+01  6.446750E-04 -1.668776E+02  2.730921E-04 -1.563196E+02 
6.358515E-04 -1.684273E+02  9.857384E-01 -1.961881E+01  3.035731E-03 6.946661E+01 
2.490133E-04 -1.542856E+02  3.057823E-03 6.955797E+01  9.877119E-01 -2.017125E+01 
4.291763E+02  9.829365E-01 -3.409145E+01  6.340335E-04 -1.701378E+02  2.714284E-04 -1.555370E+02 
6.328355E-04 -1.703119E+02  9.858514E-01 -1.962482E+01  3.045713E-03 6.905514E+01 
2.539236E-04 -1.573460E+02  3.038107E-03 6.953976E+01  9.878241E-01 -2.017570E+01 
4.291825E+02  9.831191E-01 -3.410550E+01  6.269870E-04 -1.734703E+02  2.608246E-04 -1.535208E+02 
6.276292E-04 -1.739615E+02  9.858109E-01 -1.961803E+01  3.041170E-03 6.950806E+01 
2.609895E-04 -1.564616E+02  3.048294E-03 6.941226E+01  9.877122E-01 -2.017604E+01 
4.291888E+02  9.828448E-01 -3.409410E+01  6.450418E-04 -1.760142E+02  2.582864E-04 -1.587689E+02 
6.355016E-04 -1.766326E+02  9.857721E-01 -1.961288E+01  3.040858E-03 6.938443E+01 
2.573835E-04 -1.574796E+02  3.044335E-03 6.936482E+01  9.876716E-01 -2.017614E+01 
4.291950E+02  9.829637E-01 -3.409774E+01  6.290572E-04 -1.793645E+02  2.622674E-04 -1.565370E+02 
6.340286E-04 -1.792163E+02  9.858635E-01 -1.961712E+01  3.046561E-03 6.922543E+01 
2.533289E-04 -1.571266E+02  3.038857E-03 6.918596E+01  9.877296E-01 -2.017922E+01 
4.292013E+02  9.831266E-01 -3.409316E+01  6.302803E-04 1.788036E+02  2.645084E-04 -1.584543E+02 
6.204040E-04 1.778373E+02  9.859382E-01 -1.960865E+01  3.037903E-03 6.935844E+01 
2.620488E-04 -1.574712E+02  3.047412E-03 6.943685E+01  9.876817E-01 -2.017921E+01 
4.292075E+02  9.829898E-01 -3.409476E+01  6.286769E-04 1.767200E+02  2.473852E-04 -1.591782E+02 
6.282245E-04 1.750719E+02  9.858605E-01 -1.961962E+01  3.054725E-03 6.957528E+01 
2.511878E-04 -1.563333E+02  3.046376E-03 6.944313E+01  9.877112E-01 -2.018005E+01 
4.292138E+02  9.830824E-01 -3.409104E+01  6.267445E-04 1.727643E+02  2.513581E-04 -1.580261E+02 
6.198033E-04 1.730774E+02  9.860142E-01 -1.962224E+01  3.042981E-03 6.926044E+01 
2.517307E-04 -1.584590E+02  3.052215E-03 6.926842E+01  9.875955E-01 -2.017821E+01 
4.292200E+02  9.829747E-01 -3.409903E+01  6.212861E-04 1.712060E+02  2.473944E-04 -1.573441E+02 
6.093030E-04 1.702067E+02  9.859597E-01 -1.961171E+01  3.040897E-03 6.942583E+01 
2.498877E-04 -1.562130E+02  3.044068E-03 6.928529E+01  9.876517E-01 -2.017685E+01 
4.292262E+02  9.830362E-01 -3.409766E+01  6.150140E-04 1.685741E+02  2.519400E-04 -1.591493E+02 
6.048360E-04 1.678457E+02  9.859222E-01 -1.961970E+01  3.042407E-03 6.935872E+01 
2.617768E-04 -1.581211E+02  3.049978E-03 6.935150E+01  9.876691E-01 -2.017983E+01 
4.292325E+02  9.831501E-01 -3.409757E+01  6.191944E-04 1.657961E+02  2.428201E-04 -1.618864E+02 
6.141019E-04 1.664242E+02  9.860067E-01 -1.961960E+01  3.045721E-03 6.929980E+01 
2.527011E-04 -1.588855E+02  3.044173E-03 6.931147E+01  9.876067E-01 -2.018390E+01 
4.292388E+02  9.831667E-01 -3.409918E+01  6.192253E-04 1.638668E+02  2.570762E-04 -1.615330E+02 
6.137435E-04 1.633871E+02  9.859201E-01 -1.961413E+01  3.043516E-03 6.926000E+01 
2.547342E-04 -1.604367E+02  3.045876E-03 6.937076E+01  9.876004E-01 -2.018200E+01 
4.292450E+02  9.831942E-01 -3.410082E+01  6.104729E-04 1.617751E+02  2.446927E-04 -1.598586E+02 
6.125600E-04 1.626518E+02  9.860792E-01 -1.962173E+01  3.035964E-03 6.897269E+01 
2.429708E-04 -1.620812E+02  3.038274E-03 6.940314E+01  9.875973E-01 -2.018067E+01 
4.292513E+02  9.831574E-01 -3.410327E+01  6.172032E-04 1.601051E+02  2.463830E-04 -1.612490E+02 
6.033006E-04 1.597328E+02  9.860502E-01 -1.961730E+01  3.041845E-03 6.909327E+01 
2.524242E-04 -1.631635E+02  3.049967E-03 6.938365E+01  9.876202E-01 -2.018123E+01 
4.292575E+02  9.832885E-01 -3.410423E+01  6.034887E-04 1.570542E+02  2.457999E-04 -1.635109E+02 
6.027573E-04 1.578455E+02  9.861390E-01 -1.961935E+01  3.042126E-03 6.928861E+01 
2.397859E-04 -1.624156E+02  3.057632E-03 6.910631E+01  9.875588E-01 -2.018593E+01 
4.292638E+02  9.832264E-01 -3.410802E+01  6.127524E-04 1.554914E+02  2.391636E-04 -1.612449E+02 
6.034686E-04 1.547757E+02  9.860421E-01 -1.961394E+01  3.042768E-03 6.894490E+01 
2.384384E-04 -1.622026E+02  3.053466E-03 6.900822E+01  9.875931E-01 -2.018900E+01 
4.292700E+02  9.832529E-01 -3.410386E+01  6.024629E-04 1.540095E+02  2.362555E-04 -1.617545E+02 
5.977436E-04 1.531507E+02  9.861759E-01 -1.962309E+01  3.039551E-03 6.919016E+01 
2.456026E-04 -1.628626E+02  3.042224E-03 6.922525E+01  9.875052E-01 -2.018166E+01 
4.292763E+02  9.832405E-01 -3.410375E+01  6.063617E-04 1.508698E+02  2.318239E-04 -1.608230E+02 
5.957257E-04 1.511168E+02  9.862077E-01 -1.961704E+01  3.031523E-03 6.921223E+01 
2.406842E-04 -1.611673E+02  3.049692E-03 6.907843E+01  9.876532E-01 -2.018698E+01 
4.292825E+02  9.832568E-01 -3.410762E+01  6.037756E-04 1.498612E+02  2.459232E-04 -1.600615E+02 
5.982431E-04 1.494218E+02  9.861024E-01 -1.961546E+01  3.044159E-03 6.921608E+01 
2.370285E-04 -1.627243E+02  3.047625E-03 6.932074E+01  9.874660E-01 -2.018582E+01 
4.292887E+02  9.833262E-01 -3.411010E+01  5.957319E-04 1.473762E+02  2.319708E-04 -1.602959E+02 
6.036971E-04 1.473002E+02  9.861678E-01 -1.961778E+01  3.040909E-03 6.927924E+01 
2.313924E-04 -1.634895E+02  3.048841E-03 6.933763E+01  9.875885E-01 -2.018772E+01 
4.292950E+02  9.833275E-01 -3.411586E+01  6.021608E-04 1.462355E+02  2.433096E-04 -1.641130E+02 
5.998753E-04 1.449884E+02  9.861959E-01 -1.962195E+01  3.047867E-03 6.924446E+01 
2.354444E-04 -1.621760E+02  3.046495E-03 6.923462E+01  9.876150E-01 -2.018960E+01 
4.293013E+02  9.833593E-01 -3.411869E+01  5.971377E-04 1.442213E+02  2.452183E-04 -1.633861E+02 
5.933724E-04 1.437427E+02  9.862394E-01 -1.961616E+01  3.034278E-03 6.909823E+01 
2.293357E-04 -1.656432E+02  3.044046E-03 6.931701E+01  9.875589E-01 -2.018304E+01 
4.293075E+02  9.834111E-01 -3.411872E+01  6.061874E-04 1.427635E+02  2.307873E-04 -1.638694E+02 
6.082969E-04 1.426592E+02  9.863003E-01 -1.961851E+01  3.043495E-03 6.940327E+01 
2.273261E-04 -1.647604E+02  3.042232E-03 6.929253E+01  9.876023E-01 -2.019346E+01 
4.293138E+02  9.834816E-01 -3.411470E+01  5.920565E-04 1.418408E+02  2.129838E-04 -1.664224E+02 
5.974998E-04 1.408050E+02  9.862667E-01 -1.962200E+01  3.040048E-03 6.913789E+01 
2.304199E-04 -1.644274E+02  3.047747E-03 6.900800E+01  9.875297E-01 -2.019022E+01 
4.293200E+02  9.834625E-01 -3.411937E+01  5.963360E-04 1.391671E+02  2.254816E-04 -1.628135E+02 
5.991800E-04 1.378702E+02  9.863330E-01 -1.962458E+01  3.048387E-03 6.911173E+01 
2.270755E-04 -1.659758E+02  3.045277E-03 6.928607E+01  9.876660E-01 -2.019493E+01 
4.293263E+02  9.834470E-01 -3.411699E+01  5.915960E-04 1.378712E+02  2.377804E-04 -1.649415E+02 
5.979317E-04 1.377668E+02  9.863614E-01 -1.962742E+01  3.035133E-03 6.917298E+01 
2.233678E-04 -1.636408E+02  3.039638E-03 6.931344E+01  9.875253E-01 -2.019877E+01 
4.293325E+02  9.834433E-01 -3.412896E+01  5.902664E-04 1.359030E+02  2.332812E-04 -1.634713E+02 
5.952412E-04 1.348058E+02  9.862341E-01 -1.962597E+01  3.037474E-03 6.928012E+01 
2.174814E-04 -1.649577E+02  3.045764E-03 6.922213E+01  9.874032E-01 -2.019344E+01 
4.293388E+02  9.836566E-01 -3.412807E+01  5.909725E-04 1.329538E+02  2.258362E-04 -1.636326E+02 
6.062542E-04 1.326908E+02  9.864174E-01 -1.962414E+01  3.038892E-03 6.941323E+01 
2.271673E-04 -1.661188E+02  3.040523E-03 6.943931E+01  9.874693E-01 -2.018852E+01 
4.293450E+02  9.835502E-01 -3.413122E+01  6.001626E-04 1.316957E+02  2.198883E-04 -1.645006E+02 
5.894112E-04 1.317733E+02  9.863551E-01 -1.962289E+01  3.036808E-03 6.918388E+01 
2.227826E-04 -1.627553E+02  3.039667E-03 6.908203E+01  9.875832E-01 -2.019781E+01 
4.293512E+02  9.834532E-01 -3.413266E+01  5.921533E-04 1.306985E+02  2.214850E-04 -1.655387E+02 
5.979106E-04 1.309667E+02  9.863491E-01 -1.962730E+01  3.038200E-03 6.904449E+01 
2.227256E-04 -1.631316E+02  3.049772E-03 6.916390E+01  9.875125E-01 -2.020038E+01 
4.293575E+02  9.835066E-01 -3.413780E+01  5.989861E-04 1.285649E+02  2.204197E-04 -1.659093E+02 
5.949319E-04 1.287520E+02  9.864401E-01 -1.962466E+01  3.031466E-03 6.904139E+01 
2.165827E-04 -1.658205E+02  3.043975E-03 6.935730E+01  9.875142E-01 -2.019870E+01 
4.293638E+02  9.836597E-01 -3.413714E+01  6.026066E-04 1.275898E+02  2.141431E-04 -1.681343E+02 
6.086147E-04 1.285898E+02  9.864159E-01 -1.962360E+01  3.024358E-03 6.919845E+01 
2.146492E-04 -1.650833E+02  3.035251E-03 6.917841E+01  9.875746E-01 -2.019774E+01 
4.293700E+02  9.836222E-01 -3.414057E+01  6.044826E-04 1.250225E+02  2.274380E-04 -1.681188E+02 
6.025628E-04 1.258660E+02  9.865064E-01 -1.962714E+01  3.031031E-03 6.932831E+01 
2.192853E-04 -1.647456E+02  3.038419E-03 6.941949E+01  9.875719E-01 -2.020032E+01 
4.293763E+02  9.834477E-01 -3.414338E+01  6.111575E-04 1.248712E+02  2.213945E-04 -1.690633E+02 
5.980802E-04 1.242788E+02  9.864770E-01 -1.963414E+01  3.028527E-03 6.916303E+01 
2.185064E-04 -1.661015E+02  3.024416E-03 6.960126E+01  9.875593E-01 -2.019843E+01 
