! Matrix data file written by TouchstoneData, EPCOS AG
! FILENAME: "newformat_LZ06B_MB.s4p"
! COMMENT: "(LZ06B_MB.s4p) Epcos AG 31.01.2012 10:37:25"
! INFO: nport=4, nfreq=1601
! DATE: "Tue Jan 31 15:10:04 2012"
! USER: "Wilfried Schott"
!
! port | pin | signal
! -----|-----|--------
!   1  |  1  |  IN
!   2  |  5  |  OUT CH2
!   3  |  6  |  OUT CH1
!   4  |  7  |  OUT CH3
! --------------------
! 
# MHZ S MA R 50
! freq  magS11 angS11  magS12 angS12  magS13 angS13  magS14 angS14  ...
2.900000E+02  9.890874E-01 -4.004083E+01  3.270570E-04 -1.238711E+02  3.153979E-04 6.393081E+01  1.073533E-03 6.408302E+01 
3.135419E-04 -1.226699E+02  9.919668E-01 -1.646323E+01  7.923090E-03 7.316527E+01  5.880261E-04 1.660683E+02 
3.207707E-04 6.481560E+01  7.893133E-03 7.310073E+01  9.907991E-01 -1.710135E+01  2.395131E-02 7.285514E+01 
1.079729E-03 6.423753E+01  5.938810E-04 1.660237E+02  2.402244E-02 7.289575E+01  9.934175E-01 -1.657259E+01 
2.900312E+02  9.890043E-01 -4.004683E+01  3.341922E-04 -1.221959E+02  3.272316E-04 6.529483E+01  1.081558E-03 6.456264E+01 
3.158310E-04 -1.205262E+02  9.919048E-01 -1.645687E+01  7.917570E-03 7.318349E+01  5.839486E-04 1.659402E+02 
3.340729E-04 6.401483E+01  7.898295E-03 7.312662E+01  9.908568E-01 -1.709807E+01  2.396269E-02 7.287611E+01 
1.079969E-03 6.360138E+01  5.942198E-04 1.658437E+02  2.400793E-02 7.290136E+01  9.935139E-01 -1.657027E+01 
2.900625E+02  9.890649E-01 -4.005216E+01  3.253738E-04 -1.235765E+02  3.275320E-04 6.392679E+01  1.089450E-03 6.410103E+01 
3.171256E-04 -1.208876E+02  9.919149E-01 -1.646865E+01  7.925310E-03 7.311426E+01  5.813158E-04 1.662031E+02 
3.234906E-04 6.675994E+01  7.908274E-03 7.315801E+01  9.907095E-01 -1.710344E+01  2.395313E-02 7.288263E+01 
1.081513E-03 6.435931E+01  5.835518E-04 1.659678E+02  2.401305E-02 7.289515E+01  9.934693E-01 -1.657687E+01 
2.900938E+02  9.891233E-01 -4.006055E+01  3.413737E-04 -1.214728E+02  3.177251E-04 6.572709E+01  1.080199E-03 6.402161E+01 
3.165911E-04 -1.230963E+02  9.918778E-01 -1.646516E+01  7.900568E-03 7.319802E+01  5.976994E-04 1.653024E+02 
3.224947E-04 6.732304E+01  7.904319E-03 7.316310E+01  9.908291E-01 -1.710452E+01  2.396779E-02 7.291664E+01 
1.062085E-03 6.400503E+01  5.852455E-04 1.665520E+02  2.402210E-02 7.289612E+01  9.934393E-01 -1.657484E+01 
2.901250E+02  9.890838E-01 -4.005692E+01  3.256391E-04 -1.228288E+02  3.148806E-04 6.369279E+01  1.079283E-03 6.359872E+01 
3.246748E-04 -1.239850E+02  9.920326E-01 -1.647549E+01  7.913301E-03 7.321117E+01  5.886408E-04 1.662624E+02 
3.174622E-04 6.450852E+01  7.907957E-03 7.314995E+01  9.908735E-01 -1.711072E+01  2.396761E-02 7.288141E+01 
1.082765E-03 6.345067E+01  5.893544E-04 1.654881E+02  2.400834E-02 7.287653E+01  9.935053E-01 -1.657810E+01 
2.901562E+02  9.892119E-01 -4.006054E+01  3.297488E-04 -1.227012E+02  3.225435E-04 6.493956E+01  1.071430E-03 6.383721E+01 
3.186701E-04 -1.211559E+02  9.920387E-01 -1.647238E+01  7.925352E-03 7.316180E+01  5.854129E-04 1.653077E+02 
3.241859E-04 6.587227E+01  7.909224E-03 7.310057E+01  9.908118E-01 -1.710333E+01  2.396439E-02 7.290173E+01 
1.070561E-03 6.363713E+01  5.888948E-04 1.667155E+02  2.402426E-02 7.285339E+01  9.933713E-01 -1.659028E+01 
2.901875E+02  9.891078E-01 -4.007394E+01  3.183573E-04 -1.218300E+02  3.067149E-04 6.354970E+01  1.076260E-03 6.353411E+01 
3.253701E-04 -1.229559E+02  9.918978E-01 -1.647330E+01  7.919113E-03 7.315230E+01  5.911024E-04 1.648165E+02 
3.197395E-04 6.428304E+01  7.901815E-03 7.309747E+01  9.908257E-01 -1.710716E+01  2.396763E-02 7.292189E+01 
1.082889E-03 6.370002E+01  5.913852E-04 1.652467E+02  2.403081E-02 7.287355E+01  9.934681E-01 -1.658249E+01 
2.902188E+02  9.891318E-01 -4.007247E+01  3.240750E-04 -1.206363E+02  3.165637E-04 6.321649E+01  1.073006E-03 6.379780E+01 
3.132859E-04 -1.226142E+02  9.919764E-01 -1.647392E+01  7.935377E-03 7.318170E+01  5.857694E-04 1.657024E+02 
3.192088E-04 6.644320E+01  7.919361E-03 7.317296E+01  9.908712E-01 -1.710735E+01  2.397105E-02 7.291318E+01 
1.080804E-03 6.362056E+01  5.817380E-04 1.649371E+02  2.402903E-02 7.288224E+01  9.934440E-01 -1.658257E+01 
2.902500E+02  9.891513E-01 -4.007832E+01  3.253611E-04 -1.222879E+02  3.000078E-04 6.438347E+01  1.068490E-03 6.312344E+01 
3.294409E-04 -1.221663E+02  9.918649E-01 -1.647763E+01  7.935372E-03 7.306290E+01  5.792160E-04 1.639474E+02 
3.221490E-04 6.401680E+01  7.904739E-03 7.311638E+01  9.908858E-01 -1.710957E+01  2.397453E-02 7.286118E+01 
1.072065E-03 6.368198E+01  5.653713E-04 1.650536E+02  2.402868E-02 7.286402E+01  9.934150E-01 -1.659026E+01 
2.902812E+02  9.892368E-01 -4.008336E+01  3.297839E-04 -1.244095E+02  3.026357E-04 6.585655E+01  1.078414E-03 6.301343E+01 
3.038723E-04 -1.202744E+02  9.919649E-01 -1.648006E+01  7.935351E-03 7.309926E+01  5.910205E-04 1.648690E+02 
3.047872E-04 6.458348E+01  7.906028E-03 7.311213E+01  9.908406E-01 -1.711247E+01  2.396369E-02 7.289833E+01 
1.059100E-03 6.382259E+01  5.866770E-04 1.650671E+02  2.402963E-02 7.284135E+01  9.934078E-01 -1.659372E+01 
2.903125E+02  9.892907E-01 -4.009053E+01  3.237216E-04 -1.237079E+02  3.024265E-04 6.495951E+01  1.075518E-03 6.301498E+01 
3.251467E-04 -1.226385E+02  9.919417E-01 -1.648930E+01  7.939808E-03 7.310175E+01  5.827143E-04 1.658303E+02 
3.026144E-04 6.378285E+01  7.900438E-03 7.312147E+01  9.909434E-01 -1.711569E+01  2.397895E-02 7.290217E+01 
1.079980E-03 6.377821E+01  5.847056E-04 1.654359E+02  2.402586E-02 7.284226E+01  9.935458E-01 -1.660098E+01 
2.903438E+02  9.892196E-01 -4.008927E+01  3.322632E-04 -1.214170E+02  2.946077E-04 6.575324E+01  1.070670E-03 6.323226E+01 
3.156111E-04 -1.229380E+02  9.917654E-01 -1.648542E+01  7.932369E-03 7.301790E+01  5.773309E-04 1.644675E+02 
3.011310E-04 6.476974E+01  7.904216E-03 7.300369E+01  9.907960E-01 -1.711494E+01  2.397858E-02 7.291285E+01 
1.085527E-03 6.307727E+01  5.779254E-04 1.646360E+02  2.403426E-02 7.289880E+01  9.933600E-01 -1.658984E+01 
2.903750E+02  9.892904E-01 -4.010176E+01  3.165218E-04 -1.223740E+02  2.851470E-04 6.540530E+01  1.076546E-03 6.309221E+01 
3.056514E-04 -1.218886E+02  9.918314E-01 -1.649300E+01  7.931408E-03 7.297873E+01  5.722254E-04 1.639857E+02 
2.955369E-04 6.601349E+01  7.906987E-03 7.304405E+01  9.908495E-01 -1.711800E+01  2.398898E-02 7.286853E+01 
1.075331E-03 6.296252E+01  5.893119E-04 1.644524E+02  2.404370E-02 7.285226E+01  9.934632E-01 -1.660269E+01 
2.904062E+02  9.892914E-01 -4.010175E+01  3.178087E-04 -1.228406E+02  3.012128E-04 6.434866E+01  1.065064E-03 6.277705E+01 
3.206546E-04 -1.236312E+02  9.918371E-01 -1.648875E+01  7.912921E-03 7.311649E+01  5.876960E-04 1.652432E+02 
2.925268E-04 6.501786E+01  7.895956E-03 7.307901E+01  9.908767E-01 -1.711515E+01  2.398666E-02 7.290700E+01 
1.074307E-03 6.263471E+01  5.919377E-04 1.648658E+02  2.403955E-02 7.284665E+01  9.934833E-01 -1.660119E+01 
2.904375E+02  9.892224E-01 -4.011280E+01  3.237537E-04 -1.231714E+02  2.927505E-04 6.645342E+01  1.066035E-03 6.283071E+01 
3.171966E-04 -1.215727E+02  9.918678E-01 -1.649698E+01  7.923818E-03 7.303309E+01  5.759562E-04 1.647873E+02 
2.814916E-04 6.667967E+01  7.893568E-03 7.304643E+01  9.907837E-01 -1.712178E+01  2.398912E-02 7.286364E+01 
1.061466E-03 6.259843E+01  5.810340E-04 1.651012E+02  2.404577E-02 7.286063E+01  9.934261E-01 -1.660487E+01 
2.904688E+02  9.892569E-01 -4.011381E+01  3.273350E-04 -1.216034E+02  2.931504E-04 6.919621E+01  1.064441E-03 6.305871E+01 
3.163866E-04 -1.208608E+02  9.918106E-01 -1.650003E+01  7.922341E-03 7.301197E+01  5.822680E-04 1.649205E+02 
2.847167E-04 6.739928E+01  7.894057E-03 7.310452E+01  9.909110E-01 -1.711800E+01  2.398033E-02 7.287967E+01 
1.063280E-03 6.287234E+01  5.897358E-04 1.651682E+02  2.403844E-02 7.285942E+01  9.935124E-01 -1.660933E+01 
2.905000E+02  9.893641E-01 -4.012522E+01  3.337108E-04 -1.218265E+02  2.934953E-04 6.797537E+01  1.054938E-03 6.318938E+01 
3.221747E-04 -1.226319E+02  9.918532E-01 -1.649523E+01  7.898507E-03 7.304845E+01  5.663993E-04 1.640252E+02 
2.944330E-04 6.920723E+01  7.896825E-03 7.305497E+01  9.909357E-01 -1.712508E+01  2.399911E-02 7.288093E+01 
1.048617E-03 6.302371E+01  5.772711E-04 1.648541E+02  2.405433E-02 7.283760E+01  9.933556E-01 -1.661312E+01 
2.905312E+02  9.893300E-01 -4.012341E+01  3.206125E-04 -1.194306E+02  2.818547E-04 7.179046E+01  1.053394E-03 6.308867E+01 
3.123168E-04 -1.205493E+02  9.918761E-01 -1.650181E+01  7.904741E-03 7.299319E+01  5.880744E-04 1.658131E+02 
2.836823E-04 7.095381E+01  7.906056E-03 7.303594E+01  9.909750E-01 -1.712615E+01  2.399824E-02 7.285351E+01 
1.055715E-03 6.318325E+01  5.763287E-04 1.659415E+02  2.405680E-02 7.279663E+01  9.934574E-01 -1.661799E+01 
2.905625E+02  9.892797E-01 -4.012692E+01  3.234498E-04 -1.222149E+02  2.995328E-04 6.900681E+01  1.052602E-03 6.327751E+01 
3.211300E-04 -1.225870E+02  9.918428E-01 -1.650495E+01  7.914962E-03 7.307430E+01  5.889826E-04 1.655018E+02 
2.985902E-04 7.143784E+01  7.883612E-03 7.311696E+01  9.909180E-01 -1.712828E+01  2.399816E-02 7.286001E+01 
1.058383E-03 6.312535E+01  5.722169E-04 1.652266E+02  2.405368E-02 7.282565E+01  9.935468E-01 -1.661266E+01 
2.905938E+02  9.891748E-01 -4.013735E+01  3.254309E-04 -1.214151E+02  3.030937E-04 6.955222E+01  1.049964E-03 6.321461E+01 
3.249181E-04 -1.201000E+02  9.918501E-01 -1.650294E+01  7.911097E-03 7.309599E+01  5.762816E-04 1.655411E+02 
2.998518E-04 7.027573E+01  7.905556E-03 7.308365E+01  9.908324E-01 -1.713092E+01  2.400088E-02 7.285626E+01 
1.037591E-03 6.310828E+01  5.713976E-04 1.659552E+02  2.405218E-02 7.281641E+01  9.933926E-01 -1.661576E+01 
2.906250E+02  9.893636E-01 -4.014515E+01  3.293014E-04 -1.200456E+02  3.010489E-04 6.994217E+01  1.060960E-03 6.316764E+01 
3.249359E-04 -1.231638E+02  9.917568E-01 -1.650653E+01  7.923919E-03 7.318780E+01  5.737936E-04 1.653282E+02 
3.075926E-04 6.786313E+01  7.902964E-03 7.304719E+01  9.908548E-01 -1.713121E+01  2.399285E-02 7.286537E+01 
1.054556E-03 6.362621E+01  5.829995E-04 1.671699E+02  2.406226E-02 7.281709E+01  9.934778E-01 -1.662211E+01 
2.906562E+02  9.893540E-01 -4.014368E+01  3.255146E-04 -1.209572E+02  3.057743E-04 7.146426E+01  1.052409E-03 6.308105E+01 
3.253289E-04 -1.214258E+02  9.917735E-01 -1.650819E+01  7.917833E-03 7.310069E+01  5.667903E-04 1.652027E+02 
2.966392E-04 6.956689E+01  7.902244E-03 7.319846E+01  9.908776E-01 -1.713692E+01  2.398715E-02 7.284676E+01 
1.045924E-03 6.341473E+01  5.761856E-04 1.659167E+02  2.405803E-02 7.280954E+01  9.934543E-01 -1.662497E+01 
2.906875E+02  9.893167E-01 -4.015188E+01  3.421893E-04 -1.211592E+02  3.124928E-04 7.002007E+01  1.060415E-03 6.366502E+01 
3.157585E-04 -1.228124E+02  9.918595E-01 -1.651166E+01  7.928491E-03 7.304602E+01  5.697689E-04 1.649827E+02 
3.032056E-04 7.088649E+01  7.900542E-03 7.314326E+01  9.909166E-01 -1.714147E+01  2.400062E-02 7.284173E+01 
1.057733E-03 6.320902E+01  5.792537E-04 1.653409E+02  2.405972E-02 7.277064E+01  9.934719E-01 -1.663011E+01 
2.907188E+02  9.893071E-01 -4.015275E+01  3.373922E-04 -1.204152E+02  3.036558E-04 7.098971E+01  1.059678E-03 6.345410E+01 
3.241195E-04 -1.194204E+02  9.918449E-01 -1.651784E+01  7.918740E-03 7.316748E+01  5.772214E-04 1.663020E+02 
2.990046E-04 6.976459E+01  7.886899E-03 7.310272E+01  9.909007E-01 -1.714076E+01  2.400290E-02 7.285228E+01 
1.053039E-03 6.317753E+01  5.783747E-04 1.651775E+02  2.406684E-02 7.281456E+01  9.934725E-01 -1.663249E+01 
2.907500E+02  9.893149E-01 -4.015910E+01  3.330773E-04 -1.215581E+02  3.007998E-04 7.167538E+01  1.053643E-03 6.329060E+01 
3.190697E-04 -1.207685E+02  9.917868E-01 -1.652212E+01  7.920393E-03 7.317493E+01  5.778280E-04 1.657840E+02 
3.015930E-04 7.459852E+01  7.901095E-03 7.315519E+01  9.908695E-01 -1.714100E+01  2.400429E-02 7.286912E+01 
1.044872E-03 6.311740E+01  5.834935E-04 1.651975E+02  2.406204E-02 7.280611E+01  9.934863E-01 -1.663088E+01 
2.907812E+02  9.893236E-01 -4.016758E+01  3.272648E-04 -1.203952E+02  3.071586E-04 7.064728E+01  1.058119E-03 6.304483E+01 
3.266087E-04 -1.209187E+02  9.919020E-01 -1.651931E+01  7.923981E-03 7.310272E+01  5.724312E-04 1.663565E+02 
3.156433E-04 7.117876E+01  7.902569E-03 7.303397E+01  9.909016E-01 -1.714594E+01  2.400362E-02 7.288215E+01 
1.059861E-03 6.294827E+01  5.818244E-04 1.671796E+02  2.407553E-02 7.276919E+01  9.934083E-01 -1.663396E+01 
2.908125E+02  9.893157E-01 -4.016771E+01  3.344582E-04 -1.206930E+02  3.014908E-04 7.156921E+01  1.061573E-03 6.364142E+01 
3.354927E-04 -1.204449E+02  9.917642E-01 -1.652016E+01  7.928454E-03 7.321473E+01  5.754684E-04 1.656482E+02 
2.978077E-04 6.974731E+01  7.914491E-03 7.310627E+01  9.908799E-01 -1.713890E+01  2.401273E-02 7.287984E+01 
1.058786E-03 6.331733E+01  5.777589E-04 1.663790E+02  2.406479E-02 7.276711E+01  9.935783E-01 -1.663378E+01 
2.908438E+02  9.893641E-01 -4.017573E+01  3.357684E-04 -1.201518E+02  2.984245E-04 6.868623E+01  1.055535E-03 6.301858E+01 
3.330435E-04 -1.203931E+02  9.918814E-01 -1.652263E+01  7.919708E-03 7.319255E+01  5.790828E-04 1.664618E+02 
3.152885E-04 7.235177E+01  7.911149E-03 7.305495E+01  9.908911E-01 -1.715005E+01  2.401666E-02 7.286878E+01 
1.061510E-03 6.333036E+01  5.762760E-04 1.648950E+02  2.407303E-02 7.276248E+01  9.935811E-01 -1.663708E+01 
2.908750E+02  9.892675E-01 -4.017679E+01  3.326187E-04 -1.216785E+02  3.073214E-04 7.162301E+01  1.048436E-03 6.401960E+01 
3.255702E-04 -1.198135E+02  9.918547E-01 -1.653429E+01  7.937886E-03 7.308828E+01  5.737635E-04 1.651908E+02 
3.190944E-04 7.012227E+01  7.917991E-03 7.308130E+01  9.909261E-01 -1.715323E+01  2.400813E-02 7.283355E+01 
1.058138E-03 6.361219E+01  5.894710E-04 1.669854E+02  2.405965E-02 7.277656E+01  9.935593E-01 -1.664491E+01 
2.909062E+02  9.894013E-01 -4.018297E+01  3.321297E-04 -1.215174E+02  3.057399E-04 7.092238E+01  1.049231E-03 6.329754E+01 
3.364230E-04 -1.212370E+02  9.917805E-01 -1.652653E+01  7.930491E-03 7.309956E+01  5.697765E-04 1.666040E+02 
3.107412E-04 7.087526E+01  7.923435E-03 7.301495E+01  9.907815E-01 -1.714863E+01  2.401260E-02 7.286012E+01 
1.046250E-03 6.334198E+01  5.787221E-04 1.662543E+02  2.406181E-02 7.276688E+01  9.934343E-01 -1.663894E+01 
2.909375E+02  9.894234E-01 -4.018413E+01  3.445819E-04 -1.204517E+02  3.139384E-04 7.276756E+01  1.052088E-03 6.344236E+01 
3.226771E-04 -1.179983E+02  9.918343E-01 -1.652963E+01  7.939991E-03 7.309552E+01  5.823027E-04 1.654624E+02 
3.177663E-04 7.181727E+01  7.921167E-03 7.303614E+01  9.908267E-01 -1.715486E+01  2.402638E-02 7.286672E+01 
1.052788E-03 6.312298E+01  5.732092E-04 1.642980E+02  2.407603E-02 7.275028E+01  9.935164E-01 -1.664743E+01 
2.909688E+02  9.893571E-01 -4.019351E+01  3.429598E-04 -1.215936E+02  3.090270E-04 7.008673E+01  1.044821E-03 6.278514E+01 
3.341930E-04 -1.209482E+02  9.917281E-01 -1.653121E+01  7.922415E-03 7.303416E+01  5.833373E-04 1.659287E+02 
3.198359E-04 7.116192E+01  7.925411E-03 7.302280E+01  9.908464E-01 -1.715875E+01  2.401276E-02 7.285141E+01 
1.051170E-03 6.322605E+01  5.815684E-04 1.652595E+02  2.407844E-02 7.277245E+01  9.935287E-01 -1.664482E+01 
2.910000E+02  9.893978E-01 -4.020051E+01  3.364198E-04 -1.231476E+02  3.062706E-04 7.187534E+01  1.046178E-03 6.307594E+01 
3.317278E-04 -1.215298E+02  9.916304E-01 -1.653546E+01  7.942546E-03 7.307299E+01  5.785929E-04 1.656993E+02 
3.113822E-04 7.113360E+01  7.911455E-03 7.304914E+01  9.910357E-01 -1.716341E+01  2.402628E-02 7.285047E+01 
1.054189E-03 6.430808E+01  5.792922E-04 1.661498E+02  2.407328E-02 7.276832E+01  9.934995E-01 -1.665209E+01 
2.910312E+02  9.894384E-01 -4.020421E+01  3.471907E-04 -1.207494E+02  3.152920E-04 6.935443E+01  1.055247E-03 6.322813E+01 
3.403230E-04 -1.203892E+02  9.916410E-01 -1.653580E+01  7.941839E-03 7.304065E+01  5.726173E-04 1.666625E+02 
3.194569E-04 6.987343E+01  7.916082E-03 7.298626E+01  9.909437E-01 -1.715658E+01  2.401472E-02 7.283667E+01 
1.050603E-03 6.329709E+01  5.941729E-04 1.659528E+02  2.408433E-02 7.276302E+01  9.934555E-01 -1.665306E+01 
2.910625E+02  9.894400E-01 -4.020572E+01  3.365112E-04 -1.231617E+02  3.146804E-04 6.962345E+01  1.059098E-03 6.316450E+01 
3.321507E-04 -1.218305E+02  9.916373E-01 -1.654324E+01  7.935425E-03 7.310600E+01  5.724601E-04 1.668884E+02 
3.282694E-04 7.225342E+01  7.918039E-03 7.296224E+01  9.908581E-01 -1.715610E+01  2.402930E-02 7.284754E+01 
1.052645E-03 6.363656E+01  5.884436E-04 1.663184E+02  2.408834E-02 7.274346E+01  9.935566E-01 -1.664733E+01 
2.910938E+02  9.894059E-01 -4.021450E+01  3.470885E-04 -1.224749E+02  3.284734E-04 7.093367E+01  1.063258E-03 6.314497E+01 
3.268834E-04 -1.207113E+02  9.916897E-01 -1.654375E+01  7.937560E-03 7.292662E+01  5.753123E-04 1.664059E+02 
3.290381E-04 7.001365E+01  7.907406E-03 7.300931E+01  9.908092E-01 -1.715555E+01  2.403272E-02 7.284362E+01 
1.051547E-03 6.374470E+01  5.787738E-04 1.661753E+02  2.408597E-02 7.276448E+01  9.934585E-01 -1.666168E+01 
2.911250E+02  9.893817E-01 -4.021875E+01  3.419585E-04 -1.215980E+02  3.115427E-04 7.027507E+01  1.068629E-03 6.366516E+01 
3.511454E-04 -1.225507E+02  9.917716E-01 -1.654030E+01  7.923600E-03 7.302537E+01  5.734276E-04 1.656960E+02 
3.157638E-04 6.922632E+01  7.909774E-03 7.297763E+01  9.909670E-01 -1.716123E+01  2.402641E-02 7.284747E+01 
1.049437E-03 6.357950E+01  5.898058E-04 1.660086E+02  2.408575E-02 7.272434E+01  9.935358E-01 -1.665515E+01 
2.911562E+02  9.895044E-01 -4.021878E+01  3.514167E-04 -1.245130E+02  3.147216E-04 7.215114E+01  1.051477E-03 6.366474E+01 
3.378512E-04 -1.227455E+02  9.916247E-01 -1.654188E+01  7.930036E-03 7.294308E+01  5.734349E-04 1.670015E+02 
3.171310E-04 6.965102E+01  7.904297E-03 7.290700E+01  9.908957E-01 -1.716163E+01  2.402106E-02 7.286180E+01 
1.043633E-03 6.364275E+01  5.774465E-04 1.666567E+02  2.408221E-02 7.273385E+01  9.934670E-01 -1.665323E+01 
2.911875E+02  9.895151E-01 -4.022975E+01  3.511049E-04 -1.236971E+02  3.345097E-04 7.079661E+01  1.048754E-03 6.320020E+01 
3.253817E-04 -1.213476E+02  9.917374E-01 -1.655289E+01  7.918561E-03 7.306132E+01  5.688898E-04 1.672431E+02 
3.216899E-04 6.992570E+01  7.920458E-03 7.299208E+01  9.909455E-01 -1.716623E+01  2.403776E-02 7.285683E+01 
1.050388E-03 6.399062E+01  5.724404E-04 1.659281E+02  2.409236E-02 7.275315E+01  9.934193E-01 -1.666560E+01 
2.912188E+02  9.894960E-01 -4.023685E+01  3.421210E-04 -1.220940E+02  3.372469E-04 7.053575E+01  1.049824E-03 6.317371E+01 
3.313589E-04 -1.199975E+02  9.917061E-01 -1.655104E+01  7.936963E-03 7.297351E+01  5.812705E-04 1.658966E+02 
3.124782E-04 7.049298E+01  7.903674E-03 7.294157E+01  9.909999E-01 -1.716190E+01  2.404124E-02 7.286683E+01 
1.059982E-03 6.336951E+01  5.851375E-04 1.673124E+02  2.410254E-02 7.275142E+01  9.935509E-01 -1.667073E+01 
2.912500E+02  9.894243E-01 -4.023919E+01  3.512205E-04 -1.218387E+02  3.249763E-04 7.025725E+01  1.041983E-03 6.365725E+01 
3.292946E-04 -1.222665E+02  9.917538E-01 -1.654869E+01  7.928793E-03 7.297662E+01  5.638790E-04 1.673513E+02 
3.324286E-04 7.014103E+01  7.909772E-03 7.293531E+01  9.909231E-01 -1.716880E+01  2.403021E-02 7.282553E+01 
1.057824E-03 6.351387E+01  5.679635E-04 1.673086E+02  2.409567E-02 7.272859E+01  9.936340E-01 -1.666963E+01 
2.912812E+02  9.894769E-01 -4.024529E+01  3.486239E-04 -1.216047E+02  3.214205E-04 6.877913E+01  1.043485E-03 6.359388E+01 
3.382852E-04 -1.227567E+02  9.915862E-01 -1.656146E+01  7.925596E-03 7.295179E+01  5.665555E-04 1.678482E+02 
3.158579E-04 6.889019E+01  7.919604E-03 7.295246E+01  9.909339E-01 -1.716801E+01  2.402796E-02 7.284497E+01 
1.050871E-03 6.353108E+01  5.740366E-04 1.663771E+02  2.410656E-02 7.271976E+01  9.934488E-01 -1.666767E+01 
2.913125E+02  9.896179E-01 -4.025621E+01  3.509478E-04 -1.220794E+02  3.186638E-04 6.860267E+01  1.056373E-03 6.390917E+01 
3.356922E-04 -1.213058E+02  9.916453E-01 -1.655499E+01  7.926194E-03 7.298531E+01  5.803251E-04 1.678865E+02 
3.287089E-04 6.848990E+01  7.916963E-03 7.295027E+01  9.909909E-01 -1.717338E+01  2.403660E-02 7.284415E+01 
1.046723E-03 6.348509E+01  5.620893E-04 1.673658E+02  2.411246E-02 7.273240E+01  9.933901E-01 -1.667523E+01 
