! Matrix data file written by TouchstoneData, EPCOS AG
! FILENAME: "newformat_LZ07A_MB.s3p"
! COMMENT: "(LZ07A_MB.s3p) Epcos AG 31.01.2012 10:33:57"
! INFO: nport=3, nfreq=1601
! DATE: "Tue Jan 31 14:34:37 2012"
! USER: "Wilfried Schott"
!
! port | pin | signal
! -----|-----|--------
!   1  |  1  |  IN
!   2  |  5  |  OUT CH2
!   3  |  7  |  OUT CH3
! --------------------
! 
# MHZ S MA R 50
! freq  magS11 angS11  magS12 angS12  magS13 angS13  ...
2.900000E+02  9.929791E-01 -2.625707E+01  1.378494E-04 7.278814E+01  2.384364E-04 7.959232E+01 
1.357934E-04 6.578799E+01  9.931580E-01 -1.493870E+01  2.464174E-03 7.391958E+01 
2.566448E-04 7.872055E+01  2.479261E-03 7.422051E+01  9.923103E-01 -1.584004E+01 
2.900312E+02  9.931275E-01 -2.625687E+01  1.275075E-04 6.911718E+01  2.463798E-04 7.624575E+01 
1.327663E-04 7.441325E+01  9.932697E-01 -1.493768E+01  2.469891E-03 7.421245E+01 
2.462525E-04 7.773237E+01  2.481581E-03 7.419027E+01  9.922923E-01 -1.584144E+01 
2.900625E+02  9.930381E-01 -2.626727E+01  1.263342E-04 7.390089E+01  2.483840E-04 7.724933E+01 
1.370198E-04 6.523804E+01  9.933203E-01 -1.494190E+01  2.479351E-03 7.428432E+01 
2.618969E-04 7.914832E+01  2.472129E-03 7.400609E+01  9.922849E-01 -1.584049E+01 
2.900938E+02  9.930793E-01 -2.626666E+01  1.263533E-04 6.580142E+01  2.536733E-04 7.735389E+01 
1.372731E-04 6.869353E+01  9.931608E-01 -1.493975E+01  2.474901E-03 7.419896E+01 
2.456624E-04 7.707088E+01  2.473628E-03 7.408665E+01  9.923884E-01 -1.584639E+01 
2.901250E+02  9.931716E-01 -2.626684E+01  1.343699E-04 6.726488E+01  2.470204E-04 7.471984E+01 
1.448528E-04 6.677427E+01  9.932635E-01 -1.494217E+01  2.467130E-03 7.447384E+01 
2.465851E-04 7.555269E+01  2.463182E-03 7.391913E+01  9.923461E-01 -1.584564E+01 
2.901562E+02  9.930920E-01 -2.627242E+01  1.247655E-04 7.001940E+01  2.577439E-04 7.639032E+01 
1.462573E-04 6.770079E+01  9.932569E-01 -1.494522E+01  2.478960E-03 7.378412E+01 
2.509674E-04 8.019530E+01  2.478698E-03 7.401468E+01  9.922784E-01 -1.584658E+01 
2.901875E+02  9.930250E-01 -2.627719E+01  1.396280E-04 6.677424E+01  2.662773E-04 7.902207E+01 
1.426716E-04 7.348597E+01  9.932917E-01 -1.495149E+01  2.486309E-03 7.432489E+01 
2.424472E-04 7.708375E+01  2.466484E-03 7.405553E+01  9.923816E-01 -1.585303E+01 
2.902188E+02  9.931466E-01 -2.627712E+01  1.324592E-04 6.534998E+01  2.530810E-04 7.645837E+01 
1.389085E-04 7.141259E+01  9.932278E-01 -1.495197E+01  2.480428E-03 7.397036E+01 
2.592391E-04 7.703312E+01  2.464501E-03 7.438452E+01  9.923070E-01 -1.585092E+01 
2.902500E+02  9.931575E-01 -2.628244E+01  1.320826E-04 6.872236E+01  2.531012E-04 7.853094E+01 
1.358671E-04 6.621036E+01  9.932696E-01 -1.495355E+01  2.487274E-03 7.415389E+01 
2.582997E-04 7.822201E+01  2.476283E-03 7.389436E+01  9.923160E-01 -1.585392E+01 
2.902812E+02  9.931527E-01 -2.628846E+01  1.272424E-04 6.788858E+01  2.511228E-04 7.749588E+01 
1.359788E-04 6.404410E+01  9.932506E-01 -1.495907E+01  2.485549E-03 7.405560E+01 
2.446353E-04 7.886843E+01  2.469155E-03 7.384745E+01  9.924038E-01 -1.585195E+01 
2.903125E+02  9.930994E-01 -2.628895E+01  1.353449E-04 7.126583E+01  2.571987E-04 7.731139E+01 
1.334138E-04 6.693407E+01  9.932507E-01 -1.495530E+01  2.479803E-03 7.420293E+01 
2.468685E-04 7.441730E+01  2.485050E-03 7.384373E+01  9.923964E-01 -1.585412E+01 
2.903438E+02  9.932589E-01 -2.629816E+01  1.341670E-04 6.717069E+01  2.617244E-04 7.815018E+01 
1.373747E-04 6.379067E+01  9.931571E-01 -1.496319E+01  2.472330E-03 7.398803E+01 
2.597757E-04 7.424971E+01  2.463822E-03 7.379635E+01  9.924320E-01 -1.585702E+01 
2.903750E+02  9.931849E-01 -2.628543E+01  1.421568E-04 6.654317E+01  2.693574E-04 7.693890E+01 
1.308326E-04 7.273227E+01  9.931807E-01 -1.496181E+01  2.480583E-03 7.398275E+01 
2.719281E-04 7.772095E+01  2.487644E-03 7.392146E+01  9.924350E-01 -1.585432E+01 
2.904062E+02  9.932509E-01 -2.629797E+01  1.222590E-04 6.467728E+01  2.639844E-04 7.319623E+01 
1.187677E-04 6.956725E+01  9.932340E-01 -1.496428E+01  2.474457E-03 7.415584E+01 
2.521337E-04 7.687108E+01  2.474948E-03 7.403913E+01  9.923526E-01 -1.586488E+01 
2.904375E+02  9.931349E-01 -2.630680E+01  1.134376E-04 6.761451E+01  2.684488E-04 7.533945E+01 
1.351499E-04 6.452284E+01  9.932291E-01 -1.496571E+01  2.492418E-03 7.391610E+01 
2.544608E-04 7.522213E+01  2.474641E-03 7.406002E+01  9.924016E-01 -1.586488E+01 
2.904688E+02  9.931986E-01 -2.630436E+01  1.281363E-04 6.969108E+01  2.582554E-04 7.788912E+01 
1.194231E-04 7.094177E+01  9.931950E-01 -1.496572E+01  2.471728E-03 7.416485E+01 
2.633954E-04 7.569201E+01  2.466745E-03 7.350781E+01  9.923807E-01 -1.586070E+01 
2.905000E+02  9.932237E-01 -2.631352E+01  1.307778E-04 7.386903E+01  2.691524E-04 7.627667E+01 
1.344413E-04 7.267608E+01  9.932274E-01 -1.497180E+01  2.472056E-03 7.390541E+01 
2.595201E-04 7.712438E+01  2.479849E-03 7.374116E+01  9.923894E-01 -1.587011E+01 
2.905312E+02  9.932115E-01 -2.631614E+01  1.181992E-04 7.049607E+01  2.530493E-04 7.563400E+01 
1.395292E-04 7.291347E+01  9.931352E-01 -1.496938E+01  2.476982E-03 7.362914E+01 
2.609748E-04 7.487613E+01  2.477365E-03 7.422753E+01  9.925056E-01 -1.586234E+01 
2.905625E+02  9.931748E-01 -2.631852E+01  1.237961E-04 6.836654E+01  2.732700E-04 7.628982E+01 
1.439787E-04 6.613378E+01  9.932006E-01 -1.497705E+01  2.495624E-03 7.408215E+01 
2.646346E-04 7.399674E+01  2.478553E-03 7.401142E+01  9.924565E-01 -1.586686E+01 
2.905938E+02  9.933909E-01 -2.632384E+01  1.260883E-04 7.378772E+01  2.651068E-04 7.570332E+01 
1.428068E-04 7.551336E+01  9.931143E-01 -1.497688E+01  2.476847E-03 7.384596E+01 
2.647521E-04 7.396598E+01  2.479437E-03 7.403350E+01  9.924717E-01 -1.587196E+01 
2.906250E+02  9.932247E-01 -2.632322E+01  1.174647E-04 7.216520E+01  2.676130E-04 7.566446E+01 
1.220375E-04 6.740607E+01  9.932163E-01 -1.497730E+01  2.484253E-03 7.384168E+01 
2.678404E-04 7.480399E+01  2.478413E-03 7.402256E+01  9.924161E-01 -1.587332E+01 
2.906562E+02  9.932473E-01 -2.633240E+01  1.194460E-04 7.441608E+01  2.665022E-04 7.488892E+01 
1.434630E-04 6.838818E+01  9.931524E-01 -1.497984E+01  2.478416E-03 7.404824E+01 
2.762404E-04 7.554924E+01  2.469591E-03 7.392383E+01  9.924439E-01 -1.587815E+01 
2.906875E+02  9.932483E-01 -2.632985E+01  1.372220E-04 7.241465E+01  2.598713E-04 7.639194E+01 
1.327206E-04 7.615826E+01  9.931083E-01 -1.497876E+01  2.477483E-03 7.396693E+01 
2.730925E-04 7.447190E+01  2.467778E-03 7.409095E+01  9.923728E-01 -1.587771E+01 
2.907188E+02  9.933145E-01 -2.633329E+01  1.355875E-04 7.092393E+01  2.690728E-04 7.734142E+01 
1.265705E-04 6.830041E+01  9.930805E-01 -1.498044E+01  2.481031E-03 7.383773E+01 
2.670339E-04 7.284794E+01  2.460623E-03 7.393629E+01  9.925173E-01 -1.588284E+01 
2.907500E+02  9.931655E-01 -2.633821E+01  1.313779E-04 6.731152E+01  2.727635E-04 7.473671E+01 
1.367309E-04 7.073501E+01  9.931355E-01 -1.498835E+01  2.486859E-03 7.389234E+01 
2.601900E-04 7.707339E+01  2.478719E-03 7.382456E+01  9.924011E-01 -1.587919E+01 
2.907812E+02  9.931909E-01 -2.634158E+01  1.213798E-04 7.571868E+01  2.613922E-04 7.704020E+01 
1.355582E-04 7.725234E+01  9.931104E-01 -1.498719E+01  2.482907E-03 7.381040E+01 
2.717033E-04 7.630503E+01  2.476320E-03 7.380732E+01  9.924719E-01 -1.588983E+01 
2.908125E+02  9.932017E-01 -2.634582E+01  1.423882E-04 7.297173E+01  2.680510E-04 7.346190E+01 
1.340507E-04 6.815495E+01  9.930793E-01 -1.498793E+01  2.485584E-03 7.389944E+01 
2.663288E-04 7.309688E+01  2.474067E-03 7.384165E+01  9.925102E-01 -1.588372E+01 
2.908438E+02  9.932471E-01 -2.634918E+01  1.280051E-04 7.640394E+01  2.661545E-04 7.177643E+01 
1.370601E-04 7.165419E+01  9.931641E-01 -1.499051E+01  2.486583E-03 7.382174E+01 
2.715741E-04 7.513125E+01  2.473996E-03 7.388329E+01  9.924466E-01 -1.588790E+01 
2.908750E+02  9.933117E-01 -2.635477E+01  1.405995E-04 7.418681E+01  2.756898E-04 7.422050E+01 
1.244548E-04 7.131071E+01  9.931131E-01 -1.499294E+01  2.480189E-03 7.386538E+01 
2.683117E-04 7.236952E+01  2.475545E-03 7.402347E+01  9.925098E-01 -1.588598E+01 
2.909062E+02  9.933216E-01 -2.635898E+01  1.277403E-04 7.267968E+01  2.558238E-04 7.372608E+01 
1.399189E-04 6.846999E+01  9.930993E-01 -1.499306E+01  2.483988E-03 7.419526E+01 
2.594085E-04 7.261756E+01  2.472357E-03 7.392765E+01  9.925351E-01 -1.589228E+01 
2.909375E+02  9.933473E-01 -2.636330E+01  1.284966E-04 7.275716E+01  2.765951E-04 7.553654E+01 
1.434110E-04 7.300653E+01  9.929562E-01 -1.499438E+01  2.472769E-03 7.406074E+01 
2.632863E-04 7.430143E+01  2.478107E-03 7.389944E+01  9.924967E-01 -1.589117E+01 
2.909688E+02  9.933827E-01 -2.635973E+01  1.383728E-04 7.373954E+01  2.519656E-04 7.536587E+01 
1.434336E-04 7.335648E+01  9.930192E-01 -1.500022E+01  2.479469E-03 7.389373E+01 
2.533040E-04 7.178756E+01  2.467084E-03 7.388634E+01  9.924830E-01 -1.590050E+01 
2.910000E+02  9.933845E-01 -2.636277E+01  1.337875E-04 7.297415E+01  2.519114E-04 7.622579E+01 
1.476394E-04 7.156214E+01  9.930407E-01 -1.500484E+01  2.471746E-03 7.413608E+01 
2.495974E-04 7.586109E+01  2.478181E-03 7.422952E+01  9.924805E-01 -1.589465E+01 
2.910312E+02  9.932028E-01 -2.636754E+01  1.427578E-04 6.895531E+01  2.656058E-04 7.359356E+01 
1.537841E-04 6.832173E+01  9.930558E-01 -1.500226E+01  2.474995E-03 7.378713E+01 
2.702472E-04 7.292533E+01  2.483095E-03 7.393994E+01  9.925414E-01 -1.589509E+01 
2.910625E+02  9.934592E-01 -2.637649E+01  1.309883E-04 7.263208E+01  2.634036E-04 7.431674E+01 
1.470294E-04 7.046000E+01  9.930340E-01 -1.501088E+01  2.482097E-03 7.392067E+01 
2.681123E-04 7.189988E+01  2.480111E-03 7.403595E+01  9.925167E-01 -1.589487E+01 
2.910938E+02  9.933804E-01 -2.637557E+01  1.484394E-04 7.412059E+01  2.471585E-04 7.421251E+01 
1.466033E-04 7.245021E+01  9.930413E-01 -1.500701E+01  2.478399E-03 7.387217E+01 
2.621033E-04 7.391778E+01  2.477108E-03 7.393939E+01  9.924790E-01 -1.589771E+01 
2.911250E+02  9.933629E-01 -2.637948E+01  1.395434E-04 7.303424E+01  2.532661E-04 7.482920E+01 
1.402863E-04 6.982820E+01  9.930350E-01 -1.501692E+01  2.491653E-03 7.398404E+01 
2.651835E-04 7.211746E+01  2.471856E-03 7.384511E+01  9.924214E-01 -1.590289E+01 
2.911562E+02  9.933012E-01 -2.638581E+01  1.291801E-04 7.282221E+01  2.591596E-04 7.485294E+01 
1.437675E-04 7.481040E+01  9.929597E-01 -1.501234E+01  2.483743E-03 7.415376E+01 
2.652863E-04 7.523959E+01  2.480271E-03 7.375226E+01  9.924824E-01 -1.590738E+01 
2.911875E+02  9.934480E-01 -2.638694E+01  1.411213E-04 7.087250E+01  2.766718E-04 7.372791E+01 
1.348530E-04 6.785137E+01  9.929345E-01 -1.501839E+01  2.487246E-03 7.401481E+01 
2.605474E-04 7.335539E+01  2.482266E-03 7.437443E+01  9.925031E-01 -1.590856E+01 
2.912188E+02  9.934198E-01 -2.639113E+01  1.408798E-04 7.133039E+01  2.550325E-04 7.674986E+01 
1.525971E-04 6.813315E+01  9.930720E-01 -1.502148E+01  2.481285E-03 7.390780E+01 
2.660108E-04 7.639428E+01  2.461993E-03 7.391144E+01  9.924924E-01 -1.591105E+01 
2.912500E+02  9.934191E-01 -2.640240E+01  1.326908E-04 7.280910E+01  2.575106E-04 7.384739E+01 
1.524367E-04 7.333780E+01  9.930538E-01 -1.501381E+01  2.480697E-03 7.413526E+01 
2.433898E-04 7.166548E+01  2.481542E-03 7.377261E+01  9.924794E-01 -1.591197E+01 
2.912812E+02  9.933839E-01 -2.639495E+01  1.395483E-04 7.131708E+01  2.533107E-04 7.530213E+01 
1.542679E-04 7.221648E+01  9.929375E-01 -1.501697E+01  2.501313E-03 7.418619E+01 
2.451859E-04 7.403167E+01  2.476657E-03 7.384890E+01  9.925100E-01 -1.591325E+01 
2.913125E+02  9.934737E-01 -2.640970E+01  1.379075E-04 6.998622E+01  2.742686E-04 7.433831E+01 
1.530573E-04 6.899770E+01  9.929364E-01 -1.502058E+01  2.483601E-03 7.392494E+01 
2.684846E-04 7.209506E+01  2.476719E-03 7.397468E+01  9.926137E-01 -1.591708E+01 
2.913438E+02  9.933772E-01 -2.640831E+01  1.430026E-04 7.575224E+01  2.518364E-04 7.327444E+01 
1.492731E-04 6.767480E+01  9.930589E-01 -1.502276E+01  2.491018E-03 7.376347E+01 
2.519431E-04 7.297829E+01  2.474184E-03 7.396150E+01  9.925247E-01 -1.591995E+01 
2.913750E+02  9.933853E-01 -2.641061E+01  1.444702E-04 6.825765E+01  2.758896E-04 7.657277E+01 
1.479684E-04 6.694223E+01  9.929050E-01 -1.502876E+01  2.485246E-03 7.404594E+01 
2.600375E-04 7.515225E+01  2.487178E-03 7.397648E+01  9.925000E-01 -1.591676E+01 
2.914062E+02  9.933835E-01 -2.641397E+01  1.497921E-04 7.018424E+01  2.546179E-04 7.297268E+01 
1.564753E-04 6.942118E+01  9.929250E-01 -1.503061E+01  2.494710E-03 7.401500E+01 
2.538853E-04 7.492922E+01  2.472114E-03 7.400880E+01  9.924562E-01 -1.592369E+01 
2.914375E+02  9.933776E-01 -2.642141E+01  1.599168E-04 7.116534E+01  2.528982E-04 7.473715E+01 
1.480403E-04 7.198473E+01  9.929020E-01 -1.502920E+01  2.489724E-03 7.412522E+01 
2.579115E-04 7.472393E+01  2.482691E-03 7.395001E+01  9.924516E-01 -1.592564E+01 
2.914688E+02  9.934340E-01 -2.641981E+01  1.333278E-04 6.615436E+01  2.678205E-04 7.601327E+01 
1.441700E-04 6.719019E+01  9.929907E-01 -1.503740E+01  2.490153E-03 7.405142E+01 
2.577698E-04 7.218151E+01  2.488329E-03 7.385457E+01  9.925743E-01 -1.592534E+01 
2.915000E+02  9.934066E-01 -2.642780E+01  1.388806E-04 6.836102E+01  2.639997E-04 7.464168E+01 
1.558449E-04 6.947655E+01  9.928574E-01 -1.503281E+01  2.491021E-03 7.383462E+01 
2.609206E-04 7.355154E+01  2.488509E-03 7.379819E+01  9.925079E-01 -1.593214E+01 
2.915312E+02  9.934462E-01 -2.642856E+01  1.418565E-04 6.907923E+01  2.507926E-04 7.443025E+01 
1.461334E-04 6.883891E+01  9.928733E-01 -1.503616E+01  2.489380E-03 7.369833E+01 
2.553136E-04 7.363216E+01  2.485515E-03 7.383496E+01  9.925116E-01 -1.592794E+01 
2.915625E+02  9.934624E-01 -2.643025E+01  1.558863E-04 6.405508E+01  2.503048E-04 7.425991E+01 
1.521136E-04 6.982302E+01  9.928871E-01 -1.503785E+01  2.489209E-03 7.379950E+01 
2.555639E-04 7.524812E+01  2.491391E-03 7.400601E+01  9.925424E-01 -1.592740E+01 
2.915938E+02  9.934923E-01 -2.643940E+01  1.346409E-04 6.482972E+01  2.570900E-04 7.481592E+01 
1.451327E-04 6.069664E+01  9.928777E-01 -1.503780E+01  2.500441E-03 7.393322E+01 
2.607197E-04 7.333984E+01  2.487597E-03 7.378896E+01  9.926057E-01 -1.593204E+01 
2.916250E+02  9.935434E-01 -2.644089E+01  1.510481E-04 6.568469E+01  2.551440E-04 7.537462E+01 
1.503065E-04 6.490530E+01  9.928988E-01 -1.504747E+01  2.479827E-03 7.413204E+01 
2.661918E-04 7.467029E+01  2.478151E-03 7.371644E+01  9.925196E-01 -1.593268E+01 
2.916562E+02  9.933707E-01 -2.644355E+01  1.406146E-04 6.862810E+01  2.574585E-04 7.575325E+01 
1.524855E-04 6.891517E+01  9.928672E-01 -1.504680E+01  2.501890E-03 7.406725E+01 
2.515486E-04 7.558846E+01  2.496066E-03 7.407658E+01  9.924996E-01 -1.593525E+01 
2.916875E+02  9.934344E-01 -2.644337E+01  1.366020E-04 6.756818E+01  2.543852E-04 7.547260E+01 
1.494285E-04 6.644452E+01  9.927838E-01 -1.504972E+01  2.490971E-03 7.409626E+01 
2.491887E-04 7.458011E+01  2.488063E-03 7.386881E+01  9.925073E-01 -1.593655E+01 
2.917188E+02  9.935635E-01 -2.644842E+01  1.467015E-04 7.045940E+01  2.564616E-04 7.633310E+01 
1.419455E-04 6.283101E+01  9.928301E-01 -1.504819E+01  2.486406E-03 7.402046E+01 
2.637815E-04 7.514443E+01  2.494424E-03 7.376844E+01  9.924460E-01 -1.594098E+01 
2.917500E+02  9.934255E-01 -2.645453E+01  1.385872E-04 6.694095E+01  2.512286E-04 7.229683E+01 
1.411865E-04 6.559193E+01  9.928277E-01 -1.505684E+01  2.489477E-03 7.376912E+01 
2.569604E-04 7.620165E+01  2.494683E-03 7.387467E+01  9.924121E-01 -1.594031E+01 
2.917812E+02  9.935061E-01 -2.645627E+01  1.436917E-04 6.743094E+01  2.702959E-04 7.510855E+01 
1.523989E-04 6.774992E+01  9.928064E-01 -1.505672E+01  2.493840E-03 7.376273E+01 
2.502763E-04 7.820311E+01  2.485199E-03 7.398763E+01  9.925291E-01 -1.594235E+01 
2.918125E+02  9.934772E-01 -2.645719E+01  1.336022E-04 7.067266E+01  2.571772E-04 7.563767E+01 
1.466064E-04 6.660766E+01  9.928311E-01 -1.505846E+01  2.491319E-03 7.389471E+01 
2.663168E-04 7.611503E+01  2.482106E-03 7.397841E+01  9.925681E-01 -1.594744E+01 
2.918438E+02  9.935575E-01 -2.647020E+01  1.443638E-04 6.751902E+01  2.499917E-04 7.446545E+01 
1.527191E-04 6.611584E+01  9.927337E-01 -1.505968E+01  2.496318E-03 7.381954E+01 
2.558658E-04 7.422895E+01  2.492242E-03 7.402098E+01  9.924387E-01 -1.595056E+01 
2.918750E+02  9.935947E-01 -2.646956E+01  1.411372E-04 6.595731E+01  2.715705E-04 7.531973E+01 
1.535323E-04 7.141635E+01  9.927605E-01 -1.506234E+01  2.497766E-03 7.394484E+01 
2.679762E-04 7.611790E+01  2.484116E-03 7.401223E+01  9.925464E-01 -1.594688E+01 
2.919062E+02  9.935100E-01 -2.647120E+01  1.524409E-04 7.064242E+01  2.650909E-04 7.632496E+01 
1.583937E-04 7.000661E+01  9.927990E-01 -1.505815E+01  2.493033E-03 7.411004E+01 
2.627144E-04 7.584457E+01  2.475386E-03 7.390996E+01  9.925316E-01 -1.594541E+01 
2.919375E+02  9.936204E-01 -2.647984E+01  1.493423E-04 7.112489E+01  2.610987E-04 7.284454E+01 
1.567347E-04 6.981790E+01  9.926785E-01 -1.506340E+01  2.495776E-03 7.366453E+01 
2.621926E-04 7.612079E+01  2.481060E-03 7.382960E+01  9.924687E-01 -1.594563E+01 
2.919688E+02  9.936048E-01 -2.648017E+01  1.500744E-04 6.654969E+01  2.639437E-04 7.504718E+01 
1.686634E-04 6.883274E+01  9.927064E-01 -1.505549E+01  2.497516E-03 7.399016E+01 
2.570006E-04 7.446123E+01  2.488347E-03 7.375432E+01  9.925397E-01 -1.594777E+01 
2.920000E+02  9.934789E-01 -2.648188E+01  1.450087E-04 6.939573E+01  2.651964E-04 7.617628E+01 
1.510684E-04 6.787502E+01  9.927114E-01 -1.506325E+01  2.496090E-03 7.392726E+01 
2.489001E-04 7.583802E+01  2.487113E-03 7.395147E+01  9.925577E-01 -1.595505E+01 
2.920312E+02  9.936086E-01 -2.649076E+01  1.500904E-04 6.606597E+01  2.554586E-04 7.500980E+01 
1.513497E-04 6.579742E+01  9.927287E-01 -1.506659E+01  2.489840E-03 7.389036E+01 
2.625677E-04 7.474474E+01  2.485001E-03 7.392829E+01  9.923869E-01 -1.595522E+01 
2.920625E+02  9.935617E-01 -2.648415E+01  1.597121E-04 6.342352E+01  2.526984E-04 7.550848E+01 
1.629828E-04 6.138984E+01  9.927742E-01 -1.506636E+01  2.487177E-03 7.386540E+01 
2.673769E-04 7.749877E+01  2.488045E-03 7.374486E+01  9.925815E-01 -1.595698E+01 
2.920938E+02  9.934451E-01 -2.649265E+01  1.617115E-04 6.233283E+01  2.529912E-04 7.495132E+01 
1.554872E-04 6.275573E+01  9.927921E-01 -1.506774E+01  2.488864E-03 7.359110E+01 
2.605625E-04 7.551531E+01  2.487685E-03 7.385363E+01  9.925226E-01 -1.595872E+01 
2.921250E+02  9.934237E-01 -2.649700E+01  1.454152E-04 5.956911E+01  2.655762E-04 7.319884E+01 
1.542301E-04 6.324692E+01  9.927541E-01 -1.507406E+01  2.488324E-03 7.400173E+01 
2.595400E-04 7.503110E+01  2.484650E-03 7.414232E+01  9.925426E-01 -1.596159E+01 
2.921562E+02  9.935846E-01 -2.650162E+01  1.515195E-04 5.984412E+01  2.625482E-04 7.306536E+01 
1.607936E-04 5.551654E+01  9.926990E-01 -1.507846E+01  2.489829E-03 7.425276E+01 
2.697988E-04 7.382441E+01  2.487098E-03 7.393537E+01  9.925565E-01 -1.595859E+01 
2.921875E+02  9.935229E-01 -2.650319E+01  1.417699E-04 6.312431E+01  2.551745E-04 7.488534E+01 
1.528041E-04 5.975479E+01  9.927709E-01 -1.507847E+01  2.501420E-03 7.407671E+01 
2.608991E-04 7.583366E+01  2.500871E-03 7.402056E+01  9.925155E-01 -1.596373E+01 
2.922188E+02  9.935649E-01 -2.650403E+01  1.377218E-04 6.082897E+01  2.581397E-04 7.491979E+01 
1.447426E-04 5.683886E+01  9.926754E-01 -1.507892E+01  2.498755E-03 7.413101E+01 
2.628146E-04 7.342377E+01  2.488530E-03 7.392881E+01  9.925425E-01 -1.596738E+01 
2.922500E+02  9.935877E-01 -2.651053E+01  1.473797E-04 5.666903E+01  2.644442E-04 7.079321E+01 
1.586866E-04 5.813236E+01  9.927834E-01 -1.508502E+01  2.495562E-03 7.404904E+01 
2.717462E-04 7.540782E+01  2.488869E-03 7.403538E+01  9.925721E-01 -1.597132E+01 
2.922812E+02  9.934499E-01 -2.650688E+01  1.466674E-04 5.750230E+01  2.674635E-04 7.452515E+01 
1.435306E-04 5.670426E+01  9.927050E-01 -1.508068E+01  2.498452E-03 7.389947E+01 
2.526984E-04 7.395970E+01  2.497731E-03 7.393586E+01  9.925456E-01 -1.597034E+01 
2.923125E+02  9.934006E-01 -2.650925E+01  1.375656E-04 6.019273E+01  2.596169E-04 7.459308E+01 
1.307709E-04 5.653510E+01  9.926456E-01 -1.509020E+01  2.498954E-03 7.381363E+01 
2.644060E-04 7.392072E+01  2.504026E-03 7.382475E+01  9.925282E-01 -1.596691E+01 
