! Matrix data file written by TouchstoneData, EPCOS AG
! FILENAME: "newformat_LZ05A_MB.s3p"
! COMMENT: "(LZ05A_MB.s3p) Epcos AG 31.01.2012 10:29:07"
! INFO: nport=3, nfreq=1601
! DATE: "Tue Jan 31 14:09:48 2012"
! USER: "Wilfried Schott"
!
! port | pin | signal
! -----|-----|--------
!   1  |  1  |  IN
!   2  |  5  |  OUT CH3
!   3  |  7  |  OUT CH2
! --------------------
! 
# MHZ S MA R 50
! freq  magS11 angS11  magS12 angS12  magS13 angS13  ...
4.089200E+02  9.891868E-01 -3.169718E+01  9.166064E-05 5.118772E+01  6.467516E-05 1.474114E+02 
9.725691E-05 3.872822E+01  9.902923E-01 -1.827293E+01  2.799685E-03 7.055534E+01 
6.752366E-05 1.414635E+02  2.791679E-03 7.066664E+01  9.902457E-01 -1.875648E+01 
4.089513E+02  9.892689E-01 -3.170334E+01  9.200652E-05 4.016933E+01  5.936402E-05 1.480375E+02 
9.861510E-05 4.319136E+01  9.904162E-01 -1.827186E+01  2.790985E-03 7.076460E+01 
7.058389E-05 1.344907E+02  2.797176E-03 7.066497E+01  9.902682E-01 -1.876362E+01 
4.089825E+02  9.893171E-01 -3.170367E+01  9.956613E-05 3.629499E+01  5.435388E-05 1.365733E+02 
8.459539E-05 3.982027E+01  9.904802E-01 -1.827565E+01  2.805693E-03 7.093597E+01 
6.784797E-05 1.429174E+02  2.798853E-03 7.089531E+01  9.904020E-01 -1.876056E+01 
4.090138E+02  9.893861E-01 -3.170470E+01  9.192391E-05 4.584144E+01  6.669003E-05 1.458998E+02 
8.896397E-05 4.558297E+01  9.905172E-01 -1.828003E+01  2.804177E-03 7.074587E+01 
6.203133E-05 1.398265E+02  2.796209E-03 7.082001E+01  9.904146E-01 -1.876854E+01 
4.090450E+02  9.894348E-01 -3.170939E+01  8.588969E-05 4.354382E+01  5.589427E-05 1.450578E+02 
8.198367E-05 3.836019E+01  9.906049E-01 -1.827602E+01  2.793016E-03 7.070075E+01 
5.310442E-05 1.434458E+02  2.791248E-03 7.054225E+01  9.904898E-01 -1.876654E+01 
4.090763E+02  9.893835E-01 -3.171791E+01  6.859678E-05 3.242823E+01  6.396113E-05 1.545193E+02 
9.741541E-05 4.259950E+01  9.905928E-01 -1.828699E+01  2.794691E-03 7.095531E+01 
5.597745E-05 1.390076E+02  2.786681E-03 7.077764E+01  9.905903E-01 -1.876702E+01 
4.091075E+02  9.895333E-01 -3.172206E+01  7.000278E-05 4.293051E+01  5.606268E-05 1.326317E+02 
9.381717E-05 4.914731E+01  9.906903E-01 -1.828233E+01  2.798410E-03 7.085858E+01 
5.820113E-05 1.362936E+02  2.794348E-03 7.085321E+01  9.905240E-01 -1.876687E+01 
4.091388E+02  9.896096E-01 -3.171734E+01  6.943282E-05 4.445856E+01  6.170430E-05 1.342353E+02 
7.387164E-05 3.478106E+01  9.907264E-01 -1.829049E+01  2.795811E-03 7.063658E+01 
6.200702E-05 1.405630E+02  2.789367E-03 7.088921E+01  9.906807E-01 -1.876647E+01 
4.091700E+02  9.895981E-01 -3.172272E+01  8.011706E-05 5.403027E+01  4.850418E-05 1.429359E+02 
7.824591E-05 4.000222E+01  9.907816E-01 -1.829692E+01  2.789021E-03 7.089468E+01 
5.823069E-05 1.381059E+02  2.800181E-03 7.071701E+01  9.906788E-01 -1.877475E+01 
4.092013E+02  9.895699E-01 -3.171924E+01  6.918210E-05 4.225056E+01  5.521781E-05 1.311741E+02 
6.878935E-05 4.430510E+01  9.908301E-01 -1.829583E+01  2.804177E-03 7.077085E+01 
6.588417E-05 1.312753E+02  2.798102E-03 7.098614E+01  9.907484E-01 -1.877179E+01 
4.092325E+02  9.897237E-01 -3.172328E+01  7.255825E-05 3.554826E+01  4.165267E-05 1.557696E+02 
8.113894E-05 4.804773E+01  9.909285E-01 -1.829586E+01  2.796228E-03 7.077402E+01 
4.509002E-05 1.383912E+02  2.791507E-03 7.097620E+01  9.908166E-01 -1.877704E+01 
4.092638E+02  9.897869E-01 -3.173232E+01  5.519626E-05 3.721324E+01  4.872210E-05 1.350770E+02 
6.732797E-05 4.781301E+01  9.909343E-01 -1.829687E+01  2.806015E-03 7.087779E+01 
3.515573E-05 1.383180E+02  2.805863E-03 7.113740E+01  9.907862E-01 -1.877519E+01 
4.092950E+02  9.897784E-01 -3.173298E+01  6.805966E-05 4.547630E+01  5.055199E-05 1.484649E+02 
7.053306E-05 4.267257E+01  9.910067E-01 -1.830499E+01  2.808641E-03 7.074860E+01 
5.368184E-05 1.330780E+02  2.804185E-03 7.088891E+01  9.908971E-01 -1.878002E+01 
4.093263E+02  9.899218E-01 -3.173982E+01  6.284977E-05 4.084099E+01  4.819555E-05 1.307589E+02 
4.976774E-05 4.553522E+01  9.911451E-01 -1.829950E+01  2.812550E-03 7.089360E+01 
4.498707E-05 1.296585E+02  2.806258E-03 7.111651E+01  9.909437E-01 -1.877848E+01 
4.093575E+02  9.898359E-01 -3.173856E+01  5.616774E-05 5.152287E+01  4.446982E-05 1.267465E+02 
5.868473E-05 5.691780E+01  9.911085E-01 -1.829646E+01  2.800190E-03 7.090129E+01 
3.837386E-05 1.360417E+02  2.807014E-03 7.096344E+01  9.909176E-01 -1.877833E+01 
4.093888E+02  9.899910E-01 -3.174469E+01  6.718971E-05 5.742059E+01  4.134560E-05 1.209008E+02 
6.796607E-05 5.235711E+01  9.911899E-01 -1.830908E+01  2.822629E-03 7.095417E+01 
3.675113E-05 1.199268E+02  2.819744E-03 7.116331E+01  9.909896E-01 -1.878326E+01 
4.094200E+02  9.900222E-01 -3.174502E+01  4.475471E-05 5.963967E+01  3.680804E-05 1.221620E+02 
5.794929E-05 5.284040E+01  9.911983E-01 -1.830675E+01  2.802551E-03 7.082736E+01 
4.608105E-05 1.313716E+02  2.806106E-03 7.086092E+01  9.910551E-01 -1.878058E+01 
4.094513E+02  9.900379E-01 -3.174648E+01  4.533880E-05 5.840442E+01  4.563998E-05 1.390000E+02 
6.052044E-05 5.166286E+01  9.913460E-01 -1.831256E+01  2.809752E-03 7.073993E+01 
3.587096E-05 1.221714E+02  2.813602E-03 7.118109E+01  9.911729E-01 -1.878626E+01 
4.094825E+02  9.901883E-01 -3.175405E+01  4.654993E-05 6.037486E+01  3.577954E-05 1.258660E+02 
5.258088E-05 6.874837E+01  9.913672E-01 -1.831037E+01  2.813550E-03 7.082996E+01 
3.117732E-05 1.435117E+02  2.821522E-03 7.102471E+01  9.910632E-01 -1.878620E+01 
4.095138E+02  9.900739E-01 -3.175129E+01  5.217632E-05 8.707539E+01  3.156299E-05 1.263266E+02 
5.397327E-05 6.176302E+01  9.914745E-01 -1.830458E+01  2.812560E-03 7.100997E+01 
2.407628E-05 1.172371E+02  2.814841E-03 7.070545E+01  9.912166E-01 -1.879101E+01 
4.095450E+02  9.901927E-01 -3.175597E+01  4.844605E-05 6.457202E+01  3.086000E-05 1.263857E+02 
5.396799E-05 7.418140E+01  9.916050E-01 -1.831711E+01  2.805478E-03 7.057418E+01 
3.357885E-05 1.144704E+02  2.809385E-03 7.103171E+01  9.913202E-01 -1.878884E+01 
4.095763E+02  9.902614E-01 -3.175253E+01  5.258591E-05 6.209358E+01  2.606445E-05 1.248650E+02 
5.466514E-05 7.618024E+01  9.915547E-01 -1.831403E+01  2.806782E-03 7.062802E+01 
2.740308E-05 1.331843E+02  2.818772E-03 7.103810E+01  9.914578E-01 -1.878805E+01 
4.096075E+02  9.903159E-01 -3.175821E+01  5.743264E-05 7.327353E+01  2.565679E-05 1.352714E+02 
5.630385E-05 8.452463E+01  9.916595E-01 -1.832035E+01  2.815869E-03 7.095343E+01 
2.752027E-05 1.473768E+02  2.817669E-03 7.080545E+01  9.915076E-01 -1.879352E+01 
4.096388E+02  9.904758E-01 -3.176488E+01  5.736637E-05 7.406953E+01  4.012023E-05 1.278744E+02 
5.140652E-05 7.262571E+01  9.917456E-01 -1.831953E+01  2.830724E-03 7.068170E+01 
2.251082E-05 9.900893E+01  2.822392E-03 7.089767E+01  9.914704E-01 -1.879062E+01 
4.096700E+02  9.904323E-01 -3.176223E+01  6.272635E-05 9.713703E+01  2.547183E-05 1.340894E+02 
6.558251E-05 9.195603E+01  9.917166E-01 -1.832214E+01  2.809698E-03 7.073387E+01 
2.776050E-05 1.338555E+02  2.810287E-03 7.079137E+01  9.914925E-01 -1.879519E+01 
4.097013E+02  9.904629E-01 -3.176568E+01  6.148669E-05 9.239141E+01  1.375035E-05 1.320047E+02 
6.375817E-05 8.610360E+01  9.917510E-01 -1.832325E+01  2.809121E-03 7.089060E+01 
2.101991E-05 1.752891E+02  2.812079E-03 7.085406E+01  9.915358E-01 -1.879953E+01 
4.097325E+02  9.904514E-01 -3.177199E+01  5.684335E-05 9.823472E+01  1.749925E-05 1.536413E+02 
6.008507E-05 1.051270E+02  9.917377E-01 -1.833032E+01  2.815126E-03 7.096326E+01 
1.310131E-05 1.289456E+02  2.814118E-03 7.086646E+01  9.916779E-01 -1.880181E+01 
4.097638E+02  9.905256E-01 -3.177516E+01  6.376666E-05 1.004152E+02  6.253284E-06 1.200592E+02 
5.655304E-05 9.359218E+01  9.919117E-01 -1.832543E+01  2.811519E-03 7.069219E+01 
1.791285E-05 1.459434E+02  2.813697E-03 7.068667E+01  9.917005E-01 -1.879686E+01 
4.097950E+02  9.905186E-01 -3.177849E+01  7.134487E-05 9.256817E+01  1.472760E-05 1.198034E+02 
6.761581E-05 8.083524E+01  9.919172E-01 -1.832405E+01  2.815246E-03 7.068456E+01 
1.346831E-05 -9.390877E+01  2.802904E-03 7.102994E+01  9.917983E-01 -1.880475E+01 
4.098263E+02  9.905187E-01 -3.177829E+01  7.086981E-05 1.008644E+02  7.150244E-06 -1.799109E+02 
7.427875E-05 9.110230E+01  9.920675E-01 -1.833492E+01  2.819344E-03 7.080523E+01 
1.473725E-05 1.114600E+02  2.827006E-03 7.091860E+01  9.917538E-01 -1.880445E+01 
4.098575E+02  9.906696E-01 -3.178012E+01  7.923487E-05 9.792651E+01  1.247690E-05 1.578057E+02 
8.638172E-05 9.697154E+01  9.920047E-01 -1.833613E+01  2.822878E-03 7.058592E+01 
2.091724E-05 1.725501E+02  2.823783E-03 7.098511E+01  9.917869E-01 -1.880222E+01 
4.098888E+02  9.907569E-01 -3.178502E+01  7.280178E-05 9.843782E+01  1.231089E-05 -1.067145E+02 
7.750830E-05 1.023098E+02  9.921279E-01 -1.833894E+01  2.819263E-03 7.052856E+01 
1.516006E-05 1.132846E+02  2.825019E-03 7.099227E+01  9.918825E-01 -1.880081E+01 
4.099200E+02  9.908131E-01 -3.178788E+01  9.304861E-05 9.270291E+01  1.424029E-05 1.789695E+02 
8.345676E-05 9.211010E+01  9.921597E-01 -1.833831E+01  2.813566E-03 7.062120E+01 
2.260859E-05 -1.222828E+02  2.820811E-03 7.091173E+01  9.919338E-01 -1.880673E+01 
4.099513E+02  9.908398E-01 -3.179299E+01  1.067822E-04 9.584163E+01  1.100800E-05 -1.333800E+02 
1.006309E-04 9.873259E+01  9.922681E-01 -1.834173E+01  2.826808E-03 7.082201E+01 
1.133182E-05 -1.302590E+02  2.814548E-03 7.091146E+01  9.919294E-01 -1.881208E+01 
4.099825E+02  9.908110E-01 -3.178738E+01  9.561133E-05 9.891919E+01  1.873059E-05 -1.451159E+02 
1.037595E-04 1.031074E+02  9.921895E-01 -1.834117E+01  2.829568E-03 7.049619E+01 
2.315354E-05 -1.303382E+02  2.823019E-03 7.101811E+01  9.920084E-01 -1.881327E+01 
4.100138E+02  9.831117E-01 -3.165247E+01  1.022390E-04 9.695384E+01  2.261940E-05 -1.162563E+02 
1.024856E-04 9.814419E+01  9.854950E-01 -1.811724E+01  2.813948E-03 7.103804E+01 
1.298840E-05 -9.954975E+01  2.802390E-03 7.089344E+01  9.859453E-01 -1.874132E+01 
4.100450E+02  9.832719E-01 -3.165642E+01  9.474653E-05 9.274625E+01  1.779663E-05 -1.305189E+02 
1.021386E-04 9.573721E+01  9.855349E-01 -1.811698E+01  2.816513E-03 7.123774E+01 
3.756679E-05 -1.105755E+02  2.806744E-03 7.088740E+01  9.860055E-01 -1.873753E+01 
4.100763E+02  9.833110E-01 -3.165404E+01  1.057540E-04 9.543972E+01  3.649774E-05 -1.269337E+02 
1.186966E-04 9.564633E+01  9.855065E-01 -1.811650E+01  2.805773E-03 7.118552E+01 
3.171072E-05 -1.154039E+02  2.794754E-03 7.112570E+01  9.860098E-01 -1.874181E+01 
4.101075E+02  9.833444E-01 -3.166546E+01  1.156687E-04 9.609056E+01  3.689068E-05 -1.112519E+02 
1.206890E-04 9.440217E+01  9.855745E-01 -1.811970E+01  2.798750E-03 7.116054E+01 
2.551635E-05 -1.276096E+02  2.788540E-03 7.084815E+01  9.860253E-01 -1.874521E+01 
4.101388E+02  9.834345E-01 -3.167067E+01  1.092836E-04 9.498143E+01  3.771698E-05 -1.186306E+02 
1.216362E-04 9.551502E+01  9.856891E-01 -1.812889E+01  2.816857E-03 7.123921E+01 
4.303365E-05 -1.183404E+02  2.808165E-03 7.109922E+01  9.860688E-01 -1.874846E+01 
4.101700E+02  9.834553E-01 -3.167075E+01  1.032380E-04 8.812702E+01  3.880349E-05 -1.260160E+02 
1.142792E-04 9.089450E+01  9.857373E-01 -1.812940E+01  2.815070E-03 7.114122E+01 
3.614014E-05 -1.274311E+02  2.799373E-03 7.084104E+01  9.862112E-01 -1.875316E+01 
4.102013E+02  9.835636E-01 -3.168125E+01  1.272261E-04 9.120686E+01  4.440625E-05 -1.270894E+02 
1.250367E-04 8.314428E+01  9.856897E-01 -1.813325E+01  2.807580E-03 7.099289E+01 
5.147312E-05 -1.261375E+02  2.823580E-03 7.128853E+01  9.862180E-01 -1.876147E+01 
4.102325E+02  9.834880E-01 -3.168100E+01  1.116317E-04 9.227979E+01  6.118218E-05 -1.368180E+02 
1.177797E-04 9.493405E+01  9.857124E-01 -1.814090E+01  2.804331E-03 7.109424E+01 
4.815006E-05 -1.081561E+02  2.803404E-03 7.132941E+01  9.862590E-01 -1.875341E+01 
4.102638E+02  9.835430E-01 -3.168085E+01  1.216190E-04 9.147403E+01  5.639736E-05 -1.184143E+02 
1.166539E-04 9.074272E+01  9.858835E-01 -1.813968E+01  2.809430E-03 7.114096E+01 
6.617842E-05 -1.181512E+02  2.800540E-03 7.104679E+01  9.863410E-01 -1.875341E+01 
4.102950E+02  9.836705E-01 -3.168631E+01  1.233739E-04 8.849424E+01  6.403445E-05 -1.309743E+02 
1.278932E-04 9.424308E+01  9.858179E-01 -1.814470E+01  2.813498E-03 7.098768E+01 
7.283547E-05 -1.273260E+02  2.817812E-03 7.102782E+01  9.863833E-01 -1.875623E+01 
4.103263E+02  9.835806E-01 -3.169279E+01  1.165709E-04 9.073373E+01  6.683450E-05 -1.248842E+02 
1.282376E-04 8.553153E+01  9.858877E-01 -1.815609E+01  2.816862E-03 7.094062E+01 
5.865699E-05 -1.331488E+02  2.810492E-03 7.103402E+01  9.863571E-01 -1.875845E+01 
4.103575E+02  9.837187E-01 -3.168889E+01  1.349958E-04 8.294292E+01  6.402331E-05 -1.219809E+02 
1.244671E-04 8.700059E+01  9.859846E-01 -1.814406E+01  2.804462E-03 7.132182E+01 
6.090038E-05 -1.335266E+02  2.804871E-03 7.123451E+01  9.863662E-01 -1.876295E+01 
4.103888E+02  9.837538E-01 -3.169282E+01  1.268822E-04 9.040748E+01  8.404706E-05 -1.351182E+02 
1.263756E-04 9.119647E+01  9.859583E-01 -1.815498E+01  2.809764E-03 7.108695E+01 
6.426989E-05 -1.446330E+02  2.798634E-03 7.097404E+01  9.863856E-01 -1.875850E+01 
4.104200E+02  9.838424E-01 -3.169848E+01  1.310287E-04 8.303959E+01  6.054255E-05 -1.373114E+02 
1.374850E-04 8.502466E+01  9.859964E-01 -1.816447E+01  2.806336E-03 7.115664E+01 
8.043891E-05 -1.272589E+02  2.786204E-03 7.100001E+01  9.864417E-01 -1.877021E+01 
4.104513E+02  9.838239E-01 -3.170373E+01  1.214011E-04 8.588436E+01  8.327109E-05 -1.332511E+02 
1.332701E-04 7.972126E+01  9.861115E-01 -1.816614E+01  2.813687E-03 7.111692E+01 
6.130354E-05 -1.431503E+02  2.809260E-03 7.100511E+01  9.865727E-01 -1.877557E+01 
4.104825E+02  9.839102E-01 -3.170383E+01  1.382510E-04 8.275407E+01  6.932828E-05 -1.402463E+02 
1.454513E-04 7.596222E+01  9.861094E-01 -1.816896E+01  2.811088E-03 7.128012E+01 
8.166948E-05 -1.341919E+02  2.793395E-03 7.073925E+01  9.866201E-01 -1.877176E+01 
4.105138E+02  9.839716E-01 -3.170938E+01  1.346430E-04 7.937526E+01  8.849075E-05 -1.425814E+02 
1.426499E-04 7.883050E+01  9.862245E-01 -1.817576E+01  2.796328E-03 7.104607E+01 
8.229825E-05 -1.379668E+02  2.813558E-03 7.095770E+01  9.865722E-01 -1.877709E+01 
4.105450E+02  9.840161E-01 -3.171288E+01  1.370160E-04 7.035723E+01  8.727978E-05 -1.408640E+02 
1.393360E-04 7.701052E+01  9.863473E-01 -1.817918E+01  2.798853E-03 7.105731E+01 
8.143537E-05 -1.441485E+02  2.820053E-03 7.108508E+01  9.867375E-01 -1.878149E+01 
4.105763E+02  9.840654E-01 -3.171531E+01  1.373796E-04 7.902624E+01  9.322978E-05 -1.367756E+02 
1.386294E-04 7.802161E+01  9.863123E-01 -1.817531E+01  2.809069E-03 7.072917E+01 
8.439977E-05 -1.404827E+02  2.810269E-03 7.079958E+01  9.866362E-01 -1.877700E+01 
4.106075E+02  9.841896E-01 -3.171605E+01  1.390456E-04 7.321257E+01  8.154125E-05 -1.426176E+02 
1.423586E-04 7.790479E+01  9.863630E-01 -1.818530E+01  2.807608E-03 7.083007E+01 
8.556051E-05 -1.495848E+02  2.796790E-03 7.103371E+01  9.867120E-01 -1.878369E+01 
4.106388E+02  9.840209E-01 -3.172381E+01  1.341406E-04 7.757484E+01  9.474945E-05 -1.483957E+02 
1.408860E-04 7.946770E+01  9.864294E-01 -1.818864E+01  2.809488E-03 7.100864E+01 
9.067062E-05 -1.511243E+02  2.801259E-03 7.095251E+01  9.867545E-01 -1.878304E+01 
4.106700E+02  9.842003E-01 -3.173222E+01  1.494683E-04 7.749766E+01  9.612920E-05 -1.512938E+02 
1.261004E-04 7.696715E+01  9.865881E-01 -1.819463E+01  2.797207E-03 7.130623E+01 
8.068772E-05 -1.493165E+02  2.817170E-03 7.074785E+01  9.868646E-01 -1.878928E+01 
4.107013E+02  9.843037E-01 -3.174015E+01  1.306468E-04 7.277365E+01  8.152340E-05 -1.449319E+02 
1.395523E-04 7.609994E+01  9.865566E-01 -1.819886E+01  2.820094E-03 7.086168E+01 
9.376991E-05 -1.540345E+02  2.807923E-03 7.077260E+01  9.869562E-01 -1.879161E+01 
4.107325E+02  9.843411E-01 -3.173456E+01  1.402383E-04 6.993843E+01  9.282739E-05 -1.493596E+02 
1.489391E-04 6.962706E+01  9.864836E-01 -1.819993E+01  2.804060E-03 7.100871E+01 
9.948745E-05 -1.523528E+02  2.804089E-03 7.115056E+01  9.868963E-01 -1.879130E+01 
4.107638E+02  9.843327E-01 -3.174439E+01  1.354286E-04 7.464080E+01  1.091372E-04 -1.496175E+02 
1.407926E-04 6.720317E+01  9.866759E-01 -1.820526E+01  2.809957E-03 7.102080E+01 
1.070991E-04 -1.577451E+02  2.797074E-03 7.106881E+01  9.870069E-01 -1.880033E+01 
4.107950E+02  9.844286E-01 -3.174022E+01  1.439239E-04 7.510262E+01  9.260341E-05 -1.520381E+02 
1.457152E-04 7.188823E+01  9.867744E-01 -1.821151E+01  2.811794E-03 7.108956E+01 
1.047145E-04 -1.569713E+02  2.799742E-03 7.096642E+01  9.870327E-01 -1.879532E+01 
4.108263E+02  9.843796E-01 -3.174915E+01  1.398299E-04 7.210507E+01  9.497821E-05 -1.617333E+02 
1.441189E-04 6.761164E+01  9.867036E-01 -1.821837E+01  2.804522E-03 7.103251E+01 
1.024447E-04 -1.593259E+02  2.804335E-03 7.096806E+01  9.870576E-01 -1.879383E+01 
4.108575E+02  9.845158E-01 -3.175453E+01  1.344417E-04 6.870843E+01  1.027157E-04 -1.578145E+02 
1.362735E-04 6.967687E+01  9.868764E-01 -1.822074E+01  2.804822E-03 7.095747E+01 
1.147589E-04 -1.626321E+02  2.803484E-03 7.114515E+01  9.870778E-01 -1.880074E+01 
4.108888E+02  9.845013E-01 -3.175737E+01  1.398345E-04 7.003898E+01  1.103168E-04 -1.587427E+02 
1.379139E-04 7.035544E+01  9.867843E-01 -1.822235E+01  2.795090E-03 7.111663E+01 
1.095216E-04 -1.624954E+02  2.811603E-03 7.102561E+01  9.872772E-01 -1.880008E+01 
4.109200E+02  9.846707E-01 -3.175675E+01  1.300556E-04 6.671414E+01  1.131662E-04 -1.592068E+02 
1.447286E-04 6.723291E+01  9.868348E-01 -1.822394E+01  2.815648E-03 7.080751E+01 
1.058603E-04 -1.591793E+02  2.811151E-03 7.108185E+01  9.872695E-01 -1.880470E+01 
4.109513E+02  9.847163E-01 -3.176301E+01  1.386391E-04 7.149285E+01  1.109615E-04 -1.622199E+02 
1.393403E-04 6.383478E+01  9.869278E-01 -1.823026E+01  2.821339E-03 7.097145E+01 
1.122203E-04 -1.635910E+02  2.804944E-03 7.097763E+01  9.872105E-01 -1.880706E+01 
4.109825E+02  9.847399E-01 -3.176686E+01  1.370599E-04 6.741744E+01  1.023577E-04 -1.588516E+02 
1.279258E-04 6.768118E+01  9.870140E-01 -1.824575E+01  2.812059E-03 7.109769E+01 
9.961425E-05 -1.692150E+02  2.813622E-03 7.114420E+01  9.873451E-01 -1.881066E+01 
4.110138E+02  9.849496E-01 -3.177064E+01  1.388808E-04 6.756709E+01  1.173536E-04 -1.739249E+02 
1.471699E-04 6.693559E+01  9.870457E-01 -1.824166E+01  2.815963E-03 7.086047E+01 
1.013268E-04 -1.656367E+02  2.818569E-03 7.083449E+01  9.874142E-01 -1.881349E+01 
4.110450E+02  9.848471E-01 -3.177306E+01  1.448997E-04 6.697085E+01  1.119309E-04 -1.643525E+02 
1.374221E-04 6.549492E+01  9.870681E-01 -1.824291E+01  2.802774E-03 7.104771E+01 
1.088382E-04 -1.693834E+02  2.813282E-03 7.131224E+01  9.872864E-01 -1.882003E+01 
4.110763E+02  9.849643E-01 -3.178738E+01  1.261860E-04 6.141744E+01  1.069302E-04 -1.690439E+02 
1.342846E-04 6.589121E+01  9.871416E-01 -1.824567E+01  2.815187E-03 7.097207E+01 
1.013286E-04 -1.698656E+02  2.815468E-03 7.089716E+01  9.875107E-01 -1.881645E+01 
4.111075E+02  9.849540E-01 -3.178583E+01  1.339347E-04 6.508199E+01  1.226447E-04 -1.709372E+02 
1.321724E-04 6.234187E+01  9.871552E-01 -1.825120E+01  2.822523E-03 7.098490E+01 
1.032536E-04 -1.672964E+02  2.817323E-03 7.103897E+01  9.874336E-01 -1.881796E+01 
4.111388E+02  9.848596E-01 -3.179029E+01  1.261309E-04 6.875351E+01  1.044088E-04 -1.738100E+02 
1.332217E-04 6.321924E+01  9.872107E-01 -1.825825E+01  2.802887E-03 7.077988E+01 
9.407873E-05 -1.724452E+02  2.795983E-03 7.084699E+01  9.876442E-01 -1.882474E+01 
4.111700E+02  9.850188E-01 -3.179207E+01  1.402156E-04 6.649253E+01  1.083973E-04 -1.763425E+02 
1.303895E-04 6.184462E+01  9.873205E-01 -1.826533E+01  2.814379E-03 7.084026E+01 
1.040006E-04 -1.708943E+02  2.820889E-03 7.094408E+01  9.876595E-01 -1.882504E+01 
4.112013E+02  9.850739E-01 -3.179457E+01  1.178857E-04 6.361500E+01  9.565351E-05 -1.721029E+02 
1.328396E-04 6.666141E+01  9.873423E-01 -1.826481E+01  2.811473E-03 7.086137E+01 
1.107761E-04 -1.743518E+02  2.808220E-03 7.088719E+01  9.877674E-01 -1.883070E+01 
4.112325E+02  9.851768E-01 -3.180107E+01  1.279908E-04 6.211512E+01  1.008969E-04 -1.748691E+02 
1.264530E-04 5.973488E+01  9.873004E-01 -1.826689E+01  2.815950E-03 7.110035E+01 
