! Matrix data file written by TouchstoneData, EPCOS AG
! FILENAME: "newformat_LZ04A_MB.s4p"
! COMMENT: "(LZ04A_MB.s4p) Epcos AG 31.01.2012 10:19:45"
! INFO: nport=4, nfreq=1601
! DATE: "Tue Jan 31 14:54:21 2012"
! USER: "Wilfried Schott"
!
! port | pin | signal
! -----|-----|--------
!   1  |  1  |   IN
!   2  |  5  |  OUT CH3
!   3  |  6  |  OUT CH1
!   4  |  7  |  OUT CH2
! --------------------
! 
# MHZ S MA R 50
! freq  magS11 angS11  magS12 angS12  magS13 angS13  magS14 angS14  ...
4.089200E+02  9.785181E-01 -4.904260E+01  6.272228E-04 -1.336938E+02  1.603784E-04 9.926434E+01  5.490307E-04 6.704307E+01 
6.367050E-04 -1.322165E+02  9.912693E-01 -2.021139E+01  1.342607E-02 7.178513E+01  1.435370E-03 -1.569935E+02 
1.615896E-04 1.007455E+02  1.343471E-02 7.186502E+01  9.869588E-01 -2.071663E+01  2.691685E-02 6.875512E+01 
5.411169E-04 6.690055E+01  1.433282E-03 -1.568125E+02  2.692733E-02 6.886614E+01  9.874730E-01 -2.011343E+01 
4.089513E+02  9.786490E-01 -4.905208E+01  6.302204E-04 -1.343697E+02  1.686330E-04 9.883659E+01  5.437415E-04 6.703493E+01 
6.391265E-04 -1.333792E+02  9.913071E-01 -2.021698E+01  1.341924E-02 7.173037E+01  1.426392E-03 -1.567665E+02 
1.648017E-04 9.977288E+01  1.342939E-02 7.188218E+01  9.870370E-01 -2.072151E+01  2.689974E-02 6.874849E+01 
5.360120E-04 6.705239E+01  1.439950E-03 -1.571531E+02  2.693578E-02 6.887589E+01  9.875965E-01 -2.011190E+01 
4.089825E+02  9.786452E-01 -4.905135E+01  6.258517E-04 -1.344513E+02  1.746000E-04 9.929625E+01  5.369140E-04 6.655476E+01 
6.348003E-04 -1.343811E+02  9.912599E-01 -2.021787E+01  1.343186E-02 7.178361E+01  1.418260E-03 -1.571766E+02 
1.726824E-04 1.012378E+02  1.343563E-02 7.187949E+01  9.871186E-01 -2.072476E+01  2.691473E-02 6.874576E+01 
5.467829E-04 6.775799E+01  1.431820E-03 -1.566032E+02  2.693265E-02 6.885931E+01  9.876463E-01 -2.011583E+01 
4.090138E+02  9.786959E-01 -4.906206E+01  6.268861E-04 -1.331328E+02  1.642514E-04 1.020040E+02  5.428340E-04 6.795511E+01 
6.143104E-04 -1.347094E+02  9.913731E-01 -2.021878E+01  1.341733E-02 7.178760E+01  1.419195E-03 -1.572043E+02 
1.696756E-04 9.897624E+01  1.344069E-02 7.190699E+01  9.871087E-01 -2.072670E+01  2.692876E-02 6.877265E+01 
5.440500E-04 6.761174E+01  1.427898E-03 -1.570514E+02  2.693792E-02 6.884840E+01  9.876245E-01 -2.011739E+01 
4.090450E+02  9.785915E-01 -4.906156E+01  6.245443E-04 -1.339545E+02  1.768394E-04 9.615850E+01  5.332044E-04 6.761784E+01 
6.181439E-04 -1.339098E+02  9.914727E-01 -2.022050E+01  1.342361E-02 7.180517E+01  1.422239E-03 -1.575527E+02 
1.711438E-04 9.645574E+01  1.343017E-02 7.190777E+01  9.871588E-01 -2.072614E+01  2.691095E-02 6.873050E+01 
5.290490E-04 6.714346E+01  1.436457E-03 -1.572944E+02  2.693621E-02 6.886779E+01  9.877044E-01 -2.012491E+01 
4.090763E+02  9.786694E-01 -4.906277E+01  6.168057E-04 -1.344078E+02  1.700888E-04 1.007424E+02  5.480859E-04 6.830495E+01 
6.144708E-04 -1.343768E+02  9.914707E-01 -2.022746E+01  1.341665E-02 7.177710E+01  1.429329E-03 -1.579792E+02 
1.738651E-04 9.548185E+01  1.342505E-02 7.189725E+01  9.872872E-01 -2.072495E+01  2.692736E-02 6.877266E+01 
5.365718E-04 6.849583E+01  1.423259E-03 -1.568013E+02  2.693603E-02 6.883782E+01  9.877397E-01 -2.012361E+01 
4.091075E+02  9.788269E-01 -4.907248E+01  6.179516E-04 -1.354072E+02  1.879862E-04 9.852390E+01  5.426545E-04 6.815319E+01 
6.040359E-04 -1.342808E+02  9.915541E-01 -2.023100E+01  1.343164E-02 7.174310E+01  1.428580E-03 -1.575447E+02 
1.803227E-04 1.001160E+02  1.344341E-02 7.194123E+01  9.872936E-01 -2.072878E+01  2.692987E-02 6.874356E+01 
5.446586E-04 6.806596E+01  1.427733E-03 -1.568915E+02  2.694954E-02 6.883591E+01  9.877671E-01 -2.012562E+01 
4.091388E+02  9.787064E-01 -4.907313E+01  6.160481E-04 -1.335379E+02  1.765175E-04 9.829567E+01  5.265283E-04 6.709945E+01 
5.997845E-04 -1.353009E+02  9.916676E-01 -2.022936E+01  1.342668E-02 7.177678E+01  1.420051E-03 -1.570448E+02 
1.829402E-04 9.951122E+01  1.342359E-02 7.189603E+01  9.872852E-01 -2.072984E+01  2.691524E-02 6.875023E+01 
5.249372E-04 6.721626E+01  1.431456E-03 -1.570911E+02  2.696485E-02 6.882048E+01  9.878835E-01 -2.013102E+01 
4.091700E+02  9.787891E-01 -4.907904E+01  6.158392E-04 -1.349590E+02  1.853525E-04 9.566900E+01  5.290744E-04 6.857077E+01 
6.065906E-04 -1.350958E+02  9.915962E-01 -2.022877E+01  1.342873E-02 7.180510E+01  1.438841E-03 -1.574430E+02 
1.776628E-04 9.764911E+01  1.344685E-02 7.192525E+01  9.874247E-01 -2.073048E+01  2.693131E-02 6.873410E+01 
5.287488E-04 6.832231E+01  1.426695E-03 -1.576025E+02  2.696077E-02 6.881706E+01  9.879525E-01 -2.013651E+01 
4.092013E+02  9.788650E-01 -4.908431E+01  6.073042E-04 -1.353521E+02  1.882797E-04 9.565743E+01  5.320921E-04 6.808788E+01 
6.040696E-04 -1.347610E+02  9.916160E-01 -2.023113E+01  1.342788E-02 7.179788E+01  1.425982E-03 -1.569325E+02 
1.897111E-04 1.008121E+02  1.344266E-02 7.197946E+01  9.873716E-01 -2.074010E+01  2.692927E-02 6.876976E+01 
5.349292E-04 6.872731E+01  1.426427E-03 -1.571171E+02  2.695975E-02 6.886392E+01  9.880428E-01 -2.013133E+01 
4.092325E+02  9.789278E-01 -4.908522E+01  6.000647E-04 -1.345853E+02  1.959408E-04 9.732810E+01  5.377741E-04 6.768292E+01 
5.939248E-04 -1.342253E+02  9.917851E-01 -2.023600E+01  1.343068E-02 7.179516E+01  1.429486E-03 -1.573120E+02 
1.859917E-04 1.010869E+02  1.345288E-02 7.190571E+01  9.876148E-01 -2.073489E+01  2.692772E-02 6.875061E+01 
5.360804E-04 6.844123E+01  1.440154E-03 -1.567867E+02  2.696255E-02 6.885296E+01  9.880527E-01 -2.012969E+01 
4.092638E+02  9.790104E-01 -4.908977E+01  6.012899E-04 -1.350782E+02  1.967777E-04 9.489780E+01  5.421932E-04 6.964348E+01 
5.845279E-04 -1.349953E+02  9.917398E-01 -2.024175E+01  1.342995E-02 7.176459E+01  1.438952E-03 -1.576636E+02 
1.944610E-04 9.521571E+01  1.344492E-02 7.191289E+01  9.876380E-01 -2.073947E+01  2.694166E-02 6.872481E+01 
5.427808E-04 6.839209E+01  1.428643E-03 -1.566985E+02  2.695745E-02 6.886783E+01  9.880136E-01 -2.013792E+01 
4.092950E+02  9.790564E-01 -4.909095E+01  5.895291E-04 -1.331410E+02  1.815631E-04 9.934942E+01  5.368809E-04 6.971880E+01 
5.828330E-04 -1.337554E+02  9.918576E-01 -2.024274E+01  1.343184E-02 7.175369E+01  1.424427E-03 -1.570684E+02 
1.851972E-04 9.353371E+01  1.345932E-02 7.191207E+01  9.875365E-01 -2.073737E+01  2.693911E-02 6.876317E+01 
5.381781E-04 6.825668E+01  1.434506E-03 -1.568152E+02  2.696735E-02 6.883111E+01  9.881436E-01 -2.014445E+01 
4.093263E+02  9.790492E-01 -4.909437E+01  5.730052E-04 -1.342312E+02  2.006630E-04 9.572301E+01  5.434394E-04 6.932382E+01 
5.693621E-04 -1.334332E+02  9.918531E-01 -2.024206E+01  1.343100E-02 7.172259E+01  1.442703E-03 -1.573740E+02 
1.916031E-04 9.900351E+01  1.344472E-02 7.190272E+01  9.876542E-01 -2.073763E+01  2.694134E-02 6.874055E+01 
5.385930E-04 6.874558E+01  1.434043E-03 -1.566313E+02  2.696789E-02 6.883074E+01  9.882731E-01 -2.014732E+01 
4.093575E+02  9.790736E-01 -4.909433E+01  5.677074E-04 -1.325182E+02  1.969718E-04 9.638510E+01  5.285703E-04 6.989833E+01 
5.658391E-04 -1.323350E+02  9.919422E-01 -2.024173E+01  1.344211E-02 7.173700E+01  1.440333E-03 -1.575783E+02 
1.960949E-04 9.159770E+01  1.345158E-02 7.192628E+01  9.876458E-01 -2.074701E+01  2.693114E-02 6.876860E+01 
5.348996E-04 6.882782E+01  1.439604E-03 -1.563710E+02  2.695975E-02 6.881537E+01  9.882372E-01 -2.014172E+01 
4.093888E+02  9.791115E-01 -4.910199E+01  5.751453E-04 -1.338242E+02  2.041377E-04 9.461583E+01  5.312046E-04 6.934233E+01 
5.738489E-04 -1.336023E+02  9.919843E-01 -2.025123E+01  1.342564E-02 7.174352E+01  1.437386E-03 -1.574243E+02 
1.994590E-04 9.797030E+01  1.345237E-02 7.191854E+01  9.877118E-01 -2.074620E+01  2.694122E-02 6.874210E+01 
5.453046E-04 6.882094E+01  1.434121E-03 -1.568778E+02  2.697809E-02 6.882948E+01  9.882757E-01 -2.015246E+01 
4.094200E+02  9.793075E-01 -4.911077E+01  5.656354E-04 -1.323361E+02  2.071763E-04 9.447457E+01  5.427515E-04 7.157928E+01 
5.660647E-04 -1.324278E+02  9.920892E-01 -2.025104E+01  1.344365E-02 7.175228E+01  1.435572E-03 -1.575343E+02 
2.011745E-04 9.606229E+01  1.345317E-02 7.193873E+01  9.878025E-01 -2.074948E+01  2.694520E-02 6.878153E+01 
5.414998E-04 6.848702E+01  1.432974E-03 -1.569899E+02  2.697479E-02 6.880199E+01  9.882619E-01 -2.015142E+01 
4.094513E+02  9.791908E-01 -4.910857E+01  5.603316E-04 -1.316045E+02  1.954174E-04 9.430746E+01  5.455933E-04 6.945906E+01 
5.615228E-04 -1.309162E+02  9.921020E-01 -2.024675E+01  1.343822E-02 7.176795E+01  1.438057E-03 -1.571327E+02 
2.115287E-04 9.953611E+01  1.345087E-02 7.194069E+01  9.878758E-01 -2.074611E+01  2.694171E-02 6.875504E+01 
5.368862E-04 6.995016E+01  1.432310E-03 -1.571159E+02  2.697339E-02 6.884436E+01  9.883119E-01 -2.015004E+01 
4.094825E+02  9.792709E-01 -4.911393E+01  5.596466E-04 -1.315516E+02  2.031420E-04 9.525308E+01  5.411118E-04 6.899749E+01 
5.624407E-04 -1.318497E+02  9.922124E-01 -2.025828E+01  1.345662E-02 7.170929E+01  1.434337E-03 -1.571883E+02 
1.997325E-04 9.330969E+01  1.344808E-02 7.192475E+01  9.879309E-01 -2.075322E+01  2.694123E-02 6.874557E+01 
5.417292E-04 6.943459E+01  1.442915E-03 -1.569091E+02  2.697953E-02 6.882517E+01  9.884444E-01 -2.015167E+01 
4.095138E+02  9.792212E-01 -4.911822E+01  5.705287E-04 -1.303777E+02  2.110946E-04 9.650291E+01  5.464298E-04 6.995120E+01 
5.563806E-04 -1.307287E+02  9.921430E-01 -2.025365E+01  1.344911E-02 7.170448E+01  1.433733E-03 -1.573249E+02 
2.101024E-04 9.436955E+01  1.346597E-02 7.192201E+01  9.879704E-01 -2.075391E+01  2.695207E-02 6.873542E+01 
5.424442E-04 6.895243E+01  1.433977E-03 -1.570680E+02  2.697752E-02 6.880503E+01  9.884923E-01 -2.015333E+01 
4.095450E+02  9.793194E-01 -4.912174E+01  5.685052E-04 -1.299187E+02  2.084042E-04 9.487010E+01  5.439858E-04 6.848670E+01 
5.573125E-04 -1.296858E+02  9.923690E-01 -2.025706E+01  1.344459E-02 7.173143E+01  1.429068E-03 -1.569393E+02 
2.000422E-04 9.415939E+01  1.346919E-02 7.186260E+01  9.880166E-01 -2.075124E+01  2.693856E-02 6.875576E+01 
5.328480E-04 7.083632E+01  1.440233E-03 -1.570495E+02  2.698405E-02 6.881099E+01  9.884340E-01 -2.016174E+01 
4.095763E+02  9.794438E-01 -4.912424E+01  5.677574E-04 -1.294315E+02  2.135999E-04 9.249081E+01  5.448419E-04 6.952348E+01 
5.572141E-04 -1.281902E+02  9.921998E-01 -2.026087E+01  1.345582E-02 7.176234E+01  1.426221E-03 -1.571533E+02 
2.247966E-04 9.340238E+01  1.346300E-02 7.188134E+01  9.881436E-01 -2.075608E+01  2.695909E-02 6.875910E+01 
5.471653E-04 7.012826E+01  1.442537E-03 -1.564292E+02  2.698681E-02 6.883527E+01  9.885110E-01 -2.016384E+01 
4.096075E+02  9.794128E-01 -4.912906E+01  5.608533E-04 -1.280195E+02  2.182215E-04 9.530569E+01  5.541459E-04 7.090117E+01 
5.451454E-04 -1.275442E+02  9.924225E-01 -2.025962E+01  1.345695E-02 7.174762E+01  1.419255E-03 -1.569377E+02 
2.089499E-04 9.533963E+01  1.345777E-02 7.190520E+01  9.881243E-01 -2.075243E+01  2.695013E-02 6.877414E+01 
5.396508E-04 6.998980E+01  1.435195E-03 -1.567841E+02  2.699499E-02 6.882678E+01  9.886103E-01 -2.015992E+01 
4.096388E+02  9.794573E-01 -4.913554E+01  5.708132E-04 -1.279210E+02  2.113998E-04 9.330543E+01  5.498984E-04 7.079370E+01 
5.723106E-04 -1.301974E+02  9.924725E-01 -2.026482E+01  1.345715E-02 7.173398E+01  1.443125E-03 -1.566315E+02 
2.183046E-04 8.993728E+01  1.346228E-02 7.193917E+01  9.880848E-01 -2.074957E+01  2.696143E-02 6.877371E+01 
5.501463E-04 7.215717E+01  1.429459E-03 -1.570158E+02  2.699774E-02 6.883304E+01  9.886246E-01 -2.017031E+01 
4.096700E+02  9.794964E-01 -4.913536E+01  5.661271E-04 -1.282290E+02  2.228506E-04 8.915831E+01  5.438893E-04 7.073578E+01 
5.561847E-04 -1.277861E+02  9.925269E-01 -2.026801E+01  1.343691E-02 7.173114E+01  1.437983E-03 -1.569624E+02 
2.205562E-04 9.660141E+01  1.345807E-02 7.193566E+01  9.883035E-01 -2.075594E+01  2.697264E-02 6.876406E+01 
5.403685E-04 7.121676E+01  1.428594E-03 -1.568135E+02  2.700410E-02 6.881983E+01  9.886832E-01 -2.016747E+01 
4.097013E+02  9.796989E-01 -4.914581E+01  5.779410E-04 -1.269501E+02  2.229459E-04 9.300092E+01  5.449290E-04 6.949639E+01 
5.684439E-04 -1.277568E+02  9.925132E-01 -2.026536E+01  1.343341E-02 7.176454E+01  1.443165E-03 -1.566014E+02 
2.151049E-04 9.451946E+01  1.345669E-02 7.192902E+01  9.881830E-01 -2.075497E+01  2.696423E-02 6.876867E+01 
5.454109E-04 7.071631E+01  1.437680E-03 -1.565513E+02  2.700288E-02 6.882372E+01  9.888428E-01 -2.017679E+01 
4.097325E+02  9.795936E-01 -4.914903E+01  5.722730E-04 -1.278589E+02  2.159895E-04 9.062929E+01  5.534125E-04 7.178947E+01 
5.680746E-04 -1.259526E+02  9.925686E-01 -2.027122E+01  1.345152E-02 7.173488E+01  1.444387E-03 -1.566730E+02 
2.109818E-04 8.798366E+01  1.346276E-02 7.195913E+01  9.882294E-01 -2.076290E+01  2.696560E-02 6.876694E+01 
5.505311E-04 7.204731E+01  1.447286E-03 -1.565620E+02  2.700769E-02 6.880308E+01  9.887567E-01 -2.017138E+01 
4.097638E+02  9.796989E-01 -4.914884E+01  5.725807E-04 -1.259981E+02  2.249951E-04 9.085742E+01  5.487565E-04 7.194904E+01 
5.744243E-04 -1.254886E+02  9.926768E-01 -2.026758E+01  1.344956E-02 7.173130E+01  1.434488E-03 -1.563200E+02 
2.329826E-04 9.404481E+01  1.345748E-02 7.190660E+01  9.882799E-01 -2.075834E+01  2.696908E-02 6.872151E+01 
5.393905E-04 7.082584E+01  1.449743E-03 -1.566707E+02  2.700589E-02 6.880052E+01  9.888099E-01 -2.018169E+01 
4.097950E+02  9.796646E-01 -4.915590E+01  5.747636E-04 -1.270667E+02  2.268575E-04 8.757794E+01  5.561603E-04 7.109399E+01 
5.676325E-04 -1.252352E+02  9.927849E-01 -2.027688E+01  1.346283E-02 7.171849E+01  1.442462E-03 -1.566668E+02 
2.325483E-04 9.115112E+01  1.345447E-02 7.189326E+01  9.883909E-01 -2.076829E+01  2.698382E-02 6.871946E+01 
5.553359E-04 7.076443E+01  1.433616E-03 -1.565756E+02  2.701357E-02 6.880226E+01  9.888769E-01 -2.017886E+01 
4.098263E+02  9.796662E-01 -4.915458E+01  5.681369E-04 -1.262730E+02  2.345680E-04 8.640881E+01  5.509281E-04 7.258000E+01 
5.742491E-04 -1.257521E+02  9.927393E-01 -2.027641E+01  1.345517E-02 7.174790E+01  1.447005E-03 -1.567141E+02 
2.240315E-04 8.615510E+01  1.346334E-02 7.191364E+01  9.883887E-01 -2.076476E+01  2.697676E-02 6.875052E+01 
5.567334E-04 7.031767E+01  1.448546E-03 -1.565324E+02  2.702088E-02 6.878032E+01  9.889749E-01 -2.018551E+01 
4.098575E+02  9.798064E-01 -4.916633E+01  5.868300E-04 -1.260357E+02  2.375149E-04 8.821865E+01  5.575609E-04 7.209164E+01 
5.664184E-04 -1.252527E+02  9.928576E-01 -2.028580E+01  1.345894E-02 7.168211E+01  1.457906E-03 -1.565128E+02 
2.215963E-04 8.677159E+01  1.346222E-02 7.200331E+01  9.883985E-01 -2.076277E+01  2.696157E-02 6.872723E+01 
5.536617E-04 7.087641E+01  1.445455E-03 -1.559555E+02  2.703327E-02 6.881596E+01  9.890840E-01 -2.018313E+01 
4.098888E+02  9.798551E-01 -4.916785E+01  5.891207E-04 -1.253949E+02  2.310280E-04 8.629400E+01  5.553910E-04 7.162742E+01 
5.902928E-04 -1.252073E+02  9.928486E-01 -2.028168E+01  1.345836E-02 7.168024E+01  1.449850E-03 -1.569637E+02 
2.303586E-04 9.035310E+01  1.347390E-02 7.196958E+01  9.885408E-01 -2.076381E+01  2.696582E-02 6.873152E+01 
5.573581E-04 7.162866E+01  1.458707E-03 -1.563956E+02  2.701900E-02 6.878086E+01  9.890763E-01 -2.019189E+01 
4.099200E+02  9.798979E-01 -4.917002E+01  5.835802E-04 -1.251547E+02  2.390318E-04 8.626632E+01  5.472097E-04 7.194588E+01 
5.917970E-04 -1.254853E+02  9.929768E-01 -2.028654E+01  1.344943E-02 7.168089E+01  1.438474E-03 -1.567897E+02 
2.332653E-04 8.456708E+01  1.346024E-02 7.192995E+01  9.885900E-01 -2.077483E+01  2.698109E-02 6.870948E+01 
5.579119E-04 7.148976E+01  1.448767E-03 -1.563157E+02  2.703594E-02 6.877961E+01  9.891221E-01 -2.018853E+01 
4.099513E+02  9.798967E-01 -4.917291E+01  6.061619E-04 -1.251920E+02  2.288410E-04 8.295973E+01  5.659619E-04 7.192904E+01 
5.906130E-04 -1.249802E+02  9.930465E-01 -2.028493E+01  1.345423E-02 7.174011E+01  1.444874E-03 -1.570881E+02 
2.322470E-04 8.323073E+01  1.345957E-02 7.198559E+01  9.886577E-01 -2.076477E+01  2.697337E-02 6.875751E+01 
5.735392E-04 7.215840E+01  1.453369E-03 -1.565477E+02  2.703483E-02 6.878454E+01  9.890970E-01 -2.018952E+01 
4.099825E+02  9.799117E-01 -4.917891E+01  6.034915E-04 -1.250133E+02  2.264680E-04 8.309159E+01  5.680915E-04 7.302219E+01 
5.902571E-04 -1.246257E+02  9.930281E-01 -2.028654E+01  1.346597E-02 7.168715E+01  1.455894E-03 -1.562096E+02 
2.475555E-04 8.354093E+01  1.346705E-02 7.196564E+01  9.887703E-01 -2.077409E+01  2.698994E-02 6.875911E+01 
5.545567E-04 7.324189E+01  1.463675E-03 -1.564589E+02  2.704398E-02 6.879488E+01  9.891949E-01 -2.019683E+01 
4.100138E+02  9.723452E-01 -4.905683E+01  6.008992E-04 -1.236269E+02  2.309927E-04 8.303097E+01  5.651077E-04 7.204499E+01 
5.917493E-04 -1.231719E+02  9.862784E-01 -2.005392E+01  1.338445E-02 7.226752E+01  1.441126E-03 -1.564210E+02 
2.251683E-04 8.220274E+01  1.336687E-02 7.213246E+01  9.826127E-01 -2.070169E+01  2.680472E-02 6.908092E+01 
5.642735E-04 7.195182E+01  1.450648E-03 -1.562919E+02  2.685237E-02 6.913175E+01  9.824985E-01 -1.989607E+01 
4.100450E+02  9.725442E-01 -4.905232E+01  5.966137E-04 -1.238935E+02  2.301656E-04 8.215343E+01  5.613599E-04 7.178688E+01 
6.012550E-04 -1.227689E+02  9.862934E-01 -2.006215E+01  1.339103E-02 7.228842E+01  1.451938E-03 -1.559639E+02 
2.247512E-04 8.352408E+01  1.336568E-02 7.210150E+01  9.826877E-01 -2.070515E+01  2.680633E-02 6.909370E+01 
5.735523E-04 7.262408E+01  1.455302E-03 -1.562722E+02  2.686827E-02 6.913252E+01  9.825753E-01 -1.989932E+01 
4.100763E+02  9.723495E-01 -4.906497E+01  6.040254E-04 -1.236358E+02  2.263500E-04 8.186601E+01  5.722949E-04 7.279272E+01 
6.033534E-04 -1.237253E+02  9.863899E-01 -2.006680E+01  1.338507E-02 7.226550E+01  1.438546E-03 -1.562271E+02 
2.218941E-04 8.011996E+01  1.337431E-02 7.208512E+01  9.828427E-01 -2.071475E+01  2.681488E-02 6.905775E+01 
5.692068E-04 7.195888E+01  1.438870E-03 -1.561932E+02  2.687609E-02 6.911784E+01  9.826989E-01 -1.990535E+01 
4.101075E+02  9.724777E-01 -4.906506E+01  6.080074E-04 -1.232707E+02  2.299708E-04 8.217874E+01  5.808685E-04 7.339519E+01 
6.186930E-04 -1.230001E+02  9.863631E-01 -2.006245E+01  1.338372E-02 7.227006E+01  1.449014E-03 -1.561027E+02 
2.193937E-04 7.933121E+01  1.336917E-02 7.208723E+01  9.826778E-01 -2.070841E+01  2.681637E-02 6.907746E+01 
5.724555E-04 7.227448E+01  1.451222E-03 -1.564722E+02  2.686471E-02 6.915938E+01  9.827262E-01 -1.990768E+01 
4.101388E+02  9.724956E-01 -4.907551E+01  6.203313E-04 -1.238778E+02  2.355613E-04 7.848807E+01  5.826518E-04 7.280104E+01 
5.992761E-04 -1.234161E+02  9.865331E-01 -2.007907E+01  1.339519E-02 7.224021E+01  1.443694E-03 -1.560493E+02 
2.266713E-04 7.839100E+01  1.336546E-02 7.210755E+01  9.828187E-01 -2.070813E+01  2.681788E-02 6.905091E+01 
5.744369E-04 7.234068E+01  1.444335E-03 -1.559282E+02  2.688305E-02 6.912356E+01  9.828476E-01 -1.991935E+01 
4.101700E+02  9.725883E-01 -4.907564E+01  6.101100E-04 -1.232017E+02  2.275005E-04 7.650359E+01  5.809286E-04 7.266537E+01 
6.207152E-04 -1.236505E+02  9.865716E-01 -2.007219E+01  1.339033E-02 7.228638E+01  1.440496E-03 -1.560115E+02 
2.254462E-04 7.615158E+01  1.336527E-02 7.207344E+01  9.827917E-01 -2.071134E+01  2.680295E-02 6.908059E+01 
5.855708E-04 7.244745E+01  1.446019E-03 -1.565711E+02  2.688044E-02 6.915430E+01  9.828630E-01 -1.991628E+01 
4.102013E+02  9.726368E-01 -4.908515E+01  6.239518E-04 -1.238118E+02  2.288943E-04 7.450071E+01  5.896417E-04 7.172900E+01 
6.150051E-04 -1.231029E+02  9.866228E-01 -2.008391E+01  1.339554E-02 7.226574E+01  1.446473E-03 -1.558936E+02 
2.311395E-04 7.854039E+01  1.337996E-02 7.211782E+01  9.828720E-01 -2.071670E+01  2.680705E-02 6.908849E+01 
5.887148E-04 7.286168E+01  1.442456E-03 -1.561621E+02  2.688424E-02 6.912451E+01  9.829861E-01 -1.991969E+01 
4.102325E+02  9.726169E-01 -4.908753E+01  6.252728E-04 -1.240328E+02  2.274347E-04 7.541616E+01  5.867438E-04 7.333997E+01 
6.202915E-04 -1.237705E+02  9.865804E-01 -2.008607E+01  1.339652E-02 7.225965E+01  1.439859E-03 -1.566511E+02 
2.317976E-04 7.510533E+01  1.336715E-02 7.213655E+01  9.829261E-01 -2.072041E+01  2.680929E-02 6.904792E+01 
