! Matrix data file written by TouchstoneData, EPCOS AG
! FILENAME: "newformat_LZ06B_NB.s4p"
! COMMENT: "(LZ06B_NB.s4p) Epcos AG 31.01.2012 10:36:11"
! INFO: nport=4, nfreq=1601
! DATE: "Tue Jan 31 15:09:57 2012"
! USER: "Wilfried Schott"
!
! port | pin | signal
! -----|-----|--------
!   1  |  1  |  IN
!   2  |  5  |  OUT CH2
!   3  |  6  |  OUT CH1
!   4  |  7  |  OUT CH3
! --------------------
! 
# MHZ S MA R 50
! freq  magS11 angS11  magS12 angS12  magS13 angS13  magS14 angS14  ...
3.100000E+02  9.834436E-01 -4.384107E+01  1.196265E-03 -1.528394E+00  2.885002E-04 4.169759E+01  7.761822E-04 1.025918E+02 
1.201213E-03 -1.168180E+00  9.886431E-01 -1.821903E+01  7.801476E-03 7.218504E+01  9.015917E-04 -1.609940E+02 
2.802095E-04 4.077515E+01  7.806370E-03 7.217613E+01  9.901476E-01 -1.848648E+01  2.495553E-02 7.164048E+01 
7.813108E-04 1.028615E+02  9.025456E-04 -1.610941E+02  2.496259E-02 7.168316E+01  9.926556E-01 -1.805152E+01 
3.100063E+02  9.833489E-01 -4.384607E+01  1.276805E-03 -2.661682E+00  2.958395E-04 4.409081E+01  8.034930E-04 1.035297E+02 
1.292065E-03 -2.562284E+00  9.886885E-01 -1.822114E+01  7.821501E-03 7.219937E+01  9.023258E-04 -1.605877E+02 
2.840124E-04 4.257630E+01  7.794116E-03 7.213762E+01  9.902658E-01 -1.848644E+01  2.495727E-02 7.163856E+01 
8.075171E-04 1.029867E+02  9.035644E-04 -1.608216E+02  2.496134E-02 7.169550E+01  9.924919E-01 -1.804741E+01 
3.100125E+02  9.832489E-01 -4.384676E+01  1.356119E-03 -4.229279E+00  2.786975E-04 4.186370E+01  8.332348E-04 1.032004E+02 
1.355405E-03 -4.275468E+00  9.884987E-01 -1.822131E+01  7.806828E-03 7.217110E+01  9.035317E-04 -1.610316E+02 
2.833967E-04 4.123628E+01  7.804688E-03 7.220372E+01  9.900296E-01 -1.848881E+01  2.495836E-02 7.164121E+01 
8.385951E-04 1.028146E+02  9.060375E-04 -1.610587E+02  2.495579E-02 7.170060E+01  9.925581E-01 -1.804912E+01 
3.100188E+02  9.830858E-01 -4.385286E+01  1.460421E-03 -5.997626E+00  2.870985E-04 4.011802E+01  8.561543E-04 1.048001E+02 
1.449554E-03 -6.274662E+00  9.884045E-01 -1.821785E+01  7.804284E-03 7.218905E+01  9.013983E-04 -1.608516E+02 
2.845598E-04 4.120665E+01  7.807550E-03 7.212184E+01  9.901027E-01 -1.848795E+01  2.495848E-02 7.164057E+01 
8.527223E-04 1.031484E+02  9.049791E-04 -1.608246E+02  2.495756E-02 7.167989E+01  9.925039E-01 -1.804563E+01 
3.100250E+02  9.830264E-01 -4.385475E+01  1.561034E-03 -7.713549E+00  2.851034E-04 4.226777E+01  8.817861E-04 1.034793E+02 
1.544240E-03 -7.747743E+00  9.882224E-01 -1.822277E+01  7.809174E-03 7.219514E+01  9.072408E-04 -1.609600E+02 
2.860777E-04 4.140486E+01  7.799217E-03 7.218709E+01  9.902511E-01 -1.849026E+01  2.494585E-02 7.164952E+01 
8.728594E-04 1.035937E+02  8.997170E-04 -1.602019E+02  2.495851E-02 7.169654E+01  9.925182E-01 -1.804745E+01 
3.100312E+02  9.827813E-01 -4.385736E+01  1.671837E-03 -1.005188E+01  2.906964E-04 3.867005E+01  9.066978E-04 1.042552E+02 
1.660899E-03 -9.868646E+00  9.881653E-01 -1.822613E+01  7.807818E-03 7.222681E+01  9.074765E-04 -1.593541E+02 
2.855617E-04 3.853447E+01  7.798590E-03 7.220258E+01  9.900963E-01 -1.849133E+01  2.496613E-02 7.164880E+01 
9.145986E-04 1.037047E+02  9.034695E-04 -1.606923E+02  2.495817E-02 7.169408E+01  9.926123E-01 -1.804863E+01 
3.100375E+02  9.826333E-01 -4.385351E+01  1.789516E-03 -1.232667E+01  2.826530E-04 4.034782E+01  9.377257E-04 1.036141E+02 
1.787380E-03 -1.216781E+01  9.879856E-01 -1.822260E+01  7.812764E-03 7.221712E+01  9.113675E-04 -1.602821E+02 
2.773211E-04 3.988414E+01  7.810109E-03 7.219533E+01  9.900606E-01 -1.848946E+01  2.494575E-02 7.164765E+01 
9.383795E-04 1.039748E+02  9.063355E-04 -1.598358E+02  2.495258E-02 7.166947E+01  9.924997E-01 -1.805209E+01 
3.100437E+02  9.824409E-01 -4.386181E+01  1.915864E-03 -1.463992E+01  2.911159E-04 3.977161E+01  9.618221E-04 1.029182E+02 
1.907446E-03 -1.463800E+01  9.878029E-01 -1.822611E+01  7.809371E-03 7.213933E+01  9.045607E-04 -1.599849E+02 
2.872334E-04 3.946849E+01  7.799198E-03 7.221615E+01  9.900077E-01 -1.849486E+01  2.495023E-02 7.162872E+01 
9.757261E-04 1.041644E+02  9.098384E-04 -1.604202E+02  2.496409E-02 7.169791E+01  9.924972E-01 -1.805086E+01 
3.100500E+02  9.822700E-01 -4.385980E+01  2.033987E-03 -1.757462E+01  3.011059E-04 3.800143E+01  9.949967E-04 1.026559E+02 
2.023939E-03 -1.766293E+01  9.877069E-01 -1.822535E+01  7.800494E-03 7.220137E+01  9.089827E-04 -1.608973E+02 
2.902180E-04 3.677674E+01  7.794847E-03 7.219186E+01  9.900983E-01 -1.849584E+01  2.496149E-02 7.163979E+01 
1.008375E-03 1.036994E+02  9.063052E-04 -1.607540E+02  2.495118E-02 7.170722E+01  9.923838E-01 -1.805076E+01 
3.100562E+02  9.821784E-01 -4.385839E+01  2.178276E-03 -2.007649E+01  2.890872E-04 3.647331E+01  1.029306E-03 1.031433E+02 
2.173100E-03 -2.004102E+01  9.875102E-01 -1.822458E+01  7.817170E-03 7.218407E+01  9.163965E-04 -1.607362E+02 
2.940619E-04 3.544869E+01  7.790108E-03 7.221809E+01  9.900308E-01 -1.849404E+01  2.495818E-02 7.163752E+01 
1.033684E-03 1.032711E+02  9.077623E-04 -1.610692E+02  2.495896E-02 7.170401E+01  9.925269E-01 -1.805335E+01 
3.100625E+02  9.818482E-01 -4.385014E+01  2.312751E-03 -2.354442E+01  2.920285E-04 3.521135E+01  1.061314E-03 1.022215E+02 
2.313792E-03 -2.314837E+01  9.873750E-01 -1.821150E+01  7.817999E-03 7.222183E+01  9.166394E-04 -1.608128E+02 
2.822408E-04 3.673181E+01  7.806845E-03 7.227082E+01  9.900748E-01 -1.849366E+01  2.495677E-02 7.164379E+01 
1.053413E-03 1.025212E+02  9.173996E-04 -1.608619E+02  2.496275E-02 7.169057E+01  9.924344E-01 -1.804636E+01 
3.100688E+02  9.816857E-01 -4.385118E+01  2.462964E-03 -2.657090E+01  3.015153E-04 3.640976E+01  1.085546E-03 1.012231E+02 
2.468375E-03 -2.645089E+01  9.872103E-01 -1.821066E+01  7.802548E-03 7.221468E+01  9.135042E-04 -1.607570E+02 
2.846009E-04 3.494917E+01  7.805740E-03 7.222898E+01  9.901158E-01 -1.849777E+01  2.495699E-02 7.163404E+01 
1.090732E-03 1.017193E+02  9.066785E-04 -1.606062E+02  2.495187E-02 7.169225E+01  9.924062E-01 -1.804885E+01 
3.100750E+02  9.814701E-01 -4.384393E+01  2.636886E-03 -3.028855E+01  2.899464E-04 3.306582E+01  1.120025E-03 1.003611E+02 
2.625128E-03 -2.996452E+01  9.870687E-01 -1.820165E+01  7.814582E-03 7.220633E+01  9.251664E-04 -1.606952E+02 
3.089032E-04 3.429899E+01  7.806160E-03 7.226757E+01  9.900830E-01 -1.849946E+01  2.494146E-02 7.166050E+01 
1.113330E-03 1.006450E+02  9.135500E-04 -1.610576E+02  2.496623E-02 7.168720E+01  9.923978E-01 -1.805489E+01 
3.100813E+02  9.811906E-01 -4.383541E+01  2.787715E-03 -3.399633E+01  2.874880E-04 3.196755E+01  1.128484E-03 1.001074E+02 
2.779001E-03 -3.410325E+01  9.868649E-01 -1.819337E+01  7.812662E-03 7.231033E+01  9.282417E-04 -1.610189E+02 
2.997236E-04 3.319790E+01  7.795919E-03 7.222287E+01  9.900907E-01 -1.849492E+01  2.495645E-02 7.165614E+01 
1.137444E-03 9.936360E+01  9.090107E-04 -1.614562E+02  2.495684E-02 7.167164E+01  9.924030E-01 -1.805278E+01 
3.100875E+02  9.811030E-01 -4.383488E+01  2.939603E-03 -3.805691E+01  2.766380E-04 3.170768E+01  1.163420E-03 9.878487E+01 
2.919571E-03 -3.794138E+01  9.867493E-01 -1.818504E+01  7.804654E-03 7.228681E+01  9.227567E-04 -1.611686E+02 
2.851258E-04 3.375029E+01  7.793778E-03 7.230460E+01  9.900196E-01 -1.850401E+01  2.495298E-02 7.164399E+01 
1.162882E-03 9.873864E+01  9.300938E-04 -1.613842E+02  2.497053E-02 7.170196E+01  9.923166E-01 -1.804422E+01 
3.100938E+02  9.808815E-01 -4.382229E+01  3.081626E-03 -4.213041E+01  2.860045E-04 3.002498E+01  1.185625E-03 9.785450E+01 
3.075918E-03 -4.223824E+01  9.866360E-01 -1.816749E+01  7.827422E-03 7.215603E+01  9.258437E-04 -1.621126E+02 
2.844145E-04 3.253892E+01  7.799754E-03 7.229672E+01  9.901031E-01 -1.850852E+01  2.495930E-02 7.162759E+01 
1.188583E-03 9.792693E+01  9.105876E-04 -1.613793E+02  2.495748E-02 7.168977E+01  9.923249E-01 -1.805158E+01 
3.101000E+02  9.807620E-01 -4.380566E+01  3.229504E-03 -4.685946E+01  2.848246E-04 2.898699E+01  1.214568E-03 9.722724E+01 
3.229621E-03 -4.655538E+01  9.864527E-01 -1.815429E+01  7.817720E-03 7.232998E+01  9.193689E-04 -1.612418E+02 
2.854538E-04 2.871256E+01  7.814676E-03 7.220115E+01  9.900122E-01 -1.850374E+01  2.495708E-02 7.165192E+01 
1.203789E-03 9.770597E+01  9.267455E-04 -1.607876E+02  2.495291E-02 7.170059E+01  9.923553E-01 -1.804864E+01 
3.101062E+02  9.806517E-01 -4.379175E+01  3.357866E-03 -5.130152E+01  2.811328E-04 2.949136E+01  1.223103E-03 9.625497E+01 
3.359707E-03 -5.121527E+01  9.864921E-01 -1.814343E+01  7.805761E-03 7.232862E+01  9.109204E-04 -1.615305E+02 
2.824801E-04 2.911035E+01  7.821852E-03 7.223112E+01  9.901072E-01 -1.850169E+01  2.496148E-02 7.165434E+01 
1.233415E-03 9.630875E+01  9.213680E-04 -1.620322E+02  2.496112E-02 7.169363E+01  9.922981E-01 -1.804424E+01 
3.101125E+02  9.804845E-01 -4.378166E+01  3.471803E-03 -5.611121E+01  2.802827E-04 2.737893E+01  1.242326E-03 9.523457E+01 
3.467092E-03 -5.610474E+01  9.864775E-01 -1.812702E+01  7.814223E-03 7.221720E+01  9.147573E-04 -1.615904E+02 
2.867607E-04 2.807289E+01  7.821721E-03 7.229546E+01  9.900004E-01 -1.850145E+01  2.495326E-02 7.163019E+01 
1.246066E-03 9.544372E+01  9.109950E-04 -1.619517E+02  2.495615E-02 7.166570E+01  9.923589E-01 -1.804946E+01 
3.101187E+02  9.806726E-01 -4.375811E+01  3.569961E-03 -6.069754E+01  2.836101E-04 2.508194E+01  1.258279E-03 9.440424E+01 
3.561252E-03 -6.057764E+01  9.864464E-01 -1.811027E+01  7.821913E-03 7.228959E+01  9.123120E-04 -1.622342E+02 
2.794353E-04 2.983205E+01  7.806955E-03 7.226312E+01  9.900563E-01 -1.850464E+01  2.494537E-02 7.165908E+01 
1.259101E-03 9.469361E+01  9.151650E-04 -1.623693E+02  2.495663E-02 7.168339E+01  9.922734E-01 -1.805700E+01 
3.101250E+02  9.804927E-01 -4.374528E+01  3.648748E-03 -6.582572E+01  2.870247E-04 2.571705E+01  1.278254E-03 9.357910E+01 
3.639334E-03 -6.556454E+01  9.865940E-01 -1.810065E+01  7.815491E-03 7.224681E+01  9.154886E-04 -1.625172E+02 
2.704961E-04 2.605480E+01  7.808770E-03 7.224272E+01  9.900496E-01 -1.851004E+01  2.494899E-02 7.162352E+01 
1.274570E-03 9.393069E+01  9.137146E-04 -1.614968E+02  2.496035E-02 7.165470E+01  9.922794E-01 -1.805296E+01 
3.101313E+02  9.807012E-01 -4.373218E+01  3.716748E-03 -7.034164E+01  2.798495E-04 2.419135E+01  1.310719E-03 9.324379E+01 
3.704790E-03 -7.043741E+01  9.867095E-01 -1.808196E+01  7.813175E-03 7.236342E+01  8.989574E-04 -1.623894E+02 
2.841744E-04 2.234762E+01  7.806378E-03 7.237369E+01  9.900525E-01 -1.851077E+01  2.495101E-02 7.165416E+01 
1.310650E-03 9.281766E+01  9.028010E-04 -1.621761E+02  2.496236E-02 7.166688E+01  9.923315E-01 -1.804864E+01 
3.101375E+02  9.807893E-01 -4.371804E+01  3.742434E-03 -7.529201E+01  2.725655E-04 2.114724E+01  1.303900E-03 9.191360E+01 
3.740207E-03 -7.507698E+01  9.867872E-01 -1.807396E+01  7.822676E-03 7.234595E+01  8.985233E-04 -1.614404E+02 
2.728939E-04 2.353964E+01  7.819173E-03 7.224283E+01  9.899909E-01 -1.851075E+01  2.494913E-02 7.162505E+01 
1.318014E-03 9.180017E+01  8.975033E-04 -1.621775E+02  2.495784E-02 7.169615E+01  9.925027E-01 -1.804358E+01 
3.101438E+02  9.808472E-01 -4.371432E+01  3.768395E-03 -7.965178E+01  2.786689E-04 2.174373E+01  1.345920E-03 9.091422E+01 
3.763295E-03 -7.976176E+01  9.868654E-01 -1.806657E+01  7.814936E-03 7.225079E+01  9.016830E-04 -1.618794E+02 
2.766288E-04 2.160406E+01  7.810247E-03 7.228801E+01  9.900009E-01 -1.850682E+01  2.494693E-02 7.164561E+01 
1.339794E-03 9.152237E+01  9.054574E-04 -1.624696E+02  2.498118E-02 7.166379E+01  9.924014E-01 -1.804121E+01 
3.101500E+02  9.811578E-01 -4.369754E+01  3.775698E-03 -8.432215E+01  2.752017E-04 2.121442E+01  1.352568E-03 9.027901E+01 
3.762184E-03 -8.421876E+01  9.871520E-01 -1.805650E+01  7.831533E-03 7.227397E+01  9.078876E-04 -1.618686E+02 
2.774693E-04 2.208714E+01  7.821562E-03 7.229262E+01  9.899259E-01 -1.851522E+01  2.495440E-02 7.162549E+01 
1.353055E-03 8.989651E+01  9.058926E-04 -1.615628E+02  2.495537E-02 7.167674E+01  9.923331E-01 -1.805335E+01 
3.101562E+02  9.812506E-01 -4.369125E+01  3.763957E-03 -8.868827E+01  2.656898E-04 1.966007E+01  1.359411E-03 8.927198E+01 
3.762698E-03 -8.862668E+01  9.873686E-01 -1.804738E+01  7.818034E-03 7.227068E+01  9.040022E-04 -1.622162E+02 
2.723452E-04 2.311530E+01  7.812687E-03 7.224919E+01  9.900153E-01 -1.851569E+01  2.493681E-02 7.163278E+01 
1.360727E-03 8.951301E+01  8.946877E-04 -1.616594E+02  2.495021E-02 7.169166E+01  9.923424E-01 -1.805338E+01 
3.101625E+02  9.813907E-01 -4.368867E+01  3.739313E-03 -9.275859E+01  2.718067E-04 1.945930E+01  1.369539E-03 8.859328E+01 
3.723435E-03 -9.273584E+01  9.875961E-01 -1.804979E+01  7.829589E-03 7.220334E+01  9.083625E-04 -1.618255E+02 
2.612357E-04 1.767195E+01  7.816159E-03 7.223504E+01  9.899655E-01 -1.851583E+01  2.494739E-02 7.161721E+01 
1.381901E-03 8.846734E+01  8.997345E-04 -1.619548E+02  2.494981E-02 7.171617E+01  9.923247E-01 -1.805239E+01 
3.101687E+02  9.815042E-01 -4.368419E+01  3.705258E-03 -9.656255E+01  2.672165E-04 1.731798E+01  1.377713E-03 8.723884E+01 
3.682014E-03 -9.675040E+01  9.877393E-01 -1.804886E+01  7.817503E-03 7.222430E+01  8.995148E-04 -1.619397E+02 
2.659400E-04 1.856343E+01  7.827624E-03 7.223860E+01  9.898665E-01 -1.852024E+01  2.494734E-02 7.163856E+01 
1.390231E-03 8.748730E+01  9.029003E-04 -1.622608E+02  2.494805E-02 7.164916E+01  9.924228E-01 -1.805122E+01 
3.101750E+02  9.817209E-01 -4.368268E+01  3.654219E-03 -1.005570E+02  2.675718E-04 2.007924E+01  1.388458E-03 8.583455E+01 
3.652271E-03 -1.005888E+02  9.879506E-01 -1.803762E+01  7.828744E-03 7.219485E+01  8.966861E-04 -1.608586E+02 
2.678710E-04 1.846047E+01  7.821191E-03 7.225410E+01  9.900895E-01 -1.852622E+01  2.494175E-02 7.162914E+01 
1.393692E-03 8.623431E+01  8.967390E-04 -1.620037E+02  2.495341E-02 7.166595E+01  9.922897E-01 -1.804189E+01 
3.101812E+02  9.818190E-01 -4.368386E+01  3.600470E-03 -1.043617E+02  2.648192E-04 1.876588E+01  1.397539E-03 8.523528E+01 
3.594576E-03 -1.042698E+02  9.881207E-01 -1.804481E+01  7.829149E-03 7.227469E+01  9.021126E-04 -1.618612E+02 
2.638734E-04 1.566024E+01  7.824128E-03 7.218788E+01  9.898836E-01 -1.852037E+01  2.495239E-02 7.163429E+01 
1.418175E-03 8.542309E+01  8.966850E-04 -1.618006E+02  2.495001E-02 7.170281E+01  9.923968E-01 -1.804780E+01 
3.101875E+02  9.820541E-01 -4.368839E+01  3.545102E-03 -1.079215E+02  2.552131E-04 1.491193E+01  1.396571E-03 8.453145E+01 
3.542480E-03 -1.075974E+02  9.882767E-01 -1.804357E+01  7.825986E-03 7.227915E+01  9.041022E-04 -1.612476E+02 
2.686288E-04 1.638753E+01  7.813937E-03 7.229640E+01  9.899384E-01 -1.852063E+01  2.495639E-02 7.162612E+01 
1.405104E-03 8.455735E+01  8.977279E-04 -1.618536E+02  2.495810E-02 7.165715E+01  9.923276E-01 -1.805098E+01 
3.101938E+02  9.822491E-01 -4.368801E+01  3.485182E-03 -1.113766E+02  2.671035E-04 1.443903E+01  1.412380E-03 8.351330E+01 
3.486236E-03 -1.110277E+02  9.883537E-01 -1.804544E+01  7.818384E-03 7.224729E+01  9.122084E-04 -1.618704E+02 
2.702353E-04 1.410448E+01  7.819024E-03 7.229820E+01  9.899545E-01 -1.852204E+01  2.494361E-02 7.163606E+01 
1.408468E-03 8.340910E+01  9.006598E-04 -1.614440E+02  2.494722E-02 7.166084E+01  9.924659E-01 -1.805538E+01 
3.102000E+02  9.823168E-01 -4.369073E+01  3.416084E-03 -1.142196E+02  2.711140E-04 1.400043E+01  1.405070E-03 8.285151E+01 
3.419467E-03 -1.144493E+02  9.884028E-01 -1.804305E+01  7.816278E-03 7.210942E+01  8.967165E-04 -1.616012E+02 
2.658825E-04 1.323596E+01  7.815035E-03 7.223809E+01  9.898841E-01 -1.852551E+01  2.494897E-02 7.161470E+01 
1.425620E-03 8.297046E+01  9.031948E-04 -1.617217E+02  2.494489E-02 7.167513E+01  9.923284E-01 -1.805211E+01 
3.102063E+02  9.824228E-01 -4.369071E+01  3.356821E-03 -1.175634E+02  2.660814E-04 1.284696E+01  1.419432E-03 8.199695E+01 
3.349537E-03 -1.174796E+02  9.885941E-01 -1.804866E+01  7.819857E-03 7.224144E+01  8.951145E-04 -1.616081E+02 
2.572277E-04 1.189443E+01  7.822577E-03 7.219126E+01  9.899886E-01 -1.852143E+01  2.494532E-02 7.164717E+01 
1.409957E-03 8.205169E+01  9.009759E-04 -1.612881E+02  2.495719E-02 7.168820E+01  9.923874E-01 -1.805023E+01 
3.102125E+02  9.825878E-01 -4.369493E+01  3.289174E-03 -1.205984E+02  2.560882E-04 1.178638E+01  1.427214E-03 8.123168E+01 
3.279992E-03 -1.204587E+02  9.887173E-01 -1.804850E+01  7.826082E-03 7.221883E+01  8.929711E-04 -1.615304E+02 
2.728740E-04 1.196190E+01  7.815453E-03 7.223759E+01  9.898927E-01 -1.852937E+01  2.494463E-02 7.162960E+01 
1.415313E-03 8.115051E+01  8.951991E-04 -1.623166E+02  2.494133E-02 7.166771E+01  9.923905E-01 -1.805178E+01 
3.102188E+02  9.825271E-01 -4.369513E+01  3.227147E-03 -1.235767E+02  2.638246E-04 1.143651E+01  1.423341E-03 8.015172E+01 
3.208705E-03 -1.235210E+02  9.887444E-01 -1.805333E+01  7.826753E-03 7.216868E+01  8.939027E-04 -1.617249E+02 
2.633617E-04 1.049672E+01  7.821590E-03 7.221205E+01  9.898687E-01 -1.852675E+01  2.494150E-02 7.165921E+01 
1.430302E-03 7.996940E+01  9.064019E-04 -1.613323E+02  2.495417E-02 7.168895E+01  9.924933E-01 -1.805769E+01 
3.102250E+02  9.826323E-01 -4.370724E+01  3.151257E-03 -1.264131E+02  2.530149E-04 1.179973E+01  1.416743E-03 7.966641E+01 
3.152637E-03 -1.263945E+02  9.888189E-01 -1.806004E+01  7.828857E-03 7.227287E+01  9.070599E-04 -1.622125E+02 
2.494095E-04 1.014053E+01  7.818499E-03 7.222309E+01  9.899152E-01 -1.852781E+01  2.493684E-02 7.165389E+01 
1.439347E-03 8.016491E+01  8.910682E-04 -1.615512E+02  2.495138E-02 7.167461E+01  9.924456E-01 -1.805239E+01 
3.102312E+02  9.826595E-01 -4.371146E+01  3.087965E-03 -1.292327E+02  2.599168E-04 6.925503E+00  1.436131E-03 7.919496E+01 
3.083094E-03 -1.293429E+02  9.888131E-01 -1.806564E+01  7.826232E-03 7.220212E+01  9.096939E-04 -1.619625E+02 
2.653583E-04 8.202383E+00  7.830170E-03 7.221351E+01  9.899712E-01 -1.853297E+01  2.493784E-02 7.164539E+01 
1.438421E-03 7.891184E+01  9.043169E-04 -1.614063E+02  2.493897E-02 7.166797E+01  9.924362E-01 -1.806201E+01 
3.102375E+02  9.827042E-01 -4.370983E+01  3.008171E-03 -1.318224E+02  2.599046E-04 6.728246E+00  1.437251E-03 7.847780E+01 
3.014850E-03 -1.319804E+02  9.888730E-01 -1.806610E+01  7.823663E-03 7.219082E+01  8.992976E-04 -1.618723E+02 
2.527464E-04 8.178665E+00  7.828024E-03 7.216406E+01  9.898067E-01 -1.853163E+01  2.494015E-02 7.165068E+01 
1.434871E-03 7.841674E+01  8.887527E-04 -1.617089E+02  2.495597E-02 7.168439E+01  9.924655E-01 -1.805498E+01 
3.102437E+02  9.827030E-01 -4.371752E+01  2.958586E-03 -1.346179E+02  2.623945E-04 8.397164E+00  1.425331E-03 7.766113E+01 
2.938907E-03 -1.348606E+02  9.889898E-01 -1.806336E+01  7.837436E-03 7.225849E+01  8.989432E-04 -1.614167E+02 
2.702935E-04 8.175364E+00  7.828425E-03 7.215977E+01  9.898117E-01 -1.853541E+01  2.494644E-02 7.165737E+01 
1.433573E-03 7.807635E+01  8.996851E-04 -1.613265E+02  2.495243E-02 7.168925E+01  9.924082E-01 -1.805769E+01 
3.102500E+02  9.826641E-01 -4.371965E+01  2.875352E-03 -1.374343E+02  2.610085E-04 6.118015E+00  1.425436E-03 7.725268E+01 
2.856273E-03 -1.374098E+02  9.891175E-01 -1.806546E+01  7.831085E-03 7.214722E+01  8.984725E-04 -1.610711E+02 
2.668403E-04 5.776322E+00  7.827401E-03 7.220838E+01  9.897901E-01 -1.853207E+01  2.494362E-02 7.162628E+01 
1.427648E-03 7.731425E+01  8.986954E-04 -1.615589E+02  2.494948E-02 7.167782E+01  9.925287E-01 -1.806115E+01 
3.102563E+02  9.827435E-01 -4.372390E+01  2.804926E-03 -1.398113E+02  2.712276E-04 2.371999E+00  1.430661E-03 7.636384E+01 
2.783867E-03 -1.402368E+02  9.890253E-01 -1.807005E+01  7.826270E-03 7.225135E+01  9.000892E-04 -1.611432E+02 
2.733417E-04 3.582551E+00  7.815276E-03 7.221741E+01  9.898510E-01 -1.853581E+01  2.493955E-02 7.163449E+01 
1.440612E-03 7.637617E+01  8.968506E-04 -1.611944E+02  2.494418E-02 7.167281E+01  9.924622E-01 -1.806379E+01 
3.102625E+02  9.827608E-01 -4.371668E+01  2.715227E-03 -1.426255E+02  2.692674E-04 2.605279E+00  1.441169E-03 7.606717E+01 
2.718226E-03 -1.426034E+02  9.890472E-01 -1.806313E+01  7.824914E-03 7.216165E+01  8.986939E-04 -1.614227E+02 
2.729121E-04 1.528763E+00  7.816412E-03 7.218234E+01  9.898005E-01 -1.853671E+01  2.494802E-02 7.165770E+01 
