! Matrix data file written by TouchstoneData, EPCOS AG
! FILENAME: "LZ80C_6_MB.s3p"
! COMMENT: "(LZ80C_6_MB.s3p) EPCOS AG 22.05.2012 11:06:0"
! INFO: nport=3, nfreq=1601
! DATE: "Wed May 23 15:30:18 2012"
! USER: "Wilfried Schott"
!
! port | pin | signal
! -----|-----|--------
!   1  |  1  |  IN
!   2  |  5  |  OUT_CH1
!   3  |  7  |  OUT_CH2
! --------------------
! 
# MHZ S MA R 50
! freq  magS11 angS11  magS12 angS12  magS13 angS13  ...
4.089200E+02  9.872128E-01 -2.984829E+01  9.876164E-05 8.877097E+01  1.069605E-04 8.365456E+01 
9.184383E-05 9.256720E+01  9.901515E-01 -1.751488E+01  2.590872E-03 7.300798E+01 
1.017837E-04 8.274268E+01  2.602388E-03 6.982015E+01  9.891960E-01 -1.843474E+01 
4.089513E+02  9.873771E-01 -2.986527E+01  1.111035E-04 8.818918E+01  1.119229E-04 8.202083E+01 
9.804314E-05 8.431706E+01  9.902882E-01 -1.752160E+01  2.593551E-03 7.279824E+01 
1.118873E-04 7.237891E+01  2.607312E-03 6.980231E+01  9.891866E-01 -1.844863E+01 
4.089825E+02  9.874443E-01 -2.987989E+01  1.040352E-04 8.945525E+01  1.032440E-04 8.262733E+01 
9.962663E-05 9.301280E+01  9.903252E-01 -1.752231E+01  2.586515E-03 7.291922E+01 
1.073120E-04 7.461895E+01  2.592524E-03 6.966305E+01  9.892284E-01 -1.845721E+01 
4.090138E+02  9.875276E-01 -2.989140E+01  1.082699E-04 8.538349E+01  1.082444E-04 7.969728E+01 
1.085678E-04 8.187703E+01  9.904006E-01 -1.753267E+01  2.607845E-03 7.291558E+01 
1.017497E-04 6.982597E+01  2.603188E-03 6.953837E+01  9.892923E-01 -1.847174E+01 
4.090450E+02  9.874564E-01 -2.990469E+01  1.067933E-04 9.012031E+01  1.102163E-04 7.986283E+01 
1.128318E-04 9.131258E+01  9.904955E-01 -1.754177E+01  2.601135E-03 7.281572E+01 
1.108800E-04 8.048239E+01  2.596921E-03 6.932878E+01  9.893457E-01 -1.847674E+01 
4.090763E+02  9.876621E-01 -2.991415E+01  1.058983E-04 9.088755E+01  1.110364E-04 7.246977E+01 
9.132434E-05 8.610727E+01  9.904705E-01 -1.753757E+01  2.598610E-03 7.300786E+01 
1.061301E-04 7.574273E+01  2.600327E-03 6.919607E+01  9.894604E-01 -1.849057E+01 
4.091075E+02  9.876350E-01 -2.993687E+01  1.167451E-04 8.696033E+01  9.853581E-05 7.627968E+01 
1.209997E-04 8.532784E+01  9.905804E-01 -1.754580E+01  2.598266E-03 7.336344E+01 
9.976536E-05 6.627928E+01  2.602217E-03 6.934030E+01  9.895086E-01 -1.850352E+01 
4.091388E+02  9.877314E-01 -2.994287E+01  1.242027E-04 8.650493E+01  9.720229E-05 6.849076E+01 
1.054370E-04 7.680474E+01  9.907059E-01 -1.755546E+01  2.595300E-03 7.316915E+01 
9.775882E-05 6.690698E+01  2.600075E-03 6.916311E+01  9.895879E-01 -1.851164E+01 
4.091700E+02  9.877927E-01 -2.995309E+01  1.132425E-04 8.482673E+01  8.994325E-05 7.662941E+01 
1.267775E-04 8.816057E+01  9.906652E-01 -1.756109E+01  2.607950E-03 7.336213E+01 
9.617651E-05 5.998099E+01  2.600038E-03 6.934909E+01  9.895647E-01 -1.853096E+01 
4.092013E+02  9.877675E-01 -2.996575E+01  1.302174E-04 8.508974E+01  8.562783E-05 6.670277E+01 
1.366435E-04 8.601026E+01  9.907470E-01 -1.756933E+01  2.605011E-03 7.344672E+01 
9.056854E-05 7.158737E+01  2.592421E-03 6.907408E+01  9.896013E-01 -1.853277E+01 
4.092325E+02  9.879195E-01 -2.998389E+01  1.305948E-04 8.627944E+01  8.536391E-05 7.320448E+01 
1.112268E-04 8.460479E+01  9.908375E-01 -1.757762E+01  2.599279E-03 7.329805E+01 
9.471115E-05 7.228519E+01  2.606658E-03 6.912826E+01  9.896729E-01 -1.854974E+01 
4.092638E+02  9.879159E-01 -2.999088E+01  1.328315E-04 8.683243E+01  8.630053E-05 6.700621E+01 
1.199176E-04 8.578777E+01  9.908366E-01 -1.757970E+01  2.599839E-03 7.340895E+01 
9.633271E-05 6.417897E+01  2.598544E-03 6.887296E+01  9.897830E-01 -1.856016E+01 
4.092950E+02  9.881231E-01 -3.000577E+01  1.289054E-04 8.354866E+01  8.075641E-05 6.435290E+01 
1.322047E-04 8.024098E+01  9.909455E-01 -1.757695E+01  2.604850E-03 7.340873E+01 
8.004194E-05 6.272976E+01  2.606998E-03 6.877881E+01  9.898371E-01 -1.856730E+01 
4.093263E+02  9.881627E-01 -3.001805E+01  1.219972E-04 8.110347E+01  7.670254E-05 6.013938E+01 
1.423368E-04 8.277508E+01  9.908987E-01 -1.758660E+01  2.596065E-03 7.371318E+01 
8.750468E-05 5.604969E+01  2.600192E-03 6.873538E+01  9.897603E-01 -1.857807E+01 
4.093575E+02  9.880684E-01 -3.002917E+01  1.379351E-04 7.862793E+01  6.615317E-05 5.997568E+01 
1.327740E-04 7.963242E+01  9.910066E-01 -1.759473E+01  2.598453E-03 7.386370E+01 
6.966133E-05 6.096757E+01  2.592649E-03 6.872327E+01  9.898831E-01 -1.858769E+01 
4.093888E+02  9.881816E-01 -3.003589E+01  1.310422E-04 7.813892E+01  6.836342E-05 5.886936E+01 
1.371090E-04 7.981066E+01  9.910999E-01 -1.760101E+01  2.602147E-03 7.392242E+01 
6.222187E-05 4.469084E+01  2.601577E-03 6.848522E+01  9.899576E-01 -1.859965E+01 
4.094200E+02  9.882279E-01 -3.004645E+01  1.390191E-04 7.574408E+01  4.847997E-05 5.805304E+01 
1.458026E-04 7.725609E+01  9.912013E-01 -1.761032E+01  2.608558E-03 7.371981E+01 
6.477441E-05 5.334512E+01  2.598756E-03 6.855113E+01  9.899654E-01 -1.861300E+01 
4.094513E+02  9.883275E-01 -3.006703E+01  1.345470E-04 8.088573E+01  6.020340E-05 6.385824E+01 
1.468722E-04 7.463283E+01  9.911813E-01 -1.761634E+01  2.608557E-03 7.398979E+01 
5.900521E-05 5.174219E+01  2.596837E-03 6.854756E+01  9.899858E-01 -1.861992E+01 
4.094825E+02  9.883945E-01 -3.007534E+01  1.370568E-04 7.172898E+01  4.757104E-05 4.908581E+01 
1.442693E-04 7.339146E+01  9.911888E-01 -1.761605E+01  2.607512E-03 7.387879E+01 
4.051929E-05 4.693195E+01  2.608802E-03 6.820772E+01  9.901245E-01 -1.863878E+01 
4.095138E+02  9.884614E-01 -3.008207E+01  1.389215E-04 7.448702E+01  4.756750E-05 6.191254E+01 
1.290326E-04 6.783959E+01  9.912006E-01 -1.761953E+01  2.611594E-03 7.396789E+01 
3.841415E-05 4.352203E+01  2.603374E-03 6.830811E+01  9.901956E-01 -1.864396E+01 
4.095450E+02  9.885200E-01 -3.009533E+01  1.333824E-04 6.936507E+01  3.165953E-05 7.540041E+01 
1.396489E-04 7.111185E+01  9.912511E-01 -1.763530E+01  2.606911E-03 7.416798E+01 
4.998120E-05 5.503180E+01  2.617061E-03 6.811324E+01  9.902481E-01 -1.865684E+01 
4.095763E+02  9.886302E-01 -3.010841E+01  1.316431E-04 7.216418E+01  2.986486E-05 7.626924E+01 
1.445461E-04 7.070962E+01  9.914327E-01 -1.763968E+01  2.610322E-03 7.427975E+01 
3.435589E-05 2.837782E+01  2.608276E-03 6.838870E+01  9.902098E-01 -1.866274E+01 
4.096075E+02  9.886990E-01 -3.011755E+01  1.303118E-04 6.800201E+01  3.972264E-05 7.343767E+01 
1.340004E-04 6.533815E+01  9.915636E-01 -1.763836E+01  2.611555E-03 7.429270E+01 
3.087700E-05 7.609280E+01  2.603113E-03 6.793999E+01  9.903572E-01 -1.867601E+01 
4.096388E+02  9.887464E-01 -3.013684E+01  1.337474E-04 6.945483E+01  3.084845E-05 8.301354E+01 
1.295992E-04 7.120111E+01  9.914728E-01 -1.764559E+01  2.605073E-03 7.410594E+01 
1.751650E-05 4.461743E+01  2.609657E-03 6.769342E+01  9.904637E-01 -1.869022E+01 
4.096700E+02  9.888100E-01 -3.015084E+01  1.411685E-04 6.321211E+01  2.507865E-05 7.665953E+01 
1.411046E-04 6.512892E+01  9.915316E-01 -1.765687E+01  2.604763E-03 7.418853E+01 
3.986368E-05 6.026039E+01  2.613922E-03 6.775583E+01  9.905224E-01 -1.869806E+01 
4.097013E+02  9.888086E-01 -3.015962E+01  1.438016E-04 6.505798E+01  2.996058E-05 9.188274E+01 
1.286271E-04 6.418526E+01  9.917498E-01 -1.766243E+01  2.612765E-03 7.421461E+01 
2.490656E-05 1.112160E+02  2.616924E-03 6.773652E+01  9.905521E-01 -1.871010E+01 
4.097325E+02  9.888640E-01 -3.017180E+01  1.375245E-04 6.387017E+01  3.363558E-05 9.787623E+01 
1.321433E-04 6.680666E+01  9.916889E-01 -1.766796E+01  2.611007E-03 7.443259E+01 
2.650463E-05 1.119977E+02  2.612081E-03 6.749094E+01  9.904972E-01 -1.871919E+01 
4.097638E+02  9.890670E-01 -3.018354E+01  1.340516E-04 6.500011E+01  3.172408E-05 1.055904E+02 
1.293756E-04 6.468677E+01  9.917766E-01 -1.767440E+01  2.618988E-03 7.409161E+01 
3.645502E-05 8.791995E+01  2.616908E-03 6.746413E+01  9.905876E-01 -1.872604E+01 
4.097950E+02  9.891530E-01 -3.020037E+01  1.257586E-04 6.004294E+01  2.613989E-05 1.107102E+02 
1.272565E-04 6.546073E+01  9.917041E-01 -1.768239E+01  2.613929E-03 7.441467E+01 
4.093849E-05 1.049280E+02  2.606516E-03 6.738786E+01  9.907077E-01 -1.874131E+01 
4.098263E+02  9.891010E-01 -3.020853E+01  1.187312E-04 6.038482E+01  3.371313E-05 1.123604E+02 
1.243926E-04 6.935891E+01  9.918197E-01 -1.768447E+01  2.614914E-03 7.450870E+01 
3.466190E-05 1.037199E+02  2.606979E-03 6.715839E+01  9.906426E-01 -1.875229E+01 
4.098575E+02  9.891434E-01 -3.021799E+01  1.134581E-04 5.951291E+01  3.905062E-05 1.234483E+02 
1.266010E-04 6.014635E+01  9.918384E-01 -1.769642E+01  2.615597E-03 7.449726E+01 
2.630099E-05 9.205412E+01  2.604713E-03 6.725339E+01  9.908061E-01 -1.876819E+01 
4.098888E+02  9.893216E-01 -3.023320E+01  1.204928E-04 6.416242E+01  3.518285E-05 1.087784E+02 
1.284742E-04 5.624957E+01  9.919372E-01 -1.769417E+01  2.609379E-03 7.458423E+01 
3.815475E-05 1.190647E+02  2.617798E-03 6.697057E+01  9.908185E-01 -1.876931E+01 
4.099200E+02  9.893473E-01 -3.024697E+01  1.071234E-04 5.707666E+01  4.742826E-05 1.133323E+02 
1.200570E-04 5.902772E+01  9.920158E-01 -1.770241E+01  2.607545E-03 7.460674E+01 
3.538264E-05 1.228362E+02  2.608021E-03 6.706839E+01  9.908357E-01 -1.879028E+01 
4.099513E+02  9.894306E-01 -3.026011E+01  1.159427E-04 6.109511E+01  3.917278E-05 1.323937E+02 
1.201991E-04 5.887539E+01  9.919642E-01 -1.771410E+01  2.608791E-03 7.470914E+01 
4.216861E-05 1.056360E+02  2.609275E-03 6.713152E+01  9.909443E-01 -1.879500E+01 
4.099825E+02  9.894744E-01 -3.028020E+01  1.102071E-04 5.533857E+01  4.023117E-05 1.236894E+02 
1.086227E-04 5.999195E+01  9.921339E-01 -1.772020E+01  2.611393E-03 7.490207E+01 
3.712188E-05 1.080317E+02  2.618494E-03 6.695693E+01  9.908892E-01 -1.880674E+01 
4.100138E+02  9.815945E-01 -2.888873E+01  1.105159E-04 6.433681E+01  4.588690E-05 1.189269E+02 
1.131932E-04 5.907003E+01  9.839850E-01 -1.703126E+01  2.579829E-03 6.653567E+01 
4.686738E-05 1.005458E+02  2.586926E-03 7.699319E+01  9.838628E-01 -1.752108E+01 
4.100450E+02  9.817735E-01 -2.890032E+01  1.017627E-04 6.259392E+01  5.009771E-05 1.093913E+02 
1.041272E-04 6.461300E+01  9.840930E-01 -1.703566E+01  2.592871E-03 6.641611E+01 
4.210686E-05 1.236563E+02  2.577210E-03 7.706251E+01  9.838849E-01 -1.753243E+01 
4.100763E+02  9.818257E-01 -2.891320E+01  9.834093E-05 6.231599E+01  4.233758E-05 1.155403E+02 
9.725880E-05 5.792943E+01  9.840866E-01 -1.704375E+01  2.575934E-03 6.658820E+01 
4.227460E-05 1.219565E+02  2.574984E-03 7.701373E+01  9.840786E-01 -1.754789E+01 
4.101075E+02  9.819567E-01 -2.892941E+01  8.796965E-05 6.465958E+01  3.978834E-05 1.093241E+02 
1.105078E-04 6.477927E+01  9.841337E-01 -1.704780E+01  2.591070E-03 6.651053E+01 
4.561880E-05 1.195265E+02  2.582864E-03 7.701483E+01  9.840972E-01 -1.755610E+01 
4.101388E+02  9.820558E-01 -2.894293E+01  9.269086E-05 6.586315E+01  4.546686E-05 1.096727E+02 
9.304566E-05 5.728977E+01  9.842264E-01 -1.706089E+01  2.590842E-03 6.673289E+01 
3.167848E-05 1.210572E+02  2.581319E-03 7.682454E+01  9.840791E-01 -1.756731E+01 
4.101700E+02  9.819641E-01 -2.895903E+01  1.014136E-04 6.428673E+01  5.838077E-05 1.042338E+02 
9.913190E-05 6.705380E+01  9.842111E-01 -1.706505E+01  2.590566E-03 6.669250E+01 
4.297185E-05 1.200483E+02  2.581131E-03 7.651371E+01  9.841760E-01 -1.758174E+01 
4.102013E+02  9.821825E-01 -2.896911E+01  9.452890E-05 6.314349E+01  3.889288E-05 1.259692E+02 
1.038656E-04 6.199243E+01  9.844680E-01 -1.708016E+01  2.595762E-03 6.679640E+01 
4.565792E-05 1.339496E+02  2.589877E-03 7.664487E+01  9.842174E-01 -1.759350E+01 
4.102325E+02  9.821537E-01 -2.898959E+01  1.002029E-04 6.897136E+01  5.087937E-05 1.253449E+02 
1.095811E-04 6.371250E+01  9.844476E-01 -1.708738E+01  2.596328E-03 6.682040E+01 
4.659794E-05 1.186533E+02  2.586761E-03 7.654137E+01  9.842772E-01 -1.760604E+01 
4.102638E+02  9.823404E-01 -2.899643E+01  9.981224E-05 6.367603E+01  5.382619E-05 1.203414E+02 
1.037668E-04 6.264361E+01  9.845740E-01 -1.710010E+01  2.582136E-03 6.687307E+01 
4.607534E-05 1.187959E+02  2.594226E-03 7.654433E+01  9.844065E-01 -1.762198E+01 
4.102950E+02  9.822808E-01 -2.901116E+01  9.891359E-05 6.353389E+01  5.167393E-05 1.166062E+02 
8.762478E-05 6.343705E+01  9.845978E-01 -1.710051E+01  2.593268E-03 6.678550E+01 
5.129946E-05 1.267133E+02  2.588024E-03 7.651227E+01  9.843733E-01 -1.763279E+01 
4.103263E+02  9.822819E-01 -2.903564E+01  8.926250E-05 6.558319E+01  4.756430E-05 1.232713E+02 
1.070898E-04 7.056445E+01  9.846757E-01 -1.710987E+01  2.584577E-03 6.726682E+01 
5.669334E-05 1.302943E+02  2.599388E-03 7.670914E+01  9.845608E-01 -1.764345E+01 
4.103575E+02  9.822933E-01 -2.904403E+01  9.869340E-05 7.243643E+01  5.051179E-05 1.202219E+02 
8.964365E-05 6.551671E+01  9.847631E-01 -1.712269E+01  2.595902E-03 6.726093E+01 
5.268355E-05 1.351598E+02  2.579015E-03 7.631985E+01  9.845918E-01 -1.765904E+01 
4.103888E+02  9.824210E-01 -2.906178E+01  1.008455E-04 6.598083E+01  4.901764E-05 1.110284E+02 
1.065287E-04 6.654321E+01  9.847886E-01 -1.712873E+01  2.596721E-03 6.733418E+01 
4.526479E-05 1.330034E+02  2.579710E-03 7.610203E+01  9.846334E-01 -1.767501E+01 
4.104200E+02  9.825743E-01 -2.907405E+01  9.336836E-05 6.823844E+01  3.968417E-05 1.091606E+02 
9.794887E-05 6.630553E+01  9.850524E-01 -1.713870E+01  2.591326E-03 6.732019E+01 
4.860798E-05 1.263841E+02  2.579115E-03 7.622447E+01  9.846642E-01 -1.769068E+01 
4.104513E+02  9.825283E-01 -2.908919E+01  1.003299E-04 6.990921E+01  4.508179E-05 1.144025E+02 
9.009475E-05 7.479256E+01  9.849282E-01 -1.714722E+01  2.595000E-03 6.745155E+01 
5.006966E-05 1.371010E+02  2.584831E-03 7.594513E+01  9.848764E-01 -1.770435E+01 
4.104825E+02  9.826289E-01 -2.911292E+01  1.049873E-04 6.846221E+01  5.072944E-05 1.230473E+02 
1.065148E-04 6.774736E+01  9.849746E-01 -1.715452E+01  2.595901E-03 6.753307E+01 
5.381167E-05 1.328833E+02  2.597636E-03 7.611343E+01  9.848651E-01 -1.770827E+01 
4.105138E+02  9.827576E-01 -2.912044E+01  1.014209E-04 6.831657E+01  5.194543E-05 1.376242E+02 
9.365990E-05 6.656686E+01  9.850543E-01 -1.715858E+01  2.600339E-03 6.756310E+01 
5.060877E-05 1.291803E+02  2.594602E-03 7.563796E+01  9.848533E-01 -1.772249E+01 
4.105450E+02  9.827356E-01 -2.912868E+01  9.769745E-05 6.256068E+01  4.921948E-05 1.290323E+02 
1.035776E-04 6.608687E+01  9.851553E-01 -1.716938E+01  2.588027E-03 6.751820E+01 
4.358204E-05 1.277370E+02  2.595527E-03 7.595503E+01  9.848722E-01 -1.773704E+01 
4.105763E+02  9.830163E-01 -2.914656E+01  9.484035E-05 6.829913E+01  4.842840E-05 1.243057E+02 
1.033899E-04 7.574083E+01  9.851817E-01 -1.718157E+01  2.595503E-03 6.771033E+01 
5.484709E-05 1.265441E+02  2.591022E-03 7.573216E+01  9.850604E-01 -1.775533E+01 
4.106075E+02  9.830749E-01 -2.916516E+01  1.064362E-04 7.407599E+01  5.304926E-05 1.368735E+02 
1.008223E-04 6.533478E+01  9.852712E-01 -1.719695E+01  2.603117E-03 6.766797E+01 
4.733351E-05 1.267080E+02  2.599606E-03 7.572611E+01  9.850218E-01 -1.776758E+01 
4.106388E+02  9.829998E-01 -2.918216E+01  1.028672E-04 7.046404E+01  4.736705E-05 1.421616E+02 
1.157618E-04 6.961773E+01  9.853411E-01 -1.719352E+01  2.599300E-03 6.772225E+01 
5.526125E-05 1.373148E+02  2.599826E-03 7.551984E+01  9.852126E-01 -1.777716E+01 
4.106700E+02  9.830679E-01 -2.919455E+01  9.931552E-05 6.419529E+01  5.132945E-05 1.349517E+02 
1.004773E-04 6.895670E+01  9.853469E-01 -1.720459E+01  2.599401E-03 6.803935E+01 
5.714705E-05 1.293297E+02  2.585628E-03 7.544123E+01  9.853005E-01 -1.778957E+01 
4.107013E+02  9.831357E-01 -2.920706E+01  1.087260E-04 6.936693E+01  4.630888E-05 1.213375E+02 
9.390461E-05 6.518496E+01  9.855245E-01 -1.721121E+01  2.600647E-03 6.782547E+01 
5.572686E-05 1.328054E+02  2.597283E-03 7.532282E+01  9.853417E-01 -1.780274E+01 
4.107325E+02  9.832422E-01 -2.922351E+01  1.005213E-04 7.322958E+01  4.962011E-05 1.308765E+02 
1.152361E-04 6.375919E+01  9.855865E-01 -1.722005E+01  2.598167E-03 6.799466E+01 
6.799391E-05 1.288748E+02  2.594930E-03 7.526071E+01  9.854163E-01 -1.781807E+01 
4.107638E+02  9.833435E-01 -2.923663E+01  1.029551E-04 7.429986E+01  4.876131E-05 1.347981E+02 
1.078831E-04 6.969006E+01  9.857356E-01 -1.723107E+01  2.596348E-03 6.808146E+01 
5.785991E-05 1.523919E+02  2.594796E-03 7.523871E+01  9.854204E-01 -1.782995E+01 
4.107950E+02  9.835855E-01 -2.925202E+01  9.948981E-05 7.071924E+01  5.086619E-05 1.437031E+02 
1.121993E-04 6.959945E+01  9.856587E-01 -1.723815E+01  2.595677E-03 6.793137E+01 
6.647327E-05 1.349639E+02  2.590491E-03 7.507349E+01  9.854486E-01 -1.784469E+01 
4.108263E+02  9.834190E-01 -2.926557E+01  1.010097E-04 6.984352E+01  6.876776E-05 1.295033E+02 
1.029056E-04 6.887397E+01  9.857168E-01 -1.724622E+01  2.602360E-03 6.816115E+01 
5.476626E-05 1.471424E+02  2.595803E-03 7.499711E+01  9.855720E-01 -1.785294E+01 
4.108575E+02  9.835511E-01 -2.928792E+01  1.083345E-04 6.659695E+01  7.033801E-05 1.303548E+02 
1.057178E-04 7.225993E+01  9.858710E-01 -1.725603E+01  2.594322E-03 6.814436E+01 
5.465006E-05 1.415548E+02  2.592238E-03 7.476395E+01  9.855737E-01 -1.786439E+01 
4.108888E+02  9.836519E-01 -2.930414E+01  1.124628E-04 6.995405E+01  7.335181E-05 1.267024E+02 
1.087113E-04 7.488755E+01  9.859573E-01 -1.726158E+01  2.593125E-03 6.853335E+01 
6.198626E-05 1.309191E+02  2.594740E-03 7.504788E+01  9.857797E-01 -1.787762E+01 
4.109200E+02  9.837354E-01 -2.930726E+01  9.079273E-05 7.287046E+01  7.276518E-05 1.379017E+02 
1.107355E-04 7.249323E+01  9.859976E-01 -1.727541E+01  2.604001E-03 6.852614E+01 
7.073261E-05 1.471088E+02  2.606498E-03 7.500975E+01  9.857140E-01 -1.789030E+01 
4.109513E+02  9.837169E-01 -2.932407E+01  1.045267E-04 6.829915E+01  5.793009E-05 1.302072E+02 
1.084566E-04 7.157576E+01  9.860394E-01 -1.727942E+01  2.599663E-03 6.852239E+01 
6.580696E-05 1.393415E+02  2.597766E-03 7.484500E+01  9.857653E-01 -1.790606E+01 
4.109825E+02  9.838432E-01 -2.934242E+01  1.107869E-04 6.852004E+01  6.639225E-05 1.311566E+02 
1.145824E-04 7.114591E+01  9.861765E-01 -1.728920E+01  2.602314E-03 6.882560E+01 
6.991154E-05 1.383208E+02  2.602474E-03 7.469525E+01  9.858556E-01 -1.792025E+01 
4.110138E+02  9.838496E-01 -2.935532E+01  1.119012E-04 6.503664E+01  7.050054E-05 1.198001E+02 
1.112533E-04 6.802413E+01  9.861694E-01 -1.729408E+01  2.597746E-03 6.855046E+01 
7.629906E-05 1.315677E+02  2.604445E-03 7.447783E+01  9.859651E-01 -1.793233E+01 
4.110450E+02  9.838772E-01 -2.936920E+01  1.105170E-04 6.864491E+01  6.646617E-05 1.276874E+02 
1.066232E-04 6.961239E+01  9.863476E-01 -1.730494E+01  2.607031E-03 6.858981E+01 
6.130301E-05 1.390207E+02  2.592809E-03 7.448219E+01  9.860928E-01 -1.795062E+01 
4.110763E+02  9.840440E-01 -2.938621E+01  1.060514E-04 6.691330E+01  7.469611E-05 1.249129E+02 
1.241902E-04 6.561399E+01  9.864338E-01 -1.731829E+01  2.599565E-03 6.864274E+01 
6.787067E-05 1.408354E+02  2.610161E-03 7.452782E+01  9.861030E-01 -1.795980E+01 
4.111075E+02  9.841454E-01 -2.940165E+01  1.135543E-04 6.792969E+01  7.608597E-05 1.310735E+02 
1.052455E-04 7.065131E+01  9.864112E-01 -1.732563E+01  2.600515E-03 6.876199E+01 
7.475354E-05 1.400743E+02  2.606392E-03 7.424483E+01  9.861000E-01 -1.797573E+01 
4.111388E+02  9.841921E-01 -2.941771E+01  1.162349E-04 7.083054E+01  8.329131E-05 1.252973E+02 
1.136260E-04 7.406538E+01  9.864530E-01 -1.732782E+01  2.604996E-03 6.891032E+01 
8.237893E-05 1.363186E+02  2.601040E-03 7.396234E+01  9.861591E-01 -1.798647E+01 
4.111700E+02  9.842621E-01 -2.942498E+01  1.101441E-04 7.409691E+01  7.434802E-05 1.228484E+02 
1.082446E-04 6.680146E+01  9.867062E-01 -1.734210E+01  2.599938E-03 6.885836E+01 
7.028679E-05 1.312183E+02  2.604064E-03 7.409458E+01  9.861874E-01 -1.800118E+01 
4.112013E+02  9.843695E-01 -2.944132E+01  1.038993E-04 6.968004E+01  7.228747E-05 1.212700E+02 
1.086855E-04 6.940827E+01  9.866297E-01 -1.735194E+01  2.600890E-03 6.891876E+01 
6.965006E-05 1.277095E+02  2.606707E-03 7.415453E+01  9.862409E-01 -1.801213E+01 
4.112325E+02  9.844570E-01 -2.946945E+01  1.055374E-04 7.293277E+01  7.023943E-05 1.306163E+02 
1.131250E-04 7.247635E+01  9.868587E-01 -1.735208E+01  2.610837E-03 6.891471E+01 
8.791654E-05 1.317747E+02  2.605856E-03 7.392708E+01  9.864416E-01 -1.802216E+01 
