! Matrix data file written by TouchstoneData, EPCOS AG
! FILENAME: "LZ80C_6_NB.s3p"
! COMMENT: "(LZ80C_6_NB.s3p) EPCOS AG 22.05.2012 10:36:0"
! INFO: nport=3, nfreq=1601
! DATE: "Wed May 23 15:29:55 2012"
! USER: "Wilfried Schott"
!
! port | pin | signal
! -----|-----|--------
!   1  |  1  |  IN
!   2  |  5  |  OUT_CH1
!   3  |  7  |  OUT_CH2
! --------------------
! 
# MHZ S MA R 50
! freq  magS11 angS11  magS12 angS12  magS13 angS13  ...
4.289200E+02  9.836519E-01 -3.191022E+01  8.813762E-05 7.897556E+01  1.172042E-04 -6.054344E+01 
8.783213E-05 7.019526E+01  9.869733E-01 -1.868596E+01  2.783497E-03 6.961830E+01 
1.222186E-04 -5.963406E+01  2.792801E-03 6.994010E+01  9.857679E-01 -1.959187E+01 
4.289263E+02  9.836154E-01 -3.189983E+01  9.196901E-05 7.640258E+01  1.239648E-04 -7.130138E+01 
1.008903E-04 6.734076E+01  9.869204E-01 -1.868873E+01  2.794379E-03 6.960481E+01 
1.408312E-04 -6.899368E+01  2.797779E-03 6.969896E+01  9.857607E-01 -1.959040E+01 
4.289325E+02  9.836609E-01 -3.189559E+01  9.504449E-05 7.626587E+01  1.320071E-04 -6.865191E+01 
9.208275E-05 7.490004E+01  9.870103E-01 -1.868332E+01  2.806835E-03 6.963110E+01 
1.331870E-04 -6.672476E+01  2.797743E-03 6.982577E+01  9.858253E-01 -1.958906E+01 
4.289388E+02  9.836969E-01 -3.190371E+01  1.026589E-04 7.242959E+01  1.282364E-04 -6.264961E+01 
9.556051E-05 7.345363E+01  9.869611E-01 -1.868267E+01  2.796781E-03 6.972603E+01 
1.372004E-04 -6.854490E+01  2.790418E-03 6.977618E+01  9.858505E-01 -1.958433E+01 
4.289450E+02  9.835766E-01 -3.190132E+01  9.289430E-05 7.741121E+01  1.352379E-04 -7.237741E+01 
1.107138E-04 8.512276E+01  9.869948E-01 -1.868344E+01  2.803584E-03 6.982949E+01 
1.283124E-04 -6.610269E+01  2.791918E-03 6.996563E+01  9.858880E-01 -1.958717E+01 
4.289513E+02  9.836413E-01 -3.189765E+01  9.517280E-05 7.723204E+01  1.523654E-04 -6.873803E+01 
1.106121E-04 7.843351E+01  9.868139E-01 -1.868614E+01  2.795653E-03 6.979890E+01 
1.429645E-04 -7.065162E+01  2.790621E-03 6.974066E+01  9.858755E-01 -1.957560E+01 
4.289575E+02  9.836175E-01 -3.190723E+01  1.088359E-04 7.631884E+01  1.402021E-04 -7.299744E+01 
1.004443E-04 7.533284E+01  9.870021E-01 -1.869372E+01  2.798934E-03 6.971833E+01 
1.374042E-04 -6.909110E+01  2.798510E-03 6.977457E+01  9.858515E-01 -1.958291E+01 
4.289638E+02  9.836548E-01 -3.190228E+01  1.080018E-04 7.724430E+01  1.473828E-04 -6.932229E+01 
1.145824E-04 8.026538E+01  9.868272E-01 -1.868501E+01  2.796381E-03 6.975737E+01 
1.492953E-04 -7.437473E+01  2.793306E-03 6.959586E+01  9.858408E-01 -1.958505E+01 
4.289700E+02  9.836455E-01 -3.190066E+01  1.160177E-04 7.902988E+01  1.603951E-04 -7.045556E+01 
9.523365E-05 8.011260E+01  9.868847E-01 -1.869075E+01  2.801859E-03 6.963765E+01 
1.546680E-04 -7.064678E+01  2.801537E-03 7.012611E+01  9.859078E-01 -1.958348E+01 
4.289762E+02  9.837300E-01 -3.190285E+01  1.109618E-04 7.914388E+01  1.546064E-04 -6.951572E+01 
1.088030E-04 7.669281E+01  9.869351E-01 -1.869721E+01  2.803214E-03 6.975655E+01 
1.436133E-04 -7.916431E+01  2.793834E-03 6.958167E+01  9.858632E-01 -1.958401E+01 
4.289825E+02  9.836280E-01 -3.190325E+01  1.219379E-04 7.933180E+01  1.582222E-04 -7.313168E+01 
1.263465E-04 7.947817E+01  9.868358E-01 -1.869179E+01  2.787656E-03 6.971397E+01 
1.549165E-04 -7.221715E+01  2.796957E-03 6.947814E+01  9.857659E-01 -1.958177E+01 
4.289888E+02  9.836998E-01 -3.190668E+01  1.304479E-04 8.344479E+01  1.605410E-04 -7.454813E+01 
1.086801E-04 8.513526E+01  9.867781E-01 -1.869103E+01  2.791453E-03 6.990879E+01 
1.566459E-04 -7.411865E+01  2.790385E-03 6.946063E+01  9.858999E-01 -1.958683E+01 
4.289950E+02  9.836329E-01 -3.190502E+01  1.262068E-04 8.111008E+01  1.711338E-04 -7.570394E+01 
1.348429E-04 8.658839E+01  9.868521E-01 -1.869814E+01  2.802749E-03 6.947065E+01 
1.579194E-04 -7.701469E+01  2.805346E-03 6.976813E+01  9.858491E-01 -1.957069E+01 
4.290013E+02  9.835827E-01 -3.191227E+01  1.345435E-04 7.819801E+01  1.644351E-04 -8.043793E+01 
1.237229E-04 8.461147E+01  9.867539E-01 -1.869809E+01  2.799584E-03 6.993582E+01 
1.779163E-04 -7.863549E+01  2.801790E-03 6.996662E+01  9.857377E-01 -1.957610E+01 
4.290075E+02  9.835259E-01 -3.190773E+01  1.376096E-04 7.679547E+01  1.765885E-04 -7.253056E+01 
1.350789E-04 8.602434E+01  9.868076E-01 -1.869442E+01  2.810931E-03 6.974200E+01 
1.745479E-04 -7.850918E+01  2.808855E-03 6.981562E+01  9.858357E-01 -1.957828E+01 
4.290138E+02  9.836568E-01 -3.191206E+01  1.502488E-04 7.882981E+01  1.874061E-04 -8.038179E+01 
1.328374E-04 7.978352E+01  9.866433E-01 -1.869607E+01  2.807889E-03 6.978237E+01 
1.833513E-04 -7.767387E+01  2.797191E-03 6.977953E+01  9.858478E-01 -1.957916E+01 
4.290200E+02  9.837113E-01 -3.190950E+01  1.461838E-04 8.177955E+01  1.734758E-04 -7.693599E+01 
1.470387E-04 8.482716E+01  9.867310E-01 -1.869284E+01  2.803471E-03 6.968870E+01 
1.785601E-04 -7.783458E+01  2.805897E-03 6.968744E+01  9.858764E-01 -1.957897E+01 
4.290263E+02  9.835589E-01 -3.190969E+01  1.496455E-04 8.301307E+01  1.907762E-04 -7.608347E+01 
1.510549E-04 7.836835E+01  9.867335E-01 -1.869500E+01  2.787031E-03 6.973362E+01 
1.878993E-04 -7.936376E+01  2.807613E-03 6.991649E+01  9.860041E-01 -1.957816E+01 
4.290325E+02  9.837661E-01 -3.190874E+01  1.607692E-04 7.981261E+01  1.822335E-04 -8.062760E+01 
1.464086E-04 8.064774E+01  9.867579E-01 -1.870312E+01  2.787410E-03 6.945879E+01 
1.921675E-04 -7.809002E+01  2.810833E-03 6.955495E+01  9.858867E-01 -1.957213E+01 
4.290387E+02  9.836412E-01 -3.191173E+01  1.592981E-04 8.392209E+01  1.994507E-04 -8.072788E+01 
1.624775E-04 8.018639E+01  9.865516E-01 -1.869501E+01  2.787789E-03 6.955434E+01 
1.927731E-04 -8.126813E+01  2.794753E-03 6.949624E+01  9.858904E-01 -1.957220E+01 
4.290450E+02  9.836181E-01 -3.191765E+01  1.529989E-04 7.977286E+01  1.944252E-04 -8.410574E+01 
1.538214E-04 8.499089E+01  9.866210E-01 -1.869843E+01  2.805983E-03 6.956734E+01 
2.015780E-04 -7.988327E+01  2.797049E-03 6.953388E+01  9.859072E-01 -1.957701E+01 
4.290513E+02  9.836473E-01 -3.190928E+01  1.685632E-04 8.094313E+01  2.040233E-04 -8.218625E+01 
1.686092E-04 8.132843E+01  9.867134E-01 -1.870065E+01  2.797119E-03 6.967967E+01 
2.063627E-04 -8.370139E+01  2.794277E-03 6.954809E+01  9.859450E-01 -1.957876E+01 
4.290575E+02  9.836702E-01 -3.192132E+01  1.577736E-04 8.180817E+01  2.002190E-04 -8.299652E+01 
1.721423E-04 7.048780E+01  9.866752E-01 -1.870242E+01  2.792361E-03 6.971269E+01 
2.141322E-04 -8.105481E+01  2.789055E-03 6.960219E+01  9.859039E-01 -1.957620E+01 
4.290638E+02  9.837397E-01 -3.192041E+01  1.623438E-04 7.772629E+01  2.226304E-04 -8.376627E+01 
1.724213E-04 8.184626E+01  9.866783E-01 -1.870849E+01  2.797402E-03 6.968199E+01 
2.093192E-04 -8.499372E+01  2.807091E-03 6.937891E+01  9.859768E-01 -1.957913E+01 
4.290700E+02  9.837256E-01 -3.192278E+01  1.766937E-04 7.837497E+01  2.318982E-04 -8.740140E+01 
1.654832E-04 7.891915E+01  9.866785E-01 -1.869819E+01  2.799530E-03 6.947446E+01 
2.277645E-04 -8.509083E+01  2.782532E-03 6.976354E+01  9.859958E-01 -1.957157E+01 
4.290763E+02  9.835334E-01 -3.193087E+01  1.778748E-04 7.593602E+01  2.076028E-04 -8.453772E+01 
1.878977E-04 7.688441E+01  9.866004E-01 -1.870043E+01  2.790503E-03 6.926703E+01 
2.196770E-04 -8.509389E+01  2.795191E-03 6.972349E+01  9.859717E-01 -1.957670E+01 
4.290825E+02  9.836912E-01 -3.192404E+01  1.877164E-04 7.631549E+01  2.262039E-04 -8.618783E+01 
1.920776E-04 7.649865E+01  9.866928E-01 -1.870244E+01  2.782037E-03 6.962111E+01 
2.233924E-04 -8.647924E+01  2.789574E-03 6.956913E+01  9.859368E-01 -1.958123E+01 
4.290888E+02  9.837533E-01 -3.192037E+01  1.876091E-04 7.619210E+01  2.293983E-04 -8.306833E+01 
1.978760E-04 7.488245E+01  9.867096E-01 -1.870449E+01  2.793354E-03 6.960080E+01 
2.456765E-04 -8.684396E+01  2.783157E-03 6.967887E+01  9.859418E-01 -1.957885E+01 
4.290950E+02  9.836669E-01 -3.192495E+01  1.967646E-04 7.511272E+01  2.423393E-04 -8.475959E+01 
1.857643E-04 7.453295E+01  9.866791E-01 -1.870951E+01  2.780449E-03 6.969270E+01 
2.311145E-04 -8.964739E+01  2.796446E-03 6.967218E+01  9.858886E-01 -1.957625E+01 
4.291012E+02  9.836999E-01 -3.193311E+01  1.969848E-04 7.396980E+01  2.408906E-04 -9.099386E+01 
1.976052E-04 7.382080E+01  9.865785E-01 -1.870524E+01  2.789478E-03 6.946005E+01 
2.424568E-04 -8.847059E+01  2.792893E-03 6.960942E+01  9.860345E-01 -1.957282E+01 
4.291075E+02  9.836234E-01 -3.193504E+01  2.075531E-04 7.293120E+01  2.454543E-04 -8.622977E+01 
1.988390E-04 7.581638E+01  9.865989E-01 -1.870447E+01  2.784542E-03 6.969229E+01 
2.444547E-04 -9.133419E+01  2.800840E-03 6.961201E+01  9.859504E-01 -1.957341E+01 
4.291138E+02  9.836122E-01 -3.193595E+01  2.084222E-04 7.034334E+01  2.427402E-04 -9.275540E+01 
2.067549E-04 6.890895E+01  9.866691E-01 -1.870303E+01  2.792507E-03 6.953837E+01 
2.582640E-04 -9.091967E+01  2.789705E-03 6.983260E+01  9.858930E-01 -1.958143E+01 
4.291200E+02  9.836297E-01 -3.194276E+01  2.134117E-04 7.258909E+01  2.565513E-04 -9.018734E+01 
2.032860E-04 7.119197E+01  9.866482E-01 -1.871011E+01  2.797694E-03 6.962841E+01 
2.490459E-04 -9.182483E+01  2.780368E-03 6.960746E+01  9.860941E-01 -1.957355E+01 
4.291263E+02  9.835756E-01 -3.193997E+01  2.021278E-04 7.062462E+01  2.582150E-04 -9.130699E+01 
2.189245E-04 7.196197E+01  9.866395E-01 -1.870296E+01  2.790882E-03 6.969880E+01 
2.539676E-04 -9.390265E+01  2.792445E-03 6.976128E+01  9.859697E-01 -1.958535E+01 
4.291325E+02  9.836653E-01 -3.194595E+01  2.060207E-04 6.785823E+01  2.519396E-04 -9.543405E+01 
2.074417E-04 6.843309E+01  9.865718E-01 -1.871306E+01  2.797115E-03 6.963055E+01 
2.516799E-04 -9.206027E+01  2.793375E-03 6.977060E+01  9.860924E-01 -1.957725E+01 
4.291388E+02  9.835629E-01 -3.194748E+01  2.152137E-04 6.788152E+01  2.642567E-04 -9.426990E+01 
2.249712E-04 6.727619E+01  9.865973E-01 -1.870767E+01  2.782392E-03 6.976005E+01 
2.699760E-04 -9.324891E+01  2.802661E-03 6.971005E+01  9.859499E-01 -1.958484E+01 
4.291450E+02  9.835668E-01 -3.194813E+01  2.260873E-04 6.745079E+01  2.622793E-04 -9.328867E+01 
2.232555E-04 6.722069E+01  9.866646E-01 -1.870812E+01  2.798189E-03 6.945829E+01 
2.576042E-04 -9.538748E+01  2.795414E-03 6.964896E+01  9.860501E-01 -1.958333E+01 
4.291513E+02  9.835593E-01 -3.194942E+01  2.111241E-04 6.497629E+01  2.771844E-04 -9.549631E+01 
2.178142E-04 7.105095E+01  9.867021E-01 -1.871094E+01  2.790059E-03 6.956837E+01 
2.872648E-04 -9.384174E+01  2.787360E-03 6.982083E+01  9.859982E-01 -1.958549E+01 
4.291575E+02  9.836632E-01 -3.195295E+01  2.263859E-04 6.456776E+01  2.729516E-04 -9.657924E+01 
2.127400E-04 6.521499E+01  9.864802E-01 -1.871757E+01  2.797074E-03 6.963649E+01 
2.674739E-04 -9.402313E+01  2.792714E-03 6.959961E+01  9.860233E-01 -1.958683E+01 
4.291637E+02  9.835348E-01 -3.195600E+01  2.223163E-04 6.353005E+01  2.748259E-04 -9.705828E+01 
2.282544E-04 6.648396E+01  9.864982E-01 -1.871898E+01  2.788195E-03 6.963935E+01 
2.868830E-04 -9.587685E+01  2.792111E-03 6.953188E+01  9.859835E-01 -1.958246E+01 
4.291700E+02  9.836001E-01 -3.195194E+01  2.204035E-04 5.996284E+01  2.922743E-04 -9.885946E+01 
2.263379E-04 6.350471E+01  9.865100E-01 -1.871950E+01  2.789978E-03 6.994321E+01 
2.794816E-04 -9.863384E+01  2.786956E-03 6.957600E+01  9.860171E-01 -1.958268E+01 
4.291763E+02  9.835905E-01 -3.196493E+01  2.376786E-04 6.134893E+01  2.873815E-04 -9.997325E+01 
2.381926E-04 6.075819E+01  9.866052E-01 -1.871986E+01  2.787120E-03 6.960042E+01 
2.866048E-04 -1.021456E+02  2.797049E-03 6.959602E+01  9.861570E-01 -1.958484E+01 
4.291825E+02  9.835736E-01 -3.196005E+01  2.328523E-04 6.025430E+01  2.872227E-04 -9.865670E+01 
2.340304E-04 6.397672E+01  9.866514E-01 -1.872069E+01  2.797271E-03 6.967518E+01 
2.793091E-04 -1.018196E+02  2.795107E-03 6.959644E+01  9.860453E-01 -1.958132E+01 
4.291888E+02  9.835174E-01 -3.196037E+01  2.429998E-04 5.680914E+01  2.987005E-04 -1.001462E+02 
2.239805E-04 5.767612E+01  9.865296E-01 -1.872037E+01  2.800520E-03 6.939870E+01 
2.898512E-04 -9.904304E+01  2.785863E-03 6.978761E+01  9.862036E-01 -1.958573E+01 
4.291950E+02  9.834958E-01 -3.196154E+01  2.414016E-04 6.009699E+01  2.842280E-04 -9.982937E+01 
2.375189E-04 5.806454E+01  9.865985E-01 -1.872348E+01  2.782626E-03 6.940573E+01 
3.006791E-04 -1.017107E+02  2.800099E-03 6.978167E+01  9.861096E-01 -1.959250E+01 
4.292013E+02  9.836393E-01 -3.196539E+01  2.250275E-04 5.964303E+01  3.096860E-04 -1.029174E+02 
2.303640E-04 5.931336E+01  9.865225E-01 -1.871809E+01  2.801345E-03 6.975714E+01 
2.967257E-04 -1.025557E+02  2.799850E-03 6.954133E+01  9.860744E-01 -1.958727E+01 
4.292075E+02  9.835303E-01 -3.196555E+01  2.357355E-04 5.800784E+01  3.089786E-04 -1.034457E+02 
2.318302E-04 5.907348E+01  9.866038E-01 -1.872159E+01  2.782721E-03 6.983773E+01 
2.927776E-04 -1.028384E+02  2.794300E-03 6.944511E+01  9.861509E-01 -1.959010E+01 
4.292138E+02  9.835557E-01 -3.196899E+01  2.398453E-04 5.870444E+01  3.201316E-04 -1.039314E+02 
2.462391E-04 5.528220E+01  9.865561E-01 -1.872974E+01  2.790048E-03 6.941814E+01 
3.102530E-04 -1.039153E+02  2.796740E-03 6.957568E+01  9.861163E-01 -1.958664E+01 
4.292200E+02  9.835389E-01 -3.197284E+01  2.515350E-04 5.678332E+01  3.179337E-04 -1.054523E+02 
2.395999E-04 5.690759E+01  9.866493E-01 -1.873220E+01  2.800625E-03 6.967646E+01 
3.086091E-04 -1.053641E+02  2.796521E-03 6.975934E+01  9.861179E-01 -1.958971E+01 
4.292262E+02  9.834530E-01 -3.197892E+01  2.470494E-04 5.819763E+01  3.134589E-04 -1.055571E+02 
2.486888E-04 5.386335E+01  9.865651E-01 -1.872977E+01  2.787936E-03 6.963205E+01 
3.123655E-04 -1.049503E+02  2.784317E-03 6.985048E+01  9.860564E-01 -1.958772E+01 
4.292325E+02  9.834685E-01 -3.197459E+01  2.565190E-04 5.596766E+01  3.147802E-04 -1.060342E+02 
2.465977E-04 5.558546E+01  9.864751E-01 -1.873574E+01  2.791394E-03 6.961348E+01 
3.192994E-04 -1.066929E+02  2.791740E-03 6.954956E+01  9.861136E-01 -1.958544E+01 
4.292388E+02  9.834964E-01 -3.198227E+01  2.505397E-04 5.304605E+01  3.155862E-04 -1.084042E+02 
2.516125E-04 5.638578E+01  9.864847E-01 -1.873396E+01  2.794816E-03 6.963741E+01 
3.202825E-04 -1.054364E+02  2.792361E-03 6.959571E+01  9.861494E-01 -1.959259E+01 
4.292450E+02  9.834200E-01 -3.197515E+01  2.616980E-04 5.251195E+01  3.213699E-04 -1.082135E+02 
2.471263E-04 5.369725E+01  9.865726E-01 -1.873490E+01  2.802561E-03 6.923463E+01 
3.297515E-04 -1.063545E+02  2.789095E-03 6.952510E+01  9.861559E-01 -1.959728E+01 
4.292513E+02  9.834860E-01 -3.198345E+01  2.413492E-04 5.080691E+01  3.329718E-04 -1.084347E+02 
2.591434E-04 5.335339E+01  9.865672E-01 -1.873219E+01  2.779167E-03 6.976448E+01 
3.162252E-04 -1.108287E+02  2.798004E-03 6.960301E+01  9.860843E-01 -1.959346E+01 
4.292575E+02  9.835170E-01 -3.199027E+01  2.444490E-04 5.339044E+01  3.326055E-04 -1.086218E+02 
2.542855E-04 5.231921E+01  9.865265E-01 -1.873876E+01  2.793191E-03 6.971448E+01 
3.207611E-04 -1.065966E+02  2.796874E-03 6.963233E+01  9.861407E-01 -1.959655E+01 
4.292638E+02  9.834544E-01 -3.198562E+01  2.549357E-04 5.229490E+01  3.291828E-04 -1.102189E+02 
2.676798E-04 5.189767E+01  9.865490E-01 -1.873965E+01  2.793641E-03 6.931071E+01 
3.352382E-04 -1.108137E+02  2.798391E-03 6.952212E+01  9.862149E-01 -1.959560E+01 
4.292700E+02  9.834445E-01 -3.200188E+01  2.586933E-04 5.117966E+01  3.422953E-04 -1.093783E+02 
2.693224E-04 5.073578E+01  9.865318E-01 -1.873240E+01  2.798132E-03 6.948671E+01 
3.406935E-04 -1.098628E+02  2.805325E-03 6.983250E+01  9.860968E-01 -1.959768E+01 
4.292763E+02  9.833796E-01 -3.199431E+01  2.719918E-04 5.218257E+01  3.299457E-04 -1.117917E+02 
2.678753E-04 5.126165E+01  9.866268E-01 -1.873354E+01  2.785526E-03 6.965723E+01 
3.614156E-04 -1.143896E+02  2.799201E-03 6.952128E+01  9.861649E-01 -1.960021E+01 
4.292825E+02  9.833885E-01 -3.200225E+01  2.539192E-04 5.086451E+01  3.462088E-04 -1.115456E+02 
2.638929E-04 5.075130E+01  9.865227E-01 -1.873315E+01  2.783691E-03 6.949186E+01 
3.496995E-04 -1.110046E+02  2.802548E-03 6.954760E+01  9.861038E-01 -1.960024E+01 
4.292887E+02  9.833648E-01 -3.200584E+01  2.607273E-04 4.876004E+01  3.497842E-04 -1.120195E+02 
2.756316E-04 5.180909E+01  9.863785E-01 -1.874012E+01  2.795268E-03 6.950041E+01 
3.497186E-04 -1.132081E+02  2.798219E-03 6.969026E+01  9.861965E-01 -1.959471E+01 
4.292950E+02  9.833906E-01 -3.199568E+01  2.601984E-04 4.786732E+01  3.586948E-04 -1.162888E+02 
2.657951E-04 5.110164E+01  9.864232E-01 -1.874860E+01  2.780993E-03 6.915296E+01 
3.526963E-04 -1.143569E+02  2.791098E-03 6.979930E+01  9.861004E-01 -1.960082E+01 
4.293013E+02  9.832784E-01 -3.200893E+01  2.838004E-04 4.946686E+01  3.561877E-04 -1.142697E+02 
2.793955E-04 4.877851E+01  9.862438E-01 -1.874345E+01  2.792073E-03 6.944803E+01 
3.737118E-04 -1.127316E+02  2.793110E-03 6.954096E+01  9.859884E-01 -1.959617E+01 
4.293075E+02  9.831721E-01 -3.201016E+01  2.753274E-04 4.605272E+01  3.717950E-04 -1.145253E+02 
2.827662E-04 4.965234E+01  9.862859E-01 -1.874851E+01  2.790721E-03 6.963479E+01 
3.626585E-04 -1.164444E+02  2.795609E-03 6.971709E+01  9.860207E-01 -1.960219E+01 
4.293138E+02  9.832719E-01 -3.200952E+01  2.765608E-04 4.669412E+01  3.659656E-04 -1.165767E+02 
2.774297E-04 4.672464E+01  9.862494E-01 -1.875217E+01  2.795083E-03 6.962863E+01 
3.674311E-04 -1.164249E+02  2.799342E-03 6.950597E+01  9.860667E-01 -1.960322E+01 
4.293200E+02  9.832165E-01 -3.201072E+01  2.812730E-04 4.813674E+01  3.706842E-04 -1.171285E+02 
2.952356E-04 4.542081E+01  9.862596E-01 -1.874357E+01  2.784523E-03 6.955611E+01 
3.684635E-04 -1.168405E+02  2.799647E-03 6.954538E+01  9.858699E-01 -1.960089E+01 
4.293263E+02  9.832716E-01 -3.201092E+01  2.883100E-04 4.494964E+01  3.709313E-04 -1.176074E+02 
2.899606E-04 4.455097E+01  9.863306E-01 -1.875082E+01  2.801990E-03 6.944467E+01 
3.809696E-04 -1.170582E+02  2.786449E-03 6.961759E+01  9.861274E-01 -1.960527E+01 
4.293325E+02  9.832158E-01 -3.201857E+01  2.850547E-04 4.405005E+01  3.875415E-04 -1.183882E+02 
2.892011E-04 4.361009E+01  9.861862E-01 -1.875782E+01  2.789439E-03 6.949735E+01 
3.768691E-04 -1.174650E+02  2.780948E-03 6.936735E+01  9.860063E-01 -1.960341E+01 
4.293388E+02  9.831340E-01 -3.201743E+01  2.817890E-04 4.641238E+01  3.679572E-04 -1.183049E+02 
2.991905E-04 4.509585E+01  9.862116E-01 -1.875667E+01  2.794607E-03 6.932871E+01 
3.761275E-04 -1.183366E+02  2.787773E-03 6.946533E+01  9.859657E-01 -1.960793E+01 
4.293450E+02  9.832275E-01 -3.202556E+01  3.032189E-04 4.430259E+01  3.875424E-04 -1.202740E+02 
3.063548E-04 4.502214E+01  9.861158E-01 -1.875681E+01  2.782800E-03 6.965441E+01 
3.823640E-04 -1.208103E+02  2.786081E-03 6.951261E+01  9.860951E-01 -1.960067E+01 
4.293512E+02  9.831051E-01 -3.202012E+01  2.938317E-04 4.341139E+01  3.853495E-04 -1.225953E+02 
2.923617E-04 4.369215E+01  9.862277E-01 -1.875669E+01  2.797302E-03 6.951479E+01 
3.868117E-04 -1.191800E+02  2.790457E-03 6.962077E+01  9.859638E-01 -1.960712E+01 
4.293575E+02  9.831164E-01 -3.202130E+01  3.014643E-04 4.165650E+01  3.904674E-04 -1.221253E+02 
3.038543E-04 4.043816E+01  9.861985E-01 -1.876281E+01  2.794747E-03 6.974235E+01 
3.929702E-04 -1.206301E+02  2.796774E-03 6.985354E+01  9.860998E-01 -1.960996E+01 
4.293638E+02  9.830238E-01 -3.202524E+01  3.100810E-04 4.179661E+01  3.824746E-04 -1.236788E+02 
2.900316E-04 4.352793E+01  9.861396E-01 -1.876068E+01  2.813484E-03 6.935824E+01 
3.995840E-04 -1.212277E+02  2.789640E-03 6.954182E+01  9.860965E-01 -1.960949E+01 
4.293700E+02  9.831009E-01 -3.203635E+01  3.115332E-04 4.195504E+01  4.021050E-04 -1.270847E+02 
3.018988E-04 4.161795E+01  9.861009E-01 -1.876231E+01  2.804442E-03 6.953471E+01 
4.055142E-04 -1.246723E+02  2.783376E-03 6.965892E+01  9.859167E-01 -1.960750E+01 
4.293763E+02  9.830598E-01 -3.203854E+01  3.179479E-04 4.256145E+01  4.044068E-04 -1.267368E+02 
3.185588E-04 3.925906E+01  9.860711E-01 -1.876901E+01  2.791913E-03 6.948528E+01 
3.973228E-04 -1.258711E+02  2.791833E-03 6.964546E+01  9.860268E-01 -1.961407E+01 
4.293825E+02  9.829433E-01 -3.203811E+01  3.134853E-04 3.851507E+01  4.080511E-04 -1.264209E+02 
