! Matrix data file written by TouchstoneData, EPCOS AG
! FILENAME: "B3595.WB.s2p"
! COMMENT: "(B3595.WB.s2p)"
! INFO: nport=2, nfreq=1601
! DATE: "Thu Jan 31 16:29:15 2013"
! USER: "Adrian Ma"
!
! port | pin | signal
! -----|-----|--------
!   1  |  2  |  IN
!   2  |  5  |  OUT
! --------------------
! 
# MHZ S RI R 50
! freq  reS11 imS11  reS21 imS21  reS12 imS12  reS22 imS22
50  0.991535234633968 -0.0804594204260832  0.000134738076697892 0.00173465533965131  0.000133399633159315 0.0017423113447403  0.991339142542822 -0.0974673534799998 
53.71875  0.991737202443704 -0.089596785083489  0.000232995550121772 0.00183442832494441  0.00022509792557671 0.00182912976901897  0.99113190213791 -0.107919588869016 
57.4375  0.99160409082095 -0.0960777945497619  0.000210547508959013 0.0019246793350059  0.00020244480050687 0.0019341440347135  0.991266252415448 -0.115844826336582 
61.15625  0.990677689202194 -0.101829344523576  0.000245982947564529 0.00205033369518754  0.00024214921054231 0.0020597101554513  0.990525889290434 -0.122892212881946 
64.875  0.989810373127791 -0.106425434945356  0.000223690152370534 0.00219536965879567  0.000221413879409369 0.0021994128428037  0.989384326859752 -0.129083915177643 
68.59375  0.988529457390596 -0.113186009951366  0.000299446638243932 0.00234859469119949  0.000281801507837739 0.00234837738732341  0.987551541505653 -0.136364553791845 
72.3125  0.988313061831262 -0.118742199712949  0.000417148211028422 0.00248569041309953  0.000402257944491339 0.0024796987235368  0.987029225734253 -0.143597128285286 
76.03125  0.987724237714764 -0.124331009235188  0.000365678092175094 0.00254514025874848  0.000373704244928408 0.00254822710685312  0.98543684962367 -0.150965134889125 
79.75  0.986770442312021 -0.13080957364034  0.000418202913434407 0.0027181183687346  0.000428386094984158 0.00272112889251709  0.984349704647319 -0.158194303127882 
83.46875  0.986211265743041 -0.135217503214872  0.000470939724152504 0.00275714967162491  0.000460561770442753 0.00275564853170335  0.983451755934756 -0.164335900219408 
87.1875  0.985398203812569 -0.142220882013613  0.000450171483257341 0.00290770752216841  0.000466634747854245 0.00289399918769607  0.982732230795544 -0.173119864360297 
90.90625  0.984496159450662 -0.147273150201218  0.000446302029526674 0.00293777751398728  0.000425661877384661 0.00293805187563728  0.980273651535235 -0.17984704928205 
94.625  0.983479705306682 -0.152423404171248  0.000527172512444954 0.00312522660084946  0.000549260048116208 0.00313402436604311  0.978217336738777 -0.187772999112231 
98.34375  0.984118393318317 -0.156367179109476  0.000661031564716011 0.0034318016950563  0.000662342005708233 0.00342723469150435  0.978214755476846 -0.192793386831039 
102.0625  0.982934577115236 -0.162665416680306  0.000607343902245208 0.00336739478997564  0.000618575458491537 0.00334628590212861  0.976653943029662 -0.200454603385297 
105.78125  0.982417745325485 -0.168479345345567  0.000665994755467273 0.0034871856608485  0.000667084204631266 0.00350950029603168  0.975433125043771 -0.207391298067697 
109.5  0.981250308195249 -0.173450363296256  0.000702838856404259 0.00362566234045386  0.000690242006865038 0.00362922892789391  0.973509255760487 -0.214316941577051 
113.21875  0.98074448660923 -0.178927140193187  0.00078641042624609 0.00368326709889622  0.00079649228660073 0.00369672427628396  0.972089079907645 -0.221380569499015 
116.9375  0.979943451584456 -0.183513172683809  0.00070497477184398 0.00392526924571895  0.000723587100851748 0.00392473738146159  0.97008249178308 -0.227743378203285 
120.65625  0.979170369453734 -0.189428158459829  0.000860626821480455 0.00394967951940548  0.000860235738167899 0.00395629387926695  0.968826263025445 -0.234680412518918 
124.375  0.977182261469692 -0.195174974349572  0.00097545244339296 0.00402200448565733  0.000953681825718883 0.00402760445791195  0.966346130726696 -0.242025034792317 
128.09375  0.977348853670736 -0.200022966907805  0.000991905837928328 0.00422490129460875  0.00098039427424996 0.0042522712944693  0.965892637846133 -0.248072563094274 
131.8125  0.976277063787987 -0.205379803343502  0.00101515921069279 0.00428202695170692  0.00101108934445915 0.00427002895985709  0.964282111577566 -0.254423805496376 
135.53125  0.974884641067769 -0.210735472294787  0.00107763361360821 0.00439008333564066  0.00106819266075589 0.00439385213758979  0.961649246537662 -0.261942240966525 
139.25  0.973652703201757 -0.215907585971922  0.00117820774712556 0.00450391343030943  0.00117899670846247 0.00450447809027628  0.960161348512507 -0.267756195180359 
142.96875  0.972551627053962 -0.220858984372192  0.00115554031608595 0.00455562477414662  0.00114609199823992 0.00455199648393884  0.958170209186632 -0.274047009493944 
146.6875  0.970894071672606 -0.226660307134506  0.00130573163032984 0.00475529708069261  0.00129585547159663 0.00474375151887783  0.95648243901604 -0.280575305259168 
150.40625  0.969073601832349 -0.232863538291113  0.0013426419544479 0.00487635898107759  0.00133498254851206 0.00486736072772865  0.95395635077236 -0.288032545585398 
154.125  0.967743729573061 -0.238260049936243  0.00135947819423684 0.00494916094429645  0.00134599791818914 0.00495232358386613  0.952234003660348 -0.294259871906449 
157.84375  0.966236847052214 -0.24392110945723  0.0014518077187963 0.00504258821398629  0.00144938284425348 0.00503860977301479  0.950034271945445 -0.301152684905841 
161.5625  0.964439007526759 -0.249046893472346  0.00158933336374741 0.00511467541916774  0.00159145500377006 0.00511037731642876  0.947986201577649 -0.307290346720296 
165.28125  0.96190883395321 -0.255401085301991  0.00163375790363215 0.00526037003634719  0.00162870865127414 0.00525785132071327  0.944914636520519 -0.313785850911895 
169  0.958921920752705 -0.26033311035295  0.00174573590308263 0.0050608484625646  0.0017360288690264 0.00505015176548683  0.941676418150095 -0.320071451869214 
172.71875  0.957421325426202 -0.266029381668783  0.00174921951649629 0.00545000809224291  0.0017466579691544 0.0054624410711828  0.939996345645792 -0.326809765108061 
176.4375  0.955862965924023 -0.273064754264472  0.00178393354296811 0.00556568463577733  0.00178750027280887 0.00554767287559245  0.93786230953898 -0.334633518748211 
180.15625  0.95364879968328 -0.277764424144632  0.00182693677720351 0.00564905505544797  0.00182418899434197 0.00563580523168519  0.935470851547914 -0.340220044053601 
183.875  0.952253416350659 -0.28272158674859  0.00198382479646572 0.0057729605360405  0.00198754805420592 0.00576423256032211  0.933701606825345 -0.346555487181645 
187.59375  0.950133481210502 -0.289021729296521  0.0020978897255276 0.00588384850113001  0.00209967565753351 0.00588225071532691  0.93103759773824 -0.352852463331244 
191.3125  0.948123699908964 -0.295075435575194  0.00209148179414681 0.00599219875259861  0.0020877692189314 0.00598980137762362  0.928549728550207 -0.359992471201119 
195.03125  0.943881824707334 -0.300343992411441  0.00218549551889002 0.00603912952961929  0.00218327375014849 0.00604048521483285  0.923050155326567 -0.366779426853725 
198.75  0.942421516301074 -0.306676174324165  0.0023055780380828 0.00618837988237956  0.00230369505218943 0.00619505908027596  0.921968926885025 -0.373561862292477 
202.46875  0.939366442754358 -0.31307139324945  0.00236547035881929 0.0062564944124825  0.00236152400761662 0.00625832866239832  0.918850778383303 -0.380760329904879 
206.1875  0.937455454780336 -0.316479801956289  0.00239971074318683 0.00630501479158521  0.00239849416348847 0.00631549959561744  0.916026090539319 -0.386422202084423 
209.90625  0.936437942569983 -0.323178707717555  0.00252171201553774 0.00640857710382905  0.00251331466191829 0.00641207794044625  0.913412283103415 -0.393061050615352 
213.625  0.935236909669867 -0.327501609533147  0.00263473045587592 0.0063878509716297  0.00264534884630166 0.00640010671547694  0.909140788686005 -0.400046127029165 
217.34375  0.932203977752936 -0.335422591840875  0.00266512662088346 0.00660151293792896  0.00267588758254517 0.00660940258948666  0.906275150132629 -0.406694419029811 
221.0625  0.929686353765736 -0.341516462618263  0.00278610670462596 0.0067042096962459  0.00279682729710928 0.00670937736713575  0.902761452065652 -0.413694065553473 
224.78125  0.928428388305377 -0.344697876182617  0.00282796252835462 0.00682980376277218  0.00283444807567003 0.00682472288436352  0.901349075594664 -0.419437795000748 
228.5  0.926405384098978 -0.351323455297619  0.0029559478851797 0.00685591465701974  0.00296425854956811 0.00684836395496366  0.89761861820473 -0.426497371038668 
232.21875  0.924253210616311 -0.356998555050292  0.00304302634100846 0.00688622987997019  0.00301971074905417 0.00689121503653716  0.894497523795176 -0.433113443938045 
235.9375  0.922381802253486 -0.362716143737822  0.00316224337723367 0.00703126845976455  0.00314533525574092 0.00702909817333952  0.890784813805858 -0.439683731140409 
239.65625  0.919513464940379 -0.368767236822775  0.00322367359379494 0.00711789384567003  0.00323106266298949 0.00711504112767472  0.886304955876774 -0.447082538695018 
243.375  0.918735506292557 -0.373016111560027  0.00333190852475502 0.00717619095021017  0.00332013575065095 0.0071898930969755  0.884201237768565 -0.452018952938092 
247.09375  0.916794698415184 -0.378788726530183  0.00340830977578674 0.00728539836112696  0.00339889101524777 0.00728426807791573  0.880337710497663 -0.459467822745456 
250.8125  0.914726399870159 -0.383675753582923  0.00350091402140455 0.00735526045595534  0.00349598518311334 0.00735233679151113  0.876641219177431 -0.465714345756867 
254.53125  0.912399893461062 -0.38965078724451  0.0035878774811152 0.00743953669260259  0.00359271998414251 0.0074376314202137  0.873586418012832 -0.471722820366051 
258.25  0.910059441164188 -0.394380952420588  0.00370887544183469 0.00745823375209471  0.00370751526237018 0.00746083413805719  0.869362038827173 -0.477592587939256 
261.96875  0.908251734009724 -0.400061652275228  0.00380308208228506 0.00758223612072082  0.00380655872192994 0.00756230414831028  0.866282729974168 -0.484310903896233 
265.6875  0.905525676529675 -0.405739316016402  0.00392083184780887 0.00761254902251409  0.00392059791882651 0.00761229972240801  0.862341430688046 -0.490796608046963 
269.40625  0.903286815799341 -0.410580228315144  0.00399807892115417 0.00769409890333918  0.0040033201713787 0.00769514309952073  0.85886840241578 -0.496449049884815 
273.125  0.9007893548054 -0.415999423177011  0.00410935858046739 0.00774772956809919  0.00409424932544755 0.0077543511359636  0.855039050094983 -0.502690942103492 
276.84375  0.897873498821226 -0.421076514094999  0.00417046963965122 0.00785048311319838  0.00416862786137581 0.0078478583392214  0.851188829485912 -0.508401308839065 
280.5625  0.895228221856609 -0.427065448068744  0.00429821321322541 0.00787846231250892  0.00429279465885189 0.00787844562698266  0.847352847064927 -0.514773972651512 
284.28125  0.891657208323601 -0.431133817765838  0.00437609656989754 0.00799201069543591  0.00438219976300343 0.00798426170415073  0.843020558502444 -0.519613111817151 
288  0.889901080542804 -0.436788808011358  0.00448433741504348 0.00801869436769175  0.00448804176235523 0.00801673195407563  0.839997199567727 -0.526180172014706 
291.71875  0.88658502203895 -0.441950463061825  0.00455896730122881 0.00805793775451829  0.00453572736629562 0.00805411741648204  0.836043568607813 -0.531785666563995 
295.4375  0.883877078252721 -0.44672258000593  0.0047064994533563 0.00809390276348829  0.00471634840741937 0.00809230765526057  0.832689590616136 -0.537029429531804 
299.15625  0.881026524061683 -0.451959653631542  0.0047959831282018 0.00820312174817617  0.00479274229881974 0.00821462852966147  0.828835445190016 -0.542939981642884 
302.875  0.877924360658226 -0.456094621794847  0.00490099353279451 0.00818619536363761  0.00489756005696456 0.00819344426170199  0.824717745321898 -0.548491613625086 
306.59375  0.8748874215786 -0.461800563572854  0.00501976193975618 0.00824693787328685  0.00501041475647493 0.00823942053226618  0.82135162051948 -0.553810226562318 
310.3125  0.871287692556963 -0.467419328134887  0.00514599700137277 0.00835210335381919  0.00515856974190771 0.00833613589230186  0.816982112491865 -0.559331434355075 
314.03125  0.868974060751884 -0.471265972216005  0.00522818496817858 0.00838319871007619  0.00521078387174984 0.00837903702227214  0.813896027513 -0.563708778034805 
317.75  0.865745488061593 -0.476599446574252  0.0053358116320741 0.00844041785454032  0.00533766595545618 0.00844246083595029  0.809835815885637 -0.569754190938068 
321.46875  0.862780857807082 -0.481522712096898  0.00544906918796035 0.00848632425868642  0.00542655115208534 0.00850815139325123  0.805862528216159 -0.576062465934095 
325.1875  0.859676971314606 -0.486227389655486  0.00548339279655548 0.0085303372087962  0.00548302359267481 0.00852568407330827  0.802048944025315 -0.580556933431433 
328.90625  0.856258055482815 -0.490151644993224  0.00562584917634436 0.00852372432292524  0.00563274871024819 0.00852368376489575  0.797609371470733 -0.585103496177871 
332.625  0.853802517093108 -0.495714950169041  0.00573485739788026 0.00862468730958771  0.00572854683715149 0.00861103155550771  0.794205754228061 -0.591260922247415 
336.34375  0.851014896350105 -0.500700915272496  0.00587917566379647 0.00865504869626184  0.00586717471976796 0.00866199695812479  0.790061572078376 -0.596688227672707 
340.0625  0.848665393317296 -0.504629946896248  0.00591876779146431 0.00870684432224301  0.00591750696135396 0.00870302357723914  0.786618808773698 -0.601237796422091 
343.78125  0.845115778934483 -0.510321581210227  0.00604654497836046 0.0087769880866349  0.00605285520395232 0.00877052093264686  0.781900942325323 -0.607312795163505 
347.5  0.842066677679662 -0.514417704431361  0.00613426729859238 0.0088109011880943  0.00613263653245438 0.00881042501602831  0.777996639959172 -0.611913183754599 
351.21875  0.839591108511068 -0.519419755606947  0.00626838305854258 0.008874873296352  0.00626493910749577 0.00887003759245917  0.773944879072725 -0.617547371898111 
354.9375  0.836112615435979 -0.524401872805571  0.00635506636867523 0.00889715478263647  0.00633564682188399 0.00889128114740436  0.768784224019903 -0.622802020860949 
358.65625  0.834006075763072 -0.528632344996499  0.00647935352858014 0.00895568864533112  0.00646980331740514 0.00895804150481368  0.76528567972287 -0.627777841892033 
362.375  0.831421066071857 -0.533328476789622  0.00662968512259014 0.00897723502441304  0.00661996711254005 0.00896194067083879  0.761143632984055 -0.632592866721683 
366.09375  0.828361996851616 -0.537762205737575  0.00673460172998717 0.00896360704806371  0.00671757728668243 0.00896237167148523  0.756575516901929 -0.637617422753968 
369.8125  0.824424570357013 -0.542259832036258  0.00684150519515881 0.00902492635780466  0.00684446779912509 0.00902089130310259  0.750856749506795 -0.642494009145188 
373.53125  0.821976138518778 -0.547023054161558  0.00696483998615568 0.0090465401581021  0.00695522780846577 0.00905516492322468  0.747566344072332 -0.647362505335054 
377.25  0.819082695385775 -0.552279872442093  0.0070916188001866 0.00907778539678406  0.0070785251934213 0.0090758181450888  0.743086176435089 -0.653121592619049 
380.96875  0.815734299462944 -0.557136663049502  0.00718204924119328 0.00910785093089642  0.00717670832750842 0.00911824171248115  0.737720026293945 -0.658573039845962 
384.6875  0.812848982028682 -0.561548597217227  0.00725500284892086 0.009155445286503  0.00725694212947759 0.0091485964504616  0.733832437594349 -0.663350946528128 
388.40625  0.809397053458779 -0.566652839391638  0.00741070608767314 0.00918827573482927  0.00741807446270238 0.00918446030318301  0.728992318583427 -0.668808106737319 
392.125  0.805227578162474 -0.571066221788131  0.00749160509150935 0.00921374859557913  0.00750105444157183 0.00919187701276196  0.723949969683038 -0.672151982900926 
395.84375  0.801935451690349 -0.576365070363667  0.0076070686241916 0.00919102195825457  0.00761162539161615 0.00918805268747123  0.719052059079805 -0.677721106839047 
399.5625  0.797920992980468 -0.579752059310672  0.00777195521507768 0.00919357382899973  0.00774918329844775 0.00919339282056194  0.713779504720818 -0.682295767034178 
403.28125  0.795442195932894 -0.58562942195665  0.00791203000204928 0.0092480134543649  0.00789556200624607 0.00926481676305771  0.709740970218761 -0.687426537393656 
407  0.79166390362483 -0.59061665611207  0.00803941436334886 0.00924233058900273  0.00801797298437365 0.00924597854668211  0.704698171449086 -0.692539839228511 
410.71875  0.786894985232875 -0.596309122659249  0.00807360214651482 0.00932035985987465  0.00812062242188082 0.00927006019522122  0.700555742942141 -0.695367381729042 
414.4375  0.783472491843254 -0.599767576212327  0.00825216461518382 0.00931865296788773  0.00824555007829942 0.00930737977910284  0.695079878764273 -0.700906397889655 
418.15625  0.778210148543116 -0.603225010496048  0.00829514522149587 0.00927250302948694  0.00828089901014027 0.00925845829053778  0.68981760934017 -0.704064841134964 
421.875  0.775964107326518 -0.609069791375118  0.00846742264646337 0.009282614483863  0.00843760795290359 0.0092760531504625  0.685314628440252 -0.71062635521385 
425.59375  0.771565101529938 -0.614397680919404  0.00858770856334612 0.00928964219887869  0.00856219247803441 0.00928235469721599  0.680216550590809 -0.715464308218223 
429.3125  0.767539307753726 -0.619561208824021  0.00871568905050425 0.00933054057931603  0.00871362094559006 0.00930853848429157  0.675188278653121 -0.720154719524165 
433.03125  0.763349173341746 -0.62410412004192  0.00880689872839733 0.00923769312399776  0.00880552699589827 0.00922815567254195  0.669713702769153 -0.724473609210304 
436.75  0.759521300760546 -0.628028214676279  0.00890044440360266 0.00927123341676947  0.00889466883290975 0.00925102402656603  0.66497320712558 -0.72824759595806 
440.46875  0.756032645326868 -0.630584925149201  0.0090428108673635 0.0092314916731827  0.00898031359680221 0.00927973786818039  0.657678894119541 -0.73300825727296 
444.1875  0.747847482041249 -0.636857637880089  0.00912750521894649 0.00920876672816698  0.00911861290784569 0.00920607871496556  0.652324448323319 -0.735646998980388 
447.90625  0.745854196472669 -0.641057778347659  0.00924801786611178 0.00925292502907389  0.00924409386450217 0.0092494001308013  0.649278980391374 -0.740897601568077 
451.625  0.741904888238833 -0.645041061588058  0.009328943607382 0.00926224972362212  0.00932495851259564 0.00924999214696099  0.645031104587471 -0.74525495594512 
455.34375  0.737991940203231 -0.648033161411126  0.00939856793747317 0.00928372844092848  0.00939851106905548 0.00928353436147473  0.64043153889999 -0.748536556890098 
459.0625  0.734161049829858 -0.652639126672469  0.0095200275100189 0.00924875114611664  0.00950931641587908 0.00924723223479988  0.635279131447199 -0.753034321135558 
462.78125  0.730867021187546 -0.656513034290494  0.0096359340743172 0.00926711401467369  0.00962532320431081 0.00924914901098239  0.630486046185494 -0.757036403658132 
466.5  0.726858715290663 -0.661367366877081  0.00976922755317998 0.0092094683731178  0.00974885551897399 0.00921058597220374  0.625222206855411 -0.761581555757313 
470.21875  0.723181241587513 -0.664928043977194  0.00987868512732226 0.00921223999370325  0.00988384430564058 0.0091919330827816  0.619996948706683 -0.765613083887744 
473.9375  0.720056534370681 -0.668700232349549  0.00997190035616532 0.00922053279228158  0.00997420641935427 0.00920799318568639  0.615498402023701 -0.769502891849671 
477.65625  0.716297907654835 -0.672603890320586  0.0100998091724911 0.00919755394319909  0.0101002559329866 0.00918948950956447  0.610246284731666 -0.773490523543046 
481.375  0.71242063079676 -0.676226004751834  0.0101914361256886 0.00920754691299396  0.0101823223448076 0.00920919718633414  0.604843037756776 -0.777091084078345 
