! Matrix data file written by TouchstoneData, EPCOS AG
! FILENAME: "B3595.NB.s2p"
! COMMENT: "(B3595.NB.s2p)"
! INFO: nport=2, nfreq=1601
! DATE: "Thu Jan 31 16:28:37 2013"
! USER: "Adrian Ma"
!
! port | pin | signal
! -----|-----|--------
!   1  |  2  |  IN
!   2  |  5  |  OUT
! --------------------
! 
# MHZ S RI R 50
! freq  reS11 imS11  reS21 imS21  reS12 imS12  reS22 imS22
2000  -0.856896212515617 -0.36981454469491  0.0012865679172177 -0.00175585027057804  0.00129182127033853 -0.00175202730111033  -0.896184997732946 -0.281775955281418 
2000.4375  -0.857147247701647 -0.369214948933097  0.00128347710347833 -0.00174174465637474  0.00128911327824169 -0.00174410281487378  -0.896530388042489 -0.281328677277328 
2000.875  -0.857382555904071 -0.36869622740509  0.00129267999188511 -0.00173690731623426  0.00128881150732907 -0.00174540220796646  -0.896727571238452 -0.280749345627317 
2001.3125  -0.857438768709572 -0.368274024740904  0.0012855517092938 -0.00172879248184076  0.00128058731420287 -0.0017263469848987  -0.896767647502854 -0.280354731523478 
2001.75  -0.857605565340827 -0.367821668699522  0.00129048491031917 -0.00171420947310896  0.00129402769762622 -0.00170890703320353  -0.89699512120129 -0.280009677515194 
2002.1875  -0.857922859067832 -0.367255780106955  0.00128691492803714 -0.00170777907309734  0.00129623357777135 -0.0017092221063718  -0.897404359681503 -0.279379190663789 
2002.625  -0.858281737910842 -0.366669520880388  0.00128725827559714 -0.00171315238894111  0.00129205974544487 -0.00169726219541983  -0.89747722459398 -0.278785576069995 
2003.0625  -0.858611910687334 -0.366186448165261  0.00129148731348614 -0.00169038142366541  0.00128549513950798 -0.00168633423658665  -0.897423729865981 -0.278406457776389 
2003.5  -0.858935231176342 -0.365776025691515  0.00128752791110812 -0.0016745523554232  0.00127859886397015 -0.00167404883155442  -0.897818556084369 -0.278156003550399 
2003.9375  -0.859402891601116 -0.365181363593607  0.00129822696020055 -0.00167243043833928  0.00129518181614565 -0.00166580272368173  -0.898025013312193 -0.277567212553262 
2004.375  -0.859749020108426 -0.364670910734518  0.00129011406916393 -0.00167726769287701  0.00129767649652047 -0.00166821011057236  -0.898197165772708 -0.276919707652411 
2004.8125  -0.860043384272399 -0.364102701265103  0.00129324670305822 -0.00166770596694043  0.00128474643501193 -0.00167226336905816  -0.898226954087795 -0.2764748813413 
2005.25  -0.860301100755788 -0.363605750072795  0.00128875777493757 -0.00166203313262858  0.00129023912622745 -0.00165399458296301  -0.898377674137383 -0.276155056330562 
2005.6875  -0.860541835935708 -0.363199174001136  0.00130005128646441 -0.00165913105060276  0.00129409491194045 -0.0016533601751866  -0.898620568017261 -0.275783944622065 
2006.125  -0.86079659437281 -0.362685886571458  0.00129465652360675 -0.00165364927914546  0.00128908684092634 -0.00164929417278559  -0.898744560793346 -0.275201379145069 
2006.5625  -0.861064353591966 -0.362199516736214  0.00128811565063529 -0.00165267806808823  0.001292368792813 -0.00164768293035684  -0.898867438193167 -0.274758926704205 
2007  -0.861439107074686 -0.361544333354499  0.00127685760996516 -0.00164477893913353  0.00128433047518648 -0.00164010563107064  -0.899212504883373 -0.274216870671523 
2007.4375  -0.861853075132274 -0.360926008432952  0.00128970652907972 -0.0016456235241642  0.00129387178711698 -0.00164476468663015  -0.899398707935766 -0.273637253074541 
2007.875  -0.862081097754819 -0.360356701795679  0.00128047166504963 -0.00164183993658731  0.0012860804060996 -0.0016375591025819  -0.899565448935453 -0.273307268093959 
2008.3125  -0.86234630407267 -0.359871732837526  0.00128118980644683 -0.00163546531597996  0.00128041005459467 -0.00162863170626898  -0.89980137894262 -0.27296892527218 
2008.75  -0.862762763599289 -0.359345658439238  0.00128120589030107 -0.00162881658160206  0.00128403684217061 -0.00163163446262205  -0.900178700087939 -0.272378234756944 
2009.1875  -0.863256990891289 -0.358470351066196  0.00128407460703765 -0.00163338118090758  0.00128520605766119 -0.00163286478477515  -0.900555735235236 -0.271679793628395 
2009.625  -0.863588918127283 -0.357693510478425  0.00127460086378059 -0.00163325274361363  0.00127667387441424 -0.00163224326674842  -0.900835537009516 -0.271096956373712 
2010.0625  -0.863828583179443 -0.357136893897258  0.00126931591593005 -0.00162882931035294  0.00127031561967571 -0.00162787431499629  -0.901065643507653 -0.270769216886347 
2010.5  -0.864023967425026 -0.356671064344222  0.00127253036975167 -0.00161667244741181  0.00126645456301585 -0.00161253470899935  -0.901429418702018 -0.270214516197216 
2010.9375  -0.864270077440471 -0.355979746833976  0.00125785184528035 -0.00161487453834136  0.00126920188785812 -0.00161824180458886  -0.90158186427953 -0.269578441420789 
2011.375  -0.864335139869173 -0.355260527174161  0.00126742694761809 -0.00161494340448172  0.00126224698517138 -0.00161267049672836  -0.901760895825829 -0.268940367802475 
2011.8125  -0.864532512671471 -0.354790179841227  0.00125656415264913 -0.00160610953880855  0.0012574944981917 -0.00160650204954036  -0.901815993718649 -0.26869286404926 
2012.25  -0.864802078561889 -0.354266553075691  0.00126631489129773 -0.00161533741260669  0.00126279116570993 -0.00161352909452484  -0.902279755797706 -0.267939577944812 
2012.6875  -0.865067178798756 -0.353561500110285  0.00124877675876983 -0.0016162839747624  0.00125609629698165 -0.00162115094043121  -0.902444222424434 -0.267382572541881 
2013.125  -0.865192675296649 -0.352894345917078  0.00124724380973155 -0.00161525232826784  0.00124021070462101 -0.00161145563192759  -0.902650053456301 -0.266893680529173 
2013.5625  -0.865435027251796 -0.352325318896378  0.00123585063175391 -0.00161151717990168  0.00123926283773038 -0.00161481423632845  -0.902869749279147 -0.266332446125406 
2014  -0.865744293074303 -0.351699217461498  0.00123048690100236 -0.00159867433583868  0.00123600129872361 -0.00160523647597889  -0.903155201292802 -0.265685727806254 
2014.4375  -0.866062064654697 -0.350954673775601  0.00121886992026927 -0.00160923170930441  0.00121735473707129 -0.00160553011379572  -0.90334837927628 -0.265095539365507 
2014.875  -0.866263381930686 -0.35033484150705  0.00121516325869299 -0.00159643114740084  0.00121009678684262 -0.00159356862332984  -0.903585817893865 -0.264379058180943 
2015.3125  -0.8665882764799 -0.349678308608463  0.00120226610110488 -0.00159237083495052  0.0012053079441515 -0.00159598791125158  -0.903881742659028 -0.263697370052038 
2015.75  -0.867030658017813 -0.348933437619914  0.00120667538223905 -0.00159766370177468  0.00120069720379578 -0.0015828019730529  -0.904057605103194 -0.263034293846703 
2016.1875  -0.867261153602664 -0.348095459259285  0.00118257623254621 -0.00159287827412401  0.00119304439907798 -0.0015919408684955  -0.904134204195878 -0.26234657934374 
2016.625  -0.867418221825489 -0.347706891604526  0.00118444884231677 -0.00158515156090716  0.00118095641726366 -0.00158299027654193  -0.904254387273782 -0.262060188156519 
2017.0625  -0.867535363733983 -0.347136890123253  0.0011819009981646 -0.00157979342025381  0.00117418545755037 -0.00158328157905295  -0.90441758074912 -0.261551394959662 
2017.5  -0.867794027051 -0.346636434786195  0.00115910295116001 -0.00157840061246957  0.00115371096392363 -0.00157663220173029  -0.904537846786581 -0.2609590470587 
2017.9375  -0.868001684026071 -0.345952017412776  0.00115270385995791 -0.0015803929544876  0.00114925628511139 -0.00156793661143567  -0.904624680410919 -0.260441872400131 
2018.375  -0.86815112593099 -0.345385562340297  0.00114529064844484 -0.00157145083531764  0.00114656085069004 -0.0015715061295406  -0.904729269273872 -0.260014897274094 
2018.8125  -0.868299244445843 -0.34476591814476  0.0011253336673936 -0.00156389108378053  0.00112274095450744 -0.00155812957499527  -0.904873044761977 -0.259573387680287 
2019.25  -0.868407239019635 -0.344146260770706  0.00111446330736476 -0.00154970549140066  0.00112345118269298 -0.00155488235125685  -0.905012703392738 -0.258914375439212 
2019.6875  -0.868687239468106 -0.343382202562816  0.00110826520934383 -0.00153797963238343  0.00110110586608927 -0.00153759631717034  -0.905187623727816 -0.258163415624964 
2020.125  -0.86889777193338 -0.342512997758326  0.00110659741528975 -0.00153002790610654  0.00110391591072327 -0.00152780635330565  -0.905295029539867 -0.257311290864059 
2020.5625  -0.869071018478236 -0.341759061957722  0.00109495086432629 -0.00152239521671797  0.00109302117517711 -0.00151685964086455  -0.905446448620947 -0.256814684658493 
2021  -0.86924216025674 -0.34105387892103  0.00109226686305732 -0.00151189936404334  0.0010916399945831 -0.00151403928668194  -0.905617358847027 -0.256264602976249 
2021.4375  -0.869479146235142 -0.340356600493818  0.0010807988414017 -0.00150747345464739  0.00108220683581403 -0.00150356649989163  -0.905755198710083 -0.255428797060762 
2021.875  -0.869769385610434 -0.339494728127602  0.00106531129777112 -0.00149687095257689  0.00106788814873791 -0.00149539817522742  -0.905989633925149 -0.254547111272884 
2022.3125  -0.870003760566125 -0.338648853291305  0.00106839660133243 -0.00148334443338295  0.00106322456102071 -0.00148738015211655  -0.906001901700295 -0.253678345336747 
2022.75  -0.870160838358374 -0.337974227514162  0.00105799374886041 -0.00148446362954124  0.00105604198794063 -0.00147636778505046  -0.906069757580339 -0.253315407757412 
2023.1875  -0.870068658872991 -0.33747302101862  0.00105353350917388 -0.00146594498540222  0.00104978269289369 -0.00146241747854423  -0.906109219835317 -0.253014773096914 
2023.625  -0.870167489482351 -0.336932800975996  0.00104553624899468 -0.00145331547372311  0.00104170206559221 -0.00145666139663818  -0.906122305779083 -0.252540009652945 
2024.0625  -0.870202289905051 -0.336254440025479  0.00104022589053011 -0.00143895039696874  0.00103883448102944 -0.00144804450488515  -0.906181720950577 -0.251818844236086 
2024.5  -0.870415282925467 -0.335533411267392  0.00104148931143687 -0.00142311973416786  0.00103263450442761 -0.00143461915347061  -0.906314642613037 -0.251204396859252 
2024.9375  -0.870630855537738 -0.334770347265175  0.00103385120633997 -0.00142415325948251  0.00103409680129452 -0.00142035717801266  -0.906349850426591 -0.250582345935707 
2025.375  -0.870719531909471 -0.334186319676303  0.00103489097645639 -0.00141414863887255  0.00103973625274253 -0.00141432111067755  -0.906421789413224 -0.250071768807429 
2025.8125  -0.870863011232986 -0.333560972435447  0.00103493767734793 -0.00140735722429375  0.00103286006334922 -0.0014019427129356  -0.906524140017942 -0.2495037823913 
2026.25  -0.871017505493049 -0.332788795602432  0.00102460682801156 -0.00139341299004185  0.0010231701537263 -0.00139321865277111  -0.90655151197113 -0.248726669917592 
2026.6875  -0.87121832665808 -0.331996448566797  0.00103631530231228 -0.00139511568383441  0.00102314839271388 -0.00137661090837308  -0.90665624948248 -0.247960017524577 
2027.125  -0.871406894367021 -0.331211064334366  0.00102404662779237 -0.00138952532805644  0.00102838204013819 -0.00138101627195318  -0.906776090792431 -0.247217089970641 
2027.5625  -0.871580606395897 -0.330477564061802  0.00102023028501253 -0.0013782155571687  0.00101783193051027 -0.00138254435799065  -0.90686378409385 -0.24647784417872 
2028  -0.871879002705056 -0.329698400319132  0.00101379159455787 -0.00137573242903004  0.00101644831843862 -0.00137114633220739  -0.906941062547221 -0.245821365118562 
2028.4375  -0.871828579910285 -0.329000897563539  0.0010043196140985 -0.00136480358276062  0.00101110814075789 -0.00137060841635779  -0.906825421845685 -0.245075939490175 
2028.875  -0.871847847166563 -0.328231827367115  0.00100580900708283 -0.00136525032367054  0.00100445620874473 -0.00135955352258975  -0.906788335495337 -0.244684198954937 
2029.3125  -0.87174442230414 -0.327583365832997  0.000981342617505762 -0.00134676598375236  0.000999594625298966 -0.0013527404645406  -0.906691662273 -0.244249994620027 
2029.75  -0.8715901476603 -0.327032243661117  0.000990335132468846 -0.00134558837883772  0.000992038340004297 -0.00133833576374888  -0.906629371344824 -0.243835228439683 
2030.1875  -0.871636138623372 -0.326456019823869  0.000980269595997731 -0.00134754650521915  0.000986700875481568 -0.00133953487756785  -0.906516439158005 -0.243384955238931 
2030.625  -0.871601847544727 -0.325909875345436  0.000980784467005544 -0.00133682169359697  0.000982621246018382 -0.00133552256337503  -0.906427228437074 -0.242865796748009 
2031.0625  -0.871636549030661 -0.325135399519549  0.000985108950645901 -0.00133111009519224  0.000973499204552027 -0.00133384235259254  -0.906335110144916 -0.242371518168052 
2031.5  -0.871675688380181 -0.32455274303938  0.000965471387282437 -0.00131680992056469  0.000959521814639356 -0.00132656026869711  -0.906257940469301 -0.241758929503798 
2031.9375  -0.871631108970961 -0.323888082982105  0.000953679765344193 -0.0013069772944378  0.000948203507532255 -0.00130694453313444  -0.906250323279486 -0.241287736074774 
2032.375  -0.871647112492633 -0.32338438459886  0.000956004619326753 -0.00130917398650833  0.000957231970987553 -0.00131036671260628  -0.906321801617802 -0.240758207095373 
2032.8125  -0.871686238456449 -0.322850552179422  0.000947779729517869 -0.00130274682588627  0.000944158400193854 -0.00129521472387825  -0.906140982091544 -0.240140487919434 
2033.25  -0.871809559136398 -0.322229997505674  0.000942492639294676 -0.00130125483634115  0.000939815802498146 -0.0012897976195861  -0.906092328410901 -0.239542708417236 
2033.6875  -0.871891872962007 -0.321727860349145  0.000931322580768926 -0.00128152694740738  0.000930805849724037 -0.00128186393291949  -0.906088236759973 -0.239148981834741 
2034.125  -0.872048179091516 -0.321201863540936  0.000922257244603087 -0.00127251576788718  0.000915616611836122 -0.00128953672939897  -0.906156431668976 -0.238405440993471 
2034.5625  -0.871942351065418 -0.32088059557742  0.000918083999612161 -0.0012542942714037  0.000912189826484961 -0.00125418942348833  -0.906118011189949 -0.23831893642526 
2035  -0.871956729283179 -0.320627910946713  0.000908340375386111 -0.00124824612808966  0.000903377905537502 -0.00124913777397796  -0.905876611676879 -0.238215991942965 
2035.4375  -0.871957888481596 -0.320332137303794  0.000905690087092034 -0.0012485368222682  0.000900617415863926 -0.00124428311026109  -0.905828424033305 -0.238148506152122 
2035.875  -0.872031715296202 -0.319822030659364  0.000893909397706169 -0.00123316671079836  0.000903721521622796 -0.00123286798045845  -0.905976599474693 -0.238095478130184 
2036.3125  -0.872090768876263 -0.319433964596284  0.000899271033176595 -0.00123296049006658  0.000898627708944493 -0.00122796317302302  -0.906132051300839 -0.237698428210147 
2036.75  -0.87222760421396 -0.318984269283732  0.00088668618849349 -0.0012128645670116  0.000895644683908787 -0.00121450872860795  -0.906199584180074 -0.23751627131992 
2037.1875  -0.87250165536017 -0.318711671306388  0.000894021252583074 -0.00120039570104791  0.000889786895824994 -0.00120298225243842  -0.906380084847253 -0.237375072779476 
2037.625  -0.872783693628399 -0.318476732172971  0.000878691632570013 -0.00120232512283755  0.000870984457929007 -0.00119503963995204  -0.906626952511699 -0.237024209364907 
2038.0625  -0.873071371795173 -0.31813009590955  0.00086770107055004 -0.00118937480143408  0.000868705051063598 -0.00118184710178031  -0.906948218729903 -0.236675401886314 
2038.5  -0.873515142930397 -0.317670822159051  0.000874840086666375 -0.00117981717623156  0.000878983094422247 -0.001161792917314  -0.907388218167221 -0.236083909363899 
2038.9375  -0.873939804227661 -0.317163515270969  0.000863971075127117 -0.00117386675739976  0.000864047387619663 -0.00117177242750381  -0.907603112733689 -0.235420608134474 
2039.375  -0.874634398478796 -0.316623885614202  0.000850727790116842 -0.00114981679492155  0.000852233283777413 -0.00115871161684209  -0.907910008500219 -0.234957099504344 
2039.8125  -0.875200198948679 -0.316192608589882  0.000845841195795324 -0.00114432230538635  0.00085401104250876 -0.00114037074090304  -0.908224736954393 -0.234425597082731 
2040.25  -0.875789166491519 -0.315572242061089  0.000842369933793267 -0.00112677898416323  0.000845846435481749 -0.00112749819862914  -0.908684451600214 -0.233760686197562 
2040.6875  -0.876061390070933 -0.314957528342083  0.000852275632753258 -0.00111486401937466  0.000847212135031979 -0.00111886405342535  -0.908736258058742 -0.233347665692201 
2041.125  -0.876420190250163 -0.314228496886416  0.000847762667954007 -0.00111681232961318  0.000843793141079021 -0.00111078322397644  -0.908926116049627 -0.232872017137457 
2041.5625  -0.876704559929479 -0.313527467639998  0.000838270751469543 -0.00110434070910251  0.0008428186345971 -0.00109155831491536  -0.909011897935273 -0.232490314329548 
2042  -0.876969688220357 -0.3129803732588  0.00084328785146018 -0.00108361210955445  0.000849393801038219 -0.00108796416552185  -0.909102562672607 -0.232266442828212 
2042.4375  -0.877276587325389 -0.312362271837743  0.00083643297953527 -0.00108679757455762  0.000839139657133726 -0.00108510670314621  -0.909207255553985 -0.231986634297499 
2042.875  -0.877618797312808 -0.311622176163151  0.000836835824961424 -0.00106901115509844  0.000833354392289604 -0.00106893706004275  -0.90944070053847 -0.231302795878981 
2043.3125  -0.877999759540346 -0.310844116129981  0.000835455311912681 -0.00105151475999234  0.000839824069824608 -0.00105248690015186  -0.909719949796542 -0.230911850973375 
2043.75  -0.878482535429131 -0.310011011836698  0.000838844204539966 -0.00104422166543172  0.000836745749903682 -0.00104453931751322  -0.909933528820113 -0.2303269181552 
2044.1875  -0.878722191498604 -0.30933633682773  0.000835924285525569 -0.00103860716851897  0.000825334477183237 -0.00103863466345202  -0.910199049004774 -0.230065782542877 
2044.625  -0.879184478355519 -0.308678925808217  0.000834461423514072 -0.00101981358032924  0.000833885910897653 -0.00101868453683873  -0.910564784958585 -0.229629370735961 
2045.0625  -0.879531486571389 -0.307934053426545  0.000841669371084188 -0.00102334224942343  0.000837709634098955 -0.00100665157316057  -0.91112742079829 -0.228723109961621 
2045.5  -0.880128697868581 -0.307038719181533  0.000840805044485474 -0.00100712642838615  0.000836046979692346 -0.00100385527166844  -0.911505996449215 -0.227966171987782 
2045.9375  -0.880686772777147 -0.306104393008043  0.000834405903066586 -0.000999054661179423  0.00082818475802525 -0.00099712771820356  -0.911940627387293 -0.227074020224272 
2046.375  -0.881028294183692 -0.305393405189624  0.000835374098020871 -0.000976697390620038  0.000840867528410411 -0.000979018468586726  -0.912177786357083 -0.226646906908592 
2046.8125  -0.881198378314131 -0.304636016620612  0.000850373283858839 -0.000972146422112702  0.000849130799826443 -0.000977957958035967  -0.912307674919707 -0.226372380983104 
2047.25  -0.88134385571976 -0.303880938641359  0.000856270958913445 -0.000970376071476263  0.000850232119232357 -0.000975911214583873  -0.912651652419599 -0.225766052373978 
2047.6875  -0.881639777406291 -0.303017966421551  0.0008625252467612 -0.000962223599929583  0.000863612899152721 -0.000967477575913915  -0.912949557493739 -0.225045161895758 
2048.125  -0.881989558466537 -0.302143446006179  0.000855686002380054 -0.000955841896675445  0.000858613314225592 -0.00095563593551026  -0.913066889409073 -0.224438199591722 
2048.5625  -0.882263631323706 -0.301424665024663  0.000856030600099153 -0.00096331243639769  0.000852622058284806 -0.000953889995613175  -0.913304169741684 -0.223956354334696 
2049  -0.882523738616106 -0.300692313027059  0.000856637404061438 -0.000959955537370514  0.000867122476359154 -0.00094677239949639  -0.913578312694426 -0.223427206637043 
2049.4375  -0.882915776882653 -0.299949388050224  0.000849552127966726 -0.000960567690517784  0.000857855249002087 -0.000945761554930894  -0.914050879964952 -0.222706079181577 
