! Matrix data file written by TouchstoneData, EPCOS AG
! FILENAME: "B3714_sb.s2p"
! COMMENT: "PCB 143; PORTEX1 75.5PS; PORTEX2 161.5PS; 22"
! INFO: nport=2, nfreq=1601
! DATE: "Fri Mar 31 14:29:25 2006"
! USER: "Michael Schemies"
!
# MHZ S MA R 50
! freq  magS11 angS11  magS21 angS21  magS12 angS12  magS22 angS22
2.643500E+02  9.855487E-01 -3.701339E+01  8.061408E-05 -7.260056E+01  7.040117E-05 -6.992899E+01  9.813348E-01 -3.187384E+01 
2.644125E+02  9.857351E-01 -3.701690E+01  8.505541E-05 -1.003628E+02  7.634497E-05 -9.935425E+01  9.812341E-01 -3.186972E+01 
2.644750E+02  9.859188E-01 -3.703147E+01  7.144553E-05 -1.147289E+02  5.847074E-05 -1.098508E+02  9.813651E-01 -3.188448E+01 
2.645375E+02  9.861851E-01 -3.703760E+01  6.768486E-05 -8.903451E+01  5.417920E-05 -9.186658E+01  9.815581E-01 -3.189632E+01 
2.646000E+02  9.864705E-01 -3.706136E+01  9.433377E-05 -8.966192E+01  8.737708E-05 -8.771492E+01  9.817238E-01 -3.190576E+01 
2.646625E+02  9.866667E-01 -3.707529E+01  1.331865E-04 -8.683650E+01  1.193511E-04 -8.590615E+01  9.818782E-01 -3.191870E+01 
2.647250E+02  9.867776E-01 -3.709346E+01  1.375439E-04 -9.270758E+01  1.315746E-04 -9.545330E+01  9.820199E-01 -3.193795E+01 
2.647875E+02  9.869173E-01 -3.711789E+01  1.360533E-04 -9.575223E+01  1.285590E-04 -9.492931E+01  9.822350E-01 -3.195581E+01 
2.648500E+02  9.868814E-01 -3.712816E+01  1.870514E-04 -1.071732E+02  1.810803E-04 -1.082097E+02  9.820904E-01 -3.197779E+01 
2.649125E+02  9.868503E-01 -3.716158E+01  1.738914E-04 -1.122789E+02  1.660015E-04 -1.115996E+02  9.822794E-01 -3.198793E+01 
2.649750E+02  9.869276E-01 -3.718181E+01  1.992512E-04 -1.064908E+02  1.934496E-04 -1.065450E+02  9.822813E-01 -3.200029E+01 
2.650375E+02  9.868879E-01 -3.720138E+01  2.628608E-04 -1.197761E+02  2.595020E-04 -1.214029E+02  9.824115E-01 -3.201476E+01 
2.651000E+02  9.869978E-01 -3.721171E+01  2.725522E-04 -1.392146E+02  2.586269E-04 -1.400348E+02  9.822794E-01 -3.202973E+01 
2.651625E+02  9.869977E-01 -3.722589E+01  2.467824E-04 -1.484199E+02  2.366760E-04 -1.486743E+02  9.824818E-01 -3.204490E+01 
2.652250E+02  9.868998E-01 -3.723964E+01  2.361581E-04 -1.559001E+02  2.325567E-04 -1.581156E+02  9.826568E-01 -3.205851E+01 
2.652875E+02  9.870766E-01 -3.725181E+01  2.044202E-04 -1.683904E+02  2.058822E-04 -1.679721E+02  9.827426E-01 -3.208001E+01 
2.653500E+02  9.869396E-01 -3.727425E+01  1.730945E-04 -1.669980E+02  1.806488E-04 -1.654773E+02  9.828311E-01 -3.209592E+01 
2.654125E+02  9.871098E-01 -3.729259E+01  1.771384E-04 -1.665669E+02  1.691007E-04 -1.714536E+02  9.826856E-01 -3.210528E+01 
2.654750E+02  9.872193E-01 -3.730090E+01  1.700725E-04 -1.783082E+02  1.637751E-04 -1.798521E+02  9.827529E-01 -3.211599E+01 
2.655375E+02  9.872642E-01 -3.730921E+01  1.445365E-04 1.780621E+02  1.431694E-04 1.736766E+02  9.830056E-01 -3.212829E+01 
2.656000E+02  9.871893E-01 -3.732619E+01  1.155592E-04 -1.784152E+02  1.128515E-04 -1.799824E+02  9.831037E-01 -3.213130E+01 
2.656625E+02  9.875106E-01 -3.734479E+01  8.893773E-05 -1.738358E+02  8.368824E-05 -1.783427E+02  9.832749E-01 -3.215596E+01 
2.657250E+02  9.875167E-01 -3.736019E+01  9.091435E-05 -1.523149E+02  8.951357E-05 -1.572640E+02  9.834254E-01 -3.217714E+01 
2.657875E+02  9.877063E-01 -3.738338E+01  1.217743E-04 -1.497005E+02  1.173193E-04 -1.484994E+02  9.836254E-01 -3.219136E+01 
2.658500E+02  9.878417E-01 -3.740828E+01  1.389468E-04 -1.615822E+02  1.416884E-04 -1.644907E+02  9.835357E-01 -3.221038E+01 
2.659125E+02  9.877392E-01 -3.742920E+01  1.219459E-04 -1.654674E+02  1.158027E-04 -1.664442E+02  9.836019E-01 -3.223459E+01 
2.659750E+02  9.877611E-01 -3.744347E+01  1.063070E-04 -1.674197E+02  9.679401E-05 -1.714568E+02  9.836027E-01 -3.224439E+01 
2.660375E+02  9.876865E-01 -3.745224E+01  1.206564E-04 -1.599517E+02  1.242861E-04 -1.654303E+02  9.836395E-01 -3.226158E+01 
2.661000E+02  9.878096E-01 -3.746650E+01  1.227460E-04 -1.563905E+02  1.137504E-04 -1.585102E+02  9.838462E-01 -3.226804E+01 
2.661625E+02  9.879819E-01 -3.748592E+01  1.124683E-04 -1.756591E+02  1.125416E-04 -1.782352E+02  9.839781E-01 -3.228850E+01 
2.662250E+02  9.879719E-01 -3.750660E+01  9.411603E-05 -1.742168E+02  8.498257E-05 -1.765856E+02  9.840313E-01 -3.230637E+01 
2.662875E+02  9.880460E-01 -3.752388E+01  8.056802E-05 -1.696186E+02  7.593611E-05 -1.751121E+02  9.839675E-01 -3.232190E+01 
2.663500E+02  9.879159E-01 -3.753760E+01  7.387672E-05 -1.534138E+02  6.594222E-05 -1.521428E+02  9.840251E-01 -3.234178E+01 
2.664125E+02  9.881004E-01 -3.754646E+01  7.399310E-05 -1.610739E+02  6.384923E-05 -1.595499E+02  9.840768E-01 -3.235679E+01 
2.664750E+02  9.882419E-01 -3.757059E+01  7.704636E-05 -1.368623E+02  7.130676E-05 -1.413285E+02  9.841925E-01 -3.237096E+01 
2.665375E+02  9.881818E-01 -3.758944E+01  8.617058E-05 -1.320795E+02  8.590382E-05 -1.277666E+02  9.842395E-01 -3.239028E+01 
2.666000E+02  9.885151E-01 -3.760836E+01  1.124410E-04 -1.403225E+02  9.872936E-05 -1.402067E+02  9.841820E-01 -3.240271E+01 
2.666625E+02  9.884951E-01 -3.762515E+01  1.261438E-04 -1.402670E+02  1.232916E-04 -1.391784E+02  9.844779E-01 -3.242456E+01 
2.667250E+02  9.886224E-01 -3.764954E+01  1.116985E-04 -1.371489E+02  1.012128E-04 -1.380833E+02  9.846816E-01 -3.244192E+01 
2.667875E+02  9.885907E-01 -3.767536E+01  1.114787E-04 -1.469691E+02  1.142070E-04 -1.488307E+02  9.847392E-01 -3.246848E+01 
2.668500E+02  9.888204E-01 -3.770486E+01  1.026687E-04 -1.544172E+02  9.446581E-05 -1.537980E+02  9.848107E-01 -3.249575E+01 
2.669125E+02  9.885867E-01 -3.772101E+01  1.080227E-04 -1.348964E+02  9.497107E-05 -1.352648E+02  9.847420E-01 -3.250736E+01 
2.669750E+02  9.886359E-01 -3.774086E+01  1.136976E-04 -1.488385E+02  1.105268E-04 -1.462925E+02  9.848055E-01 -3.253036E+01 
2.670375E+02  9.888005E-01 -3.776422E+01  1.093782E-04 -1.439266E+02  9.609357E-05 -1.432043E+02  9.849023E-01 -3.255001E+01 
2.671000E+02  9.887003E-01 -3.778812E+01  1.079441E-04 -1.399281E+02  1.080224E-04 -1.401287E+02  9.848095E-01 -3.257095E+01 
2.671625E+02  9.887691E-01 -3.780285E+01  9.976596E-05 -1.357613E+02  9.404590E-05 -1.391469E+02  9.848465E-01 -3.258867E+01 
2.672250E+02  9.886288E-01 -3.782668E+01  1.123565E-04 -1.390000E+02  1.070170E-04 -1.368522E+02  9.848355E-01 -3.260950E+01 
2.672875E+02  9.887028E-01 -3.784459E+01  8.694280E-05 -1.479683E+02  9.290424E-05 -1.516009E+02  9.849616E-01 -3.263088E+01 
2.673500E+02  9.887431E-01 -3.786960E+01  9.580070E-05 -1.153114E+02  9.123028E-05 -1.113348E+02  9.848419E-01 -3.264910E+01 
2.674125E+02  9.886234E-01 -3.787993E+01  1.578852E-04 -1.111348E+02  1.557925E-04 -1.093233E+02  9.848189E-01 -3.266940E+01 
2.674750E+02  9.888856E-01 -3.789902E+01  1.450480E-04 -1.309721E+02  1.451089E-04 -1.311713E+02  9.847738E-01 -3.267214E+01 
2.675375E+02  9.887859E-01 -3.791862E+01  1.721859E-04 -1.283739E+02  1.630707E-04 -1.299936E+02  9.848657E-01 -3.269200E+01 
2.676000E+02  9.887864E-01 -3.794196E+01  1.593833E-04 -1.375266E+02  1.544349E-04 -1.403742E+02  9.848549E-01 -3.271081E+01 
2.676625E+02  9.887878E-01 -3.796368E+01  1.752355E-04 -1.351799E+02  1.705629E-04 -1.370769E+02  9.850218E-01 -3.272373E+01 
2.677250E+02  9.888805E-01 -3.798922E+01  1.898139E-04 -1.394222E+02  1.748054E-04 -1.403081E+02  9.851137E-01 -3.273847E+01 
2.677875E+02  9.887560E-01 -3.800656E+01  2.029857E-04 -1.436079E+02  1.949184E-04 -1.442261E+02  9.851657E-01 -3.276608E+01 
2.678500E+02  9.887460E-01 -3.802832E+01  2.039143E-04 -1.573612E+02  1.941531E-04 -1.565634E+02  9.850840E-01 -3.278294E+01 
2.679125E+02  9.887972E-01 -3.805083E+01  2.197466E-04 -1.669593E+02  2.117030E-04 -1.674820E+02  9.851110E-01 -3.280883E+01 
2.679750E+02  9.888558E-01 -3.807056E+01  1.892164E-04 -1.745890E+02  1.835218E-04 -1.768322E+02  9.851565E-01 -3.282192E+01 
2.680375E+02  9.887479E-01 -3.809896E+01  1.569318E-04 -1.782835E+02  1.500187E-04 -1.775186E+02  9.852165E-01 -3.285146E+01 
2.681000E+02  9.887083E-01 -3.811361E+01  1.378327E-04 1.766333E+02  1.360448E-04 1.766965E+02  9.851752E-01 -3.287006E+01 
2.681625E+02  9.887211E-01 -3.813871E+01  1.137196E-04 1.760398E+02  1.175334E-04 1.750800E+02  9.851840E-01 -3.288830E+01 
2.682250E+02  9.886127E-01 -3.815850E+01  1.087061E-04 1.648445E+02  1.021580E-04 1.629124E+02  9.851663E-01 -3.291088E+01 
2.682875E+02  9.886280E-01 -3.817233E+01  5.355429E-05 1.657666E+02  5.529302E-05 1.671856E+02  9.851187E-01 -3.292738E+01 
2.683500E+02  9.883747E-01 -3.819252E+01  5.598718E-05 -1.357638E+02  4.544683E-05 -1.408216E+02  9.851138E-01 -3.294415E+01 
2.684125E+02  9.882665E-01 -3.820291E+01  9.108918E-05 -1.448344E+02  8.530073E-05 -1.494572E+02  9.849542E-01 -3.295293E+01 
2.684750E+02  9.886091E-01 -3.822341E+01  1.088225E-04 -1.587610E+02  9.514863E-05 -1.614349E+02  9.850932E-01 -3.296945E+01 
2.685375E+02  9.886113E-01 -3.824603E+01  6.884814E-05 -1.528997E+02  6.616875E-05 -1.575650E+02  9.851757E-01 -3.299259E+01 
2.686000E+02  9.887603E-01 -3.826752E+01  8.833102E-05 -1.466726E+02  7.324410E-05 -1.467254E+02  9.852556E-01 -3.301017E+01 
2.686625E+02  9.885655E-01 -3.829087E+01  7.338875E-05 -1.299546E+02  7.420718E-05 -1.328231E+02  9.853105E-01 -3.303002E+01 
2.687250E+02  9.885938E-01 -3.830309E+01  9.999201E-05 -1.361207E+02  1.004953E-04 -1.368626E+02  9.852176E-01 -3.305997E+01 
2.687875E+02  9.886210E-01 -3.832563E+01  8.884874E-05 -1.435557E+02  8.025304E-05 -1.417950E+02  9.851878E-01 -3.307343E+01 
2.688500E+02  9.885750E-01 -3.835651E+01  1.204150E-04 -1.226225E+02  1.085777E-04 -1.166573E+02  9.851740E-01 -3.309621E+01 
2.689125E+02  9.885344E-01 -3.838167E+01  1.153210E-04 -1.309337E+02  1.000886E-04 -1.344380E+02  9.851614E-01 -3.311353E+01 
2.689750E+02  9.884728E-01 -3.838697E+01  1.301516E-04 -1.329513E+02  1.248939E-04 -1.325926E+02  9.850284E-01 -3.312791E+01 
2.690375E+02  9.885009E-01 -3.841863E+01  1.195703E-04 -1.333197E+02  1.175802E-04 -1.411102E+02  9.851328E-01 -3.314343E+01 
2.691000E+02  9.887039E-01 -3.843326E+01  1.272219E-04 -1.397184E+02  1.268903E-04 -1.393979E+02  9.851683E-01 -3.317861E+01 
2.691625E+02  9.885838E-01 -3.846924E+01  1.056391E-04 -1.418929E+02  1.041690E-04 -1.415328E+02  9.852514E-01 -3.319174E+01 
2.692250E+02  9.885248E-01 -3.847033E+01  1.130608E-04 -1.316431E+02  1.113616E-04 -1.329639E+02  9.850875E-01 -3.321103E+01 
2.692875E+02  9.885906E-01 -3.850479E+01  1.278626E-04 -1.344857E+02  1.179270E-04 -1.330451E+02  9.850623E-01 -3.322158E+01 
2.693500E+02  9.887513E-01 -3.852487E+01  1.247710E-04 -1.433465E+02  1.294835E-04 -1.451263E+02  9.852301E-01 -3.324179E+01 
2.694125E+02  9.886214E-01 -3.854925E+01  1.186666E-04 -1.462754E+02  1.106299E-04 -1.467284E+02  9.851289E-01 -3.325547E+01 
2.694750E+02  9.885462E-01 -3.857534E+01  1.006897E-04 -1.413331E+02  9.608111E-05 -1.335004E+02  9.851099E-01 -3.328445E+01 
2.695375E+02  9.884203E-01 -3.860535E+01  9.758115E-05 -1.289002E+02  9.395289E-05 -1.258614E+02  9.851188E-01 -3.330557E+01 
2.696000E+02  9.883558E-01 -3.862331E+01  1.287681E-04 -1.325817E+02  1.346197E-04 -1.327198E+02  9.851191E-01 -3.333676E+01 
2.696625E+02  9.883032E-01 -3.865396E+01  1.111343E-04 -1.349804E+02  1.015664E-04 -1.344083E+02  9.851551E-01 -3.335270E+01 
2.697250E+02  9.880781E-01 -3.867741E+01  1.326305E-04 -1.238952E+02  1.188775E-04 -1.296580E+02  9.851280E-01 -3.338064E+01 
2.697875E+02  9.880877E-01 -3.869369E+01  1.685995E-04 -1.348846E+02  1.632448E-04 -1.374460E+02  9.849121E-01 -3.339641E+01 
2.698500E+02  9.878859E-01 -3.871960E+01  1.204268E-04 -1.383434E+02  1.123305E-04 -1.431184E+02  9.848392E-01 -3.342592E+01 
2.699125E+02  9.878158E-01 -3.874678E+01  1.172945E-04 -1.502889E+02  1.019783E-04 -1.438892E+02  9.848536E-01 -3.343521E+01 
2.699750E+02  9.876907E-01 -3.876526E+01  1.022168E-04 -1.482272E+02  1.083100E-04 -1.467808E+02  9.847195E-01 -3.346578E+01 
2.700375E+02  9.875063E-01 -3.878612E+01  9.940396E-05 -1.405709E+02  8.745493E-05 -1.365271E+02  9.844464E-01 -3.347562E+01 
2.701000E+02  9.873178E-01 -3.879280E+01  1.024415E-04 -1.282319E+02  8.902513E-05 -1.298844E+02  9.844767E-01 -3.349645E+01 
2.701625E+02  9.873346E-01 -3.881989E+01  8.344890E-05 -1.131453E+02  1.084712E-04 -1.017533E+02  9.845366E-01 -3.351159E+01 
2.702250E+02  9.872516E-01 -3.883454E+01  1.320521E-04 -1.224166E+02  1.220786E-04 -1.246731E+02  9.844659E-01 -3.353556E+01 
2.702875E+02  9.873151E-01 -3.885456E+01  1.330924E-04 -1.365393E+02  1.459788E-04 -1.320186E+02  9.843957E-01 -3.355238E+01 
2.703500E+02  9.872194E-01 -3.887671E+01  1.319026E-04 -1.197327E+02  1.453575E-04 -1.264374E+02  9.845618E-01 -3.356112E+01 
2.704125E+02  9.872933E-01 -3.891005E+01  1.645554E-04 -1.220942E+02  1.632053E-04 -1.228441E+02  9.845300E-01 -3.358758E+01 
2.704750E+02  9.872366E-01 -3.892598E+01  1.644655E-04 -1.325166E+02  1.699352E-04 -1.302013E+02  9.844392E-01 -3.361948E+01 
2.705375E+02  9.869876E-01 -3.894674E+01  1.588242E-04 -1.479348E+02  1.576307E-04 -1.453415E+02  9.843486E-01 -3.363506E+01 
2.706000E+02  9.867620E-01 -3.897160E+01  1.466758E-04 -1.436487E+02  1.484573E-04 -1.431450E+02  9.842791E-01 -3.366286E+01 
2.706625E+02  9.865597E-01 -3.899631E+01  1.233300E-04 -1.459773E+02  1.063940E-04 -1.420116E+02  9.841381E-01 -3.368636E+01 
2.707250E+02  9.865545E-01 -3.901991E+01  1.474907E-04 -1.279107E+02  1.432824E-04 -1.306730E+02  9.839321E-01 -3.370840E+01 
2.707875E+02  9.862169E-01 -3.903419E+01  1.392181E-04 -1.524761E+02  1.385371E-04 -1.588929E+02  9.835629E-01 -3.372838E+01 
2.708500E+02  9.860070E-01 -3.905740E+01  8.309166E-05 -1.317357E+02  9.947681E-05 -1.246807E+02  9.833758E-01 -3.374377E+01 
2.709125E+02  9.856783E-01 -3.907077E+01  1.272076E-04 -1.297035E+02  1.176745E-04 -1.259760E+02  9.831590E-01 -3.376519E+01 
2.709750E+02  9.856436E-01 -3.906984E+01  1.319296E-04 -1.231704E+02  1.225955E-04 -1.229204E+02  9.826844E-01 -3.376035E+01 
2.710375E+02  9.854886E-01 -3.907499E+01  1.440762E-04 -1.260792E+02  1.264576E-04 -1.209216E+02  9.827037E-01 -3.375943E+01 
2.711000E+02  9.855639E-01 -3.908205E+01  1.252919E-04 -1.272044E+02  1.262305E-04 -1.322754E+02  9.828387E-01 -3.376196E+01 
2.711625E+02  9.855703E-01 -3.909062E+01  1.150306E-04 -1.304577E+02  1.044304E-04 -1.337055E+02  9.828611E-01 -3.376463E+01 
2.712250E+02  9.857432E-01 -3.911120E+01  1.441179E-04 -1.140088E+02  1.259232E-04 -1.173568E+02  9.830339E-01 -3.378218E+01 
2.712875E+02  9.857529E-01 -3.912371E+01  1.381736E-04 -1.185806E+02  1.393862E-04 -1.206078E+02  9.832720E-01 -3.380219E+01 
2.713500E+02  9.859492E-01 -3.914848E+01  1.653925E-04 -1.189129E+02  1.558724E-04 -1.193467E+02  9.833826E-01 -3.382550E+01 
2.714125E+02  9.860753E-01 -3.918333E+01  1.789458E-04 -1.154922E+02  1.698289E-04 -1.162508E+02  9.834486E-01 -3.384237E+01 
2.714750E+02  9.860558E-01 -3.920765E+01  1.809935E-04 -1.273754E+02  1.895034E-04 -1.285348E+02  9.834877E-01 -3.386531E+01 
2.715375E+02  9.859838E-01 -3.923513E+01  1.860901E-04 -1.335811E+02  1.672218E-04 -1.312572E+02  9.832723E-01 -3.389286E+01 
2.716000E+02  9.858727E-01 -3.927181E+01  1.734572E-04 -1.351798E+02  1.864727E-04 -1.383145E+02  9.833149E-01 -3.391646E+01 
2.716625E+02  9.856094E-01 -3.929375E+01  1.480773E-04 -1.424754E+02  1.360257E-04 -1.434739E+02  9.833435E-01 -3.394176E+01 
2.717250E+02  9.853860E-01 -3.931967E+01  1.185711E-04 -1.207113E+02  1.109048E-04 -1.195122E+02  9.830107E-01 -3.396422E+01 
2.717875E+02  9.850179E-01 -3.934815E+01  1.550376E-04 -1.070186E+02  1.486110E-04 -1.057110E+02  9.828482E-01 -3.399023E+01 
2.718500E+02  9.848136E-01 -3.936006E+01  2.024146E-04 -1.196989E+02  2.028091E-04 -1.154191E+02  9.827819E-01 -3.399841E+01 
2.719125E+02  9.845326E-01 -3.936834E+01  2.199066E-04 -1.144406E+02  2.017919E-04 -1.138650E+02  9.828542E-01 -3.402273E+01 
2.719750E+02  9.844713E-01 -3.938269E+01  2.669196E-04 -1.442790E+02  2.556631E-04 -1.413122E+02  9.825476E-01 -3.404117E+01 
2.720375E+02  9.844824E-01 -3.939593E+01  2.175618E-04 -1.442802E+02  2.116381E-04 -1.456021E+02  9.826136E-01 -3.405897E+01 
2.721000E+02  9.844356E-01 -3.942060E+01  1.924478E-04 -1.371619E+02  1.940070E-04 -1.363043E+02  9.821536E-01 -3.409229E+01 
2.721625E+02  9.841961E-01 -3.943338E+01  2.099982E-04 -1.483763E+02  2.023155E-04 -1.469421E+02  9.820975E-01 -3.410209E+01 
2.722250E+02  9.843230E-01 -3.944782E+01  1.966715E-04 -1.361555E+02  1.846591E-04 -1.402125E+02  9.819354E-01 -3.411784E+01 
2.722875E+02  9.840585E-01 -3.946837E+01  2.414254E-04 -1.526531E+02  2.397792E-04 -1.528655E+02  9.816736E-01 -3.413977E+01 
2.723500E+02  9.840602E-01 -3.948409E+01  1.732875E-04 -1.718088E+02  1.848011E-04 -1.707293E+02  9.815620E-01 -3.413857E+01 
2.724125E+02  9.837890E-01 -3.952157E+01  1.256728E-04 -1.468868E+02  1.322369E-04 -1.475373E+02  9.814010E-01 -3.415125E+01 
2.724750E+02  9.836567E-01 -3.952736E+01  1.678697E-04 -1.395537E+02  1.564735E-04 -1.505256E+02  9.812818E-01 -3.415611E+01 
2.725375E+02  9.837631E-01 -3.953403E+01  1.407996E-04 -1.357938E+02  1.183921E-04 -1.481120E+02  9.813878E-01 -3.415878E+01 
2.726000E+02  9.838751E-01 -3.956202E+01  1.399308E-04 -1.483975E+02  1.380928E-04 -1.503942E+02  9.815984E-01 -3.418113E+01 
2.726625E+02  9.835963E-01 -3.957942E+01  1.511879E-04 -1.531637E+02  1.645723E-04 -1.532804E+02  9.816268E-01 -3.420581E+01 
2.727250E+02  9.835854E-01 -3.962251E+01  1.536544E-04 -1.651827E+02  1.338399E-04 -1.576636E+02  9.814646E-01 -3.422666E+01 
2.727875E+02  9.832473E-01 -3.965290E+01  1.259624E-04 -1.529191E+02  1.204046E-04 -1.576978E+02  9.812433E-01 -3.425625E+01 
2.728500E+02  9.826255E-01 -3.966758E+01  1.058736E-04 -1.423429E+02  1.035522E-04 -1.543456E+02  9.810864E-01 -3.427504E+01 
2.729125E+02  9.824008E-01 -3.968472E+01  1.171938E-04 -1.336355E+02  1.100080E-04 -1.298549E+02  9.808246E-01 -3.429428E+01 
2.729750E+02  9.817460E-01 -3.968579E+01  1.594432E-04 -1.309429E+02  1.476060E-04 -1.320294E+02  9.805379E-01 -3.431051E+01 
2.730375E+02  9.817712E-01 -3.969582E+01  1.674740E-04 -1.465655E+02  1.503129E-04 -1.400124E+02  9.802644E-01 -3.431454E+01 
2.731000E+02  9.815525E-01 -3.969748E+01  1.529731E-04 -1.631652E+02  1.550225E-04 -1.632049E+02  9.800749E-01 -3.431240E+01 
2.731625E+02  9.814845E-01 -3.970553E+01  1.199157E-04 1.768939E+02  1.077011E-04 1.741019E+02  9.800270E-01 -3.430932E+01 
2.732250E+02  9.813274E-01 -3.970654E+01  4.812332E-05 -1.691438E+02  4.305159E-05 -1.402657E+02  9.800051E-01 -3.432553E+01 
2.732875E+02  9.810426E-01 -3.971869E+01  9.220295E-05 -1.136513E+02  7.831111E-05 -1.063677E+02  9.799046E-01 -3.432581E+01 
2.733500E+02  9.811285E-01 -3.971065E+01  7.879807E-05 -1.321694E+02  6.563978E-05 -1.358371E+02  9.801112E-01 -3.433440E+01 
2.734125E+02  9.812695E-01 -3.972432E+01  6.786025E-05 -1.107676E+02  8.369370E-05 -1.131483E+02  9.801244E-01 -3.435845E+01 
2.734750E+02  9.810719E-01 -3.973922E+01  1.072859E-04 -1.291325E+02  1.008916E-04 -1.371212E+02  9.799930E-01 -3.437337E+01 
2.735375E+02  9.814290E-01 -3.974743E+01  3.924562E-05 -9.023418E+01  4.459944E-05 -8.225952E+01  9.801755E-01 -3.439137E+01 
2.736000E+02  9.811221E-01 -3.976662E+01  1.137431E-04 -5.548039E+01  1.140932E-04 -5.483209E+01  9.799242E-01 -3.441898E+01 
2.736625E+02  9.808091E-01 -3.978691E+01  1.642218E-04 -7.110217E+01  1.760135E-04 -7.269633E+01  9.796292E-01 -3.442904E+01 
2.737250E+02  9.805771E-01 -3.978319E+01  1.838646E-04 -8.148315E+01  1.773826E-04 -8.195265E+01  9.794235E-01 -3.443273E+01 
2.737875E+02  9.804236E-01 -3.978071E+01  2.307007E-04 -8.864874E+01  2.221909E-04 -8.832421E+01  9.792707E-01 -3.443939E+01 
2.738500E+02  9.804858E-01 -3.977541E+01  2.574860E-04 -1.019903E+02  2.547162E-04 -1.055853E+02  9.789153E-01 -3.444396E+01 
2.739125E+02  9.806882E-01 -3.978799E+01  2.255697E-04 -1.103546E+02  2.254994E-04 -1.092006E+02  9.789941E-01 -3.443512E+01 
2.739750E+02  9.806481E-01 -3.979150E+01  1.565789E-04 -1.075432E+02  1.611514E-04 -1.097075E+02  9.790647E-01 -3.444689E+01 
2.740375E+02  9.808573E-01 -3.979843E+01  2.207010E-04 -9.118954E+01  2.211352E-04 -9.250921E+01  9.788326E-01 -3.444935E+01 
