! S-Parameter for B3710 in Touchstone format with Magnitude (lin) and Phase 
! Normalised impedance: 50 Ohm. Measurement system: 50 Ohm. Ta=20°C
! B3710_MB.S2P not matched. Measurement full 2-port calibrated incl. Port.Ext. 
! Start: 375MHz, Stop: 475MHz, Span 100MHz, 1601 Pts., Step 62.5kHz
! Date: 10/12/04 - EPCOS SAW CE AE PD; TT
!
# MHz  S  MA  R  50
!
! Freq        		  S11                	      S21                	  S12                         S22
3.750000E+02  9.781444E-01 -4.899502E+01  9.355947E-04 -1.326958E+02  9.436049E-04 -1.379418E+02  9.744257E-01 -4.818645E+01 
3.750625E+02  9.781463E-01 -4.906851E+01  9.128467E-04 -1.393439E+02  9.704192E-04 -1.402805E+02  9.740918E-01 -4.817610E+01 
3.751250E+02  9.780125E-01 -4.908300E+01  9.419424E-04 -1.423484E+02  9.446618E-04 -1.405238E+02  9.748807E-01 -4.821036E+01 
3.751875E+02  9.782109E-01 -4.908598E+01  9.393095E-04 -1.434177E+02  9.492644E-04 -1.449134E+02  9.750782E-01 -4.821352E+01 
3.752500E+02  9.776084E-01 -4.912400E+01  9.547740E-04 -1.428819E+02  9.571868E-04 -1.391398E+02  9.745360E-01 -4.821150E+01 
3.753125E+02  9.776805E-01 -4.905904E+01  1.025485E-03 -1.429566E+02  1.009611E-03 -1.428084E+02  9.741391E-01 -4.824840E+01 
3.753750E+02  9.770426E-01 -4.912132E+01  9.841866E-04 -1.463773E+02  9.760686E-04 -1.490392E+02  9.745465E-01 -4.826738E+01 
3.754375E+02  9.775622E-01 -4.912166E+01  9.433391E-04 -1.504392E+02  9.606208E-04 -1.496722E+02  9.744075E-01 -4.825768E+01 
3.755000E+02  9.769720E-01 -4.913431E+01  8.598079E-04 -1.477852E+02  9.296961E-04 -1.482078E+02  9.738467E-01 -4.828117E+01 
3.755625E+02  9.780082E-01 -4.913245E+01  9.496132E-04 -1.497856E+02  9.193084E-04 -1.508041E+02  9.743213E-01 -4.825796E+01 
3.756250E+02  9.776790E-01 -4.911103E+01  9.130316E-04 -1.444921E+02  9.128614E-04 -1.498774E+02  9.739440E-01 -4.824778E+01 
3.756875E+02  9.772552E-01 -4.915340E+01  9.044273E-04 -1.480529E+02  8.518562E-04 -1.507007E+02  9.742618E-01 -4.830774E+01 
3.757500E+02  9.774992E-01 -4.912320E+01  9.218162E-04 -1.499369E+02  8.973475E-04 -1.487706E+02  9.748045E-01 -4.828811E+01 
3.758125E+02  9.773034E-01 -4.917476E+01  8.942638E-04 -1.485411E+02  8.853959E-04 -1.497245E+02  9.742514E-01 -4.831921E+01 
3.758750E+02  9.779040E-01 -4.920515E+01  8.578308E-04 -1.537608E+02  8.307373E-04 -1.549647E+02  9.745578E-01 -4.836646E+01 
3.759375E+02  9.777350E-01 -4.920842E+01  8.138456E-04 -1.518011E+02  7.963494E-04 -1.509083E+02  9.741245E-01 -4.834380E+01 
3.760000E+02  9.772774E-01 -4.922308E+01  8.500715E-04 -1.474827E+02  8.625328E-04 -1.473483E+02  9.747478E-01 -4.836199E+01 
3.760625E+02  9.770191E-01 -4.922420E+01  8.919099E-04 -1.473343E+02  8.406982E-04 -1.481163E+02  9.748850E-01 -4.841234E+01 
3.761250E+02  9.777559E-01 -4.919058E+01  8.469064E-04 -1.494273E+02  8.480721E-04 -1.461061E+02  9.752474E-01 -4.840726E+01 
3.761875E+02  9.767664E-01 -4.924687E+01  8.516434E-04 -1.487797E+02  8.307419E-04 -1.514996E+02  9.736327E-01 -4.837093E+01 
3.762500E+02  9.775059E-01 -4.930073E+01  8.024427E-04 -1.482615E+02  8.174841E-04 -1.485716E+02  9.745876E-01 -4.848074E+01 
3.763125E+02  9.781327E-01 -4.926628E+01  8.343477E-04 -1.435247E+02  8.162365E-04 -1.441975E+02  9.750526E-01 -4.851211E+01 
3.763750E+02  9.775231E-01 -4.928036E+01  8.449081E-04 -1.470644E+02  8.860581E-04 -1.473389E+02  9.742469E-01 -4.844382E+01 
3.764375E+02  9.781073E-01 -4.934752E+01  8.655609E-04 -1.448182E+02  8.250035E-04 -1.429579E+02  9.747607E-01 -4.850172E+01 
3.765000E+02  9.779183E-01 -4.938513E+01  9.114918E-04 -1.464455E+02  8.868093E-04 -1.455612E+02  9.754342E-01 -4.848406E+01 
3.765625E+02  9.773192E-01 -4.937387E+01  9.235934E-04 -1.488454E+02  8.907153E-04 -1.505050E+02  9.752566E-01 -4.858250E+01 
3.766250E+02  9.780076E-01 -4.938726E+01  9.162185E-04 -1.512524E+02  8.954125E-04 -1.498866E+02  9.750951E-01 -4.859326E+01 
3.766875E+02  9.782495E-01 -4.943942E+01  8.200119E-04 -1.536631E+02  8.610393E-04 -1.503311E+02  9.752689E-01 -4.861421E+01 
3.767500E+02  9.769850E-01 -4.943248E+01  7.822069E-04 -1.464068E+02  7.473870E-04 -1.467396E+02  9.745231E-01 -4.860427E+01 
3.768125E+02  9.779254E-01 -4.945611E+01  8.060037E-04 -1.438602E+02  7.900168E-04 -1.465701E+02  9.746496E-01 -4.860126E+01 
3.768750E+02  9.768399E-01 -4.946996E+01  7.844409E-04 -1.485636E+02  8.180123E-04 -1.478107E+02  9.755830E-01 -4.864480E+01 
3.769375E+02  9.765470E-01 -4.952591E+01  8.238464E-04 -1.459679E+02  7.966379E-04 -1.462701E+02  9.742213E-01 -4.866516E+01 
3.770000E+02  9.777346E-01 -4.950772E+01  8.149853E-04 -1.475402E+02  7.648812E-04 -1.444831E+02  9.747445E-01 -4.864921E+01 
3.770625E+02  9.776588E-01 -4.951568E+01  8.503856E-04 -1.417228E+02  8.242564E-04 -1.410597E+02  9.738428E-01 -4.873401E+01 
3.771250E+02  9.764787E-01 -4.955544E+01  8.992043E-04 -1.408215E+02  8.771979E-04 -1.451604E+02  9.746818E-01 -4.871046E+01 
3.771875E+02  9.778966E-01 -4.957926E+01  9.005461E-04 -1.450808E+02  9.038926E-04 -1.442315E+02  9.738822E-01 -4.878857E+01 
3.772500E+02  9.769477E-01 -4.959769E+01  9.288099E-04 -1.508558E+02  9.401369E-04 -1.487821E+02  9.738623E-01 -4.877084E+01 
3.773125E+02  9.768952E-01 -4.960682E+01  8.917056E-04 -1.518479E+02  8.844186E-04 -1.496607E+02  9.741233E-01 -4.882961E+01 
3.773750E+02  9.766930E-01 -4.960143E+01  8.513130E-04 -1.534098E+02  8.461517E-04 -1.482105E+02  9.742123E-01 -4.879364E+01 
3.774375E+02  9.770684E-01 -4.962251E+01  7.768916E-04 -1.484422E+02  8.711000E-04 -1.488013E+02  9.736215E-01 -4.888250E+01 
3.775000E+02  9.768866E-01 -4.970972E+01  7.893384E-04 -1.509198E+02  8.539648E-04 -1.467858E+02  9.732968E-01 -4.886342E+01 
3.775625E+02  9.762647E-01 -4.971400E+01  7.943116E-04 -1.483107E+02  8.623925E-04 -1.477763E+02  9.726737E-01 -4.896019E+01 
3.776250E+02  9.758599E-01 -4.970325E+01  8.228356E-04 -1.495434E+02  8.171655E-04 -1.451432E+02  9.717020E-01 -4.892461E+01 
3.776875E+02  9.756737E-01 -4.969397E+01  8.419441E-04 -1.446205E+02  8.322989E-04 -1.441375E+02  9.717896E-01 -4.896252E+01 
3.777500E+02  9.757160E-01 -4.975480E+01  8.353866E-04 -1.450122E+02  8.892809E-04 -1.460415E+02  9.713770E-01 -4.897951E+01 
3.778125E+02  9.755821E-01 -4.970586E+01  8.449764E-04 -1.491336E+02  8.511200E-04 -1.464680E+02  9.710577E-01 -4.896551E+01 
3.778750E+02  9.750407E-01 -4.972120E+01  8.184029E-04 -1.497673E+02  8.970367E-04 -1.514681E+02  9.711541E-01 -4.893704E+01 
3.779375E+02  9.746070E-01 -4.972076E+01  7.925305E-04 -1.515981E+02  8.185363E-04 -1.542205E+02  9.715068E-01 -4.892413E+01 
3.780000E+02  9.746712E-01 -4.976628E+01  8.087265E-04 -1.453928E+02  8.215339E-04 -1.459468E+02  9.712797E-01 -4.891484E+01 
3.780625E+02  9.758200E-01 -4.973649E+01  8.142829E-04 -1.431502E+02  8.491273E-04 -1.400716E+02  9.708663E-01 -4.891268E+01 
3.781250E+02  9.750960E-01 -4.977565E+01  9.053058E-04 -1.446875E+02  8.547902E-04 -1.470413E+02  9.703295E-01 -4.891612E+01 
3.781875E+02  9.753165E-01 -4.973259E+01  8.410881E-04 -1.517641E+02  8.830740E-04 -1.498448E+02  9.704293E-01 -4.889018E+01 
3.782500E+02  9.750604E-01 -4.971984E+01  8.116057E-04 -1.538715E+02  8.300692E-04 -1.486058E+02  9.707391E-01 -4.887745E+01 
3.783125E+02  9.752608E-01 -4.976975E+01  8.251176E-04 -1.435527E+02  8.179727E-04 -1.475496E+02  9.708574E-01 -4.890506E+01 
3.783750E+02  9.751337E-01 -4.978691E+01  8.267292E-04 -1.461226E+02  8.439885E-04 -1.507512E+02  9.707650E-01 -4.888117E+01 
3.784375E+02  9.756964E-01 -4.978669E+01  8.750712E-04 -1.501852E+02  8.898853E-04 -1.512831E+02  9.705130E-01 -4.890644E+01 
3.785000E+02  9.756777E-01 -4.984909E+01  7.895998E-04 -1.531632E+02  8.069432E-04 -1.547079E+02  9.714520E-01 -4.891414E+01 
3.785625E+02  9.759962E-01 -4.982971E+01  7.518340E-04 -1.488808E+02  7.350718E-04 -1.469542E+02  9.719781E-01 -4.893880E+01 
3.786250E+02  9.755501E-01 -4.983574E+01  7.524363E-04 -1.417084E+02  7.531511E-04 -1.443949E+02  9.717510E-01 -4.892952E+01 
3.786875E+02  9.750632E-01 -4.985852E+01  8.027207E-04 -1.466716E+02  8.383714E-04 -1.452292E+02  9.715305E-01 -4.894444E+01 
3.787500E+02  9.750189E-01 -4.987274E+01  8.411213E-04 -1.453690E+02  8.082388E-04 -1.476191E+02  9.719597E-01 -4.897840E+01 
3.788125E+02  9.757265E-01 -4.991244E+01  8.313773E-04 -1.423192E+02  8.191621E-04 -1.468887E+02  9.722271E-01 -4.898495E+01 
3.788750E+02  9.752498E-01 -4.991230E+01  8.517965E-04 -1.477868E+02  8.514814E-04 -1.484089E+02  9.723852E-01 -4.899068E+01 
3.789375E+02  9.747560E-01 -4.993007E+01  8.306316E-04 -1.479990E+02  8.113348E-04 -1.481945E+02  9.725857E-01 -4.903191E+01 
3.790000E+02  9.746848E-01 -4.994062E+01  7.834629E-04 -1.475746E+02  8.176661E-04 -1.473427E+02  9.731885E-01 -4.902941E+01 
3.790625E+02  9.745484E-01 -4.993622E+01  8.078803E-04 -1.439181E+02  8.495398E-04 -1.455021E+02  9.727714E-01 -4.906044E+01 
3.791250E+02  9.753284E-01 -4.990682E+01  9.085822E-04 -1.476773E+02  8.398004E-04 -1.432074E+02  9.726715E-01 -4.906723E+01 
3.791875E+02  9.759674E-01 -4.992902E+01  8.546276E-04 -1.476843E+02  8.836593E-04 -1.484285E+02  9.725438E-01 -4.908688E+01 
3.792500E+02  9.757943E-01 -4.994389E+01  7.999220E-04 -1.491197E+02  8.508142E-04 -1.528282E+02  9.731746E-01 -4.914282E+01 
3.793125E+02  9.759785E-01 -4.993660E+01  8.054671E-04 -1.465945E+02  8.401142E-04 -1.485095E+02  9.735346E-01 -4.915402E+01 
3.793750E+02  9.760027E-01 -4.998225E+01  8.105527E-04 -1.432211E+02  8.172051E-04 -1.444111E+02  9.730424E-01 -4.914084E+01 
3.794375E+02  9.766565E-01 -5.002847E+01  8.026744E-04 -1.467076E+02  8.077749E-04 -1.467883E+02  9.734830E-01 -4.918226E+01 
3.795000E+02  9.760018E-01 -4.999624E+01  8.041059E-04 -1.446359E+02  8.452133E-04 -1.465346E+02  9.729383E-01 -4.921391E+01 
3.795625E+02  9.758694E-01 -5.006688E+01  8.913419E-04 -1.435673E+02  8.556308E-04 -1.397143E+02  9.731481E-01 -4.919134E+01 
3.796250E+02  9.755021E-01 -5.006752E+01  8.404010E-04 -1.490774E+02  8.162191E-04 -1.463175E+02  9.731744E-01 -4.919505E+01 
3.796875E+02  9.769638E-01 -5.005991E+01  8.479667E-04 -1.478879E+02  8.665560E-04 -1.495334E+02  9.730068E-01 -4.923400E+01 
3.797500E+02  9.764818E-01 -5.009928E+01  8.034515E-04 -1.475107E+02  7.958933E-04 -1.474465E+02  9.735202E-01 -4.931455E+01 
3.798125E+02  9.758720E-01 -5.011138E+01  7.696711E-04 -1.496431E+02  8.259929E-04 -1.457113E+02  9.732334E-01 -4.927633E+01 
3.798750E+02  9.764845E-01 -5.017173E+01  8.511053E-04 -1.469593E+02  7.899006E-04 -1.483392E+02  9.734787E-01 -4.926506E+01 
3.799375E+02  9.769185E-01 -5.014401E+01  9.042438E-04 -1.442685E+02  8.527700E-04 -1.483752E+02  9.736562E-01 -4.930248E+01 
3.800000E+02  9.768871E-01 -5.015180E+01  8.641116E-04 -1.462135E+02  8.376321E-04 -1.451271E+02  9.737478E-01 -4.935683E+01 
3.800625E+02  9.762891E-01 -5.017150E+01  7.702656E-04 -1.424495E+02  8.279042E-04 -1.437922E+02  9.733173E-01 -4.937532E+01 
3.801250E+02  9.761679E-01 -5.020521E+01  8.347653E-04 -1.460864E+02  8.071688E-04 -1.449116E+02  9.739101E-01 -4.934846E+01 
3.801875E+02  9.769729E-01 -5.022124E+01  8.858981E-04 -1.441818E+02  9.075271E-04 -1.467081E+02  9.731816E-01 -4.942053E+01 
3.802500E+02  9.762656E-01 -5.021232E+01  8.368011E-04 -1.446583E+02  8.756036E-04 -1.457274E+02  9.737581E-01 -4.946376E+01 
3.803125E+02  9.767705E-01 -5.027190E+01  8.736148E-04 -1.455271E+02  8.550305E-04 -1.439397E+02  9.727161E-01 -4.949405E+01 
3.803750E+02  9.763758E-01 -5.026895E+01  8.764909E-04 -1.466460E+02  8.709211E-04 -1.453768E+02  9.726656E-01 -4.945603E+01 
3.804375E+02  9.770367E-01 -5.028952E+01  8.538663E-04 -1.483054E+02  8.569139E-04 -1.526365E+02  9.732726E-01 -4.950549E+01 
3.805000E+02  9.765520E-01 -5.028452E+01  8.505987E-04 -1.478735E+02  7.956386E-04 -1.489751E+02  9.731905E-01 -4.952499E+01 
3.805625E+02  9.766229E-01 -5.030194E+01  8.228008E-04 -1.476011E+02  8.665778E-04 -1.470816E+02  9.735722E-01 -4.955124E+01 
3.806250E+02  9.768542E-01 -5.032483E+01  8.522919E-04 -1.464144E+02  8.083506E-04 -1.501191E+02  9.737341E-01 -4.954284E+01 
3.806875E+02  9.768091E-01 -5.036449E+01  8.144576E-04 -1.489665E+02  7.939812E-04 -1.471206E+02  9.738879E-01 -4.957650E+01 
3.807500E+02  9.766339E-01 -5.037690E+01  8.469736E-04 -1.469675E+02  8.213188E-04 -1.467534E+02  9.735799E-01 -4.957286E+01 
3.808125E+02  9.761914E-01 -5.042514E+01  8.617452E-04 -1.467337E+02  8.472750E-04 -1.464262E+02  9.734379E-01 -4.957990E+01 
3.808750E+02  9.769526E-01 -5.041327E+01  8.510961E-04 -1.479561E+02  8.496957E-04 -1.505704E+02  9.725251E-01 -4.959313E+01 
3.809375E+02  9.771346E-01 -5.044531E+01  7.795426E-04 -1.472899E+02  8.196061E-04 -1.474246E+02  9.731655E-01 -4.961815E+01 
3.810000E+02  9.767274E-01 -5.043487E+01  8.362730E-04 -1.428806E+02  8.570221E-04 -1.439701E+02  9.722531E-01 -4.958421E+01 
3.810625E+02  9.766989E-01 -5.047064E+01  8.856177E-04 -1.462976E+02  8.401648E-04 -1.449649E+02  9.725633E-01 -4.966820E+01 
3.811250E+02  9.762305E-01 -5.047581E+01  7.885771E-04 -1.487117E+02  8.372011E-04 -1.473735E+02  9.728214E-01 -4.966696E+01 
3.811875E+02  9.764379E-01 -5.052299E+01  7.865657E-04 -1.461299E+02  8.302175E-04 -1.416042E+02  9.730563E-01 -4.966456E+01 
3.812500E+02  9.762661E-01 -5.052396E+01  8.038467E-04 -1.413773E+02  8.373177E-04 -1.440107E+02  9.725446E-01 -4.963896E+01 
3.813125E+02  9.764147E-01 -5.048241E+01  8.051910E-04 -1.428476E+02  8.227129E-04 -1.454723E+02  9.731613E-01 -4.969337E+01 
3.813750E+02  9.765267E-01 -5.055047E+01  8.900044E-04 -1.442188E+02  8.584931E-04 -1.443236E+02  9.721072E-01 -4.971379E+01 
3.814375E+02  9.770893E-01 -5.054980E+01  8.818891E-04 -1.468002E+02  8.813556E-04 -1.465990E+02  9.733468E-01 -4.965552E+01 
3.815000E+02  9.767084E-01 -5.056851E+01  8.935481E-04 -1.469354E+02  8.446226E-04 -1.477287E+02  9.735494E-01 -4.976923E+01 
3.815625E+02  9.769112E-01 -5.059914E+01  8.285033E-04 -1.462025E+02  8.096123E-04 -1.478129E+02  9.739835E-01 -4.970851E+01 
3.816250E+02  9.772060E-01 -5.058092E+01  7.874947E-04 -1.482720E+02  8.275497E-04 -1.465400E+02  9.739150E-01 -4.975215E+01 
3.816875E+02  9.774040E-01 -5.056962E+01  7.993944E-04 -1.474901E+02  7.909685E-04 -1.450501E+02  9.736247E-01 -4.976122E+01 
3.817500E+02  9.770907E-01 -5.062863E+01  8.255064E-04 -1.449387E+02  8.039203E-04 -1.458546E+02  9.741356E-01 -4.980074E+01 
3.818125E+02  9.777151E-01 -5.065170E+01  7.395455E-04 -1.405876E+02  8.020834E-04 -1.426230E+02  9.745870E-01 -4.975268E+01 
3.818750E+02  9.770339E-01 -5.069762E+01  7.568614E-04 -1.411313E+02  8.249718E-04 -1.402543E+02  9.743038E-01 -4.987250E+01 
3.819375E+02  9.773582E-01 -5.069700E+01  8.216954E-04 -1.384096E+02  8.285085E-04 -1.434850E+02  9.742273E-01 -4.981939E+01 
3.820000E+02  9.780754E-01 -5.068518E+01  8.292495E-04 -1.403821E+02  8.687774E-04 -1.393947E+02  9.749672E-01 -4.988191E+01 
3.820625E+02  9.779078E-01 -5.071412E+01  8.451261E-04 -1.437981E+02  8.765032E-04 -1.443774E+02  9.749685E-01 -4.986790E+01 
3.821250E+02  9.782538E-01 -5.075147E+01  8.589753E-04 -1.410372E+02  8.627392E-04 -1.393637E+02  9.753198E-01 -4.991576E+01 
3.821875E+02  9.778999E-01 -5.084760E+01  8.916716E-04 -1.392911E+02  8.678171E-04 -1.391819E+02  9.752327E-01 -4.993020E+01 
3.822500E+02  9.787159E-01 -5.078048E+01  8.990531E-04 -1.438845E+02  9.346997E-04 -1.426467E+02  9.752746E-01 -4.994399E+01 
3.823125E+02  9.781856E-01 -5.084969E+01  8.820769E-04 -1.419585E+02  8.889995E-04 -1.449993E+02  9.757092E-01 -4.998884E+01 
3.823750E+02  9.783336E-01 -5.084754E+01  8.755950E-04 -1.444068E+02  8.722286E-04 -1.414004E+02  9.755699E-01 -4.996793E+01 
3.824375E+02  9.785430E-01 -5.081834E+01  9.120992E-04 -1.395427E+02  8.445663E-04 -1.410241E+02  9.748932E-01 -5.005159E+01 
3.825000E+02  9.787594E-01 -5.090467E+01  8.730654E-04 -1.405711E+02  8.311782E-04 -1.406411E+02  9.754723E-01 -5.003332E+01 
3.825625E+02  9.781451E-01 -5.090077E+01  8.176357E-04 -1.400629E+02  8.760759E-04 -1.398613E+02  9.760186E-01 -5.005084E+01 
3.826250E+02  9.781319E-01 -5.093007E+01  9.222950E-04 -1.388308E+02  9.547237E-04 -1.394346E+02  9.752246E-01 -5.007023E+01 
3.826875E+02  9.783809E-01 -5.096032E+01  9.087507E-04 -1.413440E+02  9.345726E-04 -1.426178E+02  9.755557E-01 -5.010286E+01 
3.827500E+02  9.786417E-01 -5.097270E+01  9.138377E-04 -1.442547E+02  9.686126E-04 -1.442887E+02  9.760742E-01 -5.017264E+01 
3.828125E+02  9.791814E-01 -5.100749E+01  9.474013E-04 -1.418846E+02  8.961542E-04 -1.442696E+02  9.758593E-01 -5.017378E+01 
3.828750E+02  9.790504E-01 -5.103115E+01  9.709316E-04 -1.443395E+02  9.623445E-04 -1.436486E+02  9.750660E-01 -5.019328E+01 
3.829375E+02  9.782496E-01 -5.103229E+01  9.116548E-04 -1.462746E+02  9.116399E-04 -1.426315E+02  9.759335E-01 -5.019374E+01 
3.830000E+02  9.792594E-01 -5.109842E+01  9.538177E-04 -1.459738E+02  9.390926E-04 -1.445678E+02  9.757620E-01 -5.025064E+01 
3.830625E+02  9.792319E-01 -5.108336E+01  9.557409E-04 -1.454963E+02  9.898412E-04 -1.446677E+02  9.754033E-01 -5.028440E+01 
3.831250E+02  9.794777E-01 -5.111102E+01  9.274894E-04 -1.413882E+02  9.330862E-04 -1.426770E+02  9.756456E-01 -5.028690E+01 
3.831875E+02  9.793125E-01 -5.116285E+01  9.482284E-04 -1.440683E+02  9.189454E-04 -1.444904E+02  9.763781E-01 -5.033888E+01 
3.832500E+02  9.795027E-01 -5.117180E+01  9.561361E-04 -1.449735E+02  9.979376E-04 -1.449359E+02  9.768817E-01 -5.032850E+01 
3.833125E+02  9.809135E-01 -5.117177E+01  8.815978E-04 -1.465119E+02  8.867299E-04 -1.467057E+02  9.761874E-01 -5.035519E+01 
3.833750E+02  9.794052E-01 -5.122448E+01  9.531941E-04 -1.460133E+02  9.472439E-04 -1.454580E+02  9.761337E-01 -5.037584E+01 
3.834375E+02  9.803001E-01 -5.126192E+01  9.763395E-04 -1.456987E+02  9.450456E-04 -1.465134E+02  9.757659E-01 -5.043006E+01 
3.835000E+02  9.796609E-01 -5.129141E+01  9.189045E-04 -1.468026E+02  9.426974E-04 -1.464993E+02  9.762858E-01 -5.048314E+01 
3.835625E+02  9.800372E-01 -5.130676E+01  9.307139E-04 -1.459034E+02  9.343339E-04 -1.476254E+02  9.766601E-01 -5.047340E+01 
3.836250E+02  9.797513E-01 -5.130479E+01  9.302040E-04 -1.448985E+02  9.459028E-04 -1.467530E+02  9.756108E-01 -5.049458E+01 
3.836875E+02  9.798750E-01 -5.134716E+01  9.020499E-04 -1.462884E+02  9.243858E-04 -1.479578E+02  9.764310E-01 -5.053193E+01 
3.837500E+02  9.794416E-01 -5.138173E+01  8.827049E-04 -1.461179E+02  9.570447E-04 -1.473313E+02  9.754057E-01 -5.055432E+01 
3.838125E+02  9.804332E-01 -5.140063E+01  8.893025E-04 -1.467227E+02  9.016437E-04 -1.460820E+02  9.761247E-01 -5.062149E+01 
3.838750E+02  9.799294E-01 -5.145472E+01  9.127087E-04 -1.453806E+02  9.023501E-04 -1.465918E+02  9.766915E-01 -5.062330E+01 
3.839375E+02  9.801301E-01 -5.146863E+01  8.772830E-04 -1.478762E+02  8.568464E-04 -1.479053E+02  9.762293E-01 -5.064506E+01 
3.840000E+02  9.798260E-01 -5.149097E+01  9.275614E-04 -1.424814E+02  9.328891E-04 -1.463089E+02  9.757933E-01 -5.065651E+01 
3.840625E+02  9.799246E-01 -5.155254E+01  9.364756E-04 -1.458998E+02  8.983237E-04 -1.434730E+02  9.773088E-01 -5.073162E+01 
3.841250E+02  9.796970E-01 -5.156931E+01  9.277945E-04 -1.435453E+02  9.304727E-04 -1.410244E+02  9.759431E-01 -5.071929E+01 
3.841875E+02  9.798380E-01 -5.160774E+01  9.145273E-04 -1.421999E+02  8.943044E-04 -1.453577E+02  9.758708E-01 -5.077829E+01 
3.842500E+02  9.798340E-01 -5.161666E+01  9.492791E-04 -1.460839E+02  9.708254E-04 -1.446784E+02  9.760040E-01 -5.078005E+01 
3.843125E+02  9.798011E-01 -5.162196E+01  9.622735E-04 -1.482681E+02  9.383325E-04 -1.450248E+02  9.754308E-01 -5.078728E+01 
3.843750E+02  9.796116E-01 -5.163595E+01  9.474434E-04 -1.448382E+02  1.019695E-03 -1.437621E+02  9.760230E-01 -5.084105E+01 
3.844375E+02  9.800937E-01 -5.169237E+01  1.011283E-03 -1.443131E+02  1.046784E-03 -1.467176E+02  9.758908E-01 -5.086477E+01 
3.845000E+02  9.798593E-01 -5.168382E+01  9.886536E-04 -1.470323E+02  9.599275E-04 -1.452965E+02  9.763154E-01 -5.089659E+01 
