! S-Parameter for B3719 in Touchstone format with Magnitude (lin) and Phase 
! Normalised impedance: 50 Ohm. Measurement system: 50 Ohm. Ta=25°C
! B3719_WB.S2P not matched. Measurement full 2-port calibrated incl. Port.Ext. 
! Start: 10MHz, Stop: 1000MHz, Span 990MHz, 1601 Pts., Step 6.18MHz
! Date: 10/12/2007 - EPCOS COM WT AE PD; AB
!
# MHZ S MA R 50
! freq  magS11 angS11  magS21 angS21  magS12 angS12  magS22 angS22
1.000000E+01  9.986622E-01 -1.267708E+00  7.597963E-05 -1.305723E+02  7.451846E-05 -1.312301E+02  9.997798E-01 -1.220355E+00 
1.061875E+01  9.992991E-01 -1.408301E+00  5.470688E-05 8.962556E+01  5.039394E-05 9.795340E+01  9.994030E-01 -1.313123E+00 
1.123750E+01  9.992557E-01 -1.471880E+00  1.102461E-04 1.128802E+02  1.080823E-04 1.111876E+02  9.992294E-01 -1.381126E+00 
1.185625E+01  9.993587E-01 -1.520438E+00  1.399397E-04 2.430526E+01  1.469499E-04 2.255393E+01  9.991604E-01 -1.457244E+00 
1.247500E+01  9.994079E-01 -1.587918E+00  1.071738E-04 8.697595E+01  1.002968E-04 8.742011E+01  9.990300E-01 -1.480024E+00 
1.309375E+01  9.983192E-01 -1.529097E+00  8.062311E-05 -3.432067E+01  8.718342E-05 -4.794301E+01  9.999909E-01 -1.298681E+00 
1.371250E+01  9.994747E-01 -1.924500E+00  9.498791E-05 -1.385475E+02  8.578862E-05 -1.294732E+02  9.997482E-01 -1.860689E+00 
1.433125E+01  9.995398E-01 -2.005303E+00  5.985310E-05 1.081622E+02  6.430406E-05 1.073965E+02  9.997151E-01 -1.857196E+00 
1.495000E+01  9.994955E-01 -1.999435E+00  1.264919E-05 5.784863E+00  4.639400E-06 6.925966E-01  9.995678E-01 -1.905646E+00 
1.556875E+01  9.995373E-01 -2.025471E+00  4.885135E-05 -1.131082E+02  5.455596E-05 -1.208308E+02  9.994273E-01 -1.938708E+00 
1.618750E+01  9.989890E-01 -2.077101E+00  3.583689E-05 -1.094554E+02  4.478262E-05 -1.094776E+02  9.988210E-01 -1.946256E+00 
1.680625E+01  9.990532E-01 -2.137645E+00  7.904522E-05 1.005333E+02  8.385728E-05 1.020034E+02  9.992914E-01 -2.018449E+00 
1.742500E+01  9.993771E-01 -2.302945E+00  8.247044E-05 6.712015E+01  8.898506E-05 7.041042E+01  9.998718E-01 -2.196775E+00 
1.804375E+01  9.993912E-01 -2.610363E+00  3.421038E-05 -5.516827E+01  4.064912E-05 -5.004530E+01  9.990449E-01 -2.475848E+00 
1.866250E+01  9.991595E-01 -2.571204E+00  1.860958E-04 1.519451E+02  1.844006E-04 1.537298E+02  9.993906E-01 -2.470918E+00 
1.928125E+01  9.994545E-01 -2.548085E+00  7.286008E-05 1.528431E+02  7.349446E-05 1.609788E+02  9.997872E-01 -2.450782E+00 
1.990000E+01  9.990983E-01 -2.513412E+00  8.306582E-05 1.045053E+02  8.226940E-05 1.054888E+02  9.988516E-01 -2.340138E+00 
2.051875E+01  9.991315E-01 -2.621254E+00  6.519002E-05 5.532203E+01  7.511112E-05 4.735766E+01  9.991035E-01 -2.395768E+00 
2.113750E+01  9.986904E-01 -2.693891E+00  7.114381E-05 9.104529E+01  7.165910E-05 8.641087E+01  9.986306E-01 -2.481214E+00 
2.175625E+01  9.984390E-01 -2.810257E+00  5.350929E-05 5.921797E+01  4.962412E-05 5.193655E+01  9.982584E-01 -2.567925E+00 
2.237500E+01  9.987779E-01 -2.963744E+00  1.355560E-05 5.834049E+01  1.616061E-05 6.290401E+01  9.980495E-01 -2.733136E+00 
2.299375E+01  9.987692E-01 -3.032236E+00  5.792295E-05 6.954864E+01  5.501180E-05 7.414127E+01  9.979507E-01 -2.815503E+00 
2.361250E+01  9.991781E-01 -3.076756E+00  2.851088E-05 2.313255E+01  2.812574E-05 2.617937E+01  9.982606E-01 -2.884574E+00 
2.423125E+01  9.992313E-01 -3.134813E+00  6.634604E-05 1.454087E+02  6.167218E-05 1.444127E+02  9.983247E-01 -2.919533E+00 
2.485000E+01  9.989619E-01 -3.215613E+00  6.843668E-05 1.185811E+02  6.193964E-05 1.176868E+02  9.977767E-01 -2.922690E+00 
2.546875E+01  9.991726E-01 -3.312767E+00  9.214367E-05 7.279153E+01  9.818604E-05 7.522024E+01  9.977016E-01 -3.065757E+00 
2.608750E+01  9.989774E-01 -3.242842E+00  4.037774E-05 2.229516E+01  3.526321E-05 2.051140E+01  9.984775E-01 -3.340441E+00 
2.670625E+01  9.990221E-01 -3.297588E+00  9.341608E-05 6.895962E+01  9.658596E-05 6.463705E+01  9.988897E-01 -3.267388E+00 
2.732500E+01  9.992284E-01 -3.396660E+00  1.021655E-04 1.371136E+02  9.550582E-05 1.352823E+02  9.991735E-01 -3.341597E+00 
2.794375E+01  9.995127E-01 -3.530850E+00  6.120639E-05 -3.428228E+01  7.033053E-05 -2.853263E+01  9.995852E-01 -3.502292E+00 
2.856250E+01  9.987467E-01 -3.912859E+00  1.061143E-04 1.271242E+02  9.536198E-05 1.313396E+02  9.995729E-01 -3.539179E+00 
2.918125E+01  9.974572E-01 -4.036171E+00  2.876423E-05 1.370261E+02  3.083864E-05 1.387027E+02  9.993116E-01 -3.701422E+00 
2.980000E+01  9.968284E-01 -4.186805E+00  3.466520E-05 6.161848E+01  3.970383E-05 5.314367E+01  9.983792E-01 -3.859106E+00 
3.041875E+01  9.967010E-01 -4.271039E+00  1.655396E-04 -1.522235E+02  1.598080E-04 -1.541275E+02  9.973300E-01 -3.975230E+00 
3.103750E+01  9.972392E-01 -4.304377E+00  6.632187E-05 1.040472E+02  5.851065E-05 1.003005E+02  9.977184E-01 -4.075945E+00 
3.165625E+01  9.977989E-01 -4.329558E+00  4.099738E-05 9.599821E+01  4.664155E-05 1.051244E+02  9.979010E-01 -4.140424E+00 
3.227500E+01  9.978627E-01 -4.380012E+00  4.259840E-05 1.653512E+02  4.885429E-05 1.670664E+02  9.978866E-01 -4.193935E+00 
3.289375E+01  9.979594E-01 -4.383730E+00  6.218467E-05 1.434897E+02  6.435343E-05 1.494245E+02  9.979934E-01 -4.224462E+00 
3.351250E+01  9.984768E-01 -4.437114E+00  1.028429E-04 1.177216E+02  9.153297E-05 1.143369E+02  9.981345E-01 -4.256231E+00 
3.413125E+01  9.985586E-01 -4.498943E+00  1.191404E-04 1.092609E+02  1.190506E-04 1.078052E+02  9.981636E-01 -4.312326E+00 
3.475000E+01  9.984412E-01 -4.591897E+00  1.524971E-04 6.767346E+01  1.475757E-04 6.312217E+01  9.981872E-01 -4.392406E+00 
3.536875E+01  9.987234E-01 -4.660669E+00  9.852377E-05 4.970203E+01  8.912935E-05 4.901831E+01  9.982015E-01 -4.459672E+00 
3.598750E+01  9.982934E-01 -4.753730E+00  3.749168E-05 -2.054753E+01  3.832868E-05 -1.059499E+01  9.979107E-01 -4.531072E+00 
3.660625E+01  9.983401E-01 -4.803183E+00  2.458286E-05 1.651028E+02  2.567149E-05 1.756987E+02  9.980536E-01 -4.584956E+00 
3.722500E+01  9.983649E-01 -4.873230E+00  2.516891E-05 7.944310E+01  2.714931E-05 9.349901E+01  9.982324E-01 -4.650962E+00 
3.784375E+01  9.985617E-01 -4.942350E+00  5.205523E-05 5.104883E+01  5.469475E-05 5.445525E+01  9.983582E-01 -4.721510E+00 
3.846250E+01  9.983789E-01 -5.030839E+00  3.670257E-05 6.442255E+01  3.430732E-05 5.787273E+01  9.982920E-01 -4.797708E+00 
3.908125E+01  9.984722E-01 -5.121427E+00  5.904590E-05 1.041577E+02  6.085102E-05 1.067952E+02  9.985001E-01 -4.866321E+00 
3.970000E+01  9.986934E-01 -5.183025E+00  3.056262E-05 -8.321188E+00  3.715795E-05 -6.650085E+00  9.981149E-01 -4.933151E+00 
4.031875E+01  9.986099E-01 -5.269871E+00  7.920758E-05 9.055044E+01  8.065024E-05 9.074301E+01  9.981663E-01 -5.009170E+00 
4.093750E+01  9.987551E-01 -5.341077E+00  7.410022E-05 8.228964E+01  6.656911E-05 8.907613E+01  9.982958E-01 -5.088695E+00 
4.155625E+01  9.984070E-01 -5.463927E+00  2.770827E-05 4.010795E+01  2.864483E-05 1.785834E+01  9.980706E-01 -5.090711E+00 
4.217500E+01  9.981214E-01 -5.518717E+00  6.333878E-05 1.349212E+02  6.485074E-05 1.369225E+02  9.980403E-01 -5.188253E+00 
4.279375E+01  9.986251E-01 -5.565858E+00  6.002130E-05 1.307851E+02  6.418845E-05 1.298875E+02  9.984105E-01 -5.291133E+00 
4.341250E+01  9.984895E-01 -5.603212E+00  9.104621E-05 8.749728E+01  9.360687E-05 8.460244E+01  9.983315E-01 -5.379270E+00 
4.403125E+01  9.985372E-01 -5.664427E+00  7.875280E-05 8.282641E+01  7.579119E-05 7.404999E+01  9.980083E-01 -5.476747E+00 
4.465000E+01  9.984082E-01 -5.722656E+00  1.059118E-04 4.989566E+01  1.021761E-04 5.306624E+01  9.975353E-01 -5.553914E+00 
4.526875E+01  9.983784E-01 -5.749467E+00  1.574414E-05 -1.314885E+02  7.308855E-06 -1.395879E+02  9.979887E-01 -5.546069E+00 
4.588750E+01  9.986767E-01 -5.829793E+00  3.438759E-05 1.294991E+02  3.940564E-05 1.122765E+02  9.982684E-01 -5.605517E+00 
4.650625E+01  9.986924E-01 -5.914252E+00  9.659746E-05 1.116954E+02  9.380935E-05 1.142735E+02  9.984034E-01 -5.643946E+00 
4.712500E+01  9.987447E-01 -6.007983E+00  1.093051E-04 1.002173E+02  9.293469E-05 1.019380E+02  9.982903E-01 -5.697186E+00 
4.774375E+01  9.986571E-01 -6.111977E+00  1.193226E-04 5.726288E+01  1.092910E-04 5.874453E+01  9.984138E-01 -5.758767E+00 
4.836250E+01  9.985725E-01 -6.197259E+00  4.099845E-05 7.157912E+01  4.749271E-05 7.257681E+01  9.984127E-01 -5.830492E+00 
4.898125E+01  9.983611E-01 -6.282883E+00  8.305653E-05 6.593101E+01  7.613365E-05 7.076978E+01  9.982545E-01 -5.903105E+00 
4.960000E+01  9.983921E-01 -6.373657E+00  5.755205E-05 9.609423E+01  5.253649E-05 9.285907E+01  9.983156E-01 -5.985404E+00 
5.021875E+01  9.984755E-01 -6.465509E+00  7.447445E-05 2.849709E+01  7.346126E-05 3.323949E+01  9.982658E-01 -6.072819E+00 
5.083750E+01  9.985394E-01 -6.541583E+00  3.131245E-05 1.604178E+02  2.613454E-05 1.568220E+02  9.980684E-01 -6.156514E+00 
5.145625E+01  9.983980E-01 -6.628744E+00  2.801479E-05 -8.829856E+01  2.406312E-05 -7.621571E+01  9.981118E-01 -6.233914E+00 
5.207500E+01  9.984138E-01 -6.721146E+00  6.340468E-05 1.260289E+02  6.431083E-05 1.344650E+02  9.980580E-01 -6.324640E+00 
5.269375E+01  9.983142E-01 -6.805753E+00  1.053812E-04 1.196524E+02  1.040244E-04 1.234547E+02  9.979844E-01 -6.408739E+00 
5.331250E+01  9.982325E-01 -6.887871E+00  7.443436E-05 7.347259E+01  6.684464E-05 7.873437E+01  9.978695E-01 -6.502968E+00 
5.393125E+01  9.979996E-01 -6.971496E+00  8.141850E-05 1.376789E+02  8.135955E-05 1.333956E+02  9.975641E-01 -6.574281E+00 
5.455000E+01  9.982325E-01 -7.037677E+00  1.028631E-04 1.135558E+02  1.029499E-04 1.077816E+02  9.978140E-01 -6.650199E+00 
5.516875E+01  9.982361E-01 -7.132307E+00  1.683266E-04 8.146086E+01  1.685891E-04 8.149633E+01  9.979418E-01 -6.733307E+00 
5.578750E+01  9.983726E-01 -7.220902E+00  1.368512E-04 7.099970E+01  1.352741E-04 6.997910E+01  9.977985E-01 -6.823203E+00 
5.640625E+01  9.982466E-01 -7.302050E+00  7.230101E-05 5.999434E+01  6.081210E-05 6.535743E+01  9.978620E-01 -6.893662E+00 
5.702500E+01  9.982484E-01 -7.376660E+00  1.200668E-04 6.932419E+01  1.220459E-04 6.822852E+01  9.978012E-01 -6.982286E+00 
5.764375E+01  9.981729E-01 -7.468569E+00  3.082808E-05 1.017891E+02  2.232196E-05 9.244676E+01  9.978704E-01 -7.065334E+00 
5.826250E+01  9.984703E-01 -7.544299E+00  9.999411E-05 9.184238E+01  1.002009E-04 9.219069E+01  9.978359E-01 -7.146092E+00 
5.888125E+01  9.983989E-01 -7.632223E+00  1.214241E-04 7.528847E+01  1.240301E-04 6.865121E+01  9.978185E-01 -7.227130E+00 
5.950000E+01  9.982141E-01 -7.715487E+00  8.768650E-05 3.358226E+01  8.973443E-05 3.772024E+01  9.976402E-01 -7.309922E+00 
6.011875E+01  9.982139E-01 -7.798151E+00  3.457925E-05 5.431693E+01  3.008429E-05 4.850035E+01  9.977667E-01 -7.399982E+00 
6.073750E+01  9.982727E-01 -7.885215E+00  6.667536E-05 9.404320E+01  7.728687E-05 9.132319E+01  9.976022E-01 -7.474983E+00 
6.135625E+01  9.980595E-01 -7.966920E+00  9.455811E-05 1.000355E+02  9.215087E-05 1.042360E+02  9.976618E-01 -7.563516E+00 
6.197500E+01  9.980715E-01 -8.055537E+00  8.372698E-05 8.678432E+01  8.540150E-05 8.807043E+01  9.975095E-01 -7.649770E+00 
6.259375E+01  9.979207E-01 -8.138850E+00  7.518215E-05 8.246450E+01  6.448949E-05 8.216875E+01  9.968870E-01 -7.722810E+00 
6.321250E+01  9.979580E-01 -8.194941E+00  8.541751E-05 6.488258E+01  8.325591E-05 6.394780E+01  9.972197E-01 -7.773910E+00 
6.383125E+01  9.980138E-01 -8.278510E+00  7.619399E-05 9.303104E+01  7.917783E-05 9.619982E+01  9.973291E-01 -7.848631E+00 
6.445000E+01  9.981107E-01 -8.354110E+00  6.082535E-05 1.004538E+02  6.523291E-05 1.027233E+02  9.973842E-01 -7.927657E+00 
6.506875E+01  9.980270E-01 -8.438363E+00  1.085103E-04 6.489008E+01  1.075597E-04 6.830352E+01  9.974029E-01 -8.021747E+00 
6.568750E+01  9.981035E-01 -8.517435E+00  9.576677E-05 9.247128E+01  1.049541E-04 8.928142E+01  9.974479E-01 -8.091029E+00 
6.630625E+01  9.981366E-01 -8.596214E+00  1.009240E-04 7.116838E+01  1.007272E-04 7.597311E+01  9.974838E-01 -8.167797E+00 
6.692500E+01  9.981826E-01 -8.683162E+00  7.196920E-05 8.012219E+01  7.505846E-05 8.278283E+01  9.974166E-01 -8.248439E+00 
6.754375E+01  9.982846E-01 -8.760165E+00  8.732208E-05 1.001761E+02  9.185859E-05 9.953507E+01  9.975434E-01 -8.340035E+00 
6.816250E+01  9.980616E-01 -8.842154E+00  7.209853E-05 8.370115E+01  6.194396E-05 8.417397E+01  9.974007E-01 -8.416592E+00 
6.878125E+01  9.980783E-01 -8.929517E+00  8.445729E-05 8.697880E+01  9.446267E-05 8.654986E+01  9.974229E-01 -8.501867E+00 
6.940000E+01  9.980360E-01 -9.013471E+00  1.091972E-04 8.773637E+01  1.110564E-04 8.732318E+01  9.973567E-01 -8.575794E+00 
7.001875E+01  9.979873E-01 -9.106597E+00  1.152864E-04 6.017717E+01  1.108485E-04 5.484529E+01  9.973931E-01 -8.660701E+00 
7.063750E+01  9.978654E-01 -9.192844E+00  8.506853E-05 5.971019E+01  8.526015E-05 5.675530E+01  9.972326E-01 -8.749500E+00 
7.125625E+01  9.978255E-01 -9.267237E+00  3.785213E-05 1.082143E+02  3.718766E-05 1.181284E+02  9.970825E-01 -8.818590E+00 
7.187500E+01  9.978019E-01 -9.349196E+00  8.750178E-05 1.238675E+02  8.687319E-05 1.213301E+02  9.968772E-01 -8.898067E+00 
7.249375E+01  9.975809E-01 -9.420419E+00  1.584849E-04 1.142173E+02  1.589658E-04 1.096580E+02  9.967767E-01 -8.968685E+00 
7.311250E+01  9.977131E-01 -9.504524E+00  1.469555E-04 8.381249E+01  1.390353E-04 8.226350E+01  9.967771E-01 -9.050022E+00 
7.373125E+01  9.975555E-01 -9.583669E+00  1.632201E-04 6.595626E+01  1.560218E-04 6.381180E+01  9.968103E-01 -9.133459E+00 
7.435000E+01  9.976203E-01 -9.672369E+00  9.710094E-05 2.779460E+01  9.007225E-05 2.972877E+01  9.969534E-01 -9.216422E+00 
7.496875E+01  9.975913E-01 -9.756907E+00  1.965636E-05 8.525099E+01  2.200409E-05 8.735789E+01  9.967541E-01 -9.282420E+00 
7.558750E+01  9.973688E-01 -9.829997E+00  1.163250E-04 1.430272E+02  1.117188E-04 1.423703E+02  9.966468E-01 -9.370090E+00 
7.620625E+01  9.975155E-01 -9.905256E+00  1.450787E-04 1.054350E+02  1.342561E-04 1.072488E+02  9.968094E-01 -9.454090E+00 
7.682500E+01  9.977530E-01 -9.994588E+00  2.068548E-04 8.382309E+01  2.063565E-04 8.596028E+01  9.965894E-01 -9.532335E+00 
7.744375E+01  9.976526E-01 -1.007386E+01  9.986194E-05 8.175816E+01  9.744706E-05 7.943531E+01  9.966651E-01 -9.620812E+00 
7.806250E+01  9.976536E-01 -1.016159E+01  1.431112E-04 7.653433E+01  1.492463E-04 7.529208E+01  9.967535E-01 -9.704799E+00 
7.868125E+01  9.975461E-01 -1.024997E+01  1.464627E-04 7.273769E+01  1.477291E-04 7.108929E+01  9.964323E-01 -9.785369E+00 
7.930000E+01  9.976177E-01 -1.033390E+01  1.348115E-04 6.719371E+01  1.307792E-04 7.225228E+01  9.965594E-01 -9.871205E+00 
7.991875E+01  9.975900E-01 -1.041120E+01  9.935929E-05 3.728820E+01  1.066803E-04 3.970280E+01  9.962421E-01 -9.950951E+00 
8.053750E+01  9.972383E-01 -1.049571E+01  1.092721E-04 7.628378E+01  1.024874E-04 7.788321E+01  9.961980E-01 -1.002338E+01 
8.115625E+01  9.974102E-01 -1.056601E+01  1.263929E-04 7.709602E+01  1.178364E-04 7.150228E+01  9.962520E-01 -1.009351E+01 
8.177500E+01  9.973917E-01 -1.066139E+01  1.250946E-04 6.726481E+01  1.256777E-04 6.919456E+01  9.963298E-01 -1.018331E+01 
8.239375E+01  9.973064E-01 -1.073752E+01  1.187674E-04 5.706288E+01  1.276546E-04 5.527893E+01  9.962689E-01 -1.025826E+01 
8.301250E+01  9.975951E-01 -1.080541E+01  8.465901E-05 4.620271E+01  8.973054E-05 4.523668E+01  9.962958E-01 -1.033343E+01 
8.363125E+01  9.975526E-01 -1.089620E+01  4.622341E-05 6.581469E+01  4.931613E-05 6.847729E+01  9.962662E-01 -1.041848E+01 
8.425000E+01  9.975020E-01 -1.098052E+01  4.187279E-05 1.370706E+02  5.030113E-05 1.323404E+02  9.962192E-01 -1.050265E+01 
8.486875E+01  9.973714E-01 -1.105687E+01  1.005138E-04 9.017024E+01  1.023625E-04 8.998095E+01  9.959443E-01 -1.058482E+01 
8.548750E+01  9.974615E-01 -1.113757E+01  1.180566E-04 8.576758E+01  1.117012E-04 8.814051E+01  9.962658E-01 -1.065271E+01 
8.610625E+01  9.973287E-01 -1.121591E+01  8.616530E-05 8.294982E+01  8.772180E-05 8.080618E+01  9.961154E-01 -1.074162E+01 
8.672500E+01  9.974494E-01 -1.131588E+01  8.462639E-05 8.852693E+01  8.794343E-05 8.748569E+01  9.961551E-01 -1.082426E+01 
8.734375E+01  9.973345E-01 -1.138409E+01  1.460927E-04 8.644268E+01  1.375791E-04 8.468570E+01  9.959760E-01 -1.088914E+01 
8.796250E+01  9.973042E-01 -1.145941E+01  1.451125E-04 8.524951E+01  1.454028E-04 8.471052E+01  9.961295E-01 -1.098261E+01 
8.858125E+01  9.974409E-01 -1.155246E+01  1.416925E-04 7.455532E+01  1.334752E-04 7.547709E+01  9.960891E-01 -1.107030E+01 
8.920000E+01  9.972641E-01 -1.163106E+01  1.142949E-04 7.567499E+01  1.267727E-04 7.619150E+01  9.960618E-01 -1.114251E+01 
8.981875E+01  9.973184E-01 -1.170998E+01  1.212937E-04 7.689787E+01  1.137348E-04 7.926918E+01  9.958760E-01 -1.120813E+01 
9.043750E+01  9.973659E-01 -1.178955E+01  1.331176E-04 8.928546E+01  1.282889E-04 8.909289E+01  9.959830E-01 -1.129902E+01 
9.105625E+01  9.975299E-01 -1.188081E+01  1.614743E-04 7.977859E+01  1.536892E-04 8.053283E+01  9.960692E-01 -1.137385E+01 
9.167500E+01  9.974413E-01 -1.195662E+01  1.445273E-04 4.840299E+01  1.491645E-04 4.828159E+01  9.961612E-01 -1.145614E+01 
9.229375E+01  9.975234E-01 -1.203792E+01  1.026509E-04 7.807376E+01  9.948489E-05 7.774755E+01  9.961337E-01 -1.153905E+01 
9.291250E+01  9.976890E-01 -1.212812E+01  1.103277E-04 8.024110E+01  1.154985E-04 8.150298E+01  9.963591E-01 -1.161789E+01 
9.353125E+01  9.975958E-01 -1.221217E+01  1.229259E-04 8.507242E+01  1.223785E-04 8.253095E+01  9.961791E-01 -1.170738E+01 
9.415000E+01  9.973498E-01 -1.229662E+01  1.295201E-04 8.632802E+01  1.262614E-04 8.862958E+01  9.959638E-01 -1.178525E+01 
9.476875E+01  9.977378E-01 -1.237139E+01  1.475738E-04 8.391026E+01  1.469035E-04 8.578259E+01  9.960504E-01 -1.186991E+01 
9.538750E+01  9.974997E-01 -1.245992E+01  1.504863E-04 7.491844E+01  1.522341E-04 7.662377E+01  9.961334E-01 -1.195600E+01 
9.600625E+01  9.976178E-01 -1.254921E+01  1.251771E-04 6.162510E+01  1.202684E-04 6.282523E+01  9.960291E-01 -1.202149E+01 
9.662500E+01  9.972876E-01 -1.261640E+01  1.169594E-04 7.038837E+01  1.170801E-04 6.809534E+01  9.957386E-01 -1.210872E+01 
9.724375E+01  9.975032E-01 -1.268954E+01  1.306479E-04 7.300307E+01  1.333606E-04 7.304048E+01  9.959006E-01 -1.218826E+01 
9.786250E+01  9.975583E-01 -1.278379E+01  1.225922E-04 8.654843E+01  1.254808E-04 8.217763E+01  9.957829E-01 -1.227524E+01 
9.848125E+01  9.972783E-01 -1.287792E+01  1.180546E-04 7.223081E+01  1.210990E-04 7.779345E+01  9.957476E-01 -1.234693E+01 
9.910000E+01  9.971329E-01 -1.293338E+01  1.525526E-04 9.468644E+01  1.522718E-04 9.091580E+01  9.954238E-01 -1.240776E+01 
9.971875E+01  9.972996E-01 -1.300826E+01  1.334851E-04 7.736111E+01  1.385696E-04 8.010508E+01  9.956793E-01 -1.248605E+01 
1.003375E+02  9.973897E-01 -1.309512E+01  1.390414E-04 8.588664E+01  1.415875E-04 8.741437E+01  9.957390E-01 -1.256323E+01 
1.009562E+02  9.972696E-01 -1.317377E+01  1.315558E-04 8.236078E+01  1.339732E-04 8.034891E+01  9.960425E-01 -1.264879E+01 
1.015750E+02  9.974517E-01 -1.324544E+01  1.319154E-04 7.902712E+01  1.341229E-04 8.075963E+01  9.959211E-01 -1.273378E+01 
1.021937E+02  9.975452E-01 -1.334334E+01  1.805159E-04 8.406798E+01  1.871792E-04 8.555234E+01  9.959550E-01 -1.279861E+01 
1.028125E+02  9.974848E-01 -1.341619E+01  1.908647E-04 6.586103E+01  1.945585E-04 6.644402E+01  9.958539E-01 -1.288677E+01 
1.034313E+02  9.974544E-01 -1.349954E+01  1.933885E-04 5.295514E+01  1.874929E-04 5.235088E+01  9.960083E-01 -1.297259E+01 
1.040500E+02  9.978393E-01 -1.354059E+01  1.218923E-04 6.213890E+01  1.122122E-04 6.505862E+01  9.963508E-01 -1.299911E+01 
1.046688E+02  9.975894E-01 -1.361720E+01  1.075824E-04 6.149753E+01  1.040504E-04 6.654996E+01  9.963898E-01 -1.307969E+01 
1.052875E+02  9.976898E-01 -1.371428E+01  1.372781E-04 7.730064E+01  1.388685E-04 7.781588E+01  9.964877E-01 -1.316429E+01 
1.059062E+02  9.975725E-01 -1.379097E+01  1.584688E-04 6.968994E+01  1.498271E-04 6.802636E+01  9.959157E-01 -1.324489E+01 
