! S-Parameter for B3710 in Touchstone format with Magnitude (lin) and Phase 
! Normalised impedance: 50 Ohm. Measurement system: 50 Ohm. Ta=20°C
! B3710_NB.S2P not matched. Measurement full 2-port calibrated incl. Port.Ext. 
! Start: 408.92MHz, Stop: 458.92MHz, Span 50MHz, 1601 Pts., Step 31.25kHz
! Date: 10/12/04 - EPCOS SAW CE AE PD; TT
!
# MHz  S  MA  R  50
!
! Freq        		  S11                	      S21                	  S12                         S22
4.089200E+02  9.636402E-01 -6.450615E+01  1.717812E-03 -1.593981E+02  1.748307E-03 -1.590681E+02  9.584797E-01 -6.377271E+01 
4.089513E+02  9.632841E-01 -6.445783E+01  1.696163E-03 -1.582607E+02  1.742824E-03 -1.574694E+02  9.582662E-01 -6.381930E+01 
4.089825E+02  9.634525E-01 -6.451691E+01  1.678650E-03 -1.579168E+02  1.750633E-03 -1.564182E+02  9.579956E-01 -6.383981E+01 
4.090138E+02  9.636401E-01 -6.454836E+01  1.746988E-03 -1.572634E+02  1.752290E-03 -1.586980E+02  9.578756E-01 -6.386272E+01 
4.090450E+02  9.633414E-01 -6.459417E+01  1.737351E-03 -1.580869E+02  1.753758E-03 -1.584636E+02  9.586338E-01 -6.391949E+01 
4.090763E+02  9.641494E-01 -6.464106E+01  1.759102E-03 -1.568430E+02  1.717724E-03 -1.591866E+02  9.588031E-01 -6.395692E+01 
4.091075E+02  9.646357E-01 -6.466477E+01  1.728933E-03 -1.585955E+02  1.752205E-03 -1.583220E+02  9.586216E-01 -6.401657E+01 
4.091388E+02  9.644153E-01 -6.469668E+01  1.755396E-03 -1.574753E+02  1.680603E-03 -1.587178E+02  9.595284E-01 -6.405106E+01 
4.091700E+02  9.651822E-01 -6.477429E+01  1.680474E-03 -1.588077E+02  1.692101E-03 -1.568867E+02  9.595871E-01 -6.407303E+01 
4.092013E+02  9.647647E-01 -6.482270E+01  1.692326E-03 -1.572625E+02  1.709585E-03 -1.589331E+02  9.591230E-01 -6.414264E+01 
4.092325E+02  9.654620E-01 -6.485816E+01  1.697648E-03 -1.568376E+02  1.719378E-03 -1.566807E+02  9.593684E-01 -6.420441E+01 
4.092638E+02  9.651269E-01 -6.490485E+01  1.742576E-03 -1.579595E+02  1.748557E-03 -1.562670E+02  9.590955E-01 -6.426334E+01 
4.092950E+02  9.650541E-01 -6.498683E+01  1.688166E-03 -1.589631E+02  1.697487E-03 -1.569118E+02  9.600558E-01 -6.428287E+01 
4.093263E+02  9.652265E-01 -6.506354E+01  1.702805E-03 -1.578980E+02  1.753614E-03 -1.586354E+02  9.606099E-01 -6.431495E+01 
4.093575E+02  9.655141E-01 -6.506549E+01  1.729213E-03 -1.590693E+02  1.678445E-03 -1.580917E+02  9.604759E-01 -6.442418E+01 
4.093888E+02  9.650712E-01 -6.510920E+01  1.710138E-03 -1.585331E+02  1.718159E-03 -1.580801E+02  9.601612E-01 -6.446768E+01 
4.094200E+02  9.660827E-01 -6.513903E+01  1.680199E-03 -1.595586E+02  1.673827E-03 -1.594315E+02  9.600992E-01 -6.448811E+01 
4.094513E+02  9.655874E-01 -6.518527E+01  1.693968E-03 -1.584696E+02  1.652435E-03 -1.597995E+02  9.604442E-01 -6.458464E+01 
4.094825E+02  9.660115E-01 -6.526468E+01  1.697696E-03 -1.590910E+02  1.680875E-03 -1.580111E+02  9.600853E-01 -6.461276E+01 
4.095138E+02  9.658911E-01 -6.531918E+01  1.614960E-03 -1.583549E+02  1.721967E-03 -1.577673E+02  9.602999E-01 -6.467929E+01 
4.095450E+02  9.659843E-01 -6.536355E+01  1.657011E-03 -1.576953E+02  1.651882E-03 -1.554768E+02  9.607995E-01 -6.470143E+01 
4.095763E+02  9.661208E-01 -6.541105E+01  1.714879E-03 -1.561398E+02  1.676020E-03 -1.554501E+02  9.607884E-01 -6.477960E+01 
4.096075E+02  9.661042E-01 -6.545239E+01  1.723305E-03 -1.563697E+02  1.738987E-03 -1.560337E+02  9.599502E-01 -6.480033E+01 
4.096388E+02  9.661179E-01 -6.552040E+01  1.746376E-03 -1.571850E+02  1.774124E-03 -1.574490E+02  9.602576E-01 -6.485121E+01 
4.096700E+02  9.659586E-01 -6.554990E+01  1.713870E-03 -1.574885E+02  1.754162E-03 -1.576187E+02  9.596731E-01 -6.492136E+01 
4.097013E+02  9.656935E-01 -6.558452E+01  1.645593E-03 -1.571453E+02  1.668630E-03 -1.572077E+02  9.603602E-01 -6.496265E+01 
4.097325E+02  9.660330E-01 -6.564532E+01  1.684116E-03 -1.580359E+02  1.678766E-03 -1.569115E+02  9.605557E-01 -6.500224E+01 
4.097638E+02  9.659192E-01 -6.563829E+01  1.717021E-03 -1.579404E+02  1.686645E-03 -1.570585E+02  9.603590E-01 -6.504899E+01 
4.097950E+02  9.659133E-01 -6.569178E+01  1.699410E-03 -1.574996E+02  1.674011E-03 -1.587350E+02  9.605682E-01 -6.508692E+01 
4.098263E+02  9.657998E-01 -6.574633E+01  1.714194E-03 -1.567556E+02  1.713960E-03 -1.590470E+02  9.603403E-01 -6.515085E+01 
4.098575E+02  9.663217E-01 -6.580988E+01  1.666202E-03 -1.575679E+02  1.662739E-03 -1.583100E+02  9.602095E-01 -6.521545E+01 
4.098888E+02  9.655100E-01 -6.585970E+01  1.664302E-03 -1.576674E+02  1.710594E-03 -1.571509E+02  9.605143E-01 -6.522384E+01 
4.099200E+02  9.658932E-01 -6.587981E+01  1.770222E-03 -1.586116E+02  1.651668E-03 -1.584086E+02  9.596391E-01 -6.529803E+01 
4.099513E+02  9.655266E-01 -6.590181E+01  1.726086E-03 -1.575644E+02  1.681690E-03 -1.573550E+02  9.599538E-01 -6.534877E+01 
4.099825E+02  9.661566E-01 -6.597797E+01  1.726957E-03 -1.562608E+02  1.710828E-03 -1.591201E+02  9.602254E-01 -6.537023E+01 
4.100138E+02  9.659393E-01 -6.606931E+01  1.683546E-03 -1.592609E+02  1.688004E-03 -1.575779E+02  9.609664E-01 -6.540049E+01 
4.100450E+02  9.659893E-01 -6.609834E+01  1.708659E-03 -1.582298E+02  1.702392E-03 -1.568623E+02  9.606508E-01 -6.546792E+01 
4.100763E+02  9.657362E-01 -6.614119E+01  1.735977E-03 -1.586655E+02  1.762431E-03 -1.590176E+02  9.608194E-01 -6.549851E+01 
4.101075E+02  9.659395E-01 -6.619006E+01  1.747039E-03 -1.579365E+02  1.743897E-03 -1.598785E+02  9.602887E-01 -6.552410E+01 
4.101388E+02  9.662674E-01 -6.624017E+01  1.697405E-03 -1.583077E+02  1.727315E-03 -1.580404E+02  9.596045E-01 -6.560958E+01 
4.101700E+02  9.659794E-01 -6.628802E+01  1.803283E-03 -1.581212E+02  1.719940E-03 -1.580869E+02  9.602748E-01 -6.565370E+01 
4.102013E+02  9.658264E-01 -6.634927E+01  1.712809E-03 -1.596694E+02  1.700986E-03 -1.599135E+02  9.603580E-01 -6.571788E+01 
4.102325E+02  9.658753E-01 -6.637425E+01  1.715109E-03 -1.598294E+02  1.735530E-03 -1.595990E+02  9.598736E-01 -6.572881E+01 
4.102638E+02  9.656430E-01 -6.640577E+01  1.786627E-03 -1.597780E+02  1.721377E-03 -1.611560E+02  9.601976E-01 -6.578346E+01 
4.102950E+02  9.658343E-01 -6.645220E+01  1.745939E-03 -1.618842E+02  1.718684E-03 -1.608858E+02  9.601754E-01 -6.579085E+01 
4.103263E+02  9.657940E-01 -6.654395E+01  1.769945E-03 -1.599778E+02  1.717932E-03 -1.611357E+02  9.607684E-01 -6.581872E+01 
4.103575E+02  9.662299E-01 -6.655714E+01  1.700523E-03 -1.618210E+02  1.659266E-03 -1.620441E+02  9.603482E-01 -6.591920E+01 
4.103888E+02  9.659008E-01 -6.662955E+01  1.672374E-03 -1.635912E+02  1.736903E-03 -1.615091E+02  9.605389E-01 -6.597411E+01 
4.104200E+02  9.656601E-01 -6.663522E+01  1.705141E-03 -1.611052E+02  1.697889E-03 -1.632763E+02  9.606282E-01 -6.603825E+01 
4.104513E+02  9.659145E-01 -6.668708E+01  1.673964E-03 -1.619347E+02  1.757856E-03 -1.623459E+02  9.613874E-01 -6.606632E+01 
4.104825E+02  9.659502E-01 -6.669588E+01  1.683162E-03 -1.630217E+02  1.713327E-03 -1.629670E+02  9.607968E-01 -6.613230E+01 
4.105138E+02  9.659854E-01 -6.673225E+01  1.715033E-03 -1.620827E+02  1.655160E-03 -1.619742E+02  9.601853E-01 -6.618783E+01 
4.105450E+02  9.658044E-01 -6.682613E+01  1.675394E-03 -1.636301E+02  1.627783E-03 -1.635292E+02  9.604464E-01 -6.620665E+01 
4.105763E+02  9.662465E-01 -6.689836E+01  1.670331E-03 -1.619607E+02  1.634023E-03 -1.639291E+02  9.612004E-01 -6.627615E+01 
4.106075E+02  9.664159E-01 -6.693017E+01  1.663632E-03 -1.628355E+02  1.659097E-03 -1.626600E+02  9.618322E-01 -6.631254E+01 
4.106388E+02  9.660617E-01 -6.698417E+01  1.639128E-03 -1.637919E+02  1.619947E-03 -1.616217E+02  9.614336E-01 -6.632595E+01 
4.106700E+02  9.666714E-01 -6.705649E+01  1.635411E-03 -1.623152E+02  1.632215E-03 -1.626634E+02  9.616308E-01 -6.638072E+01 
4.107013E+02  9.668416E-01 -6.712555E+01  1.589424E-03 -1.620210E+02  1.657060E-03 -1.616224E+02  9.609279E-01 -6.646762E+01 
4.107325E+02  9.662643E-01 -6.712290E+01  1.631784E-03 -1.629961E+02  1.622276E-03 -1.625450E+02  9.608523E-01 -6.650535E+01 
4.107638E+02  9.657030E-01 -6.715993E+01  1.594782E-03 -1.627102E+02  1.560330E-03 -1.620585E+02  9.613343E-01 -6.659912E+01 
4.107950E+02  9.663492E-01 -6.723691E+01  1.574151E-03 -1.603637E+02  1.643727E-03 -1.613430E+02  9.614958E-01 -6.665479E+01 
4.108263E+02  9.663352E-01 -6.730915E+01  1.594574E-03 -1.644318E+02  1.637060E-03 -1.627928E+02  9.609045E-01 -6.672280E+01 
4.108575E+02  9.663580E-01 -6.735285E+01  1.589989E-03 -1.629488E+02  1.597517E-03 -1.633040E+02  9.603788E-01 -6.677272E+01 
4.108888E+02  9.659406E-01 -6.744057E+01  1.592240E-03 -1.615277E+02  1.571042E-03 -1.617369E+02  9.605551E-01 -6.682675E+01 
4.109200E+02  9.661810E-01 -6.748176E+01  1.557644E-03 -1.624387E+02  1.567663E-03 -1.614734E+02  9.611081E-01 -6.683294E+01 
4.109513E+02  9.655040E-01 -6.752195E+01  1.601692E-03 -1.620849E+02  1.604009E-03 -1.633091E+02  9.605765E-01 -6.690251E+01 
4.109825E+02  9.657334E-01 -6.759810E+01  1.596273E-03 -1.615671E+02  1.586992E-03 -1.612078E+02  9.606693E-01 -6.700575E+01 
4.110138E+02  9.652188E-01 -6.762469E+01  1.564989E-03 -1.604664E+02  1.597953E-03 -1.618617E+02  9.603553E-01 -6.704526E+01 
4.110450E+02  9.661143E-01 -6.769547E+01  1.601772E-03 -1.618078E+02  1.605454E-03 -1.614722E+02  9.608558E-01 -6.709149E+01 
4.110763E+02  9.654488E-01 -6.775364E+01  1.544174E-03 -1.610034E+02  1.592784E-03 -1.604184E+02  9.603576E-01 -6.716193E+01 
4.111075E+02  9.656971E-01 -6.780856E+01  1.600613E-03 -1.596944E+02  1.571322E-03 -1.610592E+02  9.603611E-01 -6.722720E+01 
4.111388E+02  9.654858E-01 -6.787776E+01  1.583027E-03 -1.588215E+02  1.571090E-03 -1.621878E+02  9.602258E-01 -6.726527E+01 
4.111700E+02  9.654923E-01 -6.793460E+01  1.579804E-03 -1.618781E+02  1.569756E-03 -1.619778E+02  9.598980E-01 -6.732619E+01 
4.112013E+02  9.644657E-01 -6.794509E+01  1.590624E-03 -1.622087E+02  1.574591E-03 -1.595105E+02  9.598507E-01 -6.740396E+01 
4.112325E+02  9.648080E-01 -6.799633E+01  1.567112E-03 -1.611791E+02  1.579979E-03 -1.599681E+02  9.597104E-01 -6.744783E+01 
4.112638E+02  9.651160E-01 -6.807209E+01  1.552655E-03 -1.607714E+02  1.582428E-03 -1.599959E+02  9.596251E-01 -6.750292E+01 
4.112950E+02  9.648306E-01 -6.815316E+01  1.659086E-03 -1.611309E+02  1.626589E-03 -1.584271E+02  9.591905E-01 -6.755135E+01 
4.113263E+02  9.651421E-01 -6.822887E+01  1.609698E-03 -1.590504E+02  1.593811E-03 -1.589602E+02  9.590489E-01 -6.764843E+01 
4.113575E+02  9.650521E-01 -6.827160E+01  1.668500E-03 -1.604439E+02  1.688758E-03 -1.610432E+02  9.593780E-01 -6.768212E+01 
4.113888E+02  9.652971E-01 -6.831834E+01  1.584704E-03 -1.597711E+02  1.650043E-03 -1.637339E+02  9.585955E-01 -6.776740E+01 
4.114200E+02  9.646306E-01 -6.836891E+01  1.669971E-03 -1.609559E+02  1.685286E-03 -1.609877E+02  9.587142E-01 -6.781758E+01 
4.114513E+02  9.644353E-01 -6.842281E+01  1.681105E-03 -1.593488E+02  1.676629E-03 -1.608340E+02  9.583388E-01 -6.788722E+01 
4.114825E+02  9.634717E-01 -6.849381E+01  1.612195E-03 -1.620253E+02  1.636957E-03 -1.631321E+02  9.585756E-01 -6.790085E+01 
4.115138E+02  9.636183E-01 -6.854599E+01  1.624166E-03 -1.618217E+02  1.649147E-03 -1.621891E+02  9.584625E-01 -6.797094E+01 
4.115450E+02  9.634727E-01 -6.861277E+01  1.636190E-03 -1.636010E+02  1.586671E-03 -1.640726E+02  9.588211E-01 -6.804451E+01 
4.115763E+02  9.634866E-01 -6.867545E+01  1.622631E-03 -1.629016E+02  1.578756E-03 -1.621704E+02  9.582413E-01 -6.809152E+01 
4.116075E+02  9.640234E-01 -6.870348E+01  1.638509E-03 -1.633205E+02  1.608175E-03 -1.603723E+02  9.586830E-01 -6.810410E+01 
4.116388E+02  9.636976E-01 -6.875823E+01  1.550669E-03 -1.632723E+02  1.559954E-03 -1.616717E+02  9.580981E-01 -6.822570E+01 
4.116700E+02  9.631321E-01 -6.886004E+01  1.623302E-03 -1.628891E+02  1.613079E-03 -1.603378E+02  9.579682E-01 -6.825994E+01 
4.117013E+02  9.628023E-01 -6.891086E+01  1.618598E-03 -1.619967E+02  1.598540E-03 -1.606300E+02  9.577316E-01 -6.831521E+01 
4.117325E+02  9.632226E-01 -6.896718E+01  1.599931E-03 -1.618513E+02  1.656295E-03 -1.613897E+02  9.574172E-01 -6.838240E+01 
4.117638E+02  9.628410E-01 -6.907709E+01  1.638746E-03 -1.634165E+02  1.670445E-03 -1.625523E+02  9.576367E-01 -6.844848E+01 
4.117950E+02  9.626953E-01 -6.910489E+01  1.655437E-03 -1.640396E+02  1.672652E-03 -1.624348E+02  9.573860E-01 -6.850145E+01 
4.118263E+02  9.626194E-01 -6.919840E+01  1.631872E-03 -1.644099E+02  1.634381E-03 -1.656176E+02  9.574011E-01 -6.859403E+01 
4.118575E+02  9.623291E-01 -6.921322E+01  1.601485E-03 -1.629968E+02  1.625506E-03 -1.651943E+02  9.571365E-01 -6.865453E+01 
4.118888E+02  9.624205E-01 -6.930659E+01  1.620800E-03 -1.639304E+02  1.564824E-03 -1.638238E+02  9.569340E-01 -6.866548E+01 
4.119200E+02  9.619253E-01 -6.938481E+01  1.585260E-03 -1.628963E+02  1.597370E-03 -1.629897E+02  9.570154E-01 -6.878894E+01 
4.119513E+02  9.621108E-01 -6.939673E+01  1.552277E-03 -1.656559E+02  1.597815E-03 -1.640978E+02  9.562283E-01 -6.885497E+01 
4.119825E+02  9.616462E-01 -6.946013E+01  1.598021E-03 -1.641421E+02  1.551999E-03 -1.634616E+02  9.560827E-01 -6.889277E+01 
4.120138E+02  9.620683E-01 -6.951224E+01  1.584089E-03 -1.624745E+02  1.574199E-03 -1.600069E+02  9.561411E-01 -6.895487E+01 
4.120450E+02  9.613245E-01 -6.959468E+01  1.640493E-03 -1.624373E+02  1.628584E-03 -1.630559E+02  9.563736E-01 -6.900528E+01 
4.120763E+02  9.612005E-01 -6.967731E+01  1.547498E-03 -1.672747E+02  1.627313E-03 -1.640751E+02  9.556167E-01 -6.906233E+01 
4.121075E+02  9.611891E-01 -6.971585E+01  1.563369E-03 -1.618856E+02  1.590669E-03 -1.630595E+02  9.548649E-01 -6.911368E+01 
4.121388E+02  9.603687E-01 -6.976957E+01  1.608121E-03 -1.630225E+02  1.681670E-03 -1.643140E+02  9.549764E-01 -6.918872E+01 
4.121700E+02  9.606903E-01 -6.983869E+01  1.655790E-03 -1.659287E+02  1.616257E-03 -1.650464E+02  9.556177E-01 -6.921117E+01 
4.122013E+02  9.607590E-01 -6.987509E+01  1.673920E-03 -1.665021E+02  1.625308E-03 -1.666655E+02  9.554953E-01 -6.929253E+01 
4.122325E+02  9.601963E-01 -6.994035E+01  1.595323E-03 -1.685133E+02  1.497171E-03 -1.668932E+02  9.545533E-01 -6.937492E+01 
4.122638E+02  9.592022E-01 -7.004477E+01  1.563560E-03 -1.684283E+02  1.528402E-03 -1.672596E+02  9.546169E-01 -6.944288E+01 
4.122950E+02  9.593958E-01 -7.008774E+01  1.457176E-03 -1.650423E+02  1.492319E-03 -1.631892E+02  9.542565E-01 -6.949543E+01 
4.123263E+02  9.597007E-01 -7.016602E+01  1.508900E-03 -1.607792E+02  1.488807E-03 -1.628701E+02  9.537147E-01 -6.954588E+01 
4.123575E+02  9.590735E-01 -7.018932E+01  1.535055E-03 -1.649023E+02  1.508790E-03 -1.648888E+02  9.542320E-01 -6.962003E+01 
4.123888E+02  9.584322E-01 -7.027438E+01  1.515074E-03 -1.653471E+02  1.491015E-03 -1.645404E+02  9.538034E-01 -6.967890E+01 
4.124200E+02  9.583846E-01 -7.029856E+01  1.505743E-03 -1.625154E+02  1.466826E-03 -1.635835E+02  9.537056E-01 -6.975296E+01 
4.124513E+02  9.586184E-01 -7.037329E+01  1.600032E-03 -1.643666E+02  1.521280E-03 -1.618937E+02  9.532693E-01 -6.985078E+01 
4.124825E+02  9.584493E-01 -7.044521E+01  1.473383E-03 -1.640279E+02  1.576049E-03 -1.629678E+02  9.533600E-01 -6.994262E+01 
4.125138E+02  9.580953E-01 -7.055966E+01  1.555635E-03 -1.636753E+02  1.574384E-03 -1.622901E+02  9.528248E-01 -6.999338E+01 
4.125450E+02  9.580127E-01 -7.061210E+01  1.542289E-03 -1.649519E+02  1.554677E-03 -1.643892E+02  9.527658E-01 -7.010532E+01 
4.125763E+02  9.579482E-01 -7.067265E+01  1.529619E-03 -1.655149E+02  1.534787E-03 -1.656405E+02  9.522053E-01 -7.010679E+01 
4.126075E+02  9.579381E-01 -7.075173E+01  1.573215E-03 -1.657231E+02  1.494251E-03 -1.661738E+02  9.521031E-01 -7.016705E+01 
4.126388E+02  9.579939E-01 -7.080315E+01  1.471584E-03 -1.651729E+02  1.475086E-03 -1.664697E+02  9.514667E-01 -7.021378E+01 
4.126700E+02  9.573579E-01 -7.089044E+01  1.523559E-03 -1.660111E+02  1.518111E-03 -1.640079E+02  9.505880E-01 -7.029050E+01 
4.127013E+02  9.568824E-01 -7.095599E+01  1.457494E-03 -1.659001E+02  1.377187E-03 -1.670091E+02  9.509571E-01 -7.036485E+01 
4.127325E+02  9.562795E-01 -7.098220E+01  1.446225E-03 -1.625500E+02  1.500629E-03 -1.636885E+02  9.507100E-01 -7.043958E+01 
4.127638E+02  9.557480E-01 -7.104668E+01  1.443860E-03 -1.655249E+02  1.455451E-03 -1.635176E+02  9.503577E-01 -7.051598E+01 
4.127950E+02  9.560080E-01 -7.111970E+01  1.424874E-03 -1.669497E+02  1.476539E-03 -1.644114E+02  9.497262E-01 -7.059622E+01 
4.128263E+02  9.555829E-01 -7.120572E+01  1.348724E-03 -1.669900E+02  1.401259E-03 -1.652260E+02  9.498917E-01 -7.066217E+01 
4.128575E+02  9.550724E-01 -7.130163E+01  1.418686E-03 -1.619015E+02  1.394299E-03 -1.645213E+02  9.491369E-01 -7.074769E+01 
4.128888E+02  9.552023E-01 -7.138155E+01  1.390064E-03 -1.647481E+02  1.459209E-03 -1.629062E+02  9.483694E-01 -7.085839E+01 
4.129200E+02  9.549030E-01 -7.138323E+01  1.411988E-03 -1.677632E+02  1.377459E-03 -1.626047E+02  9.483447E-01 -7.088520E+01 
4.129513E+02  9.544063E-01 -7.152392E+01  1.397315E-03 -1.640274E+02  1.366991E-03 -1.649246E+02  9.481466E-01 -7.096496E+01 
4.129825E+02  9.537981E-01 -7.157549E+01  1.379229E-03 -1.640879E+02  1.349613E-03 -1.633730E+02  9.477402E-01 -7.103063E+01 
4.130138E+02  9.530564E-01 -7.166310E+01  1.317730E-03 -1.636242E+02  1.339440E-03 -1.605144E+02  9.472888E-01 -7.115587E+01 
4.130450E+02  9.524529E-01 -7.176708E+01  1.337639E-03 -1.596561E+02  1.374446E-03 -1.601844E+02  9.462049E-01 -7.118229E+01 
4.130763E+02  9.523773E-01 -7.179264E+01  1.361869E-03 -1.580761E+02  1.366474E-03 -1.589031E+02  9.456027E-01 -7.133583E+01 
4.131075E+02  9.520066E-01 -7.186649E+01  1.356732E-03 -1.585389E+02  1.377418E-03 -1.584375E+02  9.445759E-01 -7.126007E+01 
4.131388E+02  9.507097E-01 -7.192797E+01  1.316131E-03 -1.613944E+02  1.400315E-03 -1.592122E+02  9.450041E-01 -7.133920E+01 
4.131700E+02  9.505967E-01 -7.203214E+01  1.361407E-03 -1.583546E+02  1.369263E-03 -1.587743E+02  9.440904E-01 -7.149243E+01 
4.132013E+02  9.501576E-01 -7.206611E+01  1.304614E-03 -1.577635E+02  1.412220E-03 -1.589970E+02  9.437133E-01 -7.158439E+01 
4.132325E+02  9.495881E-01 -7.218462E+01  1.366130E-03 -1.608306E+02  1.333194E-03 -1.590239E+02  9.423144E-01 -7.162256E+01 
4.132638E+02  9.484468E-01 -7.227282E+01  1.339310E-03 -1.578662E+02  1.267749E-03 -1.568729E+02  9.417277E-01 -7.169481E+01 
4.132950E+02  9.478472E-01 -7.235611E+01  1.349348E-03 -1.552632E+02  1.423359E-03 -1.555181E+02  9.406297E-01 -7.174316E+01 
4.133263E+02  9.467501E-01 -7.244931E+01  1.396741E-03 -1.518624E+02  1.417449E-03 -1.561016E+02  9.402602E-01 -7.184732E+01 
4.133575E+02  9.461834E-01 -7.249660E+01  1.380219E-03 -1.563043E+02  1.389888E-03 -1.538910E+02  9.396793E-01 -7.193164E+01 
4.133888E+02  9.454744E-01 -7.258386E+01  1.384170E-03 -1.566773E+02  1.347052E-03 -1.549499E+02  9.394234E-01 -7.197353E+01 
4.134200E+02  9.455922E-01 -7.262292E+01  1.391216E-03 -1.563047E+02  1.395897E-03 -1.555613E+02  9.387773E-01 -7.205274E+01 
4.134513E+02  9.441689E-01 -7.270066E+01  1.378063E-03 -1.552185E+02  1.363816E-03 -1.537026E+02  9.376525E-01 -7.208340E+01 
4.134825E+02  9.432579E-01 -7.274749E+01  1.420477E-03 -1.530522E+02  1.445921E-03 -1.512152E+02  9.363708E-01 -7.215616E+01 
4.135138E+02  9.414489E-01 -7.284552E+01  1.395920E-03 -1.543683E+02  1.408128E-03 -1.552303E+02  9.356254E-01 -7.224942E+01 
4.135450E+02  9.409706E-01 -7.288320E+01  1.273000E-03 -1.479136E+02  1.290993E-03 -1.500080E+02  9.345957E-01 -7.231171E+01 
4.135763E+02  9.396043E-01 -7.291985E+01  1.518233E-03 -1.468171E+02  1.509990E-03 -1.481670E+02  9.336147E-01 -7.237113E+01 
4.136075E+02  9.387965E-01 -7.302353E+01  1.498734E-03 -1.503029E+02  1.504098E-03 -1.484175E+02  9.327803E-01 -7.243351E+01 
4.136388E+02  9.370640E-01 -7.301265E+01  1.537876E-03 -1.503906E+02  1.576099E-03 -1.499181E+02  9.321354E-01 -7.251538E+01 
4.136700E+02  9.363693E-01 -7.303676E+01  1.530231E-03 -1.489781E+02  1.522096E-03 -1.510753E+02  9.304584E-01 -7.252423E+01 
