! Matrix data file written by TouchstoneData, EPCOS AG
! FILENAME: "B3717_NB.s2p"
! COMMENT: "Narrow Band s-parameters"
! INFO: nport=2, nfreq=1601
! DATE: "Fri Nov 29 16:29:37 2013"
! USER: "Ted Tang"
!
! port | pin | signal
! -----|-----|--------
!   1  |  2  |  in
!   2  |  5  |  out
! --------------------
! 
# MHZ S MA R 50
! freq  magS11 angS11  magS21 angS21  magS12 angS12  magS22 angS22
8.415000E+02  8.673075E-01 -1.248416E+02  7.943277E-03 1.333047E+02  7.947974E-03 1.331292E+02  8.740596E-01 -1.265850E+02 
8.415312E+02  8.673008E-01 -1.249288E+02  7.950352E-03 1.332523E+02  7.954844E-03 1.331102E+02  8.740102E-01 -1.266766E+02 
8.415625E+02  8.672553E-01 -1.250111E+02  7.976258E-03 1.332691E+02  7.974568E-03 1.330651E+02  8.739073E-01 -1.267557E+02 
8.415938E+02  8.671940E-01 -1.250920E+02  7.988468E-03 1.332318E+02  7.991723E-03 1.331081E+02  8.737178E-01 -1.268398E+02 
8.416250E+02  8.670515E-01 -1.251713E+02  8.003732E-03 1.332111E+02  7.997669E-03 1.330585E+02  8.736730E-01 -1.269217E+02 
8.416562E+02  8.669733E-01 -1.252580E+02  8.005671E-03 1.332714E+02  8.010636E-03 1.331406E+02  8.735985E-01 -1.270117E+02 
8.416875E+02  8.669069E-01 -1.253442E+02  8.012335E-03 1.332757E+02  8.018046E-03 1.331856E+02  8.734256E-01 -1.270985E+02 
8.417188E+02  8.667161E-01 -1.254327E+02  8.035811E-03 1.333396E+02  8.031453E-03 1.331514E+02  8.733132E-01 -1.271830E+02 
8.417500E+02  8.666571E-01 -1.255132E+02  8.033850E-03 1.333534E+02  8.029335E-03 1.331299E+02  8.731763E-01 -1.272663E+02 
8.417812E+02  8.664384E-01 -1.255876E+02  8.038353E-03 1.334247E+02  8.027471E-03 1.331761E+02  8.729794E-01 -1.273479E+02 
8.418125E+02  8.663371E-01 -1.256683E+02  8.042938E-03 1.334914E+02  8.039848E-03 1.333660E+02  8.728986E-01 -1.274411E+02 
8.418438E+02  8.662637E-01 -1.257549E+02  8.051352E-03 1.335969E+02  8.041573E-03 1.334108E+02  8.726982E-01 -1.275366E+02 
8.418750E+02  8.662037E-01 -1.258461E+02  8.070393E-03 1.336223E+02  8.056479E-03 1.335465E+02  8.724815E-01 -1.276277E+02 
8.419062E+02  8.658885E-01 -1.259266E+02  8.077346E-03 1.337418E+02  8.083167E-03 1.335749E+02  8.723571E-01 -1.277120E+02 
8.419375E+02  8.658867E-01 -1.260045E+02  8.098831E-03 1.338405E+02  8.100152E-03 1.337414E+02  8.720564E-01 -1.277895E+02 
8.419688E+02  8.657134E-01 -1.260793E+02  8.117615E-03 1.339212E+02  8.123155E-03 1.337351E+02  8.719411E-01 -1.278780E+02 
8.420000E+02  8.655957E-01 -1.261689E+02  8.141796E-03 1.339013E+02  8.132914E-03 1.337931E+02  8.717597E-01 -1.279744E+02 
8.420312E+02  8.654438E-01 -1.262619E+02  8.152699E-03 1.340376E+02  8.148067E-03 1.338886E+02  8.716168E-01 -1.280666E+02 
8.420625E+02  8.653128E-01 -1.263424E+02  8.162858E-03 1.339825E+02  8.160847E-03 1.339010E+02  8.714645E-01 -1.281477E+02 
8.420938E+02  8.651658E-01 -1.264230E+02  8.173956E-03 1.340390E+02  8.169339E-03 1.339152E+02  8.712634E-01 -1.282255E+02 
8.421250E+02  8.650548E-01 -1.264974E+02  8.173858E-03 1.341136E+02  8.181908E-03 1.339885E+02  8.710859E-01 -1.283185E+02 
8.421562E+02  8.648725E-01 -1.265942E+02  8.199259E-03 1.341805E+02  8.176810E-03 1.340553E+02  8.708278E-01 -1.284157E+02 
8.421875E+02  8.647153E-01 -1.266868E+02  8.203730E-03 1.342270E+02  8.188399E-03 1.341139E+02  8.706905E-01 -1.285070E+02 
8.422188E+02  8.646177E-01 -1.267728E+02  8.209424E-03 1.342671E+02  8.212161E-03 1.341832E+02  8.704617E-01 -1.285956E+02 
8.422500E+02  8.642724E-01 -1.268546E+02  8.225766E-03 1.343547E+02  8.216616E-03 1.342903E+02  8.701469E-01 -1.286703E+02 
8.422812E+02  8.641211E-01 -1.269313E+02  8.228637E-03 1.344822E+02  8.242630E-03 1.343341E+02  8.700143E-01 -1.287646E+02 
8.423125E+02  8.639000E-01 -1.270253E+02  8.244004E-03 1.346477E+02  8.254915E-03 1.344279E+02  8.697338E-01 -1.288613E+02 
8.423438E+02  8.636756E-01 -1.271155E+02  8.266560E-03 1.346868E+02  8.262400E-03 1.345071E+02  8.695838E-01 -1.289595E+02 
8.423750E+02  8.633631E-01 -1.272072E+02  8.284330E-03 1.346865E+02  8.274765E-03 1.345779E+02  8.692687E-01 -1.290485E+02 
8.424062E+02  8.632013E-01 -1.272875E+02  8.289051E-03 1.347908E+02  8.291105E-03 1.346788E+02  8.689854E-01 -1.291284E+02 
8.424375E+02  8.629173E-01 -1.273622E+02  8.303493E-03 1.348283E+02  8.312235E-03 1.347267E+02  8.686734E-01 -1.292177E+02 
8.424688E+02  8.627098E-01 -1.274464E+02  8.318027E-03 1.349768E+02  8.320991E-03 1.347356E+02  8.684476E-01 -1.293153E+02 
8.425000E+02  8.624840E-01 -1.275419E+02  8.347701E-03 1.349932E+02  8.333887E-03 1.348838E+02  8.681746E-01 -1.294166E+02 
8.425312E+02  8.622352E-01 -1.276278E+02  8.344008E-03 1.349993E+02  8.348747E-03 1.348833E+02  8.679266E-01 -1.295091E+02 
8.425625E+02  8.620272E-01 -1.277070E+02  8.366314E-03 1.351308E+02  8.360276E-03 1.349883E+02  8.675360E-01 -1.295901E+02 
8.425938E+02  8.617817E-01 -1.277820E+02  8.386268E-03 1.351769E+02  8.373330E-03 1.349771E+02  8.672602E-01 -1.296790E+02 
8.426250E+02  8.615733E-01 -1.278692E+02  8.384584E-03 1.352389E+02  8.387912E-03 1.350082E+02  8.669837E-01 -1.297773E+02 
8.426562E+02  8.612577E-01 -1.279681E+02  8.397600E-03 1.352588E+02  8.396218E-03 1.351080E+02  8.665071E-01 -1.298634E+02 
8.426875E+02  8.610407E-01 -1.280489E+02  8.405991E-03 1.352883E+02  8.398206E-03 1.352160E+02  8.663483E-01 -1.299552E+02 
8.427188E+02  8.608137E-01 -1.281374E+02  8.404857E-03 1.354421E+02  8.407473E-03 1.352471E+02  8.660178E-01 -1.300599E+02 
8.427500E+02  8.605394E-01 -1.282282E+02  8.425144E-03 1.356021E+02  8.423176E-03 1.354374E+02  8.656318E-01 -1.301543E+02 
8.427812E+02  8.602176E-01 -1.283082E+02  8.443202E-03 1.356596E+02  8.439683E-03 1.355031E+02  8.652689E-01 -1.302459E+02 
8.428125E+02  8.600006E-01 -1.283959E+02  8.447517E-03 1.357255E+02  8.451078E-03 1.356214E+02  8.649144E-01 -1.303326E+02 
8.428438E+02  8.597750E-01 -1.284888E+02  8.475331E-03 1.358687E+02  8.468940E-03 1.356720E+02  8.645356E-01 -1.304298E+02 
8.428750E+02  8.595279E-01 -1.285834E+02  8.488877E-03 1.358277E+02  8.486653E-03 1.357250E+02  8.641989E-01 -1.305335E+02 
8.429062E+02  8.592370E-01 -1.286730E+02  8.501075E-03 1.359134E+02  8.496566E-03 1.358072E+02  8.637807E-01 -1.306244E+02 
8.429375E+02  8.588899E-01 -1.287557E+02  8.500488E-03 1.359880E+02  8.507484E-03 1.358535E+02  8.633604E-01 -1.307160E+02 
8.429688E+02  8.586112E-01 -1.288420E+02  8.522187E-03 1.360341E+02  8.509218E-03 1.358375E+02  8.629674E-01 -1.307959E+02 
8.430000E+02  8.582730E-01 -1.289283E+02  8.522662E-03 1.361260E+02  8.521001E-03 1.360390E+02  8.625597E-01 -1.308979E+02 
8.430312E+02  8.578306E-01 -1.290289E+02  8.534280E-03 1.362236E+02  8.538685E-03 1.361432E+02  8.620846E-01 -1.309948E+02 
8.430625E+02  8.575900E-01 -1.291243E+02  8.558366E-03 1.363370E+02  8.547892E-03 1.361520E+02  8.617097E-01 -1.310907E+02 
8.430938E+02  8.572888E-01 -1.292096E+02  8.564713E-03 1.364076E+02  8.553911E-03 1.362409E+02  8.612727E-01 -1.311745E+02 
8.431250E+02  8.570229E-01 -1.292981E+02  8.562873E-03 1.364555E+02  8.565547E-03 1.362193E+02  8.608269E-01 -1.312635E+02 
8.431562E+02  8.564998E-01 -1.293829E+02  8.571113E-03 1.365842E+02  8.570825E-03 1.363765E+02  8.604024E-01 -1.313575E+02 
8.431875E+02  8.561074E-01 -1.294837E+02  8.577314E-03 1.367036E+02  8.579375E-03 1.365312E+02  8.599700E-01 -1.314603E+02 
8.432188E+02  8.557655E-01 -1.295786E+02  8.593929E-03 1.368494E+02  8.593036E-03 1.367421E+02  8.595407E-01 -1.315579E+02 
8.432500E+02  8.553282E-01 -1.296635E+02  8.613246E-03 1.370508E+02  8.612870E-03 1.368947E+02  8.591130E-01 -1.316449E+02 
8.432812E+02  8.548409E-01 -1.297545E+02  8.625637E-03 1.371289E+02  8.634896E-03 1.370145E+02  8.586075E-01 -1.317311E+02 
8.433125E+02  8.543781E-01 -1.298248E+02  8.653258E-03 1.372393E+02  8.643015E-03 1.371080E+02  8.580835E-01 -1.318198E+02 
8.433438E+02  8.539442E-01 -1.299297E+02  8.667667E-03 1.372802E+02  8.666093E-03 1.371341E+02  8.575407E-01 -1.319231E+02 
8.433750E+02  8.535218E-01 -1.300213E+02  8.700132E-03 1.373693E+02  8.685936E-03 1.371938E+02  8.570943E-01 -1.320259E+02 
8.434062E+02  8.530717E-01 -1.301178E+02  8.705498E-03 1.374018E+02  8.694056E-03 1.372850E+02  8.565933E-01 -1.321101E+02 
8.434375E+02  8.525081E-01 -1.301937E+02  8.721866E-03 1.375029E+02  8.719693E-03 1.373339E+02  8.560893E-01 -1.322016E+02 
8.434688E+02  8.519288E-01 -1.302676E+02  8.726513E-03 1.375871E+02  8.723805E-03 1.374919E+02  8.555633E-01 -1.322868E+02 
8.435000E+02  8.514054E-01 -1.303643E+02  8.745756E-03 1.376540E+02  8.737042E-03 1.374454E+02  8.550965E-01 -1.323887E+02 
8.435312E+02  8.509473E-01 -1.304505E+02  8.767001E-03 1.377442E+02  8.764273E-03 1.375962E+02  8.545468E-01 -1.324936E+02 
8.435625E+02  8.504514E-01 -1.305377E+02  8.785343E-03 1.377852E+02  8.782971E-03 1.376665E+02  8.540381E-01 -1.325820E+02 
8.435938E+02  8.499598E-01 -1.306113E+02  8.804218E-03 1.378164E+02  8.800121E-03 1.376343E+02  8.534240E-01 -1.326712E+02 
8.436250E+02  8.494879E-01 -1.306857E+02  8.804891E-03 1.378879E+02  8.799200E-03 1.377640E+02  8.527617E-01 -1.327625E+02 
8.436562E+02  8.489643E-01 -1.307700E+02  8.812089E-03 1.379553E+02  8.815312E-03 1.378587E+02  8.521487E-01 -1.328651E+02 
8.436875E+02  8.484113E-01 -1.308599E+02  8.837150E-03 1.381389E+02  8.832539E-03 1.380063E+02  8.514577E-01 -1.329623E+02 
8.437188E+02  8.478283E-01 -1.309514E+02  8.868777E-03 1.382575E+02  8.859867E-03 1.381163E+02  8.507794E-01 -1.330475E+02 
8.437500E+02  8.472961E-01 -1.310130E+02  8.891265E-03 1.382809E+02  8.892916E-03 1.381906E+02  8.501046E-01 -1.331386E+02 
8.437812E+02  8.466438E-01 -1.310912E+02  8.924982E-03 1.383568E+02  8.911369E-03 1.381645E+02  8.493373E-01 -1.332137E+02 
8.438125E+02  8.460490E-01 -1.311607E+02  8.939475E-03 1.382968E+02  8.933814E-03 1.381791E+02  8.486531E-01 -1.333030E+02 
8.438438E+02  8.455336E-01 -1.312377E+02  8.953793E-03 1.383338E+02  8.949727E-03 1.380995E+02  8.479719E-01 -1.333908E+02 
8.438750E+02  8.450143E-01 -1.313100E+02  8.974169E-03 1.383319E+02  8.971296E-03 1.381785E+02  8.472732E-01 -1.334710E+02 
8.439062E+02  8.445119E-01 -1.313709E+02  8.985895E-03 1.382971E+02  8.987939E-03 1.381336E+02  8.465452E-01 -1.335407E+02 
8.439375E+02  8.440586E-01 -1.314239E+02  9.008214E-03 1.382433E+02  9.010483E-03 1.381328E+02  8.459963E-01 -1.336125E+02 
8.439688E+02  8.437251E-01 -1.314824E+02  9.029785E-03 1.382476E+02  9.040057E-03 1.380947E+02  8.453611E-01 -1.336892E+02 
8.440000E+02  8.433707E-01 -1.315501E+02  9.047788E-03 1.381858E+02  9.041500E-03 1.380977E+02  8.448093E-01 -1.337630E+02 
8.440312E+02  8.431640E-01 -1.316201E+02  9.066169E-03 1.381056E+02  9.070065E-03 1.379032E+02  8.443417E-01 -1.338384E+02 
8.440625E+02  8.429395E-01 -1.316870E+02  9.081036E-03 1.378899E+02  9.066225E-03 1.377576E+02  8.438980E-01 -1.339111E+02 
8.440938E+02  8.428138E-01 -1.317526E+02  9.072740E-03 1.377590E+02  9.071064E-03 1.376532E+02  8.434321E-01 -1.339923E+02 
8.441250E+02  8.426006E-01 -1.318255E+02  9.074331E-03 1.376178E+02  9.071230E-03 1.374706E+02  8.430845E-01 -1.340759E+02 
8.441562E+02  8.424809E-01 -1.319026E+02  9.043787E-03 1.374860E+02  9.050309E-03 1.373521E+02  8.426971E-01 -1.341604E+02 
8.441875E+02  8.423580E-01 -1.319855E+02  9.030563E-03 1.374101E+02  9.015570E-03 1.372112E+02  8.422308E-01 -1.342488E+02 
8.442188E+02  8.421392E-01 -1.320735E+02  8.993347E-03 1.373998E+02  9.003815E-03 1.371588E+02  8.418640E-01 -1.343374E+02 
8.442500E+02  8.419585E-01 -1.321585E+02  8.973104E-03 1.374371E+02  8.967863E-03 1.372833E+02  8.413685E-01 -1.344270E+02 
8.442812E+02  8.416727E-01 -1.322385E+02  8.960332E-03 1.375013E+02  8.951033E-03 1.374014E+02  8.408752E-01 -1.345135E+02 
8.443125E+02  8.413718E-01 -1.323246E+02  8.943472E-03 1.375659E+02  8.946087E-03 1.373767E+02  8.403383E-01 -1.346016E+02 
8.443438E+02  8.411703E-01 -1.324090E+02  8.946262E-03 1.375646E+02  8.932128E-03 1.373815E+02  8.398750E-01 -1.347004E+02 
8.443750E+02  8.408765E-01 -1.324994E+02  8.919803E-03 1.376486E+02  8.909692E-03 1.373493E+02  8.394090E-01 -1.348015E+02 
8.444062E+02  8.406181E-01 -1.325901E+02  8.914987E-03 1.375871E+02  8.918218E-03 1.374393E+02  8.388201E-01 -1.349006E+02 
8.444375E+02  8.403418E-01 -1.326736E+02  8.897107E-03 1.375830E+02  8.896243E-03 1.374338E+02  8.382876E-01 -1.349922E+02 
8.444688E+02  8.400673E-01 -1.327627E+02  8.867943E-03 1.375496E+02  8.867792E-03 1.374239E+02  8.376055E-01 -1.350882E+02 
8.445000E+02  8.397725E-01 -1.328495E+02  8.856530E-03 1.376455E+02  8.846009E-03 1.374208E+02  8.370306E-01 -1.351901E+02 
8.445312E+02  8.394649E-01 -1.329466E+02  8.818158E-03 1.375460E+02  8.838162E-03 1.375020E+02  8.361671E-01 -1.352934E+02 
8.445625E+02  8.391018E-01 -1.330388E+02  8.810736E-03 1.376509E+02  8.807095E-03 1.375156E+02  8.355286E-01 -1.353974E+02 
8.445938E+02  8.387813E-01 -1.331354E+02  8.782691E-03 1.376168E+02  8.763618E-03 1.374755E+02  8.346599E-01 -1.354988E+02 
8.446250E+02  8.383493E-01 -1.332261E+02  8.746409E-03 1.376009E+02  8.744150E-03 1.375093E+02  8.338981E-01 -1.356065E+02 
8.446562E+02  8.378745E-01 -1.333183E+02  8.726358E-03 1.376739E+02  8.722903E-03 1.375762E+02  8.329088E-01 -1.356970E+02 
8.446875E+02  8.373985E-01 -1.334124E+02  8.691323E-03 1.377270E+02  8.694776E-03 1.375823E+02  8.320249E-01 -1.358002E+02 
8.447188E+02  8.368849E-01 -1.335092E+02  8.667869E-03 1.376442E+02  8.657777E-03 1.375517E+02  8.310028E-01 -1.358987E+02 
8.447500E+02  8.364184E-01 -1.336051E+02  8.608124E-03 1.376797E+02  8.619520E-03 1.375025E+02  8.299792E-01 -1.360024E+02 
8.447812E+02  8.358777E-01 -1.336899E+02  8.577361E-03 1.376514E+02  8.587803E-03 1.376043E+02  8.287636E-01 -1.360888E+02 
8.448125E+02  8.352621E-01 -1.337786E+02  8.521941E-03 1.377178E+02  8.529872E-03 1.375451E+02  8.274818E-01 -1.361728E+02 
8.448438E+02  8.346481E-01 -1.338556E+02  8.474065E-03 1.377794E+02  8.459052E-03 1.375195E+02  8.262206E-01 -1.362674E+02 
8.448750E+02  8.340086E-01 -1.339453E+02  8.399816E-03 1.378094E+02  8.400135E-03 1.376293E+02  8.248090E-01 -1.363489E+02 
8.449062E+02  8.333280E-01 -1.340376E+02  8.333996E-03 1.380149E+02  8.323437E-03 1.377972E+02  8.232896E-01 -1.364297E+02 
8.449375E+02  8.327048E-01 -1.341117E+02  8.271829E-03 1.382211E+02  8.271281E-03 1.380752E+02  8.218120E-01 -1.364906E+02 
8.449688E+02  8.318847E-01 -1.341848E+02  8.202124E-03 1.384940E+02  8.210655E-03 1.383252E+02  8.200992E-01 -1.365361E+02 
8.450000E+02  8.311328E-01 -1.342434E+02  8.142976E-03 1.387354E+02  8.135773E-03 1.386704E+02  8.184785E-01 -1.365716E+02 
8.450312E+02  8.304148E-01 -1.343067E+02  8.076477E-03 1.390788E+02  8.083582E-03 1.389300E+02  8.168577E-01 -1.366036E+02 
8.450625E+02  8.297394E-01 -1.343739E+02  8.018345E-03 1.393840E+02  8.005544E-03 1.392210E+02  8.151903E-01 -1.366235E+02 
8.450938E+02  8.291504E-01 -1.344228E+02  7.963222E-03 1.396800E+02  7.959186E-03 1.395686E+02  8.137198E-01 -1.366153E+02 
8.451250E+02  8.285023E-01 -1.344623E+02  7.894726E-03 1.401365E+02  7.889869E-03 1.399727E+02  8.122476E-01 -1.365808E+02 
8.451562E+02  8.279486E-01 -1.344881E+02  7.830349E-03 1.404519E+02  7.834945E-03 1.402971E+02  8.109226E-01 -1.365422E+02 
8.451875E+02  8.275477E-01 -1.345279E+02  7.756649E-03 1.410053E+02  7.759462E-03 1.408543E+02  8.099034E-01 -1.364922E+02 
8.452188E+02  8.272894E-01 -1.345671E+02  7.693110E-03 1.415701E+02  7.697895E-03 1.414117E+02  8.091556E-01 -1.364363E+02 
8.452500E+02  8.271743E-01 -1.345964E+02  7.633802E-03 1.421139E+02  7.636918E-03 1.420563E+02  8.087064E-01 -1.363608E+02 
8.452812E+02  8.272350E-01 -1.346160E+02  7.589299E-03 1.427602E+02  7.588728E-03 1.427186E+02  8.085874E-01 -1.362766E+02 
8.453125E+02  8.273732E-01 -1.346301E+02  7.533956E-03 1.434290E+02  7.536237E-03 1.432878E+02  8.088116E-01 -1.361969E+02 
8.453438E+02  8.277356E-01 -1.346605E+02  7.491489E-03 1.442514E+02  7.502887E-03 1.439885E+02  8.094653E-01 -1.361264E+02 
8.453750E+02  8.282656E-01 -1.347136E+02  7.466520E-03 1.449097E+02  7.468612E-03 1.447018E+02  8.104213E-01 -1.360796E+02 
8.454062E+02  8.288119E-01 -1.347615E+02  7.434787E-03 1.455449E+02  7.418880E-03 1.454350E+02  8.116380E-01 -1.360423E+02 
8.454375E+02  8.295242E-01 -1.348224E+02  7.400814E-03 1.463032E+02  7.383648E-03 1.462400E+02  8.130274E-01 -1.360117E+02 
8.454688E+02  8.302254E-01 -1.348744E+02  7.377348E-03 1.471122E+02  7.371075E-03 1.469107E+02  8.146103E-01 -1.360018E+02 
8.455000E+02  8.309359E-01 -1.349478E+02  7.359259E-03 1.478234E+02  7.361058E-03 1.477330E+02  8.163086E-01 -1.360160E+02 
8.455312E+02  8.318077E-01 -1.350440E+02  7.361906E-03 1.486044E+02  7.360073E-03 1.484635E+02  8.181425E-01 -1.360701E+02 
8.455625E+02  8.325919E-01 -1.351423E+02  7.352767E-03 1.492855E+02  7.352380E-03 1.492008E+02  8.199003E-01 -1.361302E+02 
8.455938E+02  8.333457E-01 -1.352444E+02  7.345707E-03 1.499842E+02  7.349718E-03 1.499455E+02  8.216538E-01 -1.362025E+02 
8.456250E+02  8.340559E-01 -1.353430E+02  7.338357E-03 1.506882E+02  7.353937E-03 1.504558E+02  8.232249E-01 -1.362903E+02 
8.456562E+02  8.346324E-01 -1.354582E+02  7.336640E-03 1.513594E+02  7.331147E-03 1.511738E+02  8.247133E-01 -1.363936E+02 
8.456875E+02  8.352728E-01 -1.355853E+02  7.334939E-03 1.519711E+02  7.331923E-03 1.518293E+02  8.261930E-01 -1.365225E+02 
8.457188E+02  8.358459E-01 -1.357211E+02  7.334059E-03 1.527525E+02  7.326610E-03 1.525145E+02  8.275755E-01 -1.366461E+02 
8.457500E+02  8.363413E-01 -1.358560E+02  7.343221E-03 1.532505E+02  7.344846E-03 1.532045E+02  8.288264E-01 -1.367774E+02 
8.457812E+02  8.367973E-01 -1.359786E+02  7.338924E-03 1.538529E+02  7.343130E-03 1.537869E+02  8.299070E-01 -1.369065E+02 
8.458125E+02  8.370855E-01 -1.361169E+02  7.337071E-03 1.544813E+02  7.327602E-03 1.543741E+02  8.308693E-01 -1.370512E+02 
8.458438E+02  8.375202E-01 -1.362523E+02  7.337471E-03 1.550869E+02  7.330291E-03 1.548689E+02  8.318524E-01 -1.372033E+02 
8.458750E+02  8.379215E-01 -1.364071E+02  7.325632E-03 1.556223E+02  7.323696E-03 1.554632E+02  8.327537E-01 -1.373624E+02 
8.459062E+02  8.380596E-01 -1.365519E+02  7.320056E-03 1.562266E+02  7.317911E-03 1.560667E+02  8.335323E-01 -1.375162E+02 
8.459375E+02  8.382843E-01 -1.366996E+02  7.300161E-03 1.568613E+02  7.305569E-03 1.567369E+02  8.340972E-01 -1.376679E+02 
8.459688E+02  8.383755E-01 -1.368404E+02  7.290877E-03 1.575376E+02  7.289905E-03 1.573658E+02  8.347298E-01 -1.378327E+02 
8.460000E+02  8.385132E-01 -1.369900E+02  7.279831E-03 1.582051E+02  7.270517E-03 1.580092E+02  8.352461E-01 -1.379958E+02 
8.460312E+02  8.385692E-01 -1.371519E+02  7.263245E-03 1.588705E+02  7.263413E-03 1.586379E+02  8.357879E-01 -1.381676E+02 
8.460625E+02  8.385615E-01 -1.373060E+02  7.234878E-03 1.596184E+02  7.237771E-03 1.593690E+02  8.360187E-01 -1.383381E+02 
8.460938E+02  8.385170E-01 -1.374656E+02  7.223815E-03 1.603131E+02  7.221878E-03 1.601626E+02  8.363844E-01 -1.385016E+02 
8.461250E+02  8.384579E-01 -1.376194E+02  7.204285E-03 1.610104E+02  7.204387E-03 1.608713E+02  8.366982E-01 -1.386724E+02 
8.461562E+02  8.383508E-01 -1.377738E+02  7.185712E-03 1.617683E+02  7.186061E-03 1.617243E+02  8.367845E-01 -1.388439E+02 
8.461875E+02  8.381035E-01 -1.379304E+02  7.164532E-03 1.626608E+02  7.170175E-03 1.624962E+02  8.368729E-01 -1.390186E+02 
8.462188E+02  8.378881E-01 -1.380887E+02  7.155608E-03 1.635638E+02  7.149524E-03 1.634547E+02  8.369124E-01 -1.391856E+02 
8.462500E+02  8.376665E-01 -1.382517E+02  7.131093E-03 1.645198E+02  7.131211E-03 1.644019E+02  8.369550E-01 -1.393623E+02 
8.462812E+02  8.374189E-01 -1.384028E+02  7.129462E-03 1.654503E+02  7.117535E-03 1.652332E+02  8.369347E-01 -1.395293E+02 
8.463125E+02  8.370078E-01 -1.385587E+02  7.110192E-03 1.664953E+02  7.110243E-03 1.662609E+02  8.367429E-01 -1.396954E+02 
8.463438E+02  8.366292E-01 -1.387095E+02  7.108004E-03 1.674516E+02  7.100710E-03 1.671737E+02  8.366572E-01 -1.398732E+02 
8.463750E+02  8.362617E-01 -1.388652E+02  7.078224E-03 1.684570E+02  7.083787E-03 1.683895E+02  8.364434E-01 -1.400442E+02 
8.464062E+02  8.358046E-01 -1.390281E+02  7.091336E-03 1.695792E+02  7.085250E-03 1.694871E+02  8.361354E-01 -1.402255E+02 
