! S-parameter for B3718 in Touchstone format with magnitude (lin) and phase
! Normalised impedance: 50 Ohm. Measurement system: 50 Ohm Ta = 20°C
! B3718_SB.s2p . Measurement full 2-port calibrated incl. Port ext.
! Start: 716.00MHz, Stop: 1116.00MHz, Span: 400MHz, 1601 Pts., Step: 250.0kHz
! Date:25/10/06 Epcos SAW COM WT AE PD, AB
! Pinning according data sheet recommendation, In P2, Out P5, all others GND
!
! port | pin | signal
! -----|-----|--------
!   1  |  2  |  IN
!   2  |  5  |  OUT
! --------------------
!
# MHZ S MA R 50
! freq  magS11 angS11  magS21 angS21  magS12 angS12  magS22 angS22
7.160000E+02  9.754671E-01 -4.431756E+01  6.870280E-03 5.429007E+01  6.877666E-03 5.453858E+01  9.757352E-01 -4.421002E+01 
7.162500E+02  9.755968E-01 -4.435876E+01  6.864019E-03 5.432432E+01  6.870766E-03 5.455131E+01  9.759718E-01 -4.423694E+01 
7.165000E+02  9.759465E-01 -4.437587E+01  6.866693E-03 5.433442E+01  6.865758E-03 5.456451E+01  9.760845E-01 -4.426110E+01 
7.167500E+02  9.759984E-01 -4.440907E+01  6.865183E-03 5.449161E+01  6.877230E-03 5.469692E+01  9.763705E-01 -4.428662E+01 
7.170000E+02  9.761264E-01 -4.443344E+01  6.879871E-03 5.443294E+01  6.889279E-03 5.467564E+01  9.762564E-01 -4.430788E+01 
7.172500E+02  9.761996E-01 -4.446005E+01  6.878308E-03 5.446941E+01  6.889619E-03 5.471183E+01  9.762939E-01 -4.433659E+01 
7.175000E+02  9.762738E-01 -4.447719E+01  6.876903E-03 5.456164E+01  6.888479E-03 5.475987E+01  9.764224E-01 -4.435160E+01 
7.177500E+02  9.763307E-01 -4.450582E+01  6.889283E-03 5.457270E+01  6.898338E-03 5.475476E+01  9.764134E-01 -4.438208E+01 
7.180000E+02  9.762130E-01 -4.452489E+01  6.903593E-03 5.458498E+01  6.906652E-03 5.478808E+01  9.763435E-01 -4.440423E+01 
7.182500E+02  9.761363E-01 -4.454956E+01  6.903521E-03 5.458817E+01  6.913857E-03 5.476759E+01  9.764338E-01 -4.442750E+01 
7.185000E+02  9.763000E-01 -4.456509E+01  6.909865E-03 5.463208E+01  6.924919E-03 5.478850E+01  9.763714E-01 -4.445272E+01 
7.187500E+02  9.761412E-01 -4.458993E+01  6.922707E-03 5.444055E+01  6.928615E-03 5.474842E+01  9.763013E-01 -4.447608E+01 
7.190000E+02  9.762109E-01 -4.461168E+01  6.936875E-03 5.439229E+01  6.938070E-03 5.454786E+01  9.763831E-01 -4.449663E+01 
7.192500E+02  9.761866E-01 -4.463038E+01  6.930384E-03 5.442749E+01  6.934195E-03 5.465734E+01  9.763542E-01 -4.451839E+01 
7.195000E+02  9.760511E-01 -4.464226E+01  6.931208E-03 5.440749E+01  6.947160E-03 5.459953E+01  9.763204E-01 -4.453322E+01 
7.197500E+02  9.761078E-01 -4.466540E+01  6.941580E-03 5.431699E+01  6.950874E-03 5.454019E+01  9.762863E-01 -4.455723E+01 
7.200000E+02  9.761314E-01 -4.467846E+01  6.936730E-03 5.416477E+01  6.945589E-03 5.444710E+01  9.761380E-01 -4.457595E+01 
7.202500E+02  9.761227E-01 -4.471224E+01  6.930432E-03 5.427031E+01  6.944294E-03 5.446393E+01  9.761473E-01 -4.459908E+01 
7.205000E+02  9.761343E-01 -4.472054E+01  6.936932E-03 5.425623E+01  6.941165E-03 5.450569E+01  9.761655E-01 -4.461935E+01 
7.207500E+02  9.761725E-01 -4.474738E+01  6.934649E-03 5.428694E+01  6.938095E-03 5.451950E+01  9.761050E-01 -4.463667E+01 
7.210000E+02  9.762136E-01 -4.476632E+01  6.931267E-03 5.424871E+01  6.946459E-03 5.449996E+01  9.760391E-01 -4.466265E+01 
7.212500E+02  9.761564E-01 -4.478530E+01  6.941660E-03 5.427749E+01  6.945398E-03 5.452348E+01  9.759942E-01 -4.468047E+01 
7.215000E+02  9.759858E-01 -4.480510E+01  6.949744E-03 5.426102E+01  6.962054E-03 5.447365E+01  9.759655E-01 -4.469859E+01 
7.217500E+02  9.760650E-01 -4.481212E+01  6.940201E-03 5.421849E+01  6.950491E-03 5.437760E+01  9.760021E-01 -4.471653E+01 
7.220000E+02  9.760704E-01 -4.483422E+01  6.942489E-03 5.423893E+01  6.948713E-03 5.444702E+01  9.759139E-01 -4.472882E+01 
7.222500E+02  9.761930E-01 -4.484606E+01  6.946587E-03 5.411349E+01  6.958266E-03 5.429779E+01  9.759525E-01 -4.475210E+01 
7.225000E+02  9.762253E-01 -4.486777E+01  6.949461E-03 5.407274E+01  6.957245E-03 5.434118E+01  9.760182E-01 -4.477206E+01 
7.227500E+02  9.763166E-01 -4.489303E+01  6.942860E-03 5.408405E+01  6.946737E-03 5.431826E+01  9.760246E-01 -4.478475E+01 
7.230000E+02  9.763198E-01 -4.490726E+01  6.944057E-03 5.411911E+01  6.953628E-03 5.436955E+01  9.759834E-01 -4.480226E+01 
7.232500E+02  9.762333E-01 -4.493616E+01  6.934486E-03 5.412779E+01  6.937998E-03 5.428282E+01  9.760668E-01 -4.482358E+01 
7.235000E+02  9.762925E-01 -4.494042E+01  6.935400E-03 5.406039E+01  6.946994E-03 5.430548E+01  9.761660E-01 -4.484784E+01 
7.237500E+02  9.763531E-01 -4.495933E+01  6.937443E-03 5.417463E+01  6.945064E-03 5.440267E+01  9.762549E-01 -4.486776E+01 
7.240000E+02  9.764260E-01 -4.498638E+01  6.934796E-03 5.413312E+01  6.940914E-03 5.434336E+01  9.761584E-01 -4.488037E+01 
7.242500E+02  9.762792E-01 -4.500349E+01  6.938506E-03 5.418546E+01  6.942744E-03 5.443222E+01  9.762097E-01 -4.490755E+01 
7.245000E+02  9.763462E-01 -4.502683E+01  6.944929E-03 5.424353E+01  6.950625E-03 5.443302E+01  9.762685E-01 -4.492724E+01 
7.247500E+02  9.764346E-01 -4.504518E+01  6.945465E-03 5.423171E+01  6.954052E-03 5.438057E+01  9.762648E-01 -4.494557E+01 
7.250000E+02  9.764366E-01 -4.506748E+01  6.950524E-03 5.421984E+01  6.951065E-03 5.449578E+01  9.762663E-01 -4.497606E+01 
7.252500E+02  9.763922E-01 -4.508366E+01  6.952655E-03 5.422691E+01  6.963065E-03 5.451878E+01  9.762722E-01 -4.499063E+01 
7.255000E+02  9.764433E-01 -4.510196E+01  6.961436E-03 5.431313E+01  6.967061E-03 5.447075E+01  9.762736E-01 -4.502407E+01 
7.257500E+02  9.764118E-01 -4.512298E+01  6.964752E-03 5.426080E+01  6.976164E-03 5.444668E+01  9.762308E-01 -4.504011E+01 
7.260000E+02  9.765254E-01 -4.514447E+01  6.958105E-03 5.421750E+01  6.977193E-03 5.444219E+01  9.763949E-01 -4.506399E+01 
7.262500E+02  9.766852E-01 -4.516832E+01  6.965276E-03 5.426311E+01  6.984521E-03 5.445486E+01  9.763783E-01 -4.508695E+01 
7.265000E+02  9.765117E-01 -4.518562E+01  6.978683E-03 5.432227E+01  6.981749E-03 5.448290E+01  9.763654E-01 -4.510975E+01 
7.267500E+02  9.767026E-01 -4.521372E+01  6.980472E-03 5.425547E+01  6.992922E-03 5.455728E+01  9.764513E-01 -4.512826E+01 
7.270000E+02  9.766560E-01 -4.524006E+01  6.982901E-03 5.419607E+01  6.997238E-03 5.452323E+01  9.763621E-01 -4.515062E+01 
7.272500E+02  9.765914E-01 -4.525695E+01  6.988402E-03 5.419381E+01  6.999687E-03 5.452023E+01  9.764469E-01 -4.517636E+01 
7.275000E+02  9.766799E-01 -4.527650E+01  6.988398E-03 5.430688E+01  7.004293E-03 5.448895E+01  9.765423E-01 -4.519520E+01 
7.277500E+02  9.766094E-01 -4.530889E+01  7.004735E-03 5.421415E+01  7.017709E-03 5.441150E+01  9.764081E-01 -4.522767E+01 
7.280000E+02  9.766512E-01 -4.532898E+01  7.013114E-03 5.414689E+01  7.023303E-03 5.434955E+01  9.763760E-01 -4.525756E+01 
7.282500E+02  9.766543E-01 -4.535164E+01  7.009916E-03 5.406820E+01  7.019467E-03 5.432008E+01  9.763690E-01 -4.528106E+01 
7.285000E+02  9.765384E-01 -4.537845E+01  7.001833E-03 5.404413E+01  7.015843E-03 5.424298E+01  9.763539E-01 -4.530710E+01 
7.287500E+02  9.765697E-01 -4.540018E+01  6.997081E-03 5.403743E+01  7.009412E-03 5.423447E+01  9.763479E-01 -4.533187E+01 
7.290000E+02  9.764413E-01 -4.542664E+01  6.996078E-03 5.406317E+01  7.015531E-03 5.433654E+01  9.762406E-01 -4.535683E+01 
7.292500E+02  9.765351E-01 -4.545484E+01  6.992474E-03 5.419105E+01  7.007430E-03 5.437707E+01  9.762461E-01 -4.538138E+01 
7.295000E+02  9.764404E-01 -4.548436E+01  7.006246E-03 5.415382E+01  7.020150E-03 5.449158E+01  9.761430E-01 -4.540960E+01 
7.297500E+02  9.763841E-01 -4.549941E+01  7.020786E-03 5.423868E+01  7.031118E-03 5.448245E+01  9.760411E-01 -4.542845E+01 
7.300000E+02  9.762373E-01 -4.551701E+01  7.028818E-03 5.421048E+01  7.044458E-03 5.437752E+01  9.760604E-01 -4.545734E+01 
7.302500E+02  9.762112E-01 -4.553918E+01  7.032226E-03 5.413188E+01  7.041128E-03 5.434674E+01  9.759308E-01 -4.547489E+01 
7.305000E+02  9.760601E-01 -4.556848E+01  7.047700E-03 5.427854E+01  7.059103E-03 5.446356E+01  9.759143E-01 -4.550742E+01 
7.307500E+02  9.759972E-01 -4.558543E+01  7.045718E-03 5.412181E+01  7.054818E-03 5.426571E+01  9.757195E-01 -4.552928E+01 
7.310000E+02  9.759550E-01 -4.561738E+01  7.052585E-03 5.405662E+01  7.060255E-03 5.429351E+01  9.758415E-01 -4.554926E+01 
7.312500E+02  9.759032E-01 -4.563096E+01  7.062988E-03 5.397791E+01  7.067798E-03 5.418019E+01  9.756197E-01 -4.556715E+01 
7.315000E+02  9.757926E-01 -4.565852E+01  7.061008E-03 5.397755E+01  7.080174E-03 5.415899E+01  9.754447E-01 -4.559725E+01 
7.317500E+02  9.756603E-01 -4.566815E+01  7.058923E-03 5.389046E+01  7.068494E-03 5.410133E+01  9.753105E-01 -4.562331E+01 
7.320000E+02  9.755449E-01 -4.569610E+01  7.046350E-03 5.380012E+01  7.054914E-03 5.403470E+01  9.752578E-01 -4.564535E+01 
7.322500E+02  9.752322E-01 -4.570984E+01  7.058766E-03 5.393037E+01  7.074099E-03 5.408135E+01  9.750642E-01 -4.566305E+01 
7.325000E+02  9.752388E-01 -4.573362E+01  7.065977E-03 5.387617E+01  7.084015E-03 5.404074E+01  9.749678E-01 -4.569151E+01 
7.327500E+02  9.751123E-01 -4.575143E+01  7.060638E-03 5.381811E+01  7.080236E-03 5.406935E+01  9.747831E-01 -4.570349E+01 
7.330000E+02  9.749447E-01 -4.576116E+01  7.072439E-03 5.371755E+01  7.091539E-03 5.391918E+01  9.746503E-01 -4.572344E+01 
7.332500E+02  9.750137E-01 -4.578462E+01  7.073580E-03 5.376311E+01  7.092267E-03 5.392525E+01  9.745598E-01 -4.574302E+01 
7.335000E+02  9.748401E-01 -4.580596E+01  7.086278E-03 5.380797E+01  7.096153E-03 5.398559E+01  9.745541E-01 -4.576957E+01 
7.337500E+02  9.747073E-01 -4.581687E+01  7.086947E-03 5.370244E+01  7.097982E-03 5.392310E+01  9.744434E-01 -4.578557E+01 
7.340000E+02  9.747847E-01 -4.583435E+01  7.080767E-03 5.366952E+01  7.099571E-03 5.389370E+01  9.743713E-01 -4.579765E+01 
7.342500E+02  9.746531E-01 -4.585545E+01  7.088798E-03 5.362501E+01  7.101633E-03 5.384246E+01  9.741041E-01 -4.582044E+01 
7.345000E+02  9.744695E-01 -4.586503E+01  7.098752E-03 5.355838E+01  7.116963E-03 5.379101E+01  9.741023E-01 -4.583062E+01 
7.347500E+02  9.745246E-01 -4.587982E+01  7.094360E-03 5.351301E+01  7.111840E-03 5.370559E+01  9.739845E-01 -4.583940E+01 
7.350000E+02  9.745515E-01 -4.588573E+01  7.090714E-03 5.348653E+01  7.103624E-03 5.362087E+01  9.739824E-01 -4.585352E+01 
7.352500E+02  9.746097E-01 -4.590982E+01  7.096282E-03 5.350218E+01  7.107165E-03 5.361005E+01  9.740695E-01 -4.586787E+01 
7.355000E+02  9.744979E-01 -4.592324E+01  7.095010E-03 5.344511E+01  7.100925E-03 5.364638E+01  9.740820E-01 -4.589317E+01 
7.357500E+02  9.746386E-01 -4.593957E+01  7.085718E-03 5.340297E+01  7.101127E-03 5.358174E+01  9.742311E-01 -4.590540E+01 
7.360000E+02  9.745646E-01 -4.595703E+01  7.085333E-03 5.342551E+01  7.092316E-03 5.349740E+01  9.741406E-01 -4.592797E+01 
7.362500E+02  9.745849E-01 -4.598141E+01  7.068214E-03 5.341757E+01  7.096558E-03 5.353329E+01  9.739881E-01 -4.594111E+01 
7.365000E+02  9.744856E-01 -4.598864E+01  7.080968E-03 5.336477E+01  7.095216E-03 5.353654E+01  9.740876E-01 -4.596466E+01 
7.367500E+02  9.745987E-01 -4.600878E+01  7.084689E-03 5.346957E+01  7.104463E-03 5.365326E+01  9.741392E-01 -4.597960E+01 
7.370000E+02  9.744547E-01 -4.602485E+01  7.096098E-03 5.339989E+01  7.109857E-03 5.353618E+01  9.740402E-01 -4.599939E+01 
7.372500E+02  9.746645E-01 -4.603268E+01  7.094381E-03 5.330677E+01  7.116690E-03 5.343890E+01  9.741645E-01 -4.602116E+01 
7.375000E+02  9.746079E-01 -4.605017E+01  7.092319E-03 5.326705E+01  7.113962E-03 5.339952E+01  9.742429E-01 -4.603789E+01 
7.377500E+02  9.745592E-01 -4.606789E+01  7.100333E-03 5.314934E+01  7.113554E-03 5.327038E+01  9.742711E-01 -4.605514E+01 
7.380000E+02  9.746807E-01 -4.608201E+01  7.086353E-03 5.326500E+01  7.093913E-03 5.343597E+01  9.742471E-01 -4.607612E+01 
7.382500E+02  9.746597E-01 -4.611052E+01  7.082756E-03 5.320383E+01  7.092931E-03 5.340679E+01  9.742668E-01 -4.609932E+01 
7.385000E+02  9.748045E-01 -4.612616E+01  7.080667E-03 5.319003E+01  7.100198E-03 5.336260E+01  9.743691E-01 -4.611588E+01 
7.387500E+02  9.747363E-01 -4.614304E+01  7.087763E-03 5.314126E+01  7.107775E-03 5.331628E+01  9.743886E-01 -4.613214E+01 
7.390000E+02  9.748078E-01 -4.616662E+01  7.079276E-03 5.320451E+01  7.093112E-03 5.338889E+01  9.744815E-01 -4.616073E+01 
7.392500E+02  9.749624E-01 -4.618782E+01  7.075676E-03 5.328096E+01  7.094857E-03 5.341740E+01  9.745486E-01 -4.618295E+01 
7.395000E+02  9.750014E-01 -4.621097E+01  7.076877E-03 5.322641E+01  7.096908E-03 5.339780E+01  9.745777E-01 -4.620072E+01 
7.397500E+02  9.751876E-01 -4.623443E+01  7.070388E-03 5.328618E+01  7.088326E-03 5.335919E+01  9.746683E-01 -4.622405E+01 
7.400000E+02  9.751248E-01 -4.625360E+01  7.070531E-03 5.324844E+01  7.094218E-03 5.342472E+01  9.746521E-01 -4.624859E+01 
7.402500E+02  9.751676E-01 -4.628202E+01  7.074521E-03 5.339852E+01  7.090613E-03 5.350962E+01  9.747351E-01 -4.627157E+01 
7.405000E+02  9.751873E-01 -4.629811E+01  7.085299E-03 5.318649E+01  7.102814E-03 5.343700E+01  9.746490E-01 -4.629265E+01 
7.407500E+02  9.751614E-01 -4.632541E+01  7.072600E-03 5.333030E+01  7.090212E-03 5.341906E+01  9.747773E-01 -4.632328E+01 
7.410000E+02  9.752862E-01 -4.635143E+01  7.077426E-03 5.335362E+01  7.094857E-03 5.352890E+01  9.748322E-01 -4.633982E+01 
7.412500E+02  9.754483E-01 -4.638422E+01  7.083206E-03 5.343014E+01  7.105093E-03 5.351777E+01  9.748183E-01 -4.637234E+01 
7.415000E+02  9.753123E-01 -4.640791E+01  7.092158E-03 5.338554E+01  7.110557E-03 5.352333E+01  9.748600E-01 -4.640082E+01 
7.417500E+02  9.754087E-01 -4.643132E+01  7.090166E-03 5.337297E+01  7.101772E-03 5.354163E+01  9.749063E-01 -4.643215E+01 
7.420000E+02  9.751660E-01 -4.646043E+01  7.093192E-03 5.346894E+01  7.112738E-03 5.357068E+01  9.748314E-01 -4.645429E+01 
7.422500E+02  9.752984E-01 -4.648805E+01  7.103894E-03 5.349770E+01  7.122010E-03 5.364289E+01  9.748452E-01 -4.647944E+01 
7.425000E+02  9.751646E-01 -4.651582E+01  7.110439E-03 5.347386E+01  7.129109E-03 5.356474E+01  9.748031E-01 -4.650528E+01 
7.427500E+02  9.752662E-01 -4.653357E+01  7.117165E-03 5.339790E+01  7.135069E-03 5.357711E+01  9.748306E-01 -4.653314E+01 
7.430000E+02  9.751441E-01 -4.655767E+01  7.120071E-03 5.345829E+01  7.136143E-03 5.358389E+01  9.747665E-01 -4.656116E+01 
7.432500E+02  9.750360E-01 -4.658287E+01  7.130436E-03 5.341835E+01  7.145370E-03 5.349431E+01  9.746856E-01 -4.659074E+01 
7.435000E+02  9.751144E-01 -4.660313E+01  7.128587E-03 5.333463E+01  7.146890E-03 5.344168E+01  9.746864E-01 -4.661074E+01 
7.437500E+02  9.751147E-01 -4.663219E+01  7.121053E-03 5.338499E+01  7.142972E-03 5.346136E+01  9.746212E-01 -4.664057E+01 
7.440000E+02  9.749076E-01 -4.665713E+01  7.129126E-03 5.335777E+01  7.144212E-03 5.348269E+01  9.745860E-01 -4.666437E+01 
7.442500E+02  9.749587E-01 -4.667831E+01  7.129274E-03 5.334599E+01  7.150279E-03 5.352561E+01  9.745169E-01 -4.668986E+01 
7.445000E+02  9.747591E-01 -4.670452E+01  7.136516E-03 5.334847E+01  7.156158E-03 5.346152E+01  9.744843E-01 -4.671796E+01 
7.447500E+02  9.747588E-01 -4.672701E+01  7.132278E-03 5.339200E+01  7.161357E-03 5.351005E+01  9.743454E-01 -4.674274E+01 
7.450000E+02  9.746968E-01 -4.675340E+01  7.144482E-03 5.347823E+01  7.165540E-03 5.352895E+01  9.743641E-01 -4.677263E+01 
7.452500E+02  9.745530E-01 -4.677948E+01  7.162091E-03 5.349253E+01  7.176613E-03 5.357053E+01  9.741999E-01 -4.679655E+01 
7.455000E+02  9.745766E-01 -4.681152E+01  7.177152E-03 5.342392E+01  7.192250E-03 5.356659E+01  9.741063E-01 -4.682071E+01 
7.457500E+02  9.744078E-01 -4.683422E+01  7.178672E-03 5.338687E+01  7.206977E-03 5.354513E+01  9.740397E-01 -4.684398E+01 
7.460000E+02  9.743111E-01 -4.685520E+01  7.186287E-03 5.336434E+01  7.206813E-03 5.343612E+01  9.739241E-01 -4.686509E+01 
7.462500E+02  9.743142E-01 -4.688495E+01  7.195788E-03 5.329644E+01  7.207164E-03 5.341814E+01  9.737926E-01 -4.689570E+01 
7.465000E+02  9.740557E-01 -4.691104E+01  7.196041E-03 5.324654E+01  7.214642E-03 5.332044E+01  9.736030E-01 -4.691381E+01 
7.467500E+02  9.739399E-01 -4.692801E+01  7.206190E-03 5.318276E+01  7.226500E-03 5.327906E+01  9.735250E-01 -4.693317E+01 
7.470000E+02  9.738528E-01 -4.694777E+01  7.195534E-03 5.329271E+01  7.220442E-03 5.330276E+01  9.735123E-01 -4.695739E+01 
7.472500E+02  9.737541E-01 -4.696772E+01  7.217371E-03 5.317239E+01  7.233864E-03 5.329941E+01  9.733561E-01 -4.698122E+01 
7.475000E+02  9.736701E-01 -4.699112E+01  7.205677E-03 5.311355E+01  7.222862E-03 5.320892E+01  9.732617E-01 -4.699626E+01 
7.477500E+02  9.735855E-01 -4.701161E+01  7.222810E-03 5.313306E+01  7.239011E-03 5.316949E+01  9.732447E-01 -4.701721E+01 
7.480000E+02  9.734755E-01 -4.703501E+01  7.228038E-03 5.307943E+01  7.258794E-03 5.314215E+01  9.731024E-01 -4.703870E+01 
7.482500E+02  9.732826E-01 -4.704877E+01  7.232842E-03 5.299984E+01  7.253980E-03 5.308029E+01  9.730343E-01 -4.705505E+01 
7.485000E+02  9.732868E-01 -4.705887E+01  7.235584E-03 5.282921E+01  7.254669E-03 5.294557E+01  9.729407E-01 -4.707203E+01 
7.487500E+02  9.732434E-01 -4.706792E+01  7.242334E-03 5.279045E+01  7.260824E-03 5.285256E+01  9.729236E-01 -4.709500E+01 
7.490000E+02  9.730766E-01 -4.708778E+01  7.228133E-03 5.281540E+01  7.251505E-03 5.279910E+01  9.728485E-01 -4.711272E+01 
7.492500E+02  9.729611E-01 -4.710122E+01  7.223000E-03 5.280941E+01  7.251613E-03 5.277737E+01  9.727309E-01 -4.712626E+01 
7.495000E+02  9.730039E-01 -4.711545E+01  7.230369E-03 5.269594E+01  7.247356E-03 5.271432E+01  9.727403E-01 -4.715210E+01 
7.497500E+02  9.727726E-01 -4.712154E+01  7.210555E-03 5.257538E+01  7.242809E-03 5.265889E+01  9.726588E-01 -4.717525E+01 
7.500000E+02  9.729835E-01 -4.717831E+01  7.227966E-03 5.272596E+01  7.252835E-03 5.271743E+01  9.728205E-01 -4.723083E+01 
7.502500E+02  9.728130E-01 -4.718489E+01  7.228855E-03 5.252423E+01  7.246835E-03 5.268968E+01  9.725003E-01 -4.723977E+01 
7.505000E+02  9.727926E-01 -4.719350E+01  7.227555E-03 5.252428E+01  7.244006E-03 5.262122E+01  9.725076E-01 -4.724792E+01 
7.507500E+02  9.725747E-01 -4.720559E+01  7.218131E-03 5.255763E+01  7.233577E-03 5.261345E+01  9.724962E-01 -4.726161E+01 
7.510000E+02  9.724785E-01 -4.721988E+01  7.211409E-03 5.252817E+01  7.236922E-03 5.258298E+01  9.723330E-01 -4.727493E+01 
7.512500E+02  9.724920E-01 -4.723404E+01  7.241184E-03 5.260364E+01  7.258346E-03 5.260996E+01  9.723760E-01 -4.729067E+01 
7.515000E+02  9.724691E-01 -4.726086E+01  7.223534E-03 5.245358E+01  7.246427E-03 5.250656E+01  9.723452E-01 -4.730384E+01 
7.517500E+02  9.724713E-01 -4.728335E+01  7.226740E-03 5.234208E+01  7.245211E-03 5.238841E+01  9.723521E-01 -4.731518E+01 
7.520000E+02  9.725396E-01 -4.729300E+01  7.220730E-03 5.239536E+01  7.240786E-03 5.246231E+01  9.722879E-01 -4.733396E+01 
7.522500E+02  9.724747E-01 -4.732032E+01  7.216924E-03 5.234480E+01  7.240433E-03 5.242894E+01  9.723262E-01 -4.735745E+01 
7.525000E+02  9.725265E-01 -4.734456E+01  7.224479E-03 5.232993E+01  7.238585E-03 5.241191E+01  9.724047E-01 -4.736729E+01 
7.527500E+02  9.724673E-01 -4.735643E+01  7.203964E-03 5.230098E+01  7.227659E-03 5.232723E+01  9.723738E-01 -4.739221E+01 
7.530000E+02  9.724968E-01 -4.737881E+01  7.208610E-03 5.232538E+01  7.236686E-03 5.239156E+01  9.723443E-01 -4.741510E+01 
7.532500E+02  9.725281E-01 -4.739958E+01  7.205435E-03 5.238498E+01  7.222150E-03 5.236165E+01  9.722798E-01 -4.742978E+01 
7.535000E+02  9.724865E-01 -4.741371E+01  7.200937E-03 5.235589E+01  7.221551E-03 5.238287E+01  9.724023E-01 -4.744454E+01 
7.537500E+02  9.726380E-01 -4.743787E+01  7.204351E-03 5.235743E+01  7.227132E-03 5.238916E+01  9.723803E-01 -4.746696E+01 
7.540000E+02  9.727331E-01 -4.745283E+01  7.193503E-03 5.239774E+01  7.219545E-03 5.240457E+01  9.725953E-01 -4.748899E+01 
7.542500E+02  9.727118E-01 -4.747952E+01  7.210890E-03 5.237585E+01  7.228807E-03 5.234324E+01  9.725490E-01 -4.751125E+01 
7.545000E+02  9.729005E-01 -4.750484E+01  7.209987E-03 5.237719E+01  7.230504E-03 5.241147E+01  9.727312E-01 -4.752415E+01 
