! Matrix data file written by TouchstoneData, EPCOS AG
! FILENAME: "B3717_WB.s2p"
! COMMENT: "Wide band s-parameters"
! INFO: nport=2, nfreq=1601
! DATE: "Fri Nov 29 16:31:19 2013"
! USER: "Ted Tang"
!
! port | pin | signal
! -----|-----|--------
!   1  |  2  |  in
!   2  |  5  |  out
! --------------------
! 
# MHZ S MA R 50
! freq  magS11 angS11  magS21 angS21  magS12 angS12  magS22 angS22
6.165000E+02  9.619227E-01 -6.436994E+01  6.419776E-03 2.590266E+01  6.404364E-03 2.571763E+01  9.658728E-01 -6.542914E+01 
6.168125E+02  9.619429E-01 -6.439662E+01  6.347605E-03 2.598708E+01  6.342942E-03 2.591362E+01  9.658257E-01 -6.546214E+01 
6.171250E+02  9.618150E-01 -6.443308E+01  6.320714E-03 2.644177E+01  6.324567E-03 2.629760E+01  9.658386E-01 -6.549801E+01 
6.174375E+02  9.617638E-01 -6.447290E+01  6.336420E-03 2.669782E+01  6.339698E-03 2.648782E+01  9.658897E-01 -6.553864E+01 
6.177500E+02  9.617554E-01 -6.451133E+01  6.357469E-03 2.692126E+01  6.362357E-03 2.680295E+01  9.657904E-01 -6.557654E+01 
6.180625E+02  9.617301E-01 -6.455164E+01  6.389457E-03 2.693719E+01  6.390651E-03 2.682166E+01  9.659201E-01 -6.562150E+01 
6.183750E+02  9.615915E-01 -6.459056E+01  6.421222E-03 2.682397E+01  6.427964E-03 2.670746E+01  9.659413E-01 -6.566101E+01 
6.186875E+02  9.614674E-01 -6.462066E+01  6.434142E-03 2.669389E+01  6.436943E-03 2.666779E+01  9.658495E-01 -6.570054E+01 
6.190000E+02  9.612186E-01 -6.463917E+01  6.458168E-03 2.642607E+01  6.464207E-03 2.641782E+01  9.657437E-01 -6.573339E+01 
6.193125E+02  9.611145E-01 -6.466015E+01  6.460459E-03 2.606933E+01  6.452463E-03 2.594298E+01  9.656664E-01 -6.577476E+01 
6.196250E+02  9.610941E-01 -6.467660E+01  6.420576E-03 2.572847E+01  6.433233E-03 2.564047E+01  9.656271E-01 -6.581641E+01 
6.199375E+02  9.610615E-01 -6.470376E+01  6.398850E-03 2.567793E+01  6.412024E-03 2.553627E+01  9.655264E-01 -6.585504E+01 
6.202500E+02  9.610921E-01 -6.472437E+01  6.373959E-03 2.552634E+01  6.366598E-03 2.537979E+01  9.653617E-01 -6.589762E+01 
6.205625E+02  9.609876E-01 -6.476232E+01  6.336851E-03 2.572013E+01  6.343538E-03 2.557919E+01  9.652758E-01 -6.594279E+01 
6.208750E+02  9.608063E-01 -6.479527E+01  6.312647E-03 2.599849E+01  6.306542E-03 2.594017E+01  9.650713E-01 -6.598404E+01 
6.211875E+02  9.605445E-01 -6.482580E+01  6.308738E-03 2.637553E+01  6.304673E-03 2.622138E+01  9.648277E-01 -6.602951E+01 
6.215000E+02  9.601759E-01 -6.484968E+01  6.341582E-03 2.680526E+01  6.333950E-03 2.673535E+01  9.643758E-01 -6.606155E+01 
6.218125E+02  9.599446E-01 -6.484782E+01  6.409353E-03 2.701138E+01  6.408555E-03 2.692154E+01  9.640866E-01 -6.607071E+01 
6.221250E+02  9.602261E-01 -6.485761E+01  6.465334E-03 2.649055E+01  6.466965E-03 2.641269E+01  9.641617E-01 -6.608026E+01 
6.224375E+02  9.604400E-01 -6.487523E+01  6.477654E-03 2.593437E+01  6.476891E-03 2.582162E+01  9.642058E-01 -6.611208E+01 
6.227500E+02  9.606538E-01 -6.491341E+01  6.459570E-03 2.564513E+01  6.457825E-03 2.552266E+01  9.643943E-01 -6.615113E+01 
6.230625E+02  9.609448E-01 -6.494919E+01  6.419339E-03 2.523935E+01  6.414429E-03 2.518076E+01  9.644989E-01 -6.618602E+01 
6.233750E+02  9.611523E-01 -6.498671E+01  6.383028E-03 2.515218E+01  6.376628E-03 2.508084E+01  9.644317E-01 -6.621910E+01 
6.236875E+02  9.610951E-01 -6.502304E+01  6.341930E-03 2.544902E+01  6.343369E-03 2.523889E+01  9.643414E-01 -6.625388E+01 
6.240000E+02  9.611558E-01 -6.505455E+01  6.299699E-03 2.569631E+01  6.321012E-03 2.558695E+01  9.642411E-01 -6.629004E+01 
6.243125E+02  9.611867E-01 -6.508519E+01  6.318816E-03 2.610562E+01  6.304256E-03 2.595637E+01  9.640736E-01 -6.632415E+01 
6.246250E+02  9.612052E-01 -6.511486E+01  6.354881E-03 2.638806E+01  6.352886E-03 2.622862E+01  9.638272E-01 -6.635679E+01 
6.249375E+02  9.613942E-01 -6.514509E+01  6.402328E-03 2.640373E+01  6.401253E-03 2.622804E+01  9.636731E-01 -6.638079E+01 
6.252500E+02  9.614580E-01 -6.518180E+01  6.435137E-03 2.635312E+01  6.439692E-03 2.613422E+01  9.636771E-01 -6.640954E+01 
6.255625E+02  9.615778E-01 -6.522456E+01  6.465488E-03 2.605078E+01  6.465154E-03 2.579896E+01  9.636127E-01 -6.644038E+01 
6.258750E+02  9.615767E-01 -6.527135E+01  6.467745E-03 2.556178E+01  6.471329E-03 2.534056E+01  9.635408E-01 -6.647027E+01 
6.261875E+02  9.616645E-01 -6.530888E+01  6.433021E-03 2.504877E+01  6.438381E-03 2.486797E+01  9.636286E-01 -6.650809E+01 
6.265000E+02  9.618598E-01 -6.534281E+01  6.407096E-03 2.476722E+01  6.400492E-03 2.454402E+01  9.635361E-01 -6.654660E+01 
6.268125E+02  9.618505E-01 -6.538007E+01  6.339097E-03 2.486983E+01  6.336577E-03 2.466334E+01  9.635666E-01 -6.658065E+01 
6.271250E+02  9.618813E-01 -6.541859E+01  6.315072E-03 2.512270E+01  6.309076E-03 2.503174E+01  9.635406E-01 -6.661071E+01 
6.274375E+02  9.618702E-01 -6.546007E+01  6.289957E-03 2.562000E+01  6.299803E-03 2.549197E+01  9.636864E-01 -6.664861E+01 
6.277500E+02  9.618427E-01 -6.549764E+01  6.314623E-03 2.607780E+01  6.315912E-03 2.592581E+01  9.638162E-01 -6.668182E+01 
6.280625E+02  9.617430E-01 -6.553951E+01  6.387123E-03 2.633033E+01  6.385787E-03 2.616183E+01  9.638664E-01 -6.671460E+01 
6.283750E+02  9.617640E-01 -6.558449E+01  6.436183E-03 2.599780E+01  6.444309E-03 2.600095E+01  9.640065E-01 -6.675138E+01 
6.286875E+02  9.617032E-01 -6.562361E+01  6.474621E-03 2.570537E+01  6.459658E-03 2.549395E+01  9.640526E-01 -6.680146E+01 
6.290000E+02  9.614836E-01 -6.566827E+01  6.463474E-03 2.503084E+01  6.462095E-03 2.492174E+01  9.639413E-01 -6.684837E+01 
6.293125E+02  9.612747E-01 -6.570962E+01  6.428154E-03 2.479192E+01  6.433515E-03 2.465530E+01  9.637973E-01 -6.688659E+01 
6.296250E+02  9.612044E-01 -6.575485E+01  6.397606E-03 2.463676E+01  6.399852E-03 2.455980E+01  9.638331E-01 -6.692824E+01 
6.299375E+02  9.607976E-01 -6.579667E+01  6.351818E-03 2.464287E+01  6.354226E-03 2.458956E+01  9.637247E-01 -6.697202E+01 
6.302500E+02  9.603838E-01 -6.583114E+01  6.324263E-03 2.492448E+01  6.324956E-03 2.476631E+01  9.633106E-01 -6.700600E+01 
6.305625E+02  9.598531E-01 -6.584091E+01  6.304566E-03 2.514505E+01  6.301647E-03 2.513361E+01  9.629344E-01 -6.701426E+01 
6.308750E+02  9.596755E-01 -6.584966E+01  6.318256E-03 2.552393E+01  6.314529E-03 2.539867E+01  9.631771E-01 -6.701536E+01 
6.311875E+02  9.598481E-01 -6.587068E+01  6.347959E-03 2.589256E+01  6.361459E-03 2.576298E+01  9.636134E-01 -6.704275E+01 
6.315000E+02  9.599872E-01 -6.589876E+01  6.398885E-03 2.604479E+01  6.400341E-03 2.593657E+01  9.637372E-01 -6.707764E+01 
6.318125E+02  9.599648E-01 -6.592939E+01  6.471779E-03 2.571941E+01  6.463155E-03 2.571568E+01  9.639680E-01 -6.711196E+01 
6.321250E+02  9.599337E-01 -6.596836E+01  6.461552E-03 2.521074E+01  6.479426E-03 2.511061E+01  9.640325E-01 -6.715221E+01 
6.324375E+02  9.597831E-01 -6.599205E+01  6.458178E-03 2.477277E+01  6.449586E-03 2.468240E+01  9.641499E-01 -6.719037E+01 
6.327500E+02  9.596287E-01 -6.602317E+01  6.418289E-03 2.452591E+01  6.426264E-03 2.440493E+01  9.641126E-01 -6.721849E+01 
6.330625E+02  9.597411E-01 -6.604290E+01  6.394935E-03 2.467282E+01  6.392004E-03 2.452772E+01  9.642512E-01 -6.727016E+01 
6.333750E+02  9.598230E-01 -6.608128E+01  6.395271E-03 2.446829E+01  6.398080E-03 2.449114E+01  9.642285E-01 -6.731430E+01 
6.336875E+02  9.597434E-01 -6.611975E+01  6.358863E-03 2.461165E+01  6.356549E-03 2.448079E+01  9.642251E-01 -6.736341E+01 
6.340000E+02  9.596805E-01 -6.615333E+01  6.354278E-03 2.483279E+01  6.354057E-03 2.468017E+01  9.641684E-01 -6.740768E+01 
6.343125E+02  9.595555E-01 -6.618730E+01  6.362238E-03 2.501285E+01  6.361700E-03 2.486056E+01  9.639771E-01 -6.744797E+01 
6.346250E+02  9.596172E-01 -6.621370E+01  6.381680E-03 2.508079E+01  6.390343E-03 2.491562E+01  9.639476E-01 -6.749345E+01 
6.349375E+02  9.596039E-01 -6.624547E+01  6.422733E-03 2.521473E+01  6.416956E-03 2.508616E+01  9.638623E-01 -6.753551E+01 
6.352500E+02  9.595757E-01 -6.627055E+01  6.460451E-03 2.477341E+01  6.449473E-03 2.463992E+01  9.636769E-01 -6.757526E+01 
6.355625E+02  9.596825E-01 -6.631175E+01  6.419415E-03 2.431278E+01  6.438274E-03 2.427428E+01  9.634651E-01 -6.761650E+01 
6.358750E+02  9.596236E-01 -6.634018E+01  6.411223E-03 2.417703E+01  6.409664E-03 2.400386E+01  9.633448E-01 -6.764881E+01 
6.361875E+02  9.596970E-01 -6.636892E+01  6.379074E-03 2.415185E+01  6.374467E-03 2.403404E+01  9.631885E-01 -6.768706E+01 
6.365000E+02  9.598635E-01 -6.640705E+01  6.367538E-03 2.419753E+01  6.368155E-03 2.408604E+01  9.631556E-01 -6.772190E+01 
6.368125E+02  9.597468E-01 -6.644077E+01  6.347018E-03 2.437379E+01  6.351755E-03 2.417537E+01  9.629506E-01 -6.776115E+01 
6.371250E+02  9.595653E-01 -6.648155E+01  6.342324E-03 2.417574E+01  6.346371E-03 2.402150E+01  9.628148E-01 -6.779355E+01 
6.374375E+02  9.596608E-01 -6.651469E+01  6.330367E-03 2.444297E+01  6.330237E-03 2.425725E+01  9.625630E-01 -6.782753E+01 
6.377500E+02  9.596271E-01 -6.655574E+01  6.325641E-03 2.469228E+01  6.335142E-03 2.455583E+01  9.623584E-01 -6.785653E+01 
6.380625E+02  9.596257E-01 -6.659663E+01  6.368033E-03 2.492334E+01  6.360912E-03 2.475422E+01  9.622319E-01 -6.789247E+01 
6.383750E+02  9.595361E-01 -6.662796E+01  6.382118E-03 2.480272E+01  6.383774E-03 2.450983E+01  9.620292E-01 -6.791990E+01 
6.386875E+02  9.594992E-01 -6.667788E+01  6.403129E-03 2.466055E+01  6.404414E-03 2.455539E+01  9.618205E-01 -6.795188E+01 
6.390000E+02  9.590479E-01 -6.672302E+01  6.423580E-03 2.448920E+01  6.422938E-03 2.428412E+01  9.615381E-01 -6.798696E+01 
6.393125E+02  9.587184E-01 -6.675421E+01  6.406392E-03 2.424767E+01  6.416326E-03 2.413881E+01  9.611239E-01 -6.800173E+01 
6.396250E+02  9.585553E-01 -6.676365E+01  6.395569E-03 2.413878E+01  6.389698E-03 2.401602E+01  9.610046E-01 -6.800938E+01 
6.399375E+02  9.587116E-01 -6.677936E+01  6.376103E-03 2.400517E+01  6.385920E-03 2.391274E+01  9.612352E-01 -6.802381E+01 
6.402500E+02  9.589027E-01 -6.680809E+01  6.365911E-03 2.383102E+01  6.357858E-03 2.381826E+01  9.613351E-01 -6.804592E+01 
6.405625E+02  9.590743E-01 -6.684827E+01  6.351617E-03 2.400090E+01  6.361483E-03 2.381962E+01  9.614692E-01 -6.807627E+01 
6.408750E+02  9.590741E-01 -6.688770E+01  6.347399E-03 2.422964E+01  6.343807E-03 2.401256E+01  9.615724E-01 -6.810354E+01 
6.411875E+02  9.591381E-01 -6.692628E+01  6.345456E-03 2.436044E+01  6.355844E-03 2.415658E+01  9.616503E-01 -6.812813E+01 
6.415000E+02  9.591560E-01 -6.696591E+01  6.354358E-03 2.437028E+01  6.347213E-03 2.429928E+01  9.618647E-01 -6.816530E+01 
6.418125E+02  9.591583E-01 -6.700463E+01  6.373778E-03 2.446906E+01  6.380321E-03 2.436381E+01  9.618941E-01 -6.819984E+01 
6.421250E+02  9.591360E-01 -6.704964E+01  6.400231E-03 2.427478E+01  6.397310E-03 2.415017E+01  9.619936E-01 -6.823218E+01 
6.424375E+02  9.590189E-01 -6.709389E+01  6.411385E-03 2.413551E+01  6.414792E-03 2.401026E+01  9.620336E-01 -6.826095E+01 
6.427500E+02  9.591682E-01 -6.713320E+01  6.449667E-03 2.393985E+01  6.439641E-03 2.387036E+01  9.621986E-01 -6.829410E+01 
6.430625E+02  9.591554E-01 -6.717134E+01  6.404952E-03 2.336222E+01  6.402673E-03 2.323421E+01  9.622251E-01 -6.832947E+01 
6.433750E+02  9.591232E-01 -6.721858E+01  6.345395E-03 2.342020E+01  6.350842E-03 2.330987E+01  9.623292E-01 -6.836531E+01 
6.436875E+02  9.589969E-01 -6.726422E+01  6.332273E-03 2.363430E+01  6.333237E-03 2.352577E+01  9.624110E-01 -6.840239E+01 
6.440000E+02  9.588322E-01 -6.729872E+01  6.325673E-03 2.398404E+01  6.329010E-03 2.373290E+01  9.625782E-01 -6.844177E+01 
6.443125E+02  9.588065E-01 -6.734260E+01  6.331825E-03 2.400337E+01  6.333554E-03 2.389661E+01  9.626429E-01 -6.848122E+01 
6.446250E+02  9.588037E-01 -6.738975E+01  6.355665E-03 2.429206E+01  6.358036E-03 2.413693E+01  9.627293E-01 -6.851846E+01 
6.449375E+02  9.586840E-01 -6.743219E+01  6.382791E-03 2.416310E+01  6.386947E-03 2.385136E+01  9.627786E-01 -6.855930E+01 
6.452500E+02  9.587125E-01 -6.747166E+01  6.400514E-03 2.398847E+01  6.402653E-03 2.385512E+01  9.627751E-01 -6.859891E+01 
6.455625E+02  9.585856E-01 -6.751981E+01  6.422175E-03 2.381437E+01  6.401734E-03 2.368622E+01  9.627215E-01 -6.864392E+01 
6.458750E+02  9.583686E-01 -6.756189E+01  6.431172E-03 2.351863E+01  6.423608E-03 2.338612E+01  9.628932E-01 -6.868742E+01 
6.461875E+02  9.583106E-01 -6.760439E+01  6.400468E-03 2.336942E+01  6.383381E-03 2.324593E+01  9.629177E-01 -6.872934E+01 
6.465000E+02  9.581140E-01 -6.765400E+01  6.380248E-03 2.331120E+01  6.387520E-03 2.313041E+01  9.628917E-01 -6.877565E+01 
6.468125E+02  9.579550E-01 -6.769679E+01  6.362353E-03 2.324875E+01  6.365330E-03 2.314950E+01  9.628360E-01 -6.882474E+01 
6.471250E+02  9.577035E-01 -6.775048E+01  6.350533E-03 2.345647E+01  6.347835E-03 2.327471E+01  9.627113E-01 -6.887184E+01 
6.474375E+02  9.574247E-01 -6.779646E+01  6.342191E-03 2.354625E+01  6.350685E-03 2.334808E+01  9.625513E-01 -6.891810E+01 
6.477500E+02  9.570341E-01 -6.783292E+01  6.354091E-03 2.364585E+01  6.357940E-03 2.350951E+01  9.622107E-01 -6.896211E+01 
6.480625E+02  9.564970E-01 -6.786493E+01  6.352439E-03 2.347095E+01  6.367409E-03 2.340428E+01  9.616994E-01 -6.899308E+01 
6.483750E+02  9.560187E-01 -6.787880E+01  6.370281E-03 2.369675E+01  6.383116E-03 2.362768E+01  9.613108E-01 -6.899976E+01 
6.486875E+02  9.559122E-01 -6.788728E+01  6.417509E-03 2.352148E+01  6.417482E-03 2.341521E+01  9.613882E-01 -6.901403E+01 
6.490000E+02  9.561167E-01 -6.790910E+01  6.412489E-03 2.319171E+01  6.413469E-03 2.307033E+01  9.615988E-01 -6.904481E+01 
6.493125E+02  9.562419E-01 -6.794936E+01  6.398495E-03 2.289814E+01  6.397659E-03 2.284677E+01  9.617198E-01 -6.908216E+01 
6.496250E+02  9.560608E-01 -6.798875E+01  6.370473E-03 2.272637E+01  6.368799E-03 2.261159E+01  9.616410E-01 -6.912326E+01 
6.499375E+02  9.560099E-01 -6.801232E+01  6.334136E-03 2.280772E+01  6.335755E-03 2.271025E+01  9.615174E-01 -6.915423E+01 
6.502500E+02  9.559726E-01 -6.804748E+01  6.330971E-03 2.305039E+01  6.339501E-03 2.293530E+01  9.616090E-01 -6.919105E+01 
6.505625E+02  9.557882E-01 -6.808699E+01  6.335019E-03 2.329205E+01  6.324626E-03 2.303651E+01  9.615574E-01 -6.922888E+01 
6.508750E+02  9.557037E-01 -6.811633E+01  6.347628E-03 2.315907E+01  6.341043E-03 2.322097E+01  9.614964E-01 -6.927060E+01 
6.511875E+02  9.557647E-01 -6.815030E+01  6.345065E-03 2.317361E+01  6.347648E-03 2.310312E+01  9.614794E-01 -6.930451E+01 
6.515000E+02  9.558266E-01 -6.818596E+01  6.344757E-03 2.329821E+01  6.344269E-03 2.316922E+01  9.614071E-01 -6.933939E+01 
6.518125E+02  9.558160E-01 -6.822737E+01  6.379737E-03 2.354780E+01  6.385316E-03 2.329694E+01  9.614818E-01 -6.937762E+01 
6.521250E+02  9.557646E-01 -6.826263E+01  6.427562E-03 2.303978E+01  6.429583E-03 2.290533E+01  9.613511E-01 -6.941011E+01 
6.524375E+02  9.557775E-01 -6.829586E+01  6.393866E-03 2.258569E+01  6.393348E-03 2.248626E+01  9.612745E-01 -6.944546E+01 
6.527500E+02  9.556716E-01 -6.832928E+01  6.362877E-03 2.262406E+01  6.359477E-03 2.248104E+01  9.612529E-01 -6.947472E+01 
6.530625E+02  9.557533E-01 -6.836194E+01  6.370995E-03 2.260811E+01  6.362380E-03 2.252356E+01  9.611536E-01 -6.950606E+01 
6.533750E+02  9.556848E-01 -6.839139E+01  6.345666E-03 2.260833E+01  6.345976E-03 2.248250E+01  9.612111E-01 -6.954197E+01 
6.536875E+02  9.557639E-01 -6.843529E+01  6.341614E-03 2.269098E+01  6.340211E-03 2.259595E+01  9.611074E-01 -6.957356E+01 
6.540000E+02  9.558623E-01 -6.847512E+01  6.345669E-03 2.256390E+01  6.343212E-03 2.248490E+01  9.610225E-01 -6.961393E+01 
6.543125E+02  9.560297E-01 -6.851441E+01  6.321192E-03 2.253430E+01  6.314661E-03 2.260260E+01  9.611849E-01 -6.964188E+01 
6.546250E+02  9.560067E-01 -6.855268E+01  6.320329E-03 2.289305E+01  6.324386E-03 2.266586E+01  9.611539E-01 -6.968093E+01 
6.549375E+02  9.561173E-01 -6.860513E+01  6.337691E-03 2.284583E+01  6.339628E-03 2.276138E+01  9.611713E-01 -6.972293E+01 
6.552500E+02  9.561018E-01 -6.865783E+01  6.352156E-03 2.280832E+01  6.352146E-03 2.270316E+01  9.611740E-01 -6.976521E+01 
6.555625E+02  9.559866E-01 -6.871065E+01  6.362080E-03 2.261285E+01  6.357013E-03 2.245765E+01  9.610537E-01 -6.980536E+01 
6.558750E+02  9.560615E-01 -6.875435E+01  6.339782E-03 2.245703E+01  6.341246E-03 2.242155E+01  9.609184E-01 -6.984398E+01 
6.561875E+02  9.559278E-01 -6.881005E+01  6.335209E-03 2.235966E+01  6.339707E-03 2.226107E+01  9.608419E-01 -6.987901E+01 
6.565000E+02  9.558630E-01 -6.887390E+01  6.327148E-03 2.244965E+01  6.323693E-03 2.236044E+01  9.606417E-01 -6.991506E+01 
6.568125E+02  9.554541E-01 -6.893049E+01  6.315014E-03 2.236353E+01  6.328231E-03 2.221205E+01  9.602331E-01 -6.995779E+01 
6.571250E+02  9.549658E-01 -6.897807E+01  6.305203E-03 2.234356E+01  6.302899E-03 2.220901E+01  9.598721E-01 -6.998778E+01 
6.574375E+02  9.545970E-01 -6.901055E+01  6.299600E-03 2.255509E+01  6.284097E-03 2.233583E+01  9.599544E-01 -7.000236E+01 
6.577500E+02  9.545877E-01 -6.903959E+01  6.316180E-03 2.257543E+01  6.317812E-03 2.244271E+01  9.600182E-01 -7.002564E+01 
6.580625E+02  9.547501E-01 -6.908459E+01  6.312538E-03 2.265915E+01  6.317386E-03 2.263257E+01  9.602714E-01 -7.005825E+01 
6.583750E+02  9.547278E-01 -6.912736E+01  6.315243E-03 2.253411E+01  6.315376E-03 2.245506E+01  9.603765E-01 -7.009495E+01 
6.586875E+02  9.546767E-01 -6.917008E+01  6.316186E-03 2.271408E+01  6.307442E-03 2.262477E+01  9.604225E-01 -7.012354E+01 
6.590000E+02  9.546455E-01 -6.921423E+01  6.338274E-03 2.269350E+01  6.322959E-03 2.250480E+01  9.604785E-01 -7.016018E+01 
6.593125E+02  9.543683E-01 -6.925794E+01  6.344675E-03 2.252081E+01  6.355727E-03 2.246997E+01  9.605727E-01 -7.019258E+01 
6.596250E+02  9.542845E-01 -6.929618E+01  6.359914E-03 2.219910E+01  6.366205E-03 2.210515E+01  9.607311E-01 -7.022960E+01 
6.599375E+02  9.540355E-01 -6.934313E+01  6.320161E-03 2.199227E+01  6.324031E-03 2.185444E+01  9.609026E-01 -7.027623E+01 
6.602500E+02  9.539692E-01 -6.938636E+01  6.271409E-03 2.193544E+01  6.272301E-03 2.178068E+01  9.608485E-01 -7.032224E+01 
6.605625E+02  9.538082E-01 -6.943867E+01  6.262746E-03 2.210476E+01  6.248864E-03 2.199024E+01  9.608912E-01 -7.037320E+01 
6.608750E+02  9.535301E-01 -6.949605E+01  6.214762E-03 2.229124E+01  6.213755E-03 2.215845E+01  9.608552E-01 -7.042801E+01 
6.611875E+02  9.531449E-01 -6.956725E+01  6.131648E-03 2.243354E+01  6.124880E-03 2.216254E+01  9.608604E-01 -7.050670E+01 
6.615000E+02  9.517263E-01 -6.975695E+01  5.757429E-03 2.382884E+01  5.765768E-03 2.373957E+01  9.596582E-01 -7.070395E+01 
6.618125E+02  9.522329E-01 -6.926369E+01  7.046247E-03 2.326972E+01  7.052537E-03 2.317959E+01  9.601706E-01 -7.022084E+01 
6.621250E+02  9.529262E-01 -6.948435E+01  6.578823E-03 2.216540E+01  6.576184E-03 2.190137E+01  9.610428E-01 -7.045393E+01 
6.624375E+02  9.527074E-01 -6.955759E+01  6.480285E-03 2.218108E+01  6.487078E-03 2.208388E+01  9.607216E-01 -7.053451E+01 
6.627500E+02  9.527200E-01 -6.960679E+01  6.479166E-03 2.190374E+01  6.483627E-03 2.187411E+01  9.608936E-01 -7.058287E+01 
6.630625E+02  9.525979E-01 -6.965568E+01  6.447010E-03 2.194638E+01  6.448807E-03 2.178063E+01  9.608120E-01 -7.064127E+01 
6.633750E+02  9.524485E-01 -6.970295E+01  6.434755E-03 2.157919E+01  6.444344E-03 2.152327E+01  9.607540E-01 -7.069587E+01 
6.636875E+02  9.523672E-01 -6.974175E+01  6.401187E-03 2.151494E+01  6.405182E-03 2.131172E+01  9.605825E-01 -7.075077E+01 
6.640000E+02  9.523474E-01 -6.977969E+01  6.389193E-03 2.156247E+01  6.384198E-03 2.135443E+01  9.604340E-01 -7.080312E+01 
6.643125E+02  9.522739E-01 -6.982734E+01  6.366474E-03 2.150890E+01  6.365928E-03 2.142111E+01  9.603891E-01 -7.085412E+01 
6.646250E+02  9.520619E-01 -6.987923E+01  6.348854E-03 2.183215E+01  6.345466E-03 2.165399E+01  9.599573E-01 -7.091278E+01 
6.649375E+02  9.521165E-01 -6.989298E+01  6.403101E-03 2.153576E+01  6.409821E-03 2.149696E+01  9.596361E-01 -7.093031E+01 
6.652500E+02  9.519990E-01 -6.995232E+01  6.376834E-03 2.151871E+01  6.374016E-03 2.140065E+01  9.594435E-01 -7.098719E+01 
6.655625E+02  9.517815E-01 -7.001040E+01  6.364332E-03 2.159687E+01  6.373797E-03 2.149544E+01  9.590991E-01 -7.104295E+01 
