! S-parameter for B3718 in Touchstone format with magnitude (lin) and phase
! Normalised impedance: 50 Ohm. Measurement system: 50 Ohm Ta = 20°C
! B3718_SB.s2p . Measurement full 2-port calibrated incl. Port ext.
! Start: 866.00MHz, Stop: 966.00MHz, Span: 100MHz, 1601 Pts., Step: 62.5kHz
! Date:25/10/06 Epcos SAW COM WT AE PD, AB
! Pinning according data sheet recommendation, In P2, Out P5, all others GND
!
! port | pin | signal
! -----|-----|--------
!   1  |  2  |  IN
!   2  |  5  |  OUT
! --------------------
!
# MHZ S MA R 50
! freq  magS11 angS11  magS21 angS21  magS12 angS12  magS22 angS22
8.660000E+02  9.602436E-01 -6.446833E+01  8.724424E-03 4.693817E+01  8.712923E-03 4.688643E+01  9.554215E-01 -6.428245E+01 
8.660625E+02  9.601849E-01 -6.449620E+01  8.731132E-03 4.697293E+01  8.715482E-03 4.696463E+01  9.553654E-01 -6.431253E+01 
8.661250E+02  9.600333E-01 -6.452564E+01  8.747971E-03 4.705640E+01  8.734418E-03 4.701706E+01  9.553679E-01 -6.433779E+01 
8.661875E+02  9.599869E-01 -6.456353E+01  8.755238E-03 4.714186E+01  8.745445E-03 4.708536E+01  9.553385E-01 -6.436768E+01 
8.662500E+02  9.599427E-01 -6.459679E+01  8.766120E-03 4.721127E+01  8.756429E-03 4.715135E+01  9.551549E-01 -6.440490E+01 
8.663125E+02  9.598949E-01 -6.462290E+01  8.778149E-03 4.722541E+01  8.765871E-03 4.717145E+01  9.550921E-01 -6.443586E+01 
8.663750E+02  9.598434E-01 -6.465437E+01  8.785598E-03 4.723842E+01  8.777844E-03 4.721536E+01  9.550254E-01 -6.447119E+01 
8.664375E+02  9.596402E-01 -6.469874E+01  8.807060E-03 4.731309E+01  8.795378E-03 4.730004E+01  9.549101E-01 -6.450358E+01 
8.665000E+02  9.596205E-01 -6.471368E+01  8.817536E-03 4.736303E+01  8.799046E-03 4.725993E+01  9.549030E-01 -6.453569E+01 
8.665625E+02  9.596324E-01 -6.476099E+01  8.817030E-03 4.747423E+01  8.810316E-03 4.738266E+01  9.546144E-01 -6.456568E+01 
8.666250E+02  9.593872E-01 -6.477585E+01  8.836527E-03 4.744158E+01  8.822333E-03 4.746726E+01  9.545471E-01 -6.459437E+01 
8.666875E+02  9.593285E-01 -6.481432E+01  8.843387E-03 4.757285E+01  8.835602E-03 4.751675E+01  9.544723E-01 -6.463339E+01 
8.667500E+02  9.590198E-01 -6.485887E+01  8.858918E-03 4.762639E+01  8.845875E-03 4.757131E+01  9.543895E-01 -6.466616E+01 
8.668125E+02  9.588558E-01 -6.487715E+01  8.884061E-03 4.771665E+01  8.863137E-03 4.765523E+01  9.541190E-01 -6.469277E+01 
8.668750E+02  9.588491E-01 -6.491355E+01  8.896891E-03 4.772661E+01  8.880761E-03 4.769045E+01  9.541943E-01 -6.473197E+01 
8.669375E+02  9.586859E-01 -6.494788E+01  8.911101E-03 4.777682E+01  8.904185E-03 4.772242E+01  9.539357E-01 -6.475428E+01 
8.670000E+02  9.585296E-01 -6.497239E+01  8.937793E-03 4.774620E+01  8.913181E-03 4.777370E+01  9.537395E-01 -6.478203E+01 
8.670625E+02  9.584056E-01 -6.500806E+01  8.952781E-03 4.781963E+01  8.938465E-03 4.776469E+01  9.536502E-01 -6.480733E+01 
8.671250E+02  9.582261E-01 -6.503504E+01  8.966457E-03 4.788912E+01  8.949243E-03 4.780472E+01  9.535242E-01 -6.483964E+01 
8.671875E+02  9.581262E-01 -6.506535E+01  8.984879E-03 4.787393E+01  8.968453E-03 4.780035E+01  9.532309E-01 -6.486792E+01 
8.672500E+02  9.579124E-01 -6.509127E+01  9.003804E-03 4.789235E+01  8.989402E-03 4.778577E+01  9.531684E-01 -6.489921E+01 
8.673125E+02  9.576805E-01 -6.512638E+01  9.014542E-03 4.799028E+01  9.011753E-03 4.784495E+01  9.529724E-01 -6.492619E+01 
8.673750E+02  9.575389E-01 -6.515169E+01  9.046530E-03 4.797827E+01  9.029761E-03 4.787732E+01  9.527390E-01 -6.495810E+01 
8.674375E+02  9.573527E-01 -6.517977E+01  9.067628E-03 4.798097E+01  9.053047E-03 4.793880E+01  9.526312E-01 -6.498091E+01 
8.675000E+02  9.571766E-01 -6.519677E+01  9.091237E-03 4.793313E+01  9.073306E-03 4.786804E+01  9.525529E-01 -6.500971E+01 
8.675625E+02  9.570501E-01 -6.522277E+01  9.108677E-03 4.786164E+01  9.101104E-03 4.785399E+01  9.524001E-01 -6.503640E+01 
8.676250E+02  9.570303E-01 -6.525047E+01  9.134641E-03 4.785465E+01  9.112153E-03 4.783015E+01  9.522714E-01 -6.507037E+01 
8.676875E+02  9.567932E-01 -6.527734E+01  9.152964E-03 4.787298E+01  9.136735E-03 4.780770E+01  9.520023E-01 -6.509011E+01 
8.677500E+02  9.568257E-01 -6.531487E+01  9.170895E-03 4.782080E+01  9.164248E-03 4.782732E+01  9.519736E-01 -6.512405E+01 
8.678125E+02  9.565417E-01 -6.533142E+01  9.194014E-03 4.769870E+01  9.184373E-03 4.769807E+01  9.519607E-01 -6.515110E+01 
8.678750E+02  9.564697E-01 -6.536427E+01  9.212418E-03 4.769937E+01  9.191951E-03 4.769433E+01  9.517064E-01 -6.518145E+01 
8.679375E+02  9.562085E-01 -6.538892E+01  9.225721E-03 4.770637E+01  9.210769E-03 4.764627E+01  9.515748E-01 -6.521123E+01 
8.680000E+02  9.561024E-01 -6.541855E+01  9.248830E-03 4.768445E+01  9.228545E-03 4.754210E+01  9.515147E-01 -6.523107E+01 
8.680625E+02  9.560950E-01 -6.543508E+01  9.270188E-03 4.758718E+01  9.258544E-03 4.749645E+01  9.512557E-01 -6.526626E+01 
8.681250E+02  9.560610E-01 -6.545358E+01  9.299995E-03 4.752522E+01  9.282539E-03 4.746961E+01  9.511924E-01 -6.528576E+01 
8.681875E+02  9.558352E-01 -6.549311E+01  9.309816E-03 4.744546E+01  9.295523E-03 4.739002E+01  9.510394E-01 -6.531560E+01 
8.682500E+02  9.557438E-01 -6.551057E+01  9.333839E-03 4.749585E+01  9.315835E-03 4.741137E+01  9.507977E-01 -6.534438E+01 
8.683125E+02  9.555582E-01 -6.554361E+01  9.343994E-03 4.736541E+01  9.332545E-03 4.731270E+01  9.506995E-01 -6.537500E+01 
8.683750E+02  9.555160E-01 -6.557564E+01  9.358448E-03 4.722534E+01  9.355194E-03 4.720799E+01  9.504487E-01 -6.539372E+01 
8.684375E+02  9.554364E-01 -6.559492E+01  9.371122E-03 4.718684E+01  9.371749E-03 4.711024E+01  9.504746E-01 -6.542248E+01 
8.685000E+02  9.553138E-01 -6.562068E+01  9.396617E-03 4.713704E+01  9.386735E-03 4.706586E+01  9.501814E-01 -6.545285E+01 
8.685625E+02  9.552409E-01 -6.565846E+01  9.422378E-03 4.704969E+01  9.397268E-03 4.700357E+01  9.500967E-01 -6.548485E+01 
8.686250E+02  9.550930E-01 -6.567313E+01  9.432738E-03 4.698053E+01  9.420440E-03 4.691042E+01  9.500070E-01 -6.550763E+01 
8.686875E+02  9.549845E-01 -6.570843E+01  9.457433E-03 4.687391E+01  9.459304E-03 4.679920E+01  9.499381E-01 -6.553909E+01 
8.687500E+02  9.549915E-01 -6.573989E+01  9.481055E-03 4.669042E+01  9.459638E-03 4.665724E+01  9.497339E-01 -6.555106E+01 
8.688125E+02  9.549236E-01 -6.575970E+01  9.488751E-03 4.648974E+01  9.489492E-03 4.648101E+01  9.496073E-01 -6.558209E+01 
8.688750E+02  9.547987E-01 -6.579372E+01  9.496269E-03 4.633095E+01  9.483205E-03 4.629297E+01  9.495138E-01 -6.560716E+01 
8.689375E+02  9.546548E-01 -6.582395E+01  9.504446E-03 4.619333E+01  9.490819E-03 4.616031E+01  9.493877E-01 -6.563271E+01 
8.690000E+02  9.544957E-01 -6.584646E+01  9.517762E-03 4.606646E+01  9.505528E-03 4.606470E+01  9.492878E-01 -6.566104E+01 
8.690625E+02  9.544225E-01 -6.588322E+01  9.511529E-03 4.594603E+01  9.503864E-03 4.588969E+01  9.490393E-01 -6.569503E+01 
8.691250E+02  9.542490E-01 -6.590505E+01  9.515167E-03 4.587426E+01  9.502514E-03 4.583215E+01  9.490715E-01 -6.571951E+01 
8.691875E+02  9.541037E-01 -6.593905E+01  9.519864E-03 4.572987E+01  9.504292E-03 4.572572E+01  9.489357E-01 -6.575128E+01 
8.692500E+02  9.539488E-01 -6.596816E+01  9.518161E-03 4.562105E+01  9.505478E-03 4.552740E+01  9.487491E-01 -6.577724E+01 
8.693125E+02  9.539786E-01 -6.599985E+01  9.532758E-03 4.558624E+01  9.509760E-03 4.558022E+01  9.487669E-01 -6.579806E+01 
8.693750E+02  9.537956E-01 -6.602605E+01  9.539368E-03 4.552425E+01  9.520905E-03 4.552972E+01  9.485689E-01 -6.583482E+01 
8.694375E+02  9.537102E-01 -6.606663E+01  9.542160E-03 4.538142E+01  9.518899E-03 4.538702E+01  9.484880E-01 -6.585581E+01 
8.695000E+02  9.537797E-01 -6.609161E+01  9.553796E-03 4.533273E+01  9.530521E-03 4.526110E+01  9.483943E-01 -6.589079E+01 
8.695625E+02  9.536046E-01 -6.612993E+01  9.552978E-03 4.521604E+01  9.554250E-03 4.514068E+01  9.480862E-01 -6.592246E+01 
8.696250E+02  9.534598E-01 -6.615127E+01  9.552570E-03 4.510823E+01  9.546356E-03 4.505986E+01  9.481945E-01 -6.595636E+01 
8.696875E+02  9.531867E-01 -6.618942E+01  9.570142E-03 4.492325E+01  9.551954E-03 4.491474E+01  9.478932E-01 -6.597971E+01 
8.697500E+02  9.530423E-01 -6.622441E+01  9.559672E-03 4.475439E+01  9.553514E-03 4.468595E+01  9.478718E-01 -6.601162E+01 
8.698125E+02  9.528852E-01 -6.625697E+01  9.552950E-03 4.456874E+01  9.538224E-03 4.462128E+01  9.477534E-01 -6.604700E+01 
8.698750E+02  9.527327E-01 -6.628222E+01  9.540116E-03 4.455614E+01  9.530365E-03 4.450729E+01  9.473819E-01 -6.607892E+01 
8.699375E+02  9.525304E-01 -6.630969E+01  9.540403E-03 4.447195E+01  9.514886E-03 4.441361E+01  9.474519E-01 -6.610617E+01 
8.700000E+02  9.524040E-01 -6.634949E+01  9.525497E-03 4.452497E+01  9.518218E-03 4.438212E+01  9.471528E-01 -6.613724E+01 
8.700625E+02  9.522289E-01 -6.637948E+01  9.537989E-03 4.441143E+01  9.525080E-03 4.442482E+01  9.470277E-01 -6.617504E+01 
8.701250E+02  9.519202E-01 -6.640914E+01  9.539118E-03 4.428122E+01  9.529748E-03 4.430618E+01  9.469091E-01 -6.619716E+01 
8.701875E+02  9.517956E-01 -6.644312E+01  9.548553E-03 4.421881E+01  9.540060E-03 4.420220E+01  9.467002E-01 -6.623606E+01 
8.702500E+02  9.515602E-01 -6.647496E+01  9.551681E-03 4.417025E+01  9.543836E-03 4.416374E+01  9.465856E-01 -6.625086E+01 
8.703125E+02  9.513149E-01 -6.650413E+01  9.567320E-03 4.398420E+01  9.543674E-03 4.393406E+01  9.463204E-01 -6.628782E+01 
8.703750E+02  9.513011E-01 -6.653525E+01  9.560442E-03 4.383898E+01  9.548762E-03 4.377128E+01  9.460593E-01 -6.632456E+01 
8.704375E+02  9.509395E-01 -6.656497E+01  9.536908E-03 4.372944E+01  9.523498E-03 4.366482E+01  9.459312E-01 -6.635068E+01 
8.705000E+02  9.507821E-01 -6.660037E+01  9.533062E-03 4.373835E+01  9.509360E-03 4.362329E+01  9.457204E-01 -6.638876E+01 
8.705625E+02  9.505276E-01 -6.664206E+01  9.522029E-03 4.361836E+01  9.504032E-03 4.352423E+01  9.455027E-01 -6.641488E+01 
8.706250E+02  9.501857E-01 -6.666909E+01  9.516574E-03 4.348206E+01  9.507302E-03 4.345832E+01  9.453481E-01 -6.644180E+01 
8.706875E+02  9.498970E-01 -6.669654E+01  9.521313E-03 4.355317E+01  9.511671E-03 4.339649E+01  9.448908E-01 -6.647966E+01 
8.707500E+02  9.495826E-01 -6.673551E+01  9.521916E-03 4.341843E+01  9.506022E-03 4.339210E+01  9.446579E-01 -6.650548E+01 
8.708125E+02  9.492629E-01 -6.675429E+01  9.519053E-03 4.325974E+01  9.506769E-03 4.320366E+01  9.445542E-01 -6.653029E+01 
8.708750E+02  9.490133E-01 -6.678362E+01  9.511292E-03 4.314581E+01  9.492334E-03 4.327054E+01  9.442758E-01 -6.655602E+01 
8.709375E+02  9.487127E-01 -6.681261E+01  9.502043E-03 4.312679E+01  9.489525E-03 4.309437E+01  9.440406E-01 -6.658396E+01 
8.710000E+02  9.484663E-01 -6.682498E+01  9.495530E-03 4.290977E+01  9.480521E-03 4.292731E+01  9.438352E-01 -6.660710E+01 
8.710625E+02  9.484026E-01 -6.685505E+01  9.482882E-03 4.303740E+01  9.471523E-03 4.291474E+01  9.436446E-01 -6.664038E+01 
8.711250E+02  9.481949E-01 -6.688436E+01  9.461190E-03 4.290697E+01  9.465345E-03 4.287336E+01  9.433523E-01 -6.667139E+01 
8.711875E+02  9.479295E-01 -6.690395E+01  9.473232E-03 4.291029E+01  9.461652E-03 4.294411E+01  9.430670E-01 -6.669340E+01 
8.712500E+02  9.475944E-01 -6.693077E+01  9.485854E-03 4.279421E+01  9.472290E-03 4.284699E+01  9.429129E-01 -6.671404E+01 
8.713125E+02  9.473288E-01 -6.696186E+01  9.472360E-03 4.271542E+01  9.472615E-03 4.265556E+01  9.425888E-01 -6.674584E+01 
8.713750E+02  9.470080E-01 -6.699638E+01  9.471634E-03 4.270989E+01  9.450174E-03 4.256654E+01  9.424358E-01 -6.678110E+01 
8.714375E+02  9.468490E-01 -6.701431E+01  9.475571E-03 4.260480E+01  9.438125E-03 4.260556E+01  9.422024E-01 -6.680552E+01 
8.715000E+02  9.464995E-01 -6.704833E+01  9.469272E-03 4.265049E+01  9.434997E-03 4.253280E+01  9.420216E-01 -6.683429E+01 
8.715625E+02  9.462365E-01 -6.707014E+01  9.473370E-03 4.251581E+01  9.455036E-03 4.248332E+01  9.416607E-01 -6.685950E+01 
8.716250E+02  9.459133E-01 -6.709676E+01  9.465699E-03 4.246193E+01  9.452042E-03 4.237921E+01  9.413213E-01 -6.688601E+01 
8.716875E+02  9.456967E-01 -6.712007E+01  9.487169E-03 4.234181E+01  9.478449E-03 4.229457E+01  9.410657E-01 -6.691815E+01 
8.717500E+02  9.453946E-01 -6.714948E+01  9.471201E-03 4.213573E+01  9.464892E-03 4.207100E+01  9.408911E-01 -6.693804E+01 
8.718125E+02  9.451881E-01 -6.718109E+01  9.465388E-03 4.196194E+01  9.455675E-03 4.196340E+01  9.406587E-01 -6.696903E+01 
8.718750E+02  9.449086E-01 -6.719436E+01  9.447137E-03 4.190844E+01  9.441022E-03 4.183387E+01  9.405530E-01 -6.699339E+01 
8.719375E+02  9.446194E-01 -6.722748E+01  9.464766E-03 4.167761E+01  9.427959E-03 4.170332E+01  9.401762E-01 -6.702629E+01 
8.720000E+02  9.442945E-01 -6.725590E+01  9.413454E-03 4.155927E+01  9.417520E-03 4.156419E+01  9.399289E-01 -6.705564E+01 
8.720625E+02  9.439743E-01 -6.728689E+01  9.400709E-03 4.151007E+01  9.389178E-03 4.153012E+01  9.395754E-01 -6.708176E+01 
8.721250E+02  9.436345E-01 -6.730410E+01  9.392605E-03 4.156393E+01  9.391860E-03 4.143747E+01  9.393929E-01 -6.710610E+01 
8.721875E+02  9.433998E-01 -6.733259E+01  9.391276E-03 4.150163E+01  9.366997E-03 4.142472E+01  9.390340E-01 -6.713387E+01 
8.722500E+02  9.428845E-01 -6.735617E+01  9.373294E-03 4.141478E+01  9.358117E-03 4.146699E+01  9.387528E-01 -6.717195E+01 
8.723125E+02  9.425442E-01 -6.738337E+01  9.380420E-03 4.141709E+01  9.370037E-03 4.135366E+01  9.385027E-01 -6.718662E+01 
8.723750E+02  9.421784E-01 -6.740402E+01  9.373509E-03 4.136033E+01  9.358595E-03 4.128305E+01  9.379997E-01 -6.722429E+01 
8.724375E+02  9.417301E-01 -6.742347E+01  9.382892E-03 4.121263E+01  9.374934E-03 4.115760E+01  9.376462E-01 -6.725263E+01 
8.725000E+02  9.412071E-01 -6.744349E+01  9.402265E-03 4.102442E+01  9.380017E-03 4.092872E+01  9.371975E-01 -6.728010E+01 
8.725625E+02  9.408240E-01 -6.746032E+01  9.361179E-03 4.078052E+01  9.345787E-03 4.075376E+01  9.366066E-01 -6.730788E+01 
8.726250E+02  9.403027E-01 -6.747082E+01  9.337666E-03 4.066512E+01  9.337651E-03 4.054134E+01  9.361902E-01 -6.731672E+01 
8.726875E+02  9.400328E-01 -6.747883E+01  9.327938E-03 4.062608E+01  9.306766E-03 4.052569E+01  9.358295E-01 -6.733820E+01 
8.727500E+02  9.395997E-01 -6.749381E+01  9.299943E-03 4.048260E+01  9.285945E-03 4.041133E+01  9.351523E-01 -6.736097E+01 
8.728125E+02  9.393942E-01 -6.750128E+01  9.276405E-03 4.042836E+01  9.272533E-03 4.040866E+01  9.345730E-01 -6.736958E+01 
8.728750E+02  9.389312E-01 -6.750835E+01  9.272353E-03 4.030650E+01  9.261268E-03 4.015450E+01  9.341304E-01 -6.737532E+01 
8.729375E+02  9.385556E-01 -6.751710E+01  9.237736E-03 4.011035E+01  9.230758E-03 4.008618E+01  9.337970E-01 -6.738809E+01 
8.730000E+02  9.381465E-01 -6.753063E+01  9.216215E-03 4.004822E+01  9.218453E-03 3.992471E+01  9.333903E-01 -6.739074E+01 
8.730625E+02  9.378690E-01 -6.753162E+01  9.201289E-03 3.998313E+01  9.196919E-03 3.988210E+01  9.329862E-01 -6.738641E+01 
8.731250E+02  9.375504E-01 -6.753821E+01  9.191085E-03 3.972647E+01  9.175734E-03 3.969469E+01  9.326147E-01 -6.739727E+01 
8.731875E+02  9.374009E-01 -6.754004E+01  9.136454E-03 3.963885E+01  9.129649E-03 3.959364E+01  9.321645E-01 -6.740573E+01 
8.732500E+02  9.371988E-01 -6.754091E+01  9.095031E-03 3.964724E+01  9.079861E-03 3.955102E+01  9.318765E-01 -6.739790E+01 
8.733125E+02  9.370189E-01 -6.753435E+01  9.069408E-03 3.976373E+01  9.052016E-03 3.960104E+01  9.315313E-01 -6.738813E+01 
8.733750E+02  9.368017E-01 -6.754029E+01  9.037675E-03 3.980467E+01  9.040424E-03 3.974993E+01  9.313180E-01 -6.738520E+01 
8.734375E+02  9.366708E-01 -6.753946E+01  9.032190E-03 3.986391E+01  9.025617E-03 3.980736E+01  9.311475E-01 -6.738714E+01 
8.735000E+02  9.365673E-01 -6.754860E+01  9.035717E-03 3.975405E+01  9.028292E-03 3.974372E+01  9.311470E-01 -6.737435E+01 
8.735625E+02  9.364577E-01 -6.754990E+01  9.024065E-03 3.954637E+01  9.020389E-03 3.952888E+01  9.311481E-01 -6.737317E+01 
8.736250E+02  9.362390E-01 -6.755720E+01  8.974449E-03 3.937931E+01  8.971598E-03 3.930479E+01  9.309611E-01 -6.737590E+01 
8.736875E+02  9.363350E-01 -6.755008E+01  8.935492E-03 3.938700E+01  8.921050E-03 3.931890E+01  9.309610E-01 -6.737465E+01 
8.737500E+02  9.363014E-01 -6.755059E+01  8.893973E-03 3.949359E+01  8.895780E-03 3.943966E+01  9.310228E-01 -6.738029E+01 
8.738125E+02  9.363593E-01 -6.753987E+01  8.898071E-03 3.963786E+01  8.866997E-03 3.954655E+01  9.309910E-01 -6.738410E+01 
8.738750E+02  9.365496E-01 -6.755157E+01  8.868219E-03 3.951241E+01  8.858652E-03 3.943795E+01  9.309706E-01 -6.738286E+01 
8.739375E+02  9.366713E-01 -6.756269E+01  8.848185E-03 3.946890E+01  8.841587E-03 3.939104E+01  9.308657E-01 -6.739377E+01 
8.740000E+02  9.367028E-01 -6.757793E+01  8.820615E-03 3.914899E+01  8.800929E-03 3.913644E+01  9.310734E-01 -6.739141E+01 
8.740625E+02  9.367727E-01 -6.759596E+01  8.758645E-03 3.911636E+01  8.745612E-03 3.914736E+01  9.312889E-01 -6.739515E+01 
8.741250E+02  9.367340E-01 -6.759788E+01  8.706347E-03 3.919498E+01  8.685102E-03 3.913210E+01  9.312845E-01 -6.740659E+01 
8.741875E+02  9.366209E-01 -6.762139E+01  8.638443E-03 3.939681E+01  8.632902E-03 3.938115E+01  9.313541E-01 -6.741216E+01 
8.742500E+02  9.368339E-01 -6.762152E+01  8.621617E-03 3.969179E+01  8.597825E-03 3.962519E+01  9.315408E-01 -6.742843E+01 
8.743125E+02  9.368375E-01 -6.763309E+01  8.603656E-03 3.997108E+01  8.592154E-03 3.987120E+01  9.313675E-01 -6.743664E+01 
8.743750E+02  9.369977E-01 -6.764634E+01  8.594922E-03 4.006095E+01  8.583427E-03 4.001845E+01  9.316101E-01 -6.745649E+01 
8.744375E+02  9.370513E-01 -6.765611E+01  8.597090E-03 4.011393E+01  8.589011E-03 4.003058E+01  9.316538E-01 -6.746137E+01 
8.745000E+02  9.372485E-01 -6.766637E+01  8.599951E-03 4.018202E+01  8.572840E-03 4.004533E+01  9.317458E-01 -6.746977E+01 
8.745625E+02  9.372565E-01 -6.769304E+01  8.571881E-03 4.012331E+01  8.551239E-03 4.003525E+01  9.316314E-01 -6.748479E+01 
8.746250E+02  9.373595E-01 -6.770038E+01  8.550703E-03 4.007071E+01  8.526747E-03 4.007911E+01  9.318884E-01 -6.749673E+01 
8.746875E+02  9.374366E-01 -6.771611E+01  8.513062E-03 4.009951E+01  8.493636E-03 4.007609E+01  9.319404E-01 -6.750953E+01 
8.747500E+02  9.373626E-01 -6.772707E+01  8.466908E-03 4.023057E+01  8.461935E-03 4.013916E+01  9.319758E-01 -6.752087E+01 
8.748125E+02  9.375504E-01 -6.774389E+01  8.444046E-03 4.047561E+01  8.426261E-03 4.042998E+01  9.319785E-01 -6.752658E+01 
8.748750E+02  9.375661E-01 -6.776122E+01  8.427929E-03 4.061039E+01  8.397724E-03 4.055565E+01  9.321136E-01 -6.753601E+01 
8.749375E+02  9.375817E-01 -6.777125E+01  8.389278E-03 4.082113E+01  8.375382E-03 4.066644E+01  9.322157E-01 -6.753894E+01 
8.750000E+02  9.376603E-01 -6.778841E+01  8.386374E-03 4.118025E+01  8.380362E-03 4.109368E+01  9.323573E-01 -6.755288E+01 
8.750625E+02  9.378052E-01 -6.779517E+01  8.425332E-03 4.126977E+01  8.406011E-03 4.128928E+01  9.325256E-01 -6.755664E+01 
8.751250E+02  9.378183E-01 -6.780668E+01  8.421842E-03 4.110745E+01  8.406014E-03 4.101402E+01  9.327621E-01 -6.755327E+01 
8.751875E+02  9.380113E-01 -6.781835E+01  8.385630E-03 4.100393E+01  8.365054E-03 4.094909E+01  9.331834E-01 -6.756370E+01 
8.752500E+02  9.381729E-01 -6.782973E+01  8.341850E-03 4.106870E+01  8.332825E-03 4.097884E+01  9.335249E-01 -6.757854E+01 
8.753125E+02  9.383909E-01 -6.783427E+01  8.298511E-03 4.123654E+01  8.298632E-03 4.109014E+01  9.338337E-01 -6.758686E+01 
8.753750E+02  9.387108E-01 -6.784042E+01  8.257077E-03 4.147366E+01  8.239963E-03 4.135620E+01  9.342409E-01 -6.760467E+01 
8.754375E+02  9.389300E-01 -6.785123E+01  8.240326E-03 4.189371E+01  8.222850E-03 4.179581E+01  9.345649E-01 -6.762392E+01 
8.755000E+02  9.392142E-01 -6.787496E+01  8.252263E-03 4.214715E+01  8.234928E-03 4.208253E+01  9.350660E-01 -6.764363E+01 
8.755625E+02  9.398088E-01 -6.789654E+01  8.257040E-03 4.225344E+01  8.240159E-03 4.218953E+01  9.353935E-01 -6.765911E+01 
8.756250E+02  9.400831E-01 -6.791607E+01  8.248199E-03 4.244083E+01  8.237273E-03 4.240188E+01  9.357974E-01 -6.769069E+01 
