! S-Parameter for B3719 in Touchstone format with Magnitude (lin) and Phase 
! Normalised impedance: 50 Ohm. Measurement system: 50 Ohm. Ta=25°C
! B3719_SB.S2P not matched. Measurement full 2-port calibrated incl. Port.Ext. 
! Start: 265MHz, Stop: 365MHz, Span 100MHz, 1601 Pts., Step 625kHz
! Date: 10/12/2007 - EPCOS COM WT AE PD; AB
!
# MHZ S MA R 50
! freq  magS11 angS11  magS21 angS21  magS12 angS12  magS22 angS22
2.650000E+02  9.918458E-01 -3.879123E+01  1.082257E-04 4.151922E+01  1.153127E-04 4.364046E+01  9.881566E-01 -3.755890E+01 
2.650625E+02  9.915555E-01 -3.880208E+01  9.967715E-05 4.072157E+01  1.057554E-04 4.047786E+01  9.882068E-01 -3.757048E+01 
2.651250E+02  9.917215E-01 -3.882095E+01  9.656385E-05 4.221838E+01  9.944238E-05 4.608637E+01  9.881626E-01 -3.758620E+01 
2.651875E+02  9.915423E-01 -3.883951E+01  9.708637E-05 4.402832E+01  9.734097E-05 4.724486E+01  9.880163E-01 -3.761169E+01 
2.652500E+02  9.914533E-01 -3.885425E+01  9.513580E-05 4.588426E+01  9.522934E-05 4.547474E+01  9.879622E-01 -3.762726E+01 
2.653125E+02  9.915207E-01 -3.886951E+01  9.812390E-05 5.065442E+01  9.777692E-05 4.845470E+01  9.878070E-01 -3.764180E+01 
2.653750E+02  9.914088E-01 -3.888300E+01  1.040154E-04 5.058803E+01  1.042370E-04 4.855383E+01  9.877544E-01 -3.766423E+01 
2.654375E+02  9.913873E-01 -3.891566E+01  9.492487E-05 5.057951E+01  8.748232E-05 5.155862E+01  9.876259E-01 -3.768322E+01 
2.655000E+02  9.912822E-01 -3.892696E+01  9.625729E-05 5.091855E+01  9.649592E-05 5.211919E+01  9.875773E-01 -3.769157E+01 
2.655625E+02  9.911946E-01 -3.894108E+01  9.694079E-05 4.814691E+01  1.028039E-04 5.556138E+01  9.875231E-01 -3.771123E+01 
2.656250E+02  9.909212E-01 -3.895887E+01  1.052000E-04 5.495699E+01  1.051285E-04 5.151459E+01  9.875064E-01 -3.773506E+01 
2.656875E+02  9.909441E-01 -3.897332E+01  1.148891E-04 5.253894E+01  1.155975E-04 4.720276E+01  9.872854E-01 -3.774449E+01 
2.657500E+02  9.909853E-01 -3.899413E+01  1.148329E-04 4.792469E+01  1.150004E-04 4.997161E+01  9.871535E-01 -3.777200E+01 
2.658125E+02  9.907221E-01 -3.901594E+01  1.310012E-04 4.225652E+01  1.293328E-04 3.926148E+01  9.871860E-01 -3.778222E+01 
2.658750E+02  9.908852E-01 -3.902378E+01  1.032850E-04 2.510189E+01  1.088886E-04 2.281080E+01  9.870168E-01 -3.779161E+01 
2.659375E+02  9.905588E-01 -3.905234E+01  9.452929E-05 3.341115E+01  8.973549E-05 3.451030E+01  9.868651E-01 -3.781404E+01 
2.660000E+02  9.904906E-01 -3.906019E+01  8.945057E-05 3.439421E+01  8.478199E-05 4.123703E+01  9.868266E-01 -3.783045E+01 
2.660625E+02  9.904652E-01 -3.908382E+01  9.289549E-05 3.772283E+01  8.024651E-05 4.160056E+01  9.867642E-01 -3.784276E+01 
2.661250E+02  9.901998E-01 -3.909618E+01  7.464551E-05 3.752040E+01  7.279480E-05 4.159323E+01  9.867197E-01 -3.785870E+01 
2.661875E+02  9.901936E-01 -3.910711E+01  7.972615E-05 4.831246E+01  7.187909E-05 4.807950E+01  9.867515E-01 -3.787196E+01 
2.662500E+02  9.901634E-01 -3.911844E+01  7.962387E-05 5.664563E+01  7.608898E-05 5.414257E+01  9.864766E-01 -3.788588E+01 
2.663125E+02  9.899842E-01 -3.913677E+01  8.865680E-05 5.844603E+01  8.681747E-05 5.758247E+01  9.863299E-01 -3.789876E+01 
2.663750E+02  9.899002E-01 -3.914383E+01  9.388017E-05 4.802860E+01  1.010910E-04 5.081037E+01  9.863367E-01 -3.790353E+01 
2.664375E+02  9.900082E-01 -3.915507E+01  9.749219E-05 4.546087E+01  1.045385E-04 4.992797E+01  9.863089E-01 -3.792533E+01 
2.665000E+02  9.897762E-01 -3.916928E+01  9.341433E-05 4.233814E+01  1.016011E-04 4.454583E+01  9.862132E-01 -3.794285E+01 
2.665625E+02  9.898017E-01 -3.917877E+01  9.037420E-05 4.749771E+01  9.478727E-05 4.120309E+01  9.861236E-01 -3.794797E+01 
2.666250E+02  9.899792E-01 -3.918836E+01  8.814487E-05 3.843429E+01  7.504788E-05 3.832602E+01  9.861216E-01 -3.796550E+01 
2.666875E+02  9.899933E-01 -3.921388E+01  6.662430E-05 4.433776E+01  7.717559E-05 4.315057E+01  9.860376E-01 -3.796966E+01 
2.667500E+02  9.898627E-01 -3.922588E+01  7.847992E-05 5.330462E+01  6.925973E-05 5.432167E+01  9.861297E-01 -3.798285E+01 
2.668125E+02  9.900016E-01 -3.924563E+01  7.426593E-05 5.028946E+01  8.090895E-05 5.893002E+01  9.859277E-01 -3.799220E+01 
2.668750E+02  9.898079E-01 -3.926349E+01  8.410446E-05 5.128436E+01  8.772999E-05 5.848828E+01  9.860402E-01 -3.800937E+01 
2.669375E+02  9.897666E-01 -3.928011E+01  8.464500E-05 5.429598E+01  8.968246E-05 5.361483E+01  9.861532E-01 -3.802367E+01 
2.670000E+02  9.900024E-01 -3.930579E+01  9.321248E-05 5.369069E+01  9.227419E-05 5.681425E+01  9.858831E-01 -3.803661E+01 
2.670625E+02  9.897984E-01 -3.931130E+01  9.804966E-05 5.130254E+01  1.008102E-04 5.166464E+01  9.860199E-01 -3.805434E+01 
2.671250E+02  9.897455E-01 -3.933586E+01  9.168189E-05 4.778742E+01  8.827912E-05 4.563709E+01  9.860946E-01 -3.806699E+01 
2.671875E+02  9.897224E-01 -3.935271E+01  8.594716E-05 4.523288E+01  8.452990E-05 4.383340E+01  9.861799E-01 -3.808355E+01 
2.672500E+02  9.895620E-01 -3.937157E+01  6.595639E-05 4.394953E+01  7.140688E-05 3.759082E+01  9.859559E-01 -3.811155E+01 
2.673125E+02  9.893485E-01 -3.938233E+01  6.279214E-05 7.230115E+01  5.485760E-05 7.324091E+01  9.860243E-01 -3.812873E+01 
2.673750E+02  9.893733E-01 -3.940493E+01  9.737552E-05 5.632643E+01  9.610708E-05 5.680344E+01  9.861054E-01 -3.813692E+01 
2.674375E+02  9.891561E-01 -3.941377E+01  8.085199E-05 5.716476E+01  7.013751E-05 5.065831E+01  9.860732E-01 -3.817247E+01 
2.675000E+02  9.892248E-01 -3.942005E+01  6.911190E-05 6.786359E+01  6.701558E-05 6.784332E+01  9.858716E-01 -3.818712E+01 
2.675625E+02  9.890884E-01 -3.944096E+01  8.204453E-05 7.818319E+01  8.558344E-05 8.232912E+01  9.858108E-01 -3.820209E+01 
2.676250E+02  9.891335E-01 -3.946089E+01  1.197702E-04 7.709669E+01  1.180409E-04 7.533370E+01  9.857571E-01 -3.822335E+01 
2.676875E+02  9.891118E-01 -3.947069E+01  1.191074E-04 6.819611E+01  1.208195E-04 6.823174E+01  9.857219E-01 -3.822899E+01 
2.677500E+02  9.889330E-01 -3.949150E+01  1.280339E-04 6.116584E+01  1.155144E-04 6.014666E+01  9.856483E-01 -3.824502E+01 
2.678125E+02  9.887623E-01 -3.949883E+01  1.096701E-04 6.005312E+01  1.138770E-04 5.591921E+01  9.855138E-01 -3.827296E+01 
2.678750E+02  9.886712E-01 -3.951082E+01  1.301268E-04 5.921353E+01  1.221213E-04 5.921586E+01  9.853852E-01 -3.828637E+01 
2.679375E+02  9.886472E-01 -3.952277E+01  1.205983E-04 5.300736E+01  1.238967E-04 5.404082E+01  9.852604E-01 -3.829423E+01 
2.680000E+02  9.885623E-01 -3.952344E+01  1.253566E-04 4.431785E+01  1.168644E-04 5.087463E+01  9.851137E-01 -3.830702E+01 
2.680625E+02  9.886732E-01 -3.953503E+01  1.062040E-04 4.283969E+01  1.123587E-04 4.482629E+01  9.850885E-01 -3.832630E+01 
2.681250E+02  9.884978E-01 -3.955287E+01  9.727136E-05 4.584909E+01  1.027521E-04 4.926014E+01  9.849331E-01 -3.833775E+01 
2.681875E+02  9.885088E-01 -3.955602E+01  9.959025E-05 4.809680E+01  9.530589E-05 4.836210E+01  9.848200E-01 -3.835374E+01 
2.682500E+02  9.886213E-01 -3.957531E+01  9.059665E-05 5.562579E+01  1.012534E-04 5.843024E+01  9.848346E-01 -3.836123E+01 
2.683125E+02  9.885448E-01 -3.958538E+01  1.087945E-04 5.801356E+01  1.087811E-04 6.100958E+01  9.846206E-01 -3.836522E+01 
2.683750E+02  9.886688E-01 -3.959993E+01  1.192045E-04 5.895959E+01  1.247519E-04 5.901711E+01  9.846917E-01 -3.837934E+01 
2.684375E+02  9.886892E-01 -3.961404E+01  1.322959E-04 5.069676E+01  1.360096E-04 5.113444E+01  9.844918E-01 -3.838416E+01 
2.685000E+02  9.886348E-01 -3.963149E+01  1.272996E-04 4.198184E+01  1.242094E-04 4.779864E+01  9.845242E-01 -3.838814E+01 
2.685625E+02  9.887271E-01 -3.964840E+01  1.151898E-04 4.038000E+01  1.091504E-04 4.191019E+01  9.845746E-01 -3.839737E+01 
2.686250E+02  9.887753E-01 -3.965786E+01  1.088365E-04 4.062633E+01  1.029853E-04 4.051136E+01  9.846219E-01 -3.840684E+01 
2.686875E+02  9.887421E-01 -3.967742E+01  9.354592E-05 4.405548E+01  8.858643E-05 4.729242E+01  9.846859E-01 -3.841112E+01 
2.687500E+02  9.885977E-01 -3.969700E+01  1.105590E-04 5.515157E+01  1.071241E-04 5.545683E+01  9.847688E-01 -3.842415E+01 
2.688125E+02  9.887985E-01 -3.970691E+01  1.196190E-04 4.617778E+01  1.125886E-04 4.707778E+01  9.849479E-01 -3.843187E+01 
2.688750E+02  9.885646E-01 -3.972256E+01  1.121125E-04 4.855741E+01  1.008561E-04 5.092497E+01  9.849536E-01 -3.845266E+01 
2.689375E+02  9.888156E-01 -3.974188E+01  1.119187E-04 4.403796E+01  1.149444E-04 4.064161E+01  9.851965E-01 -3.846492E+01 
2.690000E+02  9.888238E-01 -3.975680E+01  1.196663E-04 3.550951E+01  1.235425E-04 3.470732E+01  9.851629E-01 -3.848608E+01 
2.690625E+02  9.887320E-01 -3.976188E+01  9.976563E-05 2.335489E+01  9.619342E-05 2.284786E+01  9.851168E-01 -3.849550E+01 
2.691250E+02  9.886223E-01 -3.978314E+01  7.239279E-05 3.061197E+01  6.512057E-05 3.411759E+01  9.851298E-01 -3.851856E+01 
2.691875E+02  9.885478E-01 -3.979199E+01  6.417237E-05 5.832821E+01  6.290577E-05 5.667660E+01  9.852682E-01 -3.853587E+01 
2.692500E+02  9.886257E-01 -3.980539E+01  8.077754E-05 7.718518E+01  8.332721E-05 7.787169E+01  9.852412E-01 -3.854163E+01 
2.693125E+02  9.885858E-01 -3.981661E+01  1.188912E-04 7.679920E+01  1.272696E-04 7.701601E+01  9.850953E-01 -3.856587E+01 
2.693750E+02  9.886625E-01 -3.983140E+01  1.413010E-04 6.850156E+01  1.352690E-04 6.465122E+01  9.853785E-01 -3.858667E+01 
2.694375E+02  9.886632E-01 -3.984717E+01  1.555749E-04 5.899694E+01  1.514526E-04 6.010892E+01  9.852732E-01 -3.858973E+01 
2.695000E+02  9.886398E-01 -3.986083E+01  1.545087E-04 5.047567E+01  1.534609E-04 4.972363E+01  9.854229E-01 -3.860460E+01 
2.695625E+02  9.886421E-01 -3.986669E+01  1.464608E-04 4.285131E+01  1.526439E-04 4.538246E+01  9.853946E-01 -3.862239E+01 
2.696250E+02  9.886786E-01 -3.988469E+01  1.502364E-04 3.967068E+01  1.512023E-04 3.780456E+01  9.855014E-01 -3.864236E+01 
2.696875E+02  9.886632E-01 -3.989639E+01  1.543955E-04 3.216809E+01  1.530842E-04 3.353867E+01  9.853699E-01 -3.865778E+01 
2.697500E+02  9.887924E-01 -3.990664E+01  1.433050E-04 2.695086E+01  1.445987E-04 2.881826E+01  9.855683E-01 -3.866934E+01 
2.698125E+02  9.888239E-01 -3.992023E+01  1.273230E-04 2.692818E+01  1.348226E-04 2.319275E+01  9.856769E-01 -3.868970E+01 
2.698750E+02  9.890196E-01 -3.992672E+01  1.128352E-04 2.216797E+01  1.219676E-04 2.196495E+01  9.857196E-01 -3.870533E+01 
2.699375E+02  9.891984E-01 -3.995091E+01  1.004612E-04 2.486236E+01  9.882490E-05 2.218623E+01  9.856144E-01 -3.872602E+01 
2.700000E+02  9.891736E-01 -3.996532E+01  1.050990E-04 2.787166E+01  1.028226E-04 2.692058E+01  9.855279E-01 -3.874461E+01 
2.700625E+02  9.891781E-01 -3.997912E+01  1.049779E-04 3.075343E+01  1.062721E-04 2.092845E+01  9.856256E-01 -3.875290E+01 
2.701250E+02  9.893807E-01 -3.999846E+01  1.000158E-04 2.238685E+01  9.069402E-05 2.076533E+01  9.856548E-01 -3.876493E+01 
2.701875E+02  9.893810E-01 -4.002302E+01  7.476405E-05 1.605550E+01  7.447653E-05 1.509239E+01  9.858034E-01 -3.878319E+01 
2.702500E+02  9.895249E-01 -4.003287E+01  6.404850E-05 2.938164E+01  5.143059E-05 3.406423E+01  9.857526E-01 -3.880335E+01 
2.703125E+02  9.895215E-01 -4.004958E+01  9.570820E-05 4.558114E+01  1.018539E-04 5.455206E+01  9.857275E-01 -3.880801E+01 
2.703750E+02  9.896869E-01 -4.007880E+01  8.932247E-05 4.646232E+01  1.058660E-04 3.400680E+01  9.858983E-01 -3.882438E+01 
2.704375E+02  9.898385E-01 -4.009085E+01  8.915659E-05 4.084446E+01  9.532855E-05 4.127291E+01  9.860368E-01 -3.884526E+01 
2.705000E+02  9.898290E-01 -4.010839E+01  9.006483E-05 4.819947E+01  1.049472E-04 3.322434E+01  9.859629E-01 -3.886332E+01 
2.705625E+02  9.896804E-01 -4.012480E+01  1.155175E-04 4.621213E+01  9.224303E-05 3.711112E+01  9.860558E-01 -3.887999E+01 
2.706250E+02  9.898177E-01 -4.014532E+01  9.734133E-05 4.750801E+01  1.113096E-04 3.757981E+01  9.862027E-01 -3.890522E+01 
2.706875E+02  9.898862E-01 -4.016230E+01  1.038997E-04 4.297905E+01  1.007732E-04 4.154112E+01  9.862651E-01 -3.892373E+01 
2.707500E+02  9.898244E-01 -4.017845E+01  1.134143E-04 3.410915E+01  1.083468E-04 3.532771E+01  9.863121E-01 -3.893430E+01 
2.708125E+02  9.899180E-01 -4.020035E+01  1.176794E-04 2.710395E+01  1.150362E-04 4.245215E+01  9.863855E-01 -3.895501E+01 
2.708750E+02  9.899206E-01 -4.022183E+01  1.158634E-04 3.808040E+01  1.080542E-04 3.300332E+01  9.864263E-01 -3.897640E+01 
2.709375E+02  9.898576E-01 -4.023681E+01  1.132232E-04 3.927389E+01  1.322074E-04 2.691548E+01  9.863549E-01 -3.899650E+01 
2.710000E+02  9.899725E-01 -4.024705E+01  1.176359E-04 3.591739E+01  1.200669E-04 2.880058E+01  9.864614E-01 -3.900823E+01 
2.710625E+02  9.901440E-01 -4.025961E+01  1.332788E-04 1.993945E+01  1.304728E-04 2.159523E+01  9.866263E-01 -3.901794E+01 
2.711250E+02  9.901738E-01 -4.027463E+01  1.265463E-04 1.571924E+01  1.163906E-04 1.759976E+01  9.865469E-01 -3.903957E+01 
2.711875E+02  9.902854E-01 -4.030012E+01  1.032958E-04 8.920800E-01  1.120057E-04 1.021421E+01  9.866248E-01 -3.906263E+01 
2.712500E+02  9.903630E-01 -4.032266E+01  9.397502E-05 2.385232E+00  7.936288E-05 1.370085E+01  9.867329E-01 -3.908109E+01 
2.713125E+02  9.904899E-01 -4.033095E+01  9.807824E-05 1.980115E+01  9.306967E-05 1.532525E+01  9.867953E-01 -3.909718E+01 
2.713750E+02  9.906054E-01 -4.035010E+01  7.253716E-05 2.540315E+01  7.525460E-05 2.166022E+01  9.867971E-01 -3.911225E+01 
2.714375E+02  9.906875E-01 -4.036862E+01  8.598603E-05 2.673967E+01  9.473121E-05 2.777481E+01  9.868862E-01 -3.913363E+01 
2.715000E+02  9.908406E-01 -4.038828E+01  6.985780E-05 1.970269E+01  9.820980E-05 1.526047E+01  9.867691E-01 -3.915670E+01 
2.715625E+02  9.908465E-01 -4.041426E+01  9.489225E-05 1.790125E+01  8.950921E-05 1.427529E+01  9.869002E-01 -3.917826E+01 
2.716250E+02  9.908196E-01 -4.044327E+01  7.700603E-05 2.326257E+01  8.216262E-05 3.162986E+01  9.871275E-01 -3.919593E+01 
2.716875E+02  9.908914E-01 -4.046099E+01  8.601143E-05 3.177183E+01  8.651000E-05 3.103219E+01  9.871688E-01 -3.921239E+01 
2.717500E+02  9.911671E-01 -4.047784E+01  1.078680E-04 1.767672E+01  1.026381E-04 1.392481E+01  9.872932E-01 -3.923522E+01 
2.718125E+02  9.911086E-01 -4.050974E+01  6.851072E-05 2.426715E+01  6.910780E-05 2.047355E+01  9.873309E-01 -3.924974E+01 
2.718750E+02  9.911854E-01 -4.052834E+01  8.580048E-05 7.564042E+00  7.680757E-05 1.650186E+01  9.874011E-01 -3.927635E+01 
2.719375E+02  9.913501E-01 -4.054640E+01  9.046675E-05 2.914763E+01  8.839730E-05 1.856328E+01  9.875316E-01 -3.929399E+01 
2.720000E+02  9.914140E-01 -4.057229E+01  8.199863E-05 1.391939E+01  8.176510E-05 5.291972E+00  9.875724E-01 -3.932377E+01 
2.720625E+02  9.913609E-01 -4.059480E+01  7.491240E-05 3.832315E+00  6.608609E-05 4.491440E-01  9.876631E-01 -3.934475E+01 
2.721250E+02  9.915512E-01 -4.062048E+01  7.351878E-05 6.567541E+00  7.366959E-05 1.067328E+01  9.876022E-01 -3.936674E+01 
2.721875E+02  9.914782E-01 -4.064022E+01  6.061981E-05 4.651125E+00  5.692414E-05 -6.982872E-01  9.878056E-01 -3.938795E+01 
2.722500E+02  9.915550E-01 -4.066875E+01  4.764481E-05 1.220207E+01  3.708043E-05 1.370286E+01  9.877990E-01 -3.941861E+01 
2.723125E+02  9.916281E-01 -4.068590E+01  4.192874E-05 1.591454E+01  4.727234E-05 8.462329E+00  9.879374E-01 -3.943453E+01 
2.723750E+02  9.916181E-01 -4.070797E+01  4.461005E-05 5.865848E+00  4.383575E-05 6.084889E+00  9.878053E-01 -3.945831E+01 
2.724375E+02  9.915447E-01 -4.073215E+01  4.971263E-05 1.652595E+01  5.565818E-05 1.081725E+01  9.878675E-01 -3.948085E+01 
2.725000E+02  9.917494E-01 -4.074996E+01  5.262018E-05 1.259842E+01  5.458022E-05 1.976497E+01  9.880032E-01 -3.950600E+01 
2.725625E+02  9.915887E-01 -4.077357E+01  5.927849E-05 2.460965E+01  5.470333E-05 2.766979E+01  9.878923E-01 -3.953722E+01 
2.726250E+02  9.916572E-01 -4.079632E+01  4.396941E-05 -1.082285E+01  3.436509E-05 -6.668979E+00  9.880296E-01 -3.955588E+01 
2.726875E+02  9.917893E-01 -4.081626E+01  3.684062E-05 2.823453E+01  4.082349E-05 2.342078E+01  9.880469E-01 -3.957086E+01 
2.727500E+02  9.917395E-01 -4.084073E+01  4.478935E-05 1.412657E+01  3.729632E-05 1.100434E+01  9.880016E-01 -3.960107E+01 
2.728125E+02  9.918495E-01 -4.086098E+01  4.221227E-05 2.644800E+01  4.260832E-05 3.797138E+01  9.880559E-01 -3.961814E+01 
2.728750E+02  9.918644E-01 -4.088751E+01  2.316546E-05 3.002558E+01  1.801799E-05 5.156929E+01  9.880834E-01 -3.963959E+01 
2.729375E+02  9.919737E-01 -4.090895E+01  2.941183E-05 2.916063E+01  2.900638E-05 4.750224E+01  9.882627E-01 -3.967166E+01 
2.730000E+02  9.919652E-01 -4.093895E+01  3.455989E-05 6.267223E+01  4.099051E-05 4.935450E+01  9.882671E-01 -3.969239E+01 
2.730625E+02  9.921824E-01 -4.095988E+01  4.953254E-05 5.838482E+01  4.500357E-05 6.772658E+01  9.882284E-01 -3.972017E+01 
2.731250E+02  9.920414E-01 -4.098976E+01  3.798712E-05 5.304429E+01  3.189272E-05 5.161437E+01  9.883187E-01 -3.973904E+01 
2.731875E+02  9.919690E-01 -4.100375E+01  3.253118E-05 5.854442E+01  3.361962E-05 6.799698E+01  9.882419E-01 -3.975920E+01 
2.732500E+02  9.921178E-01 -4.103548E+01  5.084942E-05 9.436427E+01  6.372551E-05 8.842574E+01  9.884614E-01 -3.978488E+01 
2.733125E+02  9.922018E-01 -4.105336E+01  6.315139E-05 4.266054E+01  5.609061E-05 6.538092E+01  9.884746E-01 -3.980758E+01 
2.733750E+02  9.921561E-01 -4.108408E+01  5.120490E-05 5.415921E+01  6.144705E-05 7.141695E+01  9.883804E-01 -3.982913E+01 
2.734375E+02  9.922889E-01 -4.111096E+01  4.686327E-05 8.002642E+01  3.782109E-05 8.688748E+01  9.884699E-01 -3.985345E+01 
2.735000E+02  9.921718E-01 -4.113471E+01  6.160353E-05 8.160982E+01  5.948545E-05 6.614229E+01  9.883536E-01 -3.988128E+01 
2.735625E+02  9.920830E-01 -4.115396E+01  7.103556E-05 6.665531E+01  6.272103E-05 6.706128E+01  9.884463E-01 -3.990907E+01 
2.736250E+02  9.922348E-01 -4.118255E+01  6.298965E-05 6.093670E+01  5.903319E-05 5.237699E+01  9.885504E-01 -3.992991E+01 
2.736875E+02  9.924068E-01 -4.120766E+01  6.646393E-05 6.155407E+01  6.628053E-05 8.596508E+01  9.885194E-01 -3.996370E+01 
2.737500E+02  9.923021E-01 -4.123543E+01  6.831760E-05 5.976160E+01  7.328731E-05 7.044578E+01  9.884503E-01 -3.998740E+01 
2.738125E+02  9.921485E-01 -4.126293E+01  6.763879E-05 6.389980E+01  6.256378E-05 6.851758E+01  9.885432E-01 -4.001732E+01 
2.738750E+02  9.923801E-01 -4.128693E+01  6.207558E-05 6.862553E+01  7.005995E-05 5.667417E+01  9.885336E-01 -4.003217E+01 
2.739375E+02  9.923002E-01 -4.130579E+01  6.087991E-05 6.493671E+01  7.671263E-05 6.506790E+01  9.885604E-01 -4.006025E+01 
2.740000E+02  9.923580E-01 -4.134091E+01  5.946215E-05 6.033384E+01  4.668166E-05 6.564844E+01  9.885377E-01 -4.009252E+01 
2.740625E+02  9.923310E-01 -4.136525E+01  5.318604E-05 6.537098E+01  5.225199E-05 6.915489E+01  9.884535E-01 -4.012004E+01 
2.741250E+02  9.921906E-01 -4.139017E+01  6.780045E-05 6.412951E+01  5.598796E-05 6.731654E+01  9.884832E-01 -4.014373E+01 
2.741875E+02  9.922900E-01 -4.141139E+01  6.804452E-05 7.791254E+01  6.073448E-05 8.487237E+01  9.885184E-01 -4.017683E+01 
2.742500E+02  9.922198E-01 -4.144945E+01  7.099435E-05 8.289737E+01  7.802018E-05 6.778779E+01  9.883733E-01 -4.019077E+01 
2.743125E+02  9.921045E-01 -4.147562E+01  7.221140E-05 7.922633E+01  8.613248E-05 7.685599E+01  9.883957E-01 -4.022269E+01 
2.743750E+02  9.922040E-01 -4.149738E+01  9.245153E-05 6.053816E+01  8.248879E-05 5.589333E+01  9.882172E-01 -4.025006E+01 
2.744375E+02  9.921511E-01 -4.152150E+01  7.489304E-05 6.145448E+01  8.254006E-05 6.278923E+01  9.882268E-01 -4.027489E+01 
2.745000E+02  9.919499E-01 -4.154900E+01  8.454164E-05 5.619951E+01  7.870513E-05 4.880030E+01  9.883373E-01 -4.030709E+01 
2.745625E+02  9.922274E-01 -4.156490E+01  8.578145E-05 5.728050E+01  7.031038E-05 6.904338E+01  9.881747E-01 -4.033317E+01 
2.746250E+02  9.920977E-01 -4.159519E+01  7.888772E-05 6.547494E+01  6.588162E-05 6.689141E+01  9.881321E-01 -4.035039E+01 
2.746875E+02  9.919233E-01 -4.163202E+01  7.002863E-05 6.095822E+01  8.642793E-05 5.107297E+01  9.880357E-01 -4.038121E+01 
