! Matrix data file written by TouchstoneData, EPCOS AG
! FILENAME: "LT97B_NB.s2p"
! INFO: nport=2, nfreq=1601
!
! port | pin | signal
! -----|-----|--------
!   1  |  2  |  IN
!   2  |  5  |  OUT
! --------------------
!
# MHZ S RI R 50
! freq  reS11 imS11  reS21 imS21  reS12 imS12  reS22 imS22
769  0.456024 -0.862244  0.002171 0.001865  0.002167 0.001864  0.458984 -0.858215 
769.125  0.45578 -0.862335  0.002176 0.001867  0.002141 0.001892  0.458679 -0.858582 
769.25  0.455566 -0.86261  0.00216 0.00188  0.002139 0.001949  0.457977 -0.858673 
769.375  0.455414 -0.862396  0.00213 0.001834  0.002088 0.001868  0.458618 -0.858459 
769.5  0.454834 -0.862305  0.002133 0.001882  0.002176 0.001874  0.457581 -0.858673 
769.625  0.453888 -0.862823  0.002186 0.001869  0.002133 0.001901  0.456543 -0.858856 
769.75  0.453949 -0.863281  0.002198 0.001869  0.00216 0.001878  0.45636 -0.859253 
769.875  0.453247 -0.862976  0.002184 0.001832  0.002142 0.001845  0.456085 -0.85907 
770  0.452393 -0.862823  0.002183 0.001851  0.002168 0.001872  0.456024 -0.858856 
770.125  0.452423 -0.863678  0.002142 0.001874  0.002187 0.001828  0.455322 -0.859222 
770.25  0.451447 -0.863739  0.002154 0.001809  0.002173 0.001862  0.455048 -0.859375 
770.375  0.45166 -0.864075  0.00221 0.001876  0.002154 0.001829  0.454254 -0.86026 
770.5  0.451324 -0.86377  0.002169 0.001779  0.002153 0.001781  0.453918 -0.860016 
770.625  0.451172 -0.865082  0.002152 0.00181  0.002098 0.00184  0.45343 -0.859161 
770.75  0.451355 -0.863647  0.002147 0.001815  0.002137 0.001812  0.453094 -0.860504 
770.875  0.450043 -0.864258  0.002148 0.001849  0.00217 0.001855  0.453064 -0.860016 
771  0.449402 -0.864532  0.002125 0.001828  0.002093 0.001797  0.452118 -0.860291 
771.125  0.448853 -0.864441  0.002149 0.001823  0.002147 0.001844  0.451569 -0.861084 
771.25  0.447968 -0.864349  0.002171 0.001815  0.002167 0.001825  0.452148 -0.860107 
771.375  0.448364 -0.864563  0.002114 0.001809  0.002144 0.001791  0.450531 -0.860657 
771.5  0.448212 -0.864716  0.002162 0.001835  0.002098 0.001814  0.450989 -0.860748 
771.625  0.446838 -0.865051  0.002104 0.00175  0.002089 0.001806  0.451721 -0.860199 
771.75  0.446899 -0.864624  0.002128 0.001844  0.002077 0.001842  0.449677 -0.860657 
771.875  0.446411 -0.864441  0.002158 0.001846  0.002086 0.001813  0.449463 -0.860626 
772  0.44519 -0.86441  0.002105 0.001824  0.002087 0.001768  0.449005 -0.860138 
772.125  0.446075 -0.864777  0.002139 0.001808  0.002142 0.001779  0.448334 -0.860413 
772.25  0.445526 -0.864685  0.002143 0.001787  0.002108 0.001863  0.448639 -0.861176 
772.375  0.444916 -0.864929  0.002136 0.001804  0.002128 0.001863  0.44754 -0.861938 
772.5  0.444244 -0.865051  0.002084 0.001815  0.002102 0.001804  0.446991 -0.860687 
772.625  0.443359 -0.864319  0.002118 0.001784  0.002096 0.001791  0.447113 -0.861328 
772.75  0.443054 -0.865143  0.002124 0.001818  0.002108 0.001827  0.44635 -0.861267 
772.875  0.442932 -0.865479  0.002098 0.001814  0.002068 0.001781  0.446381 -0.861084 
773  0.443024 -0.865051  0.002092 0.001803  0.002134 0.001836  0.445435 -0.861603 
773.125  0.4422 -0.865387  0.00212 0.001801  0.002167 0.001813  0.444733 -0.861053 
773.25  0.441559 -0.865479  0.002129 0.001831  0.002142 0.001819  0.444885 -0.861847 
773.375  0.441803 -0.865021  0.002157 0.001797  0.002129 0.001788  0.44458 -0.861328 
773.5  0.441223 -0.865631  0.002139 0.001775  0.00216 0.001803  0.443298 -0.861908 
773.625  0.440887 -0.866119  0.002112 0.001814  0.002094 0.001771  0.443146 -0.86142 
773.75  0.440033 -0.865295  0.002099 0.001794  0.002152 0.001801  0.442627 -0.861237 
773.875  0.440125 -0.865295  0.002117 0.0018  0.002102 0.001803  0.443329 -0.861633 
774  0.440155 -0.864716  0.002151 0.001773  0.002061 0.001825  0.442505 -0.861237 
774.125  0.439911 -0.864563  0.002114 0.001831  0.002107 0.001823  0.441742 -0.86142 
774.25  0.438263 -0.865143  0.002142 0.001817  0.002142 0.001771  0.4422 -0.86203 
774.375  0.437744 -0.865234  0.002048 0.001776  0.002145 0.001815  0.441376 -0.861908 
774.5  0.43811 -0.865021  0.002142 0.00173  0.002096 0.001777  0.440796 -0.861786 
774.625  0.438171 -0.86499  0.002082 0.001775  0.002165 0.001812  0.440399 -0.861816 
774.75  0.437286 -0.865051  0.002081 0.001739  0.002118 0.001734  0.439636 -0.86203 
774.875  0.43689 -0.865326  0.002119 0.001783  0.002119 0.001788  0.439484 -0.861755 
775  0.436615 -0.864288  0.002114 0.001782  0.002103 0.001764  0.439575 -0.862 
775.125  0.436432 -0.86499  0.002085 0.00171  0.002113 0.001716  0.438507 -0.861755 
775.25  0.436188 -0.863861  0.002086 0.001745  0.002136 0.001717  0.43869 -0.861847 
775.375  0.43634 -0.864502  0.002085 0.001736  0.002091 0.001724  0.437927 -0.861603 
775.5  0.435822 -0.864136  0.002041 0.001732  0.002037 0.001763  0.438202 -0.862183 
775.625  0.435791 -0.864166  0.002051 0.001708  0.002051 0.001781  0.437286 -0.860901 
775.75  0.435211 -0.865173  0.002023 0.001788  0.002066 0.001802  0.437897 -0.860962 
775.875  0.435333 -0.864716  0.002038 0.001726  0.002071 0.001786  0.437775 -0.860413 
776  0.434235 -0.865051  0.002082 0.001767  0.002043 0.001782  0.437622 -0.860565 
776.125  0.434357 -0.864349  0.002036 0.00177  0.002109 0.001785  0.436707 -0.861237 
776.25  0.434875 -0.864777  0.002068 0.00177  0.002027 0.001822  0.437012 -0.861115 
776.375  0.434296 -0.864258  0.002057 0.001776  0.002038 0.001747  0.436829 -0.861115 
776.5  0.43399 -0.86377  0.002083 0.001738  0.002092 0.001766  0.436707 -0.86142 
776.625  0.433502 -0.864471  0.002054 0.00179  0.002058 0.001768  0.434814 -0.86142 
776.75  0.433044 -0.863525  0.002102 0.001775  0.002075 0.001778  0.435577 -0.86084 
776.875  0.433228 -0.864319  0.002075 0.001741  0.002068 0.001769  0.435974 -0.861053 
777  0.433472 -0.863556  0.002039 0.001766  0.002041 0.001802  0.435333 -0.860809 
777.125  0.432648 -0.864136  0.002092 0.001739  0.002115 0.00178  0.435608 -0.861389 
777.25  0.433105 -0.863617  0.002046 0.001708  0.002036 0.001752  0.435455 -0.861542 
777.375  0.4328 -0.864258  0.002001 0.001713  0.002 0.001734  0.43454 -0.861084 
777.5  0.432465 -0.864166  0.002054 0.001759  0.002006 0.001774  0.434418 -0.861847 
777.625  0.431976 -0.864777  0.002004 0.001833  0.002041 0.001804  0.434753 -0.861389 
777.75  0.433502 -0.86499  0.002072 0.001797  0.002041 0.001745  0.434814 -0.862122 
777.875  0.432404 -0.865173  0.002095 0.001741  0.002074 0.001763  0.434296 -0.861816 
778  0.432678 -0.865723  0.002027 0.001796  0.002054 0.001758  0.433533 -0.861969 
778.125  0.432343 -0.865509  0.002063 0.001736  0.002061 0.001741  0.433075 -0.862152 
778.25  0.432495 -0.865112  0.002045 0.00177  0.002063 0.001769  0.434265 -0.862061 
778.375  0.431122 -0.865936  0.002049 0.001723  0.002048 0.001757  0.434204 -0.861359 
778.5  0.430756 -0.865753  0.002048 0.001763  0.002032 0.001736  0.433563 -0.862122 
778.625  0.430664 -0.865814  0.002032 0.001783  0.002057 0.001794  0.433228 -0.861908 
778.75  0.431091 -0.866028  0.00206 0.001742  0.002069 0.001811  0.433075 -0.862518 
778.875  0.429779 -0.866272  0.002053 0.001693  0.002052 0.001663  0.433472 -0.862305 
779  0.430054 -0.865631  0.002053 0.001779  0.002055 0.001736  0.433777 -0.862885 
779.125  0.429932 -0.865936  0.002048 0.001726  0.002003 0.001747  0.432495 -0.863007 
779.25  0.429596 -0.865631  0.002012 0.001714  0.001991 0.001736  0.433197 -0.863342 
779.375  0.429901 -0.866241  0.002038 0.001783  0.00203 0.001797  0.4328 -0.863708 
779.5  0.430145 -0.866974  0.002022 0.001735  0.00202 0.001781  0.432526 -0.864258 
779.625  0.429382 -0.866669  0.002033 0.001775  0.002035 0.001745  0.432343 -0.864563 
779.75  0.429504 -0.867798  0.002055 0.00172  0.002008 0.001755  0.431854 -0.864716 
779.875  0.429413 -0.868225  0.002046 0.001765  0.002038 0.001796  0.431976 -0.865417 
780  0.429871 -0.868256  0.002053 0.001796  0.002065 0.001738  0.431915 -0.865875 
780.125  0.429108 -0.868439  0.002029 0.001718  0.002043 0.001728  0.431213 -0.865326 
780.25  0.428436 -0.869263  0.002056 0.001768  0.002076 0.001738  0.431091 -0.866852 
780.375  0.42746 -0.869019  0.002025 0.001765  0.001999 0.001731  0.430847 -0.866455 
780.5  0.427612 -0.868744  0.002028 0.001679  0.002004 0.001733  0.429993 -0.867035 
780.625  0.426941 -0.869141  0.002038 0.001731  0.002005 0.001744  0.429657 -0.867157 
780.75  0.42627 -0.869476  0.002071 0.001736  0.002045 0.001764  0.429382 -0.867249 
780.875  0.426514 -0.86908  0.00203 0.001737  0.001996 0.001743  0.42923 -0.867798 
781  0.427032 -0.869934  0.002002 0.001736  0.002019 0.001734  0.429291 -0.86731 
781.125  0.425781 -0.870148  0.00201 0.001677  0.00197 0.00167  0.427948 -0.868011 
781.25  0.425903 -0.869293  0.002026 0.001688  0.002012 0.001708  0.428284 -0.868713 
781.375  0.425903 -0.869843  0.002009 0.001762  0.002033 0.001762  0.427429 -0.869354 
781.5  0.425323 -0.870758  0.001982 0.001711  0.001989 0.001753  0.427368 -0.868958 
781.625  0.424805 -0.870422  0.00202 0.001721  0.00202 0.00175  0.426727 -0.868744 
781.75  0.425537 -0.871338  0.002001 0.001742  0.002024 0.001665  0.426392 -0.868134 
781.875  0.423828 -0.871246  0.001997 0.001724  0.002035 0.001711  0.426544 -0.868835 
782  0.423462 -0.871002  0.001968 0.001688  0.001925 0.001701  0.425751 -0.86911 
782.125  0.423431 -0.871796  0.00197 0.001717  0.00196 0.001723  0.425781 -0.86853 
782.25  0.42334 -0.872498  0.002022 0.001718  0.001981 0.001745  0.426483 -0.869934 
782.375  0.423401 -0.871948  0.001962 0.001735  0.001929 0.001756  0.42511 -0.869812 
782.5  0.422577 -0.872864  0.002 0.001765  0.001997 0.001757  0.42511 -0.870667 
782.625  0.422943 -0.872803  0.001995 0.001739  0.001989 0.001743  0.425415 -0.870422 
782.75  0.422119 -0.872772  0.001951 0.001763  0.001958 0.001728  0.423767 -0.87027 
782.875  0.422211 -0.872894  0.001965 0.001711  0.001978 0.001786  0.42395 -0.8703 
783  0.420746 -0.87326  0.001955 0.001774  0.001961 0.001707  0.423462 -0.870544 
783.125  0.421448 -0.873413  0.002013 0.00175  0.002 0.001745  0.423676 -0.871307 
783.25  0.421631 -0.873199  0.001948 0.001772  0.00204 0.00171  0.422516 -0.871796 
783.375  0.421051 -0.873627  0.001976 0.001725  0.002031 0.001778  0.422791 -0.871063 
783.5  0.420776 -0.874207  0.002016 0.001732  0.002059 0.001715  0.422485 -0.872437 
783.625  0.419952 -0.874817  0.002063 0.001769  0.001986 0.001751  0.422302 -0.872498 
783.75  0.419189 -0.874939  0.002 0.001714  0.00196 0.001702  0.421844 -0.872406 
783.875  0.419281 -0.874756  0.001953 0.001719  0.001969 0.001691  0.421112 -0.872955 
784  0.419128 -0.874573  0.002007 0.001731  0.001983 0.001735  0.420532 -0.873199 
784.125  0.418488 -0.876221  0.001987 0.001715  0.002032 0.001714  0.420441 -0.872894 
784.25  0.418457 -0.876251  0.001986 0.001679  0.001935 0.001723  0.419495 -0.872864 
784.375  0.417267 -0.875336  0.001952 0.001734  0.001983 0.001652  0.420044 -0.874054 
784.5  0.416992 -0.87616  0.001978 0.001731  0.001952 0.001737  0.419983 -0.874115 
784.625  0.416687 -0.87616  0.001909 0.001729  0.001953 0.001739  0.41925 -0.873932 
784.75  0.417114 -0.876129  0.001944 0.001702  0.001972 0.001739  0.418701 -0.874359 
784.875  0.417328 -0.875885  0.001939 0.001719  0.001944 0.001716  0.418365 -0.875122 
785  0.416901 -0.876526  0.001926 0.001759  0.001914 0.001709  0.41864 -0.875061 
785.125  0.416504 -0.877136  0.001917 0.001743  0.001963 0.001718  0.417633 -0.875336 
785.25  0.415924 -0.877441  0.001914 0.001689  0.001935 0.001759  0.417297 -0.87558 
785.375  0.414215 -0.87796  0.001951 0.001777  0.001936 0.001741  0.417511 -0.875732 
785.5  0.41507 -0.877441  0.001949 0.001756  0.001987 0.00179  0.416718 -0.876312 
785.625  0.413239 -0.878326  0.001926 0.001772  0.001984 0.001789  0.417053 -0.87616 
785.75  0.414856 -0.877502  0.001954 0.001829  0.001971 0.001741  0.416229 -0.877045 
785.875  0.413849 -0.878662  0.001935 0.001749  0.001957 0.001744  0.416626 -0.876709 
786  0.413177 -0.878662  0.001955 0.001768  0.001957 0.001768  0.415802 -0.877075 
786.125  0.412598 -0.878723  0.001983 0.001803  0.001988 0.001763  0.414734 -0.877319 
786.25  0.412445 -0.879639  0.001938 0.001793  0.001943 0.001801  0.415222 -0.877869 
786.375  0.412476 -0.880127  0.001945 0.001729  0.00196 0.001773  0.414246 -0.878448 
786.5  0.411926 -0.879211  0.00199 0.001778  0.001999 0.001794  0.413757 -0.878754 
786.625  0.412262 -0.879303  0.001954 0.001849  0.002007 0.00183  0.413574 -0.878693 
786.75  0.41095 -0.880219  0.00196 0.001752  0.002009 0.001772  0.412689 -0.879395 
786.875  0.411194 -0.879639  0.002044 0.001792  0.001964 0.001735  0.41333 -0.87912 
787  0.411041 -0.880829  0.00197 0.001766  0.00201 0.001782  0.411804 -0.8797 
787.125  0.410797 -0.881439  0.001982 0.001737  0.00204 0.001765  0.41156 -0.879791 
787.25  0.410217 -0.881592  0.002036 0.001755  0.001993 0.001756  0.411133 -0.880524 
787.375  0.40979 -0.881897  0.002016 0.001748  0.002027 0.001755  0.410858 -0.880737 
787.5  0.408875 -0.882385  0.002032 0.001762  0.002047 0.001744  0.410156 -0.880646 
787.625  0.408783 -0.882996  0.002023 0.001757  0.002028 0.001744  0.410309 -0.881683 
787.75  0.408691 -0.883698  0.002014 0.001695  0.002047 0.001743  0.409302 -0.881531 
787.875  0.407593 -0.882874  0.002025 0.00172  0.002022 0.001716  0.409088 -0.881439 
788  0.407318 -0.883728  0.002024 0.001708  0.001968 0.001692  0.40863 -0.88269 
788.125  0.406799 -0.883606  0.002029 0.001695  0.001995 0.00168  0.408813 -0.882751 
788.25  0.405487 -0.884216  0.001982 0.001678  0.001979 0.001673  0.407532 -0.882782 
788.375  0.406036 -0.884308  0.002 0.001678  0.001959 0.001694  0.407196 -0.882996 
788.5  0.404358 -0.885284  0.001981 0.001717  0.001995 0.001703  0.40686 -0.883667 
788.625  0.404327 -0.884979  0.001965 0.001727  0.001992 0.001725  0.405884 -0.884735 
788.75  0.404877 -0.885132  0.001909 0.001686  0.002007 0.001724  0.405548 -0.884277 
788.875  0.403809 -0.885193  0.001996 0.00173  0.002013 0.001695  0.405914 -0.884186 
789  0.402649 -0.885834  0.001968 0.001704  0.001969 0.001723  0.404297 -0.885681 
789.125  0.402374 -0.885834  0.001994 0.001714  0.001951 0.001738  0.404114 -0.885406 
789.25  0.4021 -0.886719  0.001963 0.001677  0.00197 0.001714  0.403809 -0.885712 
789.375  0.401733 -0.885986  0.001997 0.001705  0.001977 0.001768  0.403412 -0.886108 
789.5  0.401031 -0.88681  0.002029 0.001702  0.002033 0.001718  0.402069 -0.886414 
789.625  0.399536 -0.887573  0.001979 0.001686  0.00198 0.001739  0.401459 -0.886627 
789.75  0.400024 -0.887634  0.001983 0.001732  0.002014 0.001721  0.400635 -0.886383 
789.875  0.399597 -0.887024  0.002052 0.00173  0.001973 0.001687  0.400604 -0.887054 
790  0.398438 -0.887878  0.002066 0.001684  0.002049 0.001712  0.399994 -0.886902 
790.125  0.397736 -0.888947  0.002007 0.001679  0.001995 0.001653  0.399506 -0.887787 
790.25  0.397614 -0.888428  0.002028 0.001621  0.002043 0.001662  0.398773 -0.887695 
790.375  0.396942 -0.888519  0.002028 0.001708  0.002068 0.00168  0.397278 -0.887756 
790.5  0.395233 -0.888153  0.002013 0.001626  0.002033 0.001629  0.397339 -0.888153 
790.625  0.39505 -0.889465  0.00199 0.001609  0.002011 0.001636  0.396881 -0.888 
790.75  0.394592 -0.889252  0.002007 0.001641  0.002028 0.001633  0.396118 -0.888123 
790.875  0.394592 -0.889771  0.002031 0.001619  0.001989 0.001605  0.39624 -0.888489 
791  0.393311 -0.889954  0.001954 0.001614  0.001964 0.001583  0.395111 -0.888214 
791.125  0.392365 -0.890106  0.001933 0.001591  0.002004 0.001587  0.394257 -0.888947 
791.25  0.392731 -0.889923  0.001968 0.001624  0.00193 0.001609  0.394073 -0.889038 
791.375  0.391632 -0.890411  0.001893 0.001625  0.001933 0.001644  0.394104 -0.889404 
791.5  0.39032 -0.89032  0.001992 0.00162  0.001912 0.001607  0.392914 -0.889832 
791.625  0.390564 -0.890991  0.001929 0.001644  0.001925 0.001646  0.392426 -0.889862 
791.75  0.389954 -0.890442  0.001997 0.001595  0.001987 0.001658  0.392059 -0.890747 
791.875  0.389069 -0.890961  0.001917 0.001626  0.001946 0.001624  0.391022 -0.889679 
792  0.388641 -0.891235  0.001954 0.001644  0.001954 0.00161  0.389557 -0.890137 
792.125  0.387238 -0.890411  0.001964 0.001649  0.001914 0.001637  0.388885 -0.891418 
792.25  0.387177 -0.890991  0.00197 0.001626  0.001945 0.001628  0.388641 -0.890808 
792.375  0.387146 -0.890991  0.00193 0.001644  0.001895 0.001628  0.387787 -0.890594 
792.5  0.385651 -0.892151  0.00193 0.001625  0.001981 0.001605  0.386688 -0.890594 
792.625  0.385101 -0.891205  0.001926 0.001615  0.001938 0.001655  0.385864 -0.890869 
792.75  0.38443 -0.891937  0.001934 0.001631  0.001932 0.001585  0.386078 -0.890472 
792.875  0.384338 -0.892426  0.001951 0.00166  0.001952 0.001635  0.385406 -0.891235 
793  0.382996 -0.892609  0.001955 0.00162  0.001931 0.00164  0.384949 -0.890564 
793.125  0.381989 -0.892395  0.001984 0.001624  0.001894 0.001622  0.384277 -0.891327 
793.25  0.381897 -0.891968  0.001934 0.001634  0.001962 0.001642  0.383789 -0.891174 
793.375  0.381897 -0.892151  0.001954 0.001621  0.001933 0.001648  0.382812 -0.891449 
793.5  0.380341 -0.89212  0.001943 0.001598  0.001907 0.001609  0.38205 -0.891754 
793.625  0.379883 -0.891754  0.001961 0.001573  0.001967 0.001587  0.381104 -0.891418 
793.75  0.378479 -0.891937  0.00191 0.001594  0.001917 0.001588  0.380615 -0.891357 
793.875  0.37854 -0.891357  0.001961 0.001582  0.00196 0.001585  0.37973 -0.891754 
794  0.378479 -0.891693  0.001938 0.001543  0.001936 0.001541  0.379547 -0.890472 
794.125  0.376587 -0.89209  0.001952 0.001521  0.001928 0.00151  0.37912 -0.891388 
794.25  0.377472 -0.891388  0.001919 0.001533  0.00192 0.001552  0.378265 -0.89151 
794.375  0.376007 -0.891113  0.001909 0.001549  0.001864 0.001581  0.377472 -0.891815 
794.5  0.375702 -0.891418  0.00189 0.001588  0.001866 0.001553  0.376617 -0.891266 
794.625  0.375275 -0.891541  0.001867 0.001559  0.001875 0.00159  0.375946 -0.891418 
794.75  0.37439 -0.891724  0.001844 0.001538  0.001862 0.00155  0.375153 -0.890503 
794.875  0.373566 -0.891663  0.001877 0.00157  0.001848 0.001587  0.37439 -0.890656 
795  0.373871 -0.892303  0.001879 0.001618  0.001844 0.001592  0.374115 -0.890839 
795.125  0.371582 -0.891205  0.001815 0.001626  0.001838 0.001598  0.373413 -0.890198 
795.25  0.371735 -0.891266  0.001824 0.001593  0.001864 0.001629  0.373322 -0.889923 
795.375  0.371155 -0.890656  0.001806 0.00161  0.001813 0.001602  0.372375 -0.890472 
795.5  0.370361 -0.890625  0.001812 0.001614  0.001843 0.001586  0.372406 -0.889618 
795.625  0.369904 -0.890228  0.001848 0.0016  0.00185 0.001614  0.371338 -0.88974 
795.75  0.369446 -0.890167  0.00186 0.001611  0.001857 0.001656  0.371887 -0.889069 
795.875  0.369232 -0.890533  0.001848 0.001556  0.001824 0.001622  0.370605 -0.889709 
796  0.368347 -0.889252  0.001869 0.001633  0.001881 0.001662  0.371216 -0.889069 
796.125  0.367981 -0.888733  0.001833 0.00165  0.001869 0.001622  0.369781 -0.888702 
796.25  0.367462 -0.888611  0.001838 0.001627  0.001881 0.001631  0.369476 -0.889221 
796.375  0.367645 -0.888702  0.001866 0.001626  0.001908 0.001623  0.369293 -0.888672 
796.5  0.367859 -0.888947  0.00185 0.001605  0.001876 0.00158  0.369659 -0.88858 
796.625  0.367584 -0.888306  0.001885 0.001632  0.001868 0.001636  0.368896 -0.888916 
796.75  0.368225 -0.88916  0.001874 0.001596  0.00189 0.001633  0.368195 -0.888824 
796.875  0.367523 -0.888611  0.001859 0.001586  0.001921 0.001589  0.368469 -0.888214 
797  0.367523 -0.888885  0.00189 0.001614  0.001907 0.00159  0.367645 -0.888245 
797.125  0.366943 -0.890015  0.001865 0.001567  0.001897 0.001473  0.368164 -0.888702 
797.25  0.366333 -0.889435  0.001785 0.001554  0.001863 0.00159  0.367493 -0.888794 
797.375  0.366211 -0.888885  0.001828 0.001579  0.001854 0.001593  0.367157 -0.888672 
797.5  0.365082 -0.889435  0.001887 0.001582  0.001882 0.001534  0.366302 -0.889343 
797.625  0.365204 -0.889832  0.001879 0.001505  0.001823 0.00157  0.366669 -0.888855 
797.75  0.365143 -0.889526  0.001856 0.001571  0.00182 0.001534  0.365936 -0.888977 
