! Matrix data file written by TouchstoneData, EPCOS AG
! FILENAME: "B3722_WB.s2p"
! COMMENT: "PCB: 2016; PINNING: 25; PORTEXT1: 82ps; PORT"
! INFO: nport=2, nfreq=1601
! DATE: "Thu Jul  3 11:45:16 2008"
! USER: "Thomas Telgmann"
!
! port | pin | signal
! -----|-----|--------
!   1  |  2  |  in
!   2  |  5  |  out
! --------------------
! 
# MHZ S MA R 50
! freq  magS11 angS11  magS21 angS21  magS12 angS12  magS22 angS22
2.650000E+02  9.921425E-01 -3.861388E+01  1.097844E-04 -1.329598E+02  1.162517E-04 -1.319535E+02  9.888649E-01 -3.824175E+01 
2.650625E+02  9.919549E-01 -3.862769E+01  1.237242E-04 -1.348656E+02  1.075902E-04 -1.314478E+02  9.888765E-01 -3.825359E+01 
2.651250E+02  9.919518E-01 -3.865222E+01  1.078649E-04 -1.328912E+02  1.057278E-04 -1.290615E+02  9.888817E-01 -3.827458E+01 
2.651875E+02  9.918474E-01 -3.866632E+01  1.204026E-04 -1.286239E+02  1.167891E-04 -1.279170E+02  9.888733E-01 -3.830129E+01 
2.652500E+02  9.919284E-01 -3.869464E+01  1.172158E-04 -1.324502E+02  1.161649E-04 -1.296762E+02  9.887742E-01 -3.831754E+01 
2.653125E+02  9.916950E-01 -3.871232E+01  1.166277E-04 -1.306170E+02  1.142584E-04 -1.286655E+02  9.886612E-01 -3.833575E+01 
2.653750E+02  9.918706E-01 -3.872945E+01  1.121786E-04 -1.289540E+02  1.170975E-04 -1.277596E+02  9.886354E-01 -3.835751E+01 
2.654375E+02  9.917643E-01 -3.875511E+01  1.234920E-04 -1.263624E+02  1.241172E-04 -1.278064E+02  9.886150E-01 -3.837545E+01 
2.655000E+02  9.915186E-01 -3.876802E+01  1.375556E-04 -1.269905E+02  1.314479E-04 -1.261489E+02  9.885086E-01 -3.839902E+01 
2.655625E+02  9.916670E-01 -3.877972E+01  1.410243E-04 -1.293786E+02  1.382949E-04 -1.287763E+02  9.884128E-01 -3.841874E+01 
2.656250E+02  9.916002E-01 -3.881243E+01  1.356880E-04 -1.333896E+02  1.431495E-04 -1.327474E+02  9.883724E-01 -3.843387E+01 
2.656875E+02  9.914863E-01 -3.882873E+01  1.319211E-04 -1.348459E+02  1.344189E-04 -1.392581E+02  9.883061E-01 -3.845972E+01 
2.657500E+02  9.913634E-01 -3.885085E+01  1.282549E-04 -1.424139E+02  1.215892E-04 -1.390778E+02  9.881187E-01 -3.847567E+01 
2.658125E+02  9.912992E-01 -3.887952E+01  1.195838E-04 -1.387027E+02  1.211560E-04 -1.362165E+02  9.880161E-01 -3.850075E+01 
2.658750E+02  9.911493E-01 -3.889215E+01  1.181631E-04 -1.374747E+02  1.190491E-04 -1.331276E+02  9.877614E-01 -3.852797E+01 
2.659375E+02  9.910105E-01 -3.891450E+01  1.186988E-04 -1.354674E+02  1.198105E-04 -1.374509E+02  9.876939E-01 -3.854488E+01 
2.660000E+02  9.909421E-01 -3.893506E+01  1.117890E-04 -1.337719E+02  1.160797E-04 -1.384671E+02  9.875397E-01 -3.855892E+01 
2.660625E+02  9.906258E-01 -3.895178E+01  1.113313E-04 -1.343909E+02  1.077857E-04 -1.384887E+02  9.872991E-01 -3.857497E+01 
2.661250E+02  9.905252E-01 -3.897336E+01  1.021876E-04 -1.333472E+02  9.373775E-05 -1.347584E+02  9.872126E-01 -3.858947E+01 
2.661875E+02  9.902376E-01 -3.898691E+01  1.198900E-04 -1.181202E+02  1.169738E-04 -1.159397E+02  9.869723E-01 -3.860746E+01 
2.662500E+02  9.899255E-01 -3.900571E+01  1.406790E-04 -1.320646E+02  1.382810E-04 -1.318569E+02  9.866890E-01 -3.861105E+01 
2.663125E+02  9.897886E-01 -3.901709E+01  1.268821E-04 -1.364186E+02  1.312733E-04 -1.333649E+02  9.867067E-01 -3.862069E+01 
2.663750E+02  9.896139E-01 -3.902873E+01  1.186218E-04 -1.374591E+02  1.134200E-04 -1.324722E+02  9.865677E-01 -3.863304E+01 
2.664375E+02  9.892261E-01 -3.902693E+01  1.219725E-04 -1.264685E+02  1.115872E-04 -1.272082E+02  9.863418E-01 -3.863965E+01 
2.665000E+02  9.890851E-01 -3.902955E+01  1.125463E-04 -1.231477E+02  1.148035E-04 -1.256191E+02  9.862956E-01 -3.865046E+01 
2.665625E+02  9.890009E-01 -3.902829E+01  1.289921E-04 -1.188111E+02  1.289101E-04 -1.205880E+02  9.862335E-01 -3.866006E+01 
2.666250E+02  9.890611E-01 -3.903226E+01  1.526666E-04 -1.239779E+02  1.493202E-04 -1.233573E+02  9.862960E-01 -3.865800E+01 
2.666875E+02  9.891124E-01 -3.902368E+01  1.585336E-04 -1.279890E+02  1.554014E-04 -1.275759E+02  9.862397E-01 -3.866600E+01 
2.667500E+02  9.893837E-01 -3.903059E+01  1.727732E-04 -1.320482E+02  1.602551E-04 -1.324298E+02  9.862140E-01 -3.867634E+01 
2.668125E+02  9.894673E-01 -3.903900E+01  1.671391E-04 -1.354077E+02  1.665633E-04 -1.339944E+02  9.863689E-01 -3.868028E+01 
2.668750E+02  9.894232E-01 -3.904239E+01  1.597181E-04 -1.409558E+02  1.660203E-04 -1.430384E+02  9.864252E-01 -3.869130E+01 
2.669375E+02  9.898954E-01 -3.905610E+01  1.540182E-04 -1.471361E+02  1.542213E-04 -1.462091E+02  9.866414E-01 -3.870585E+01 
2.670000E+02  9.900983E-01 -3.907692E+01  1.388868E-04 -1.533452E+02  1.430397E-04 -1.495944E+02  9.866547E-01 -3.871862E+01 
2.670625E+02  9.899772E-01 -3.909377E+01  1.268469E-04 -1.505071E+02  1.220212E-04 -1.496695E+02  9.868432E-01 -3.873752E+01 
2.671250E+02  9.903161E-01 -3.912213E+01  1.113568E-04 -1.500658E+02  1.179686E-04 -1.490472E+02  9.869102E-01 -3.875452E+01 
2.671875E+02  9.902213E-01 -3.913856E+01  1.063706E-04 -1.480085E+02  1.076551E-04 -1.459334E+02  9.868469E-01 -3.877469E+01 
2.672500E+02  9.903621E-01 -3.915667E+01  9.969863E-05 -1.415735E+02  9.929769E-05 -1.376289E+02  9.869523E-01 -3.879225E+01 
2.673125E+02  9.907278E-01 -3.918442E+01  9.952878E-05 -1.286042E+02  9.642634E-05 -1.294654E+02  9.870558E-01 -3.881858E+01 
2.673750E+02  9.904752E-01 -3.920940E+01  1.099570E-04 -1.316476E+02  1.074089E-04 -1.268346E+02  9.870656E-01 -3.883261E+01 
2.674375E+02  9.903989E-01 -3.922958E+01  1.162132E-04 -1.304309E+02  1.134383E-04 -1.247121E+02  9.870560E-01 -3.885532E+01 
2.675000E+02  9.904477E-01 -3.925068E+01  1.276173E-04 -1.280437E+02  1.245360E-04 -1.247834E+02  9.870709E-01 -3.887390E+01 
2.675625E+02  9.903980E-01 -3.927755E+01  1.429914E-04 -1.282420E+02  1.447280E-04 -1.286135E+02  9.869340E-01 -3.889829E+01 
2.676250E+02  9.903978E-01 -3.929744E+01  1.649948E-04 -1.395402E+02  1.668251E-04 -1.315061E+02  9.869494E-01 -3.892376E+01 
2.676875E+02  9.903266E-01 -3.932506E+01  1.177489E-04 -1.573874E+02  1.118299E-04 -1.545954E+02  9.868868E-01 -3.894278E+01 
2.677500E+02  9.902322E-01 -3.933952E+01  1.245208E-04 -1.362724E+02  1.213057E-04 -1.338328E+02  9.868357E-01 -3.895788E+01 
2.678125E+02  9.899567E-01 -3.935953E+01  1.207918E-04 -1.397924E+02  1.258265E-04 -1.412266E+02  9.866919E-01 -3.898441E+01 
2.678750E+02  9.900945E-01 -3.937603E+01  1.132515E-04 -1.428439E+02  1.097474E-04 -1.409096E+02  9.867172E-01 -3.900007E+01 
2.679375E+02  9.899939E-01 -3.939919E+01  1.114818E-04 -1.356350E+02  1.135730E-04 -1.328959E+02  9.866235E-01 -3.901717E+01 
2.680000E+02  9.896565E-01 -3.941518E+01  1.176400E-04 -1.332014E+02  1.180727E-04 -1.292854E+02  9.863223E-01 -3.903770E+01 
2.680625E+02  9.897531E-01 -3.943663E+01  1.228066E-04 -1.338979E+02  1.225142E-04 -1.332221E+02  9.862249E-01 -3.904545E+01 
2.681250E+02  9.894587E-01 -3.944923E+01  1.170535E-04 -1.367552E+02  1.270675E-04 -1.356274E+02  9.862542E-01 -3.906553E+01 
2.681875E+02  9.893102E-01 -3.945838E+01  1.225257E-04 -1.369481E+02  1.231059E-04 -1.356734E+02  9.860896E-01 -3.909214E+01 
2.682500E+02  9.892242E-01 -3.948393E+01  1.196555E-04 -1.399356E+02  1.221848E-04 -1.378783E+02  9.859721E-01 -3.911039E+01 
2.683125E+02  9.892185E-01 -3.949334E+01  1.135870E-04 -1.425912E+02  1.035361E-04 -1.391725E+02  9.858562E-01 -3.911553E+01 
2.683750E+02  9.888818E-01 -3.951032E+01  9.905687E-05 -1.373836E+02  1.061275E-04 -1.362068E+02  9.856779E-01 -3.913300E+01 
2.684375E+02  9.888037E-01 -3.951974E+01  9.870930E-05 -1.303087E+02  9.950753E-05 -1.315471E+02  9.855894E-01 -3.914301E+01 
2.685000E+02  9.886542E-01 -3.952418E+01  1.054472E-04 -1.245992E+02  1.019755E-04 -1.234083E+02  9.854226E-01 -3.914753E+01 
2.685625E+02  9.884720E-01 -3.954382E+01  1.159059E-04 -1.258679E+02  1.130232E-04 -1.269956E+02  9.854678E-01 -3.916394E+01 
2.686250E+02  9.884653E-01 -3.954613E+01  1.170222E-04 -1.280296E+02  1.228212E-04 -1.316871E+02  9.851990E-01 -3.917016E+01 
2.686875E+02  9.884531E-01 -3.955425E+01  1.120814E-04 -1.294060E+02  1.176704E-04 -1.284809E+02  9.852710E-01 -3.918193E+01 
2.687500E+02  9.881975E-01 -3.956562E+01  1.016203E-04 -1.297720E+02  1.044786E-04 -1.314272E+02  9.850387E-01 -3.919181E+01 
2.688125E+02  9.882507E-01 -3.957137E+01  9.448055E-05 -1.144197E+02  9.157286E-05 -1.143020E+02  9.850872E-01 -3.919885E+01 
2.688750E+02  9.882489E-01 -3.957650E+01  1.074474E-04 -1.135012E+02  1.119336E-04 -1.156229E+02  9.850238E-01 -3.920405E+01 
2.689375E+02  9.883051E-01 -3.957598E+01  1.135725E-04 -1.165145E+02  1.188346E-04 -1.176475E+02  9.849978E-01 -3.920933E+01 
2.690000E+02  9.884908E-01 -3.958214E+01  1.225529E-04 -1.149360E+02  1.157808E-04 -1.194542E+02  9.850890E-01 -3.921067E+01 
2.690625E+02  9.883868E-01 -3.958567E+01  1.191294E-04 -1.134008E+02  1.171696E-04 -1.108274E+02  9.851892E-01 -3.920950E+01 
2.691250E+02  9.885197E-01 -3.959579E+01  1.248349E-04 -9.488548E+01  1.320956E-04 -9.477732E+01  9.852925E-01 -3.921417E+01 
2.691875E+02  9.886693E-01 -3.960405E+01  1.874913E-04 -1.144950E+02  1.782183E-04 -1.155646E+02  9.855031E-01 -3.922968E+01 
2.692500E+02  9.887723E-01 -3.961495E+01  1.519649E-04 -1.201463E+02  1.587258E-04 -1.190928E+02  9.856061E-01 -3.923726E+01 
2.693125E+02  9.892245E-01 -3.962840E+01  1.606070E-04 -1.241002E+02  1.634843E-04 -1.200894E+02  9.858716E-01 -3.924603E+01 
2.693750E+02  9.893768E-01 -3.964463E+01  1.663901E-04 -1.220000E+02  1.607136E-04 -1.246066E+02  9.860910E-01 -3.925853E+01 
2.694375E+02  9.894183E-01 -3.966765E+01  1.609206E-04 -1.285289E+02  1.678557E-04 -1.286950E+02  9.862170E-01 -3.927954E+01 
2.695000E+02  9.896188E-01 -3.967857E+01  1.557801E-04 -1.274374E+02  1.650091E-04 -1.299649E+02  9.863128E-01 -3.929622E+01 
2.695625E+02  9.896843E-01 -3.969686E+01  1.590814E-04 -1.329909E+02  1.496784E-04 -1.321043E+02  9.865649E-01 -3.931989E+01 
2.696250E+02  9.898015E-01 -3.971289E+01  1.471892E-04 -1.316769E+02  1.491712E-04 -1.344872E+02  9.866510E-01 -3.933749E+01 
2.696875E+02  9.899174E-01 -3.973470E+01  1.260535E-04 -1.314728E+02  1.394508E-04 -1.302800E+02  9.868646E-01 -3.936059E+01 
2.697500E+02  9.899361E-01 -3.975499E+01  1.416132E-04 -1.300371E+02  1.366572E-04 -1.299663E+02  9.869271E-01 -3.939232E+01 
2.698125E+02  9.902201E-01 -3.977964E+01  1.270498E-04 -1.270995E+02  1.344590E-04 -1.279653E+02  9.869603E-01 -3.940631E+01 
2.698750E+02  9.902778E-01 -3.979254E+01  1.386435E-04 -1.211947E+02  1.425712E-04 -1.236842E+02  9.870114E-01 -3.942881E+01 
2.699375E+02  9.903025E-01 -3.981628E+01  1.468354E-04 -1.222108E+02  1.415447E-04 -1.194147E+02  9.870147E-01 -3.944695E+01 
2.700000E+02  9.903058E-01 -3.983930E+01  1.586954E-04 -1.201704E+02  1.580038E-04 -1.211155E+02  9.870141E-01 -3.946441E+01 
2.700625E+02  9.904834E-01 -3.985270E+01  1.658954E-04 -1.208414E+02  1.544967E-04 -1.244624E+02  9.871502E-01 -3.948619E+01 
2.701250E+02  9.905763E-01 -3.987370E+01  1.713059E-04 -1.272448E+02  1.632123E-04 -1.241519E+02  9.871594E-01 -3.950733E+01 
2.701875E+02  9.906347E-01 -3.990420E+01  1.641542E-04 -1.302024E+02  1.549540E-04 -1.323519E+02  9.871602E-01 -3.953502E+01 
2.702500E+02  9.906056E-01 -3.992170E+01  1.522394E-04 -1.356151E+02  1.499745E-04 -1.377945E+02  9.873687E-01 -3.954968E+01 
2.703125E+02  9.905786E-01 -3.994038E+01  1.367932E-04 -1.368728E+02  1.494157E-04 -1.414600E+02  9.871806E-01 -3.956695E+01 
2.703750E+02  9.906111E-01 -3.995983E+01  1.194863E-04 -1.343886E+02  1.141153E-04 -1.372369E+02  9.872676E-01 -3.958358E+01 
2.704375E+02  9.907827E-01 -3.998610E+01  1.227465E-04 -1.218925E+02  1.285056E-04 -1.273570E+02  9.874307E-01 -3.961743E+01 
2.705000E+02  9.908730E-01 -4.001391E+01  1.176774E-04 -1.291312E+02  1.306933E-04 -1.226398E+02  9.872500E-01 -3.962565E+01 
2.705625E+02  9.908442E-01 -4.002914E+01  1.482058E-04 -1.179072E+02  1.309381E-04 -1.203255E+02  9.873338E-01 -3.965077E+01 
2.706250E+02  9.906717E-01 -4.005550E+01  1.310492E-04 -1.379850E+02  1.316305E-04 -1.294158E+02  9.873868E-01 -3.967186E+01 
2.706875E+02  9.905868E-01 -4.007488E+01  1.208760E-04 -1.110807E+02  1.165378E-04 -1.116653E+02  9.872449E-01 -3.968567E+01 
2.707500E+02  9.907637E-01 -4.009558E+01  1.331927E-04 -1.122941E+02  1.435227E-04 -1.105969E+02  9.873529E-01 -3.970843E+01 
2.708125E+02  9.907039E-01 -4.011181E+01  1.610818E-04 -1.157133E+02  1.768042E-04 -1.124134E+02  9.872491E-01 -3.971772E+01 
2.708750E+02  9.904839E-01 -4.014019E+01  1.796389E-04 -1.214841E+02  1.792110E-04 -1.182187E+02  9.871443E-01 -3.973019E+01 
2.709375E+02  9.904293E-01 -4.015871E+01  1.801078E-04 -1.253859E+02  1.928037E-04 -1.288530E+02  9.872985E-01 -3.975412E+01 
2.710000E+02  9.903770E-01 -4.016882E+01  1.477268E-04 -1.312445E+02  1.541601E-04 -1.346004E+02  9.873626E-01 -3.976873E+01 
2.710625E+02  9.903402E-01 -4.017939E+01  1.537249E-04 -1.355927E+02  1.560300E-04 -1.326390E+02  9.873074E-01 -3.978578E+01 
2.711250E+02  9.903737E-01 -4.019286E+01  1.366765E-04 -1.198617E+02  1.387162E-04 -1.283222E+02  9.872830E-01 -3.979977E+01 
2.711875E+02  9.902035E-01 -4.020492E+01  1.406169E-04 -1.215095E+02  1.385625E-04 -1.152244E+02  9.873880E-01 -3.981288E+01 
2.712500E+02  9.903977E-01 -4.021919E+01  1.674283E-04 -1.139865E+02  1.618716E-04 -1.136688E+02  9.875223E-01 -3.982581E+01 
2.713125E+02  9.905201E-01 -4.022994E+01  1.697432E-04 -1.166655E+02  1.610539E-04 -1.150846E+02  9.875118E-01 -3.984767E+01 
2.713750E+02  9.905667E-01 -4.023769E+01  1.764826E-04 -1.203970E+02  1.870379E-04 -1.190919E+02  9.875745E-01 -3.986102E+01 
2.714375E+02  9.907649E-01 -4.025386E+01  1.761434E-04 -1.209760E+02  1.746574E-04 -1.239325E+02  9.878042E-01 -3.988120E+01 
2.715000E+02  9.908397E-01 -4.026639E+01  1.933939E-04 -1.258978E+02  1.862478E-04 -1.267394E+02  9.878467E-01 -3.989791E+01 
2.715625E+02  9.911987E-01 -4.029141E+01  1.731853E-04 -1.261494E+02  1.793909E-04 -1.226065E+02  9.879852E-01 -3.992313E+01 
2.716250E+02  9.913846E-01 -4.031120E+01  1.976006E-04 -1.247671E+02  1.755820E-04 -1.217708E+02  9.880323E-01 -3.993478E+01 
2.716875E+02  9.915447E-01 -4.033195E+01  1.863207E-04 -1.217075E+02  1.862827E-04 -1.244333E+02  9.881222E-01 -3.995811E+01 
2.717500E+02  9.915730E-01 -4.035451E+01  1.871450E-04 -1.313846E+02  1.960819E-04 -1.258594E+02  9.883713E-01 -3.997932E+01 
2.718125E+02  9.917812E-01 -4.037495E+01  2.068348E-04 -1.293884E+02  1.814622E-04 -1.322484E+02  9.884663E-01 -4.001030E+01 
2.718750E+02  9.919867E-01 -4.040834E+01  1.991363E-04 -1.296652E+02  1.943337E-04 -1.345356E+02  9.884373E-01 -4.002256E+01 
2.719375E+02  9.917921E-01 -4.042619E+01  1.813601E-04 -1.323524E+02  1.828466E-04 -1.345661E+02  9.887571E-01 -4.005198E+01 
2.720000E+02  9.920638E-01 -4.045335E+01  1.682937E-04 -1.291502E+02  1.629632E-04 -1.333953E+02  9.887204E-01 -4.007558E+01 
2.720625E+02  9.921066E-01 -4.048066E+01  1.480881E-04 -1.266115E+02  1.474019E-04 -1.268947E+02  9.888165E-01 -4.009422E+01 
2.721250E+02  9.921033E-01 -4.050139E+01  1.876152E-04 -1.195677E+02  2.106609E-04 -1.209256E+02  9.888393E-01 -4.012087E+01 
2.721875E+02  9.921736E-01 -4.053265E+01  1.914652E-04 -1.303834E+02  1.865304E-04 -1.358104E+02  9.888913E-01 -4.015398E+01 
2.722500E+02  9.923408E-01 -4.055368E+01  1.822338E-04 -1.335497E+02  1.705701E-04 -1.324560E+02  9.890140E-01 -4.017656E+01 
2.723125E+02  9.923651E-01 -4.058046E+01  1.788507E-04 -1.287191E+02  1.860067E-04 -1.307357E+02  9.890887E-01 -4.019857E+01 
2.723750E+02  9.923949E-01 -4.061009E+01  1.851379E-04 -1.287487E+02  1.891656E-04 -1.266995E+02  9.891228E-01 -4.023247E+01 
2.724375E+02  9.922675E-01 -4.062936E+01  1.946063E-04 -1.251866E+02  2.020791E-04 -1.261378E+02  9.891513E-01 -4.024034E+01 
2.725000E+02  9.923145E-01 -4.064894E+01  1.947857E-04 -1.338903E+02  1.979119E-04 -1.289334E+02  9.890731E-01 -4.028019E+01 
2.725625E+02  9.924451E-01 -4.067331E+01  2.010900E-04 -1.323902E+02  1.947094E-04 -1.327537E+02  9.892296E-01 -4.029422E+01 
2.726250E+02  9.924448E-01 -4.070442E+01  2.078203E-04 -1.328725E+02  2.046114E-04 -1.306074E+02  9.891696E-01 -4.031621E+01 
2.726875E+02  9.924952E-01 -4.072639E+01  1.966978E-04 -1.352479E+02  1.929709E-04 -1.350929E+02  9.891844E-01 -4.034707E+01 
2.727500E+02  9.924767E-01 -4.075459E+01  1.912758E-04 -1.351333E+02  1.868744E-04 -1.310458E+02  9.893550E-01 -4.036981E+01 
2.728125E+02  9.925966E-01 -4.077497E+01  1.786913E-04 -1.382878E+02  1.849647E-04 -1.347151E+02  9.893277E-01 -4.040051E+01 
2.728750E+02  9.927033E-01 -4.079643E+01  2.184409E-04 -1.328921E+02  1.974374E-04 -1.320347E+02  9.893909E-01 -4.042125E+01 
2.729375E+02  9.926445E-01 -4.083094E+01  1.956264E-04 -1.392860E+02  1.946243E-04 -1.389574E+02  9.893690E-01 -4.043622E+01 
2.730000E+02  9.926900E-01 -4.084912E+01  1.938931E-04 -1.418145E+02  1.874004E-04 -1.355232E+02  9.893676E-01 -4.046192E+01 
2.730625E+02  9.926231E-01 -4.087260E+01  1.833167E-04 -1.323115E+02  1.936441E-04 -1.358787E+02  9.894364E-01 -4.049319E+01 
2.731250E+02  9.926364E-01 -4.089993E+01  1.857092E-04 -1.320276E+02  1.844285E-04 -1.382072E+02  9.894086E-01 -4.051610E+01 
2.731875E+02  9.925513E-01 -4.092313E+01  1.813439E-04 -1.353844E+02  1.804575E-04 -1.303398E+02  9.894752E-01 -4.054183E+01 
2.732500E+02  9.925368E-01 -4.095170E+01  1.814113E-04 -1.301915E+02  1.961906E-04 -1.286150E+02  9.894559E-01 -4.056487E+01 
2.733125E+02  9.926856E-01 -4.097755E+01  1.945204E-04 -1.296001E+02  2.133394E-04 -1.284603E+02  9.895421E-01 -4.059294E+01 
2.733750E+02  9.925464E-01 -4.099875E+01  1.902320E-04 -1.355010E+02  1.992969E-04 -1.298670E+02  9.895055E-01 -4.061864E+01 
2.734375E+02  9.925337E-01 -4.101941E+01  2.015188E-04 -1.356871E+02  2.041009E-04 -1.315945E+02  9.895160E-01 -4.064642E+01 
2.735000E+02  9.927443E-01 -4.105082E+01  2.290272E-04 -1.377972E+02  2.206965E-04 -1.352212E+02  9.895475E-01 -4.066695E+01 
2.735625E+02  9.926987E-01 -4.106914E+01  2.442669E-04 -1.457071E+02  2.363004E-04 -1.494480E+02  9.894801E-01 -4.068529E+01 
2.736250E+02  9.926129E-01 -4.110024E+01  1.906431E-04 -1.406630E+02  1.732788E-04 -1.437396E+02  9.895047E-01 -4.071514E+01 
2.736875E+02  9.926711E-01 -4.112273E+01  1.926830E-04 -1.405179E+02  2.179249E-04 -1.386060E+02  9.894629E-01 -4.073469E+01 
2.737500E+02  9.925267E-01 -4.115069E+01  1.978145E-04 -1.437534E+02  1.994092E-04 -1.416625E+02  9.895253E-01 -4.075973E+01 
2.738125E+02  9.926882E-01 -4.117543E+01  2.068492E-04 -1.440899E+02  1.953977E-04 -1.468232E+02  9.895718E-01 -4.079487E+01 
2.738750E+02  9.928070E-01 -4.119829E+01  1.861694E-04 -1.468375E+02  1.903085E-04 -1.425775E+02  9.896611E-01 -4.082442E+01 
2.739375E+02  9.925204E-01 -4.122569E+01  1.754085E-04 -1.440435E+02  1.969675E-04 -1.467308E+02  9.895219E-01 -4.084771E+01 
2.740000E+02  9.927375E-01 -4.125815E+01  1.743487E-04 -1.480147E+02  1.884683E-04 -1.454460E+02  9.894611E-01 -4.087532E+01 
2.740625E+02  9.928290E-01 -4.128081E+01  1.852812E-04 -1.449150E+02  1.770878E-04 -1.445414E+02  9.896398E-01 -4.090271E+01 
2.741250E+02  9.924850E-01 -4.130574E+01  1.705728E-04 -1.385383E+02  1.677613E-04 -1.411706E+02  9.895506E-01 -4.092408E+01 
2.741875E+02  9.925411E-01 -4.133569E+01  1.787047E-04 -1.392722E+02  1.720126E-04 -1.394440E+02  9.895103E-01 -4.095821E+01 
2.742500E+02  9.926685E-01 -4.136348E+01  1.748673E-04 -1.379031E+02  1.662416E-04 -1.373354E+02  9.894789E-01 -4.098506E+01 
2.743125E+02  9.927262E-01 -4.138315E+01  1.698433E-04 -1.394150E+02  1.644177E-04 -1.402157E+02  9.893614E-01 -4.100610E+01 
2.743750E+02  9.924673E-01 -4.141658E+01  1.747146E-04 -1.401363E+02  1.750731E-04 -1.364779E+02  9.894570E-01 -4.103536E+01 
2.744375E+02  9.925843E-01 -4.143994E+01  1.850052E-04 -1.362352E+02  1.732148E-04 -1.351756E+02  9.894318E-01 -4.105607E+01 
2.745000E+02  9.925212E-01 -4.146688E+01  1.997518E-04 -1.361369E+02  1.813013E-04 -1.371881E+02  9.892176E-01 -4.108697E+01 
2.745625E+02  9.924236E-01 -4.148916E+01  1.903353E-04 -1.379822E+02  1.874511E-04 -1.421347E+02  9.892608E-01 -4.111303E+01 
