! Matrix data file written by TouchstoneData, EPCOS AG
! FILENAME: "B3727_WB.s2p"
! COMMENT: "PCB:2023 PIN:1/4 PEXT1:93.0ps PEXT2:179.5ps"
! INFO: nport=2, nfreq=1601
! DATE: "Thu Apr 16 15:55:38 2009"
! USER: "Sergey Rostovtsev"
!
! port | pin | signal
! -----|-----|--------
!   1  |  1  |  in
!   2  |  4  |  out
! --------------------
! 
# MHZ S MA R 50
! freq  magS11 angS11  magS21 angS21  magS12 angS12  magS22 angS22
1.000000E+00  9.998917E-01 -1.975123E-01  2.489857E-02 7.130621E+00  2.507215E-02 7.365103E+00  9.995555E-01 -1.209867E-01 
2.874375E+00  9.999219E-01 -5.150964E-01  3.486863E-04 1.547496E+01  3.638222E-04 1.217837E+01  1.000187E+00 -6.424792E-01 
4.748750E+00  9.998727E-01 -9.214648E-01  4.572065E-05 6.092443E+00  4.287484E-05 1.921186E+01  1.000080E+00 -8.889345E-01 
6.623125E+00  9.997817E-01 -1.296156E+00  5.376446E-05 1.180831E+02  4.090974E-05 1.108022E+02  9.997021E-01 -9.822638E-01 
8.497500E+00  9.997136E-01 -1.614230E+00  6.569174E-06 1.304541E+02  5.581250E-06 -1.764850E+02  9.988551E-01 -1.430090E+00 
1.037187E+01  9.997262E-01 -1.929068E+00  1.009450E-04 6.256329E+01  1.189449E-04 6.035751E+01  9.988769E-01 -1.803247E+00 
1.224625E+01  9.992264E-01 -2.288326E+00  5.146430E-05 -1.445622E+02  4.699441E-05 -1.418721E+02  9.992486E-01 -2.320970E+00 
1.412063E+01  9.994264E-01 -2.627597E+00  5.230720E-05 4.653670E+01  6.030474E-05 4.751402E+01  9.991929E-01 -2.789121E+00 
1.599500E+01  9.994470E-01 -2.966973E+00  2.465093E-05 -8.402524E+00  3.652559E-05 -3.513724E+01  9.992860E-01 -3.039968E+00 
1.786938E+01  9.996407E-01 -3.339998E+00  4.493887E-05 1.733824E+01  4.311266E-05 1.242756E+01  9.994010E-01 -3.289112E+00 
1.974375E+01  9.990304E-01 -3.673711E+00  3.903353E-05 -1.386373E+02  2.716067E-05 -1.133528E+02  9.985534E-01 -3.628224E+00 
2.161812E+01  9.991640E-01 -3.996789E+00  6.681928E-05 7.884897E+01  5.934755E-05 6.957138E+01  9.988262E-01 -4.064233E+00 
2.349250E+01  9.990913E-01 -4.349244E+00  6.008329E-05 1.388651E+01  6.666384E-05 6.666142E+00  9.988788E-01 -4.412091E+00 
2.536688E+01  9.988243E-01 -4.745469E+00  1.034177E-04 8.480521E+01  9.539804E-05 8.385008E+01  9.985769E-01 -4.768376E+00 
2.724125E+01  9.990405E-01 -5.077502E+00  1.305622E-04 5.561297E+01  1.323477E-04 5.376826E+01  9.982651E-01 -5.177066E+00 
2.911563E+01  9.992614E-01 -5.413276E+00  8.780310E-05 1.170693E+02  7.450814E-05 1.206468E+02  9.981754E-01 -5.411957E+00 
3.099000E+01  9.987897E-01 -5.745072E+00  1.979597E-04 8.788772E+01  1.993805E-04 8.803014E+01  9.981404E-01 -5.824414E+00 
3.286438E+01  9.989875E-01 -6.092632E+00  7.343318E-05 4.493425E+01  8.466873E-05 4.103451E+01  9.984005E-01 -6.154151E+00 
3.473875E+01  9.988288E-01 -6.422549E+00  1.892083E-04 6.448743E+01  1.969835E-04 6.127726E+01  9.982717E-01 -6.536377E+00 
3.661312E+01  9.984835E-01 -6.828298E+00  1.859728E-04 2.936656E+01  1.829044E-04 2.681698E+01  9.975815E-01 -6.969616E+00 
3.848750E+01  9.980626E-01 -7.111933E+00  1.402191E-04 5.409869E+01  1.406072E-04 5.952383E+01  9.980008E-01 -7.241337E+00 
4.036187E+01  9.984664E-01 -7.462317E+00  6.090743E-05 1.120273E+02  5.173803E-05 1.085328E+02  9.984721E-01 -7.573311E+00 
4.223625E+01  9.984994E-01 -7.804845E+00  1.171771E-04 1.052583E+02  1.205838E-04 1.025345E+02  9.980420E-01 -7.977442E+00 
4.411062E+01  9.983075E-01 -8.164307E+00  1.439285E-05 6.274727E+01  5.454720E-06 6.274216E+01  9.977889E-01 -8.292383E+00 
4.598500E+01  9.977010E-01 -8.491246E+00  3.523201E-04 1.355438E+02  3.577458E-04 1.335136E+02  9.975361E-01 -8.519992E+00 
4.785938E+01  9.981457E-01 -8.864906E+00  5.521944E-05 8.259908E+01  4.709316E-05 9.193010E+01  9.985049E-01 -8.892822E+00 
4.973375E+01  9.984372E-01 -9.210009E+00  1.184569E-04 6.683490E+01  1.149934E-04 6.610234E+01  9.979929E-01 -9.268868E+00 
5.160813E+01  9.978786E-01 -9.563658E+00  6.358419E-05 5.759021E+01  6.297069E-05 6.742277E+01  9.977726E-01 -9.665487E+00 
5.348250E+01  9.981850E-01 -9.893671E+00  5.981564E-05 7.648704E+01  5.363147E-05 8.016219E+01  9.980907E-01 -9.992251E+00 
5.535688E+01  9.982148E-01 -1.025400E+01  2.064264E-04 9.127046E+01  2.124439E-04 9.622112E+01  9.978809E-01 -1.030644E+01 
5.723125E+01  9.981708E-01 -1.059795E+01  9.951638E-05 5.141436E+01  9.658736E-05 4.206279E+01  9.978884E-01 -1.061633E+01 
5.910563E+01  9.978715E-01 -1.096084E+01  2.839862E-05 5.483667E+01  2.824551E-05 4.001918E+01  9.977415E-01 -1.098291E+01 
6.098000E+01  9.978346E-01 -1.130944E+01  1.206068E-04 8.182382E+01  1.293316E-04 7.852456E+01  9.975816E-01 -1.135654E+01 
6.285437E+01  9.978931E-01 -1.164919E+01  1.186424E-04 7.715792E+01  1.162363E-04 7.950656E+01  9.974844E-01 -1.173357E+01 
6.472875E+01  9.972126E-01 -1.195648E+01  1.197698E-04 4.688073E+01  1.274520E-04 4.443469E+01  9.972137E-01 -1.205761E+01 
6.660313E+01  9.974218E-01 -1.230813E+01  1.319139E-04 1.129021E+02  1.386919E-04 1.127237E+02  9.972071E-01 -1.244896E+01 
6.847750E+01  9.969132E-01 -1.264867E+01  1.137772E-04 1.007163E+02  1.287753E-04 9.125459E+01  9.970750E-01 -1.279533E+01 
7.035188E+01  9.969217E-01 -1.301015E+01  1.661587E-04 5.734882E+01  1.739826E-04 6.082163E+01  9.965699E-01 -1.315491E+01 
7.222625E+01  9.974805E-01 -1.335111E+01  6.505685E-05 7.138139E+01  4.410477E-05 7.533417E+01  9.970183E-01 -1.352299E+01 
7.410062E+01  9.972117E-01 -1.370205E+01  7.682097E-05 5.915802E+01  8.190646E-05 5.319735E+01  9.969782E-01 -1.386559E+01 
7.597500E+01  9.972066E-01 -1.405766E+01  8.336866E-05 5.676013E+01  8.415122E-05 6.137035E+01  9.967121E-01 -1.422301E+01 
7.784937E+01  9.965006E-01 -1.441189E+01  1.330373E-04 1.090562E+02  1.296064E-04 1.116035E+02  9.966365E-01 -1.456168E+01 
7.972375E+01  9.969683E-01 -1.474102E+01  1.770675E-04 5.369717E+01  1.756136E-04 5.003317E+01  9.965762E-01 -1.490884E+01 
8.159812E+01  9.965750E-01 -1.510463E+01  1.770422E-04 8.877497E+01  1.834441E-04 8.806672E+01  9.964067E-01 -1.526623E+01 
8.347250E+01  9.965235E-01 -1.541703E+01  1.234735E-04 8.180820E+01  1.234484E-04 8.117990E+01  9.963849E-01 -1.560404E+01 
8.534687E+01  9.963411E-01 -1.579232E+01  1.952346E-04 5.056370E+01  1.903843E-04 5.241487E+01  9.962009E-01 -1.596628E+01 
8.722125E+01  9.959303E-01 -1.611362E+01  1.231405E-04 5.339319E+01  1.354445E-04 4.783096E+01  9.966601E-01 -1.630347E+01 
8.909562E+01  9.963025E-01 -1.646698E+01  1.352762E-04 7.939544E+01  1.396313E-04 8.040820E+01  9.965783E-01 -1.665327E+01 
9.097000E+01  9.960243E-01 -1.681314E+01  1.477807E-04 7.231847E+01  1.679260E-04 6.538388E+01  9.963134E-01 -1.699661E+01 
9.284437E+01  9.959841E-01 -1.713445E+01  1.317456E-04 6.825407E+01  1.392353E-04 6.989346E+01  9.961717E-01 -1.732260E+01 
9.471875E+01  9.960816E-01 -1.750466E+01  1.517696E-04 7.999721E+01  1.501470E-04 8.145466E+01  9.961689E-01 -1.767385E+01 
9.659313E+01  9.957721E-01 -1.782965E+01  1.680119E-04 6.203709E+01  1.764382E-04 5.845208E+01  9.965917E-01 -1.802779E+01 
9.846750E+01  9.960081E-01 -1.816700E+01  1.312758E-04 6.903232E+01  1.312252E-04 6.947968E+01  9.963681E-01 -1.839567E+01 
1.003419E+02  9.954328E-01 -1.853744E+01  1.727260E-04 8.414774E+01  1.730783E-04 8.274004E+01  9.961318E-01 -1.874447E+01 
1.022163E+02  9.958153E-01 -1.885772E+01  2.245721E-04 7.192892E+01  2.239430E-04 7.170108E+01  9.963224E-01 -1.908023E+01 
1.040906E+02  9.956186E-01 -1.920446E+01  1.736121E-04 8.850408E+01  1.753379E-04 8.461849E+01  9.966469E-01 -1.943180E+01 
1.059650E+02  9.956425E-01 -1.956145E+01  2.091747E-04 6.809673E+01  2.023388E-04 6.471239E+01  9.966829E-01 -1.978033E+01 
1.078394E+02  9.951626E-01 -1.990281E+01  1.889214E-04 6.457856E+01  1.908744E-04 6.384453E+01  9.960200E-01 -2.012441E+01 
1.097138E+02  9.951721E-01 -2.023539E+01  1.157842E-04 4.463584E+01  1.235458E-04 4.634034E+01  9.959799E-01 -2.047760E+01 
1.115881E+02  9.952293E-01 -2.057913E+01  1.222480E-04 8.369945E+01  1.229041E-04 8.388822E+01  9.965908E-01 -2.081040E+01 
1.134625E+02  9.953865E-01 -2.090179E+01  1.965791E-04 6.031577E+01  2.066617E-04 6.025442E+01  9.963305E-01 -2.116643E+01 
1.153369E+02  9.952505E-01 -2.126839E+01  2.002316E-04 6.581989E+01  1.947056E-04 6.827676E+01  9.965415E-01 -2.149365E+01 
1.172113E+02  9.953225E-01 -2.159983E+01  2.795220E-04 6.720644E+01  2.762658E-04 6.525761E+01  9.967160E-01 -2.182963E+01 
1.190856E+02  9.953205E-01 -2.194030E+01  1.755574E-04 5.401262E+01  1.900969E-04 5.284392E+01  9.963900E-01 -2.215015E+01 
1.209600E+02  9.951991E-01 -2.228528E+01  1.690211E-04 6.918494E+01  1.812949E-04 6.935311E+01  9.966670E-01 -2.251762E+01 
1.228344E+02  9.951975E-01 -2.260296E+01  2.017737E-04 6.257567E+01  2.108076E-04 6.284751E+01  9.964153E-01 -2.286909E+01 
1.247087E+02  9.950945E-01 -2.297326E+01  1.696500E-04 7.876441E+01  1.745192E-04 7.262617E+01  9.966456E-01 -2.321273E+01 
1.265831E+02  9.953897E-01 -2.329754E+01  1.870392E-04 6.244220E+01  1.993553E-04 5.755539E+01  9.967073E-01 -2.354882E+01 
1.284575E+02  9.953480E-01 -2.360944E+01  1.630226E-04 7.349663E+01  1.681287E-04 7.010679E+01  9.966323E-01 -2.388193E+01 
1.303319E+02  9.948950E-01 -2.399397E+01  1.797456E-04 6.953581E+01  1.769472E-04 6.853828E+01  9.967037E-01 -2.422254E+01 
1.322063E+02  9.949634E-01 -2.432331E+01  2.080545E-04 7.665423E+01  2.215130E-04 7.721607E+01  9.960346E-01 -2.456143E+01 
1.340806E+02  9.946038E-01 -2.466577E+01  1.971671E-04 6.121394E+01  1.884661E-04 5.859212E+01  9.959632E-01 -2.492359E+01 
1.359550E+02  9.946363E-01 -2.500032E+01  1.961637E-04 6.248332E+01  1.924014E-04 6.321653E+01  9.961996E-01 -2.525044E+01 
1.378294E+02  9.945492E-01 -2.532499E+01  1.996519E-04 6.986551E+01  1.993717E-04 6.661558E+01  9.961169E-01 -2.559107E+01 
1.397038E+02  9.947594E-01 -2.567319E+01  1.990000E-04 7.022103E+01  2.004050E-04 6.894797E+01  9.962030E-01 -2.593420E+01 
1.415781E+02  9.945668E-01 -2.600758E+01  2.360187E-04 6.751628E+01  2.337251E-04 6.604097E+01  9.958445E-01 -2.626026E+01 
1.434525E+02  9.944410E-01 -2.631960E+01  1.844428E-04 7.526664E+01  1.833575E-04 7.332466E+01  9.955185E-01 -2.658431E+01 
1.453269E+02  9.942466E-01 -2.668792E+01  1.557662E-04 5.699949E+01  1.471378E-04 5.534124E+01  9.959240E-01 -2.694413E+01 
1.472012E+02  9.937606E-01 -2.699028E+01  1.671247E-04 6.385626E+01  1.599396E-04 6.256815E+01  9.956748E-01 -2.730010E+01 
1.490756E+02  9.938125E-01 -2.733594E+01  1.222369E-04 6.402563E+01  1.235756E-04 6.619402E+01  9.953578E-01 -2.764389E+01 
1.509500E+02  9.939627E-01 -2.767028E+01  2.005735E-04 7.289675E+01  1.957982E-04 7.169097E+01  9.955262E-01 -2.795969E+01 
1.528244E+02  9.945960E-01 -2.800584E+01  2.473948E-04 6.658248E+01  2.606597E-04 6.749317E+01  9.952395E-01 -2.830461E+01 
1.546987E+02  9.935551E-01 -2.835541E+01  2.215829E-04 6.865975E+01  2.065972E-04 6.731324E+01  9.951190E-01 -2.866977E+01 
1.565731E+02  9.935721E-01 -2.868534E+01  2.451181E-04 4.990675E+01  2.356039E-04 5.329903E+01  9.945734E-01 -2.899929E+01 
1.584475E+02  9.932968E-01 -2.901708E+01  1.999268E-04 5.713654E+01  2.164478E-04 6.084973E+01  9.941811E-01 -2.933646E+01 
1.603219E+02  9.940977E-01 -2.935289E+01  1.776645E-04 5.912161E+01  1.706832E-04 6.160975E+01  9.948065E-01 -2.968326E+01 
1.621962E+02  9.935470E-01 -2.971826E+01  2.057918E-04 5.796185E+01  2.027027E-04 6.196969E+01  9.948280E-01 -3.004076E+01 
1.640706E+02  9.934847E-01 -3.007238E+01  1.633865E-04 7.579765E+01  1.584130E-04 7.431644E+01  9.944396E-01 -3.041062E+01 
1.659450E+02  9.933389E-01 -3.041125E+01  1.951219E-04 6.024393E+01  2.037182E-04 5.939152E+01  9.943093E-01 -3.074466E+01 
1.678194E+02  9.931233E-01 -3.069635E+01  1.997276E-04 6.575544E+01  2.068007E-04 6.620840E+01  9.944328E-01 -3.107154E+01 
1.696937E+02  9.935673E-01 -3.106181E+01  1.849215E-04 6.386686E+01  1.820653E-04 6.466915E+01  9.945148E-01 -3.143081E+01 
1.715681E+02  9.930478E-01 -3.142377E+01  1.374675E-04 5.228045E+01  1.439527E-04 5.031932E+01  9.942027E-01 -3.180676E+01 
1.734425E+02  9.927449E-01 -3.179321E+01  1.979804E-04 6.771642E+01  2.174025E-04 6.543846E+01  9.939886E-01 -3.215861E+01 
1.753169E+02  9.927234E-01 -3.209742E+01  2.192021E-04 5.539150E+01  2.217773E-04 5.481679E+01  9.938331E-01 -3.247871E+01 
1.771912E+02  9.927961E-01 -3.240929E+01  2.329392E-04 5.625839E+01  2.293225E-04 5.559734E+01  9.942425E-01 -3.281441E+01 
1.790656E+02  9.931504E-01 -3.278057E+01  2.254368E-04 6.169452E+01  2.372355E-04 6.277047E+01  9.941618E-01 -3.317468E+01 
1.809400E+02  9.930155E-01 -3.311526E+01  2.018629E-04 4.871601E+01  2.002560E-04 5.072756E+01  9.939745E-01 -3.351508E+01 
1.828144E+02  9.916388E-01 -3.343504E+01  1.756724E-04 5.514435E+01  1.788433E-04 5.486656E+01  9.933832E-01 -3.384585E+01 
1.846887E+02  9.922385E-01 -3.378019E+01  1.206220E-04 5.866711E+01  1.153419E-04 6.231572E+01  9.936213E-01 -3.419922E+01 
1.865631E+02  9.928585E-01 -3.413034E+01  1.966087E-04 5.761795E+01  1.943966E-04 5.569911E+01  9.938574E-01 -3.454513E+01 
1.884375E+02  9.926332E-01 -3.447730E+01  2.226742E-04 6.928361E+01  2.292736E-04 6.912516E+01  9.939143E-01 -3.489299E+01 
1.903119E+02  9.920894E-01 -3.481524E+01  2.454118E-04 5.271640E+01  2.503926E-04 5.158071E+01  9.935203E-01 -3.522115E+01 
1.921863E+02  9.917537E-01 -3.512181E+01  2.564885E-04 3.440162E+01  2.654339E-04 3.842074E+01  9.935593E-01 -3.554439E+01 
1.940606E+02  9.924639E-01 -3.547578E+01  1.804863E-04 5.682699E+01  1.801182E-04 5.312455E+01  9.938320E-01 -3.589304E+01 
1.959350E+02  9.918196E-01 -3.579963E+01  1.808617E-04 4.719404E+01  1.829000E-04 4.665218E+01  9.935275E-01 -3.623502E+01 
1.978094E+02  9.917865E-01 -3.616383E+01  1.490337E-04 5.657801E+01  1.467190E-04 5.872108E+01  9.932338E-01 -3.658296E+01 
1.996838E+02  9.918446E-01 -3.646953E+01  2.098264E-04 6.431870E+01  2.107985E-04 6.051435E+01  9.932850E-01 -3.690607E+01 
2.015581E+02  9.913442E-01 -3.678109E+01  1.688662E-04 5.621047E+01  1.700994E-04 6.263424E+01  9.935063E-01 -3.724105E+01 
2.034325E+02  9.919062E-01 -3.714416E+01  2.096371E-04 5.604694E+01  2.121160E-04 5.593075E+01  9.934532E-01 -3.758855E+01 
2.053069E+02  9.918301E-01 -3.748238E+01  1.755231E-04 4.936037E+01  1.681800E-04 5.337212E+01  9.933019E-01 -3.791780E+01 
2.071813E+02  9.906866E-01 -3.781039E+01  1.868751E-04 5.254519E+01  1.804794E-04 5.517440E+01  9.928658E-01 -3.823739E+01 
2.090556E+02  9.907895E-01 -3.812361E+01  1.855369E-04 5.579817E+01  1.855072E-04 5.531433E+01  9.927807E-01 -3.857503E+01 
2.109300E+02  9.912601E-01 -3.847423E+01  1.808692E-04 5.657067E+01  1.841924E-04 5.636139E+01  9.930181E-01 -3.894278E+01 
2.128044E+02  9.907935E-01 -3.882549E+01  1.964483E-04 4.980416E+01  2.113903E-04 4.902919E+01  9.929775E-01 -3.928293E+01 
2.146788E+02  9.907137E-01 -3.915359E+01  2.097003E-04 5.583017E+01  1.992338E-04 5.479191E+01  9.927138E-01 -3.962543E+01 
2.165531E+02  9.907005E-01 -3.949421E+01  1.648026E-04 4.180394E+01  1.584110E-04 4.361821E+01  9.923991E-01 -3.995960E+01 
2.184275E+02  9.906368E-01 -3.987444E+01  1.641854E-04 4.526677E+01  1.746333E-04 4.757563E+01  9.928368E-01 -4.033119E+01 
2.203019E+02  9.897413E-01 -4.024947E+01  1.825307E-04 6.647546E+01  2.025690E-04 6.599046E+01  9.913138E-01 -4.070748E+01 
2.221763E+02  9.887786E-01 -4.056800E+01  1.469640E-04 6.717466E+01  1.452780E-04 7.369082E+01  9.902525E-01 -4.104747E+01 
2.240506E+02  9.892717E-01 -4.090940E+01  2.014024E-04 6.048849E+01  2.045068E-04 5.682730E+01  9.903098E-01 -4.137853E+01 
2.259250E+02  9.893830E-01 -4.121643E+01  1.745440E-04 5.971795E+01  1.811240E-04 5.424452E+01  9.906114E-01 -4.170862E+01 
2.277994E+02  9.889588E-01 -4.161226E+01  2.114274E-04 4.035975E+01  2.074000E-04 3.612490E+01  9.902814E-01 -4.209118E+01 
2.296738E+02  9.880926E-01 -4.194310E+01  1.627652E-04 3.865702E+01  1.698723E-04 3.901981E+01  9.896693E-01 -4.243119E+01 
2.315481E+02  9.880591E-01 -4.224460E+01  1.282422E-04 4.295742E+01  1.310323E-04 4.653980E+01  9.894513E-01 -4.273503E+01 
2.334225E+02  9.879923E-01 -4.259545E+01  1.706954E-04 4.707119E+01  1.537512E-04 5.029081E+01  9.892816E-01 -4.310227E+01 
2.352969E+02  9.881963E-01 -4.296594E+01  1.472898E-04 5.190510E+01  1.523706E-04 4.900297E+01  9.894380E-01 -4.350522E+01 
2.371712E+02  9.874361E-01 -4.335104E+01  1.405403E-04 4.874847E+01  1.480000E-04 5.016874E+01  9.887821E-01 -4.386586E+01 
2.390456E+02  9.874602E-01 -4.368970E+01  1.702686E-04 4.197524E+01  1.680498E-04 4.549300E+01  9.883198E-01 -4.420970E+01 
2.409200E+02  9.868640E-01 -4.400773E+01  9.975096E-05 5.677893E+01  1.122433E-04 5.389518E+01  9.882673E-01 -4.453670E+01 
2.427944E+02  9.871273E-01 -4.438888E+01  1.428006E-04 4.390775E+01  1.567034E-04 4.028548E+01  9.885261E-01 -4.491104E+01 
2.446687E+02  9.867765E-01 -4.476950E+01  1.570570E-04 4.359998E+01  1.659103E-04 4.657997E+01  9.881233E-01 -4.530167E+01 
2.465431E+02  9.857437E-01 -4.513964E+01  1.344973E-04 3.826776E+01  1.360438E-04 4.423832E+01  9.869828E-01 -4.567579E+01 
2.484175E+02  9.861441E-01 -4.546537E+01  1.063628E-04 4.854284E+01  1.049002E-04 4.735355E+01  9.873924E-01 -4.600840E+01 
2.502919E+02  9.864415E-01 -4.582852E+01  1.427134E-04 4.530873E+01  1.599742E-04 4.946010E+01  9.879314E-01 -4.637322E+01 
2.521662E+02  9.865312E-01 -4.621378E+01  1.406085E-04 3.382919E+01  1.429405E-04 3.780202E+01  9.880918E-01 -4.674973E+01 
2.540406E+02  9.859329E-01 -4.657489E+01  1.338479E-04 2.208798E+01  1.440702E-04 2.571954E+01  9.875952E-01 -4.713323E+01 
2.559150E+02  9.856963E-01 -4.690070E+01  9.298727E-05 5.840038E+01  9.595013E-05 5.834836E+01  9.875760E-01 -4.745365E+01 
2.577894E+02  9.862929E-01 -4.722641E+01  9.763853E-05 4.895471E+01  9.916841E-05 5.192804E+01  9.877001E-01 -4.780487E+01 
2.596637E+02  9.862758E-01 -4.764180E+01  1.073098E-04 4.898739E+01  1.134137E-04 4.644670E+01  9.883181E-01 -4.819923E+01 
2.615381E+02  9.858373E-01 -4.802992E+01  1.250411E-04 5.517721E+01  1.264589E-04 5.837487E+01  9.879701E-01 -4.858857E+01 
2.634125E+02  9.856801E-01 -4.835531E+01  1.113119E-04 2.947050E+01  1.143463E-04 2.320209E+01  9.878084E-01 -4.895239E+01 
2.652869E+02  9.857544E-01 -4.869144E+01  1.236342E-04 2.881015E+01  1.210388E-04 3.040848E+01  9.881079E-01 -4.926959E+01 
2.671612E+02  9.864932E-01 -4.904682E+01  7.000832E-05 8.600675E+00  7.145153E-05 9.078805E+00  9.884817E-01 -4.964214E+01 
2.690356E+02  9.860993E-01 -4.945233E+01  7.545120E-05 -4.263201E-01  8.923872E-05 -6.369339E+00  9.883400E-01 -5.002291E+01 
2.709100E+02  9.854871E-01 -4.979148E+01  9.966637E-05 7.050257E+01  9.544591E-05 6.726135E+01  9.875388E-01 -5.036989E+01 
2.727844E+02  9.855554E-01 -5.015265E+01  7.540463E-05 4.496904E+01  7.063603E-05 4.260339E+01  9.878307E-01 -5.075024E+01 
2.746587E+02  9.863639E-01 -5.049442E+01  7.775126E-05 4.215003E+01  6.862666E-05 4.641641E+01  9.883469E-01 -5.108531E+01 
2.765331E+02  9.863379E-01 -5.087454E+01  9.586591E-05 5.050514E+01  1.023293E-04 5.011698E+01  9.888489E-01 -5.147194E+01 
2.784075E+02  9.856248E-01 -5.124254E+01  6.270166E-05 3.271385E+01  6.834845E-05 3.122591E+01  9.883407E-01 -5.184936E+01 
2.802819E+02  9.856427E-01 -5.159940E+01  5.474192E-05 3.059504E+01  5.561794E-05 3.651240E+01  9.882500E-01 -5.216758E+01 
2.821562E+02  9.859634E-01 -5.192722E+01  6.016943E-05 4.844715E+01  5.915984E-05 4.929997E+01  9.884858E-01 -5.252107E+01 
2.840306E+02  9.861551E-01 -5.231529E+01  2.936985E-05 4.365055E+01  3.546304E-05 2.674513E+01  9.885991E-01 -5.291417E+01 
2.859050E+02  9.859069E-01 -5.271053E+01  4.939714E-05 3.261478E+01  5.057681E-05 4.252622E+01  9.882152E-01 -5.330639E+01 
2.877794E+02  9.852762E-01 -5.305007E+01  4.040034E-05 1.955273E+01  4.013357E-05 2.333144E+01  9.877147E-01 -5.365811E+01 
2.896538E+02  9.852521E-01 -5.338488E+01  3.428882E-05 2.692949E+01  3.814377E-05 1.530130E+01  9.876444E-01 -5.399895E+01 
2.915281E+02  9.855578E-01 -5.380012E+01  2.740465E-05 2.534156E+01  2.428426E-05 4.186413E+01  9.881450E-01 -5.436734E+01 
2.934025E+02  9.853944E-01 -5.420120E+01  2.292864E-05 -1.514909E+02  1.360971E-05 -1.766066E+02  9.878975E-01 -5.477515E+01 
