! Matrix data file written by TouchstoneData, EPCOS AG
! FILENAME: "B3728_NB.s2p"
! COMMENT: "PINNING 2/5; PCB NEW DCC6C ML; PORTEX 1=85PS"
! INFO: nport=2, nfreq=1601
! DATE: "Thu Sep  3 09:30:56 2009"
! USER: "Sergey Rostovtsev"
!
! port | pin | signal
! -----|-----|--------
!   1  |  2  |  in
!   2  |  5  |  out
! --------------------
! 
# MHZ S MA R 50
! freq  magS11 angS11  magS21 angS21  magS12 angS12  magS22 angS22
8.150000E+02  9.424151E-01 -1.185454E+02  1.249199E-03 5.825953E+01  1.243411E-03 5.807594E+01  9.659068E-01 -1.508844E+02 
8.151250E+02  9.423431E-01 -1.185643E+02  1.253294E-03 5.806826E+01  1.246164E-03 5.807892E+01  9.658745E-01 -1.508944E+02 
8.152500E+02  9.425261E-01 -1.185861E+02  1.255915E-03 5.895868E+01  1.250154E-03 5.869246E+01  9.662327E-01 -1.509353E+02 
8.153750E+02  9.427350E-01 -1.186269E+02  1.254522E-03 5.925338E+01  1.250365E-03 5.895426E+01  9.662816E-01 -1.509406E+02 
8.155000E+02  9.431643E-01 -1.186280E+02  1.260640E-03 5.924923E+01  1.252799E-03 5.886871E+01  9.665928E-01 -1.509687E+02 
8.156250E+02  9.432466E-01 -1.186768E+02  1.247129E-03 5.934925E+01  1.234725E-03 5.888825E+01  9.666010E-01 -1.509846E+02 
8.157500E+02  9.434205E-01 -1.187112E+02  1.242056E-03 6.023712E+01  1.234083E-03 6.017547E+01  9.667621E-01 -1.510265E+02 
8.158750E+02  9.436823E-01 -1.187524E+02  1.246064E-03 6.050454E+01  1.237845E-03 6.049002E+01  9.668113E-01 -1.510613E+02 
8.160000E+02  9.438687E-01 -1.188072E+02  1.234925E-03 6.114907E+01  1.231843E-03 6.080942E+01  9.668461E-01 -1.510748E+02 
8.161250E+02  9.439109E-01 -1.188365E+02  1.234513E-03 6.154104E+01  1.226720E-03 6.146011E+01  9.671127E-01 -1.510877E+02 
8.162500E+02  9.440034E-01 -1.188545E+02  1.234174E-03 6.208070E+01  1.222439E-03 6.177828E+01  9.674049E-01 -1.511380E+02 
8.163750E+02  9.442124E-01 -1.189112E+02  1.237726E-03 6.262239E+01  1.224266E-03 6.236776E+01  9.677317E-01 -1.511624E+02 
8.165000E+02  9.442143E-01 -1.189533E+02  1.230595E-03 6.338811E+01  1.227483E-03 6.323012E+01  9.673851E-01 -1.511868E+02 
8.166250E+02  9.443814E-01 -1.189862E+02  1.228809E-03 6.405391E+01  1.222720E-03 6.370456E+01  9.677418E-01 -1.512404E+02 
8.167500E+02  9.444301E-01 -1.190480E+02  1.236201E-03 6.457284E+01  1.224885E-03 6.460400E+01  9.677957E-01 -1.512659E+02 
8.168750E+02  9.445975E-01 -1.190823E+02  1.233615E-03 6.490147E+01  1.225827E-03 6.471908E+01  9.679551E-01 -1.512951E+02 
8.170000E+02  9.445086E-01 -1.191196E+02  1.229618E-03 6.558694E+01  1.224081E-03 6.569211E+01  9.681512E-01 -1.513313E+02 
8.171250E+02  9.445436E-01 -1.191714E+02  1.236468E-03 6.676737E+01  1.226000E-03 6.628334E+01  9.681284E-01 -1.513518E+02 
8.172500E+02  9.447694E-01 -1.192191E+02  1.239255E-03 6.719781E+01  1.235731E-03 6.698388E+01  9.679811E-01 -1.513856E+02 
8.173750E+02  9.447902E-01 -1.192547E+02  1.248181E-03 6.781139E+01  1.238500E-03 6.761838E+01  9.679112E-01 -1.514312E+02 
8.175000E+02  9.449482E-01 -1.192945E+02  1.250961E-03 6.840839E+01  1.241713E-03 6.831207E+01  9.680447E-01 -1.514749E+02 
8.176250E+02  9.447906E-01 -1.193589E+02  1.257187E-03 6.916326E+01  1.239930E-03 6.902551E+01  9.678746E-01 -1.515115E+02 
8.177500E+02  9.450850E-01 -1.194003E+02  1.261769E-03 6.984078E+01  1.251005E-03 6.965676E+01  9.680053E-01 -1.515416E+02 
8.178750E+02  9.447451E-01 -1.194521E+02  1.264266E-03 7.028420E+01  1.254500E-03 7.007870E+01  9.679117E-01 -1.515712E+02 
8.180000E+02  9.447897E-01 -1.194963E+02  1.265833E-03 7.124575E+01  1.259293E-03 7.103944E+01  9.678638E-01 -1.516071E+02 
8.181250E+02  9.445410E-01 -1.195539E+02  1.279991E-03 7.201014E+01  1.276425E-03 7.173287E+01  9.678485E-01 -1.516446E+02 
8.182500E+02  9.446264E-01 -1.195824E+02  1.293790E-03 7.221380E+01  1.288437E-03 7.227423E+01  9.679452E-01 -1.516654E+02 
8.183750E+02  9.446500E-01 -1.196335E+02  1.299756E-03 7.241229E+01  1.297529E-03 7.220286E+01  9.677169E-01 -1.517185E+02 
8.185000E+02  9.446125E-01 -1.196965E+02  1.306330E-03 7.293822E+01  1.304246E-03 7.292864E+01  9.674949E-01 -1.517493E+02 
8.186250E+02  9.443956E-01 -1.197403E+02  1.320640E-03 7.329954E+01  1.314198E-03 7.303244E+01  9.675980E-01 -1.517775E+02 
8.187500E+02  9.442216E-01 -1.197959E+02  1.334506E-03 7.375793E+01  1.318814E-03 7.357527E+01  9.674575E-01 -1.518161E+02 
8.188750E+02  9.440229E-01 -1.198216E+02  1.334368E-03 7.396878E+01  1.325361E-03 7.398205E+01  9.670331E-01 -1.518390E+02 
8.190000E+02  9.438971E-01 -1.198753E+02  1.348520E-03 7.445461E+01  1.334467E-03 7.447496E+01  9.671839E-01 -1.518704E+02 
8.191250E+02  9.436934E-01 -1.199270E+02  1.355803E-03 7.480361E+01  1.352027E-03 7.473167E+01  9.667997E-01 -1.519130E+02 
8.192500E+02  9.437167E-01 -1.199874E+02  1.359561E-03 7.535748E+01  1.355489E-03 7.498147E+01  9.665595E-01 -1.519243E+02 
8.193750E+02  9.430510E-01 -1.200258E+02  1.366227E-03 7.573197E+01  1.360149E-03 7.567616E+01  9.667111E-01 -1.519515E+02 
8.195000E+02  9.427887E-01 -1.200681E+02  1.372706E-03 7.621095E+01  1.367531E-03 7.603847E+01  9.663949E-01 -1.519914E+02 
8.196250E+02  9.424697E-01 -1.201051E+02  1.382386E-03 7.652633E+01  1.374619E-03 7.632834E+01  9.659262E-01 -1.520146E+02 
8.197500E+02  9.421249E-01 -1.201227E+02  1.394375E-03 7.690558E+01  1.385851E-03 7.688095E+01  9.659704E-01 -1.520395E+02 
8.198750E+02  9.418227E-01 -1.201712E+02  1.399275E-03 7.742480E+01  1.400795E-03 7.738962E+01  9.658185E-01 -1.520370E+02 
8.200000E+02  9.414378E-01 -1.201984E+02  1.413867E-03 7.769319E+01  1.410349E-03 7.745650E+01  9.655647E-01 -1.520683E+02 
8.201250E+02  9.410329E-01 -1.202365E+02  1.423112E-03 7.781548E+01  1.417741E-03 7.748159E+01  9.654768E-01 -1.520888E+02 
8.202500E+02  9.408458E-01 -1.202457E+02  1.420792E-03 7.860798E+01  1.413047E-03 7.821531E+01  9.657126E-01 -1.520977E+02 
8.203750E+02  9.406986E-01 -1.202723E+02  1.439817E-03 7.887782E+01  1.438329E-03 7.863258E+01  9.650421E-01 -1.521271E+02 
8.205000E+02  9.404544E-01 -1.202990E+02  1.457801E-03 7.848520E+01  1.444899E-03 7.835703E+01  9.652691E-01 -1.521389E+02 
8.206250E+02  9.405154E-01 -1.203202E+02  1.454639E-03 7.887415E+01  1.450399E-03 7.903708E+01  9.653570E-01 -1.521534E+02 
8.207500E+02  9.404332E-01 -1.203498E+02  1.469975E-03 7.945775E+01  1.463017E-03 7.908000E+01  9.651027E-01 -1.521676E+02 
8.208750E+02  9.403470E-01 -1.203628E+02  1.483513E-03 7.980944E+01  1.479624E-03 7.952981E+01  9.650829E-01 -1.521971E+02 
8.210000E+02  9.406002E-01 -1.204170E+02  1.498955E-03 7.981848E+01  1.488859E-03 7.972635E+01  9.650694E-01 -1.522213E+02 
8.211250E+02  9.403865E-01 -1.204238E+02  1.503506E-03 7.960277E+01  1.495899E-03 7.929130E+01  9.653560E-01 -1.522263E+02 
8.212500E+02  9.404178E-01 -1.204620E+02  1.493322E-03 7.973408E+01  1.493674E-03 7.955639E+01  9.652988E-01 -1.522489E+02 
8.213750E+02  9.404482E-01 -1.204895E+02  1.509622E-03 8.037289E+01  1.501106E-03 8.014971E+01  9.653867E-01 -1.522742E+02 
8.215000E+02  9.405640E-01 -1.205311E+02  1.529787E-03 8.090553E+01  1.517576E-03 8.053434E+01  9.654387E-01 -1.523079E+02 
8.216250E+02  9.403563E-01 -1.205782E+02  1.538735E-03 8.063623E+01  1.530866E-03 8.050865E+01  9.658476E-01 -1.523189E+02 
8.217500E+02  9.402374E-01 -1.205870E+02  1.533871E-03 8.060436E+01  1.534440E-03 8.043885E+01  9.660166E-01 -1.523381E+02 
8.218750E+02  9.402247E-01 -1.206145E+02  1.546947E-03 8.080032E+01  1.541939E-03 8.083869E+01  9.660188E-01 -1.523803E+02 
8.220000E+02  9.403661E-01 -1.206699E+02  1.556287E-03 8.140282E+01  1.553232E-03 8.098081E+01  9.661163E-01 -1.523974E+02 
8.221250E+02  9.407464E-01 -1.206898E+02  1.565320E-03 8.120790E+01  1.556383E-03 8.098672E+01  9.662418E-01 -1.524348E+02 
8.222500E+02  9.405139E-01 -1.207404E+02  1.569164E-03 8.123435E+01  1.559200E-03 8.138365E+01  9.665279E-01 -1.524581E+02 
8.223750E+02  9.404309E-01 -1.207861E+02  1.582084E-03 8.136875E+01  1.571763E-03 8.126055E+01  9.663565E-01 -1.524839E+02 
8.225000E+02  9.403335E-01 -1.208129E+02  1.578403E-03 8.135948E+01  1.569248E-03 8.082350E+01  9.664588E-01 -1.525193E+02 
8.226250E+02  9.405129E-01 -1.208777E+02  1.579914E-03 8.174313E+01  1.572590E-03 8.159792E+01  9.665143E-01 -1.525603E+02 
8.227500E+02  9.406021E-01 -1.209027E+02  1.585797E-03 8.180176E+01  1.583429E-03 8.174427E+01  9.663147E-01 -1.525754E+02 
8.228750E+02  9.402152E-01 -1.209335E+02  1.590182E-03 8.191954E+01  1.587929E-03 8.167306E+01  9.664561E-01 -1.526154E+02 
8.230000E+02  9.402750E-01 -1.209868E+02  1.586568E-03 8.219971E+01  1.580849E-03 8.215162E+01  9.667418E-01 -1.526353E+02 
8.231250E+02  9.402705E-01 -1.210125E+02  1.592724E-03 8.263527E+01  1.586951E-03 8.244618E+01  9.667885E-01 -1.526739E+02 
8.232500E+02  9.401810E-01 -1.210447E+02  1.599125E-03 8.278285E+01  1.588033E-03 8.272619E+01  9.668266E-01 -1.527155E+02 
8.233750E+02  9.403029E-01 -1.210944E+02  1.601650E-03 8.335430E+01  1.586889E-03 8.287512E+01  9.671603E-01 -1.527383E+02 
8.235000E+02  9.402288E-01 -1.211478E+02  1.604536E-03 8.393618E+01  1.595191E-03 8.367374E+01  9.670111E-01 -1.527799E+02 
8.236250E+02  9.397979E-01 -1.211839E+02  1.614406E-03 8.395595E+01  1.602117E-03 8.400011E+01  9.669640E-01 -1.528076E+02 
8.237500E+02  9.395467E-01 -1.212208E+02  1.619571E-03 8.441065E+01  1.609843E-03 8.430974E+01  9.673320E-01 -1.528546E+02 
8.238750E+02  9.394102E-01 -1.212570E+02  1.628603E-03 8.489864E+01  1.618786E-03 8.455933E+01  9.670911E-01 -1.528923E+02 
8.240000E+02  9.393367E-01 -1.212995E+02  1.635353E-03 8.520086E+01  1.634946E-03 8.493664E+01  9.673078E-01 -1.529000E+02 
8.241250E+02  9.388633E-01 -1.213345E+02  1.655681E-03 8.523815E+01  1.650605E-03 8.500133E+01  9.672283E-01 -1.529441E+02 
8.242500E+02  9.388058E-01 -1.213511E+02  1.658131E-03 8.523987E+01  1.654342E-03 8.501599E+01  9.673395E-01 -1.529826E+02 
8.243750E+02  9.385858E-01 -1.213755E+02  1.668903E-03 8.562272E+01  1.657567E-03 8.542428E+01  9.671408E-01 -1.530245E+02 
8.245000E+02  9.387460E-01 -1.214103E+02  1.671318E-03 8.568145E+01  1.670091E-03 8.555238E+01  9.676361E-01 -1.530547E+02 
8.246250E+02  9.387827E-01 -1.214399E+02  1.680335E-03 8.601681E+01  1.672625E-03 8.566752E+01  9.674982E-01 -1.530906E+02 
8.247500E+02  9.387722E-01 -1.214657E+02  1.693084E-03 8.607552E+01  1.675366E-03 8.595355E+01  9.673063E-01 -1.531287E+02 
8.248750E+02  9.383053E-01 -1.215258E+02  1.699619E-03 8.621680E+01  1.688507E-03 8.602364E+01  9.670644E-01 -1.531789E+02 
8.250000E+02  9.381445E-01 -1.215278E+02  1.707911E-03 8.621262E+01  1.705543E-03 8.582457E+01  9.675717E-01 -1.532153E+02 
8.251250E+02  9.382819E-01 -1.215462E+02  1.708112E-03 8.648118E+01  1.699925E-03 8.615736E+01  9.670627E-01 -1.532493E+02 
8.252500E+02  9.381325E-01 -1.215951E+02  1.721656E-03 8.682059E+01  1.706874E-03 8.652047E+01  9.668158E-01 -1.532914E+02 
8.253750E+02  9.385098E-01 -1.216348E+02  1.723676E-03 8.678611E+01  1.714558E-03 8.683461E+01  9.665767E-01 -1.533307E+02 
8.255000E+02  9.385520E-01 -1.216672E+02  1.729060E-03 8.717244E+01  1.719085E-03 8.689579E+01  9.667114E-01 -1.533586E+02 
8.256250E+02  9.385098E-01 -1.216799E+02  1.743261E-03 8.712337E+01  1.734527E-03 8.677430E+01  9.665966E-01 -1.534055E+02 
8.257500E+02  9.386182E-01 -1.217111E+02  1.741890E-03 8.740012E+01  1.731602E-03 8.715250E+01  9.664135E-01 -1.534234E+02 
8.258750E+02  9.387335E-01 -1.217418E+02  1.752277E-03 8.752209E+01  1.741146E-03 8.718741E+01  9.662292E-01 -1.534590E+02 
8.260000E+02  9.387058E-01 -1.218007E+02  1.746457E-03 8.744553E+01  1.742612E-03 8.734095E+01  9.659040E-01 -1.534866E+02 
8.261250E+02  9.385947E-01 -1.218359E+02  1.741541E-03 8.777121E+01  1.734711E-03 8.753066E+01  9.658753E-01 -1.535149E+02 
8.262500E+02  9.387379E-01 -1.218776E+02  1.757591E-03 8.826015E+01  1.749065E-03 8.809450E+01  9.659632E-01 -1.535406E+02 
8.263750E+02  9.388005E-01 -1.219011E+02  1.763567E-03 8.834124E+01  1.755655E-03 8.810402E+01  9.655481E-01 -1.535840E+02 
8.265000E+02  9.390050E-01 -1.219395E+02  1.755644E-03 8.854195E+01  1.750066E-03 8.822756E+01  9.655722E-01 -1.536024E+02 
8.266250E+02  9.393654E-01 -1.219719E+02  1.761708E-03 8.899053E+01  1.750104E-03 8.878352E+01  9.654879E-01 -1.536340E+02 
8.267500E+02  9.393457E-01 -1.220117E+02  1.761785E-03 8.900404E+01  1.752493E-03 8.900558E+01  9.652269E-01 -1.536646E+02 
8.268750E+02  9.392189E-01 -1.220833E+02  1.763852E-03 8.949610E+01  1.750505E-03 8.943269E+01  9.650603E-01 -1.536946E+02 
8.270000E+02  9.388892E-01 -1.221081E+02  1.773102E-03 9.015769E+01  1.759854E-03 8.990465E+01  9.650363E-01 -1.537154E+02 
8.271250E+02  9.388994E-01 -1.221339E+02  1.780932E-03 9.048218E+01  1.768081E-03 9.023931E+01  9.650398E-01 -1.537552E+02 
8.272500E+02  9.389712E-01 -1.221710E+02  1.786575E-03 9.062425E+01  1.784585E-03 9.049094E+01  9.648343E-01 -1.537770E+02 
8.273750E+02  9.390519E-01 -1.221986E+02  1.790055E-03 9.101738E+01  1.780027E-03 9.098667E+01  9.648072E-01 -1.537948E+02 
8.275000E+02  9.393052E-01 -1.222581E+02  1.804495E-03 9.131313E+01  1.791948E-03 9.140983E+01  9.647765E-01 -1.538457E+02 
8.276250E+02  9.390617E-01 -1.223056E+02  1.814182E-03 9.168937E+01  1.798471E-03 9.140546E+01  9.644676E-01 -1.538572E+02 
8.277500E+02  9.388686E-01 -1.223242E+02  1.809634E-03 9.198724E+01  1.806794E-03 9.154372E+01  9.643165E-01 -1.538834E+02 
8.278750E+02  9.390320E-01 -1.223479E+02  1.818630E-03 9.237197E+01  1.807207E-03 9.243770E+01  9.644635E-01 -1.539107E+02 
8.280000E+02  9.395218E-01 -1.223950E+02  1.838167E-03 9.295909E+01  1.825989E-03 9.265974E+01  9.642066E-01 -1.539354E+02 
8.281250E+02  9.391812E-01 -1.224438E+02  1.843022E-03 9.316357E+01  1.830417E-03 9.308703E+01  9.639873E-01 -1.539517E+02 
8.282500E+02  9.390976E-01 -1.224788E+02  1.851814E-03 9.363935E+01  1.838131E-03 9.334960E+01  9.643625E-01 -1.539699E+02 
8.283750E+02  9.393736E-01 -1.225162E+02  1.868026E-03 9.406384E+01  1.852454E-03 9.389742E+01  9.640099E-01 -1.539978E+02 
8.285000E+02  9.392952E-01 -1.225417E+02  1.887762E-03 9.431077E+01  1.871111E-03 9.425211E+01  9.640859E-01 -1.540284E+02 
8.286250E+02  9.398082E-01 -1.225858E+02  1.895889E-03 9.444826E+01  1.885460E-03 9.434501E+01  9.639639E-01 -1.540359E+02 
8.287500E+02  9.398800E-01 -1.226095E+02  1.915156E-03 9.474543E+01  1.899074E-03 9.433722E+01  9.639544E-01 -1.540685E+02 
8.288750E+02  9.400293E-01 -1.226548E+02  1.919848E-03 9.473375E+01  1.910022E-03 9.470411E+01  9.638658E-01 -1.540857E+02 
8.290000E+02  9.402061E-01 -1.227043E+02  1.920616E-03 9.492811E+01  1.911035E-03 9.464794E+01  9.642081E-01 -1.541038E+02 
8.291250E+02  9.403798E-01 -1.227390E+02  1.929772E-03 9.508813E+01  1.920429E-03 9.497804E+01  9.641819E-01 -1.541492E+02 
8.292500E+02  9.408958E-01 -1.227883E+02  1.929935E-03 9.601695E+01  1.925175E-03 9.559047E+01  9.642570E-01 -1.541719E+02 
8.293750E+02  9.406199E-01 -1.228440E+02  1.951183E-03 9.607579E+01  1.936114E-03 9.607593E+01  9.644070E-01 -1.541768E+02 
8.295000E+02  9.408644E-01 -1.228811E+02  1.977791E-03 9.623423E+01  1.966078E-03 9.600157E+01  9.646562E-01 -1.542122E+02 
8.296250E+02  9.408471E-01 -1.229526E+02  1.982893E-03 9.642143E+01  1.969289E-03 9.606705E+01  9.643134E-01 -1.542506E+02 
8.297500E+02  9.410732E-01 -1.229848E+02  1.990051E-03 9.663935E+01  1.977140E-03 9.635735E+01  9.644064E-01 -1.542792E+02 
8.298750E+02  9.414605E-01 -1.230317E+02  2.007031E-03 9.708368E+01  1.989706E-03 9.698937E+01  9.649549E-01 -1.542909E+02 
8.300000E+02  9.415067E-01 -1.230894E+02  2.020466E-03 9.718707E+01  2.004627E-03 9.723250E+01  9.651442E-01 -1.543230E+02 
8.301250E+02  9.415820E-01 -1.231381E+02  2.026873E-03 9.760741E+01  2.028096E-03 9.740729E+01  9.652933E-01 -1.543623E+02 
8.302500E+02  9.418340E-01 -1.232001E+02  2.051830E-03 9.779199E+01  2.036729E-03 9.783339E+01  9.651974E-01 -1.543925E+02 
8.303750E+02  9.418442E-01 -1.232653E+02  2.067350E-03 9.792408E+01  2.053683E-03 9.776556E+01  9.653350E-01 -1.544243E+02 
8.305000E+02  9.420214E-01 -1.233160E+02  2.083908E-03 9.792586E+01  2.072464E-03 9.779299E+01  9.658263E-01 -1.544631E+02 
8.306250E+02  9.419611E-01 -1.233722E+02  2.092111E-03 9.819963E+01  2.082516E-03 9.780414E+01  9.656344E-01 -1.544829E+02 
8.307500E+02  9.419208E-01 -1.234220E+02  2.108397E-03 9.829131E+01  2.090867E-03 9.815767E+01  9.660212E-01 -1.545399E+02 
8.308750E+02  9.421223E-01 -1.234967E+02  2.119646E-03 9.855571E+01  2.109468E-03 9.817408E+01  9.659608E-01 -1.545775E+02 
8.310000E+02  9.422031E-01 -1.235547E+02  2.133825E-03 9.858853E+01  2.125062E-03 9.852240E+01  9.662409E-01 -1.546177E+02 
8.311250E+02  9.422514E-01 -1.236069E+02  2.161846E-03 9.883367E+01  2.138770E-03 9.849041E+01  9.662445E-01 -1.546533E+02 
8.312500E+02  9.420750E-01 -1.236740E+02  2.169604E-03 9.869051E+01  2.160970E-03 9.861098E+01  9.665082E-01 -1.547058E+02 
8.313750E+02  9.423956E-01 -1.237260E+02  2.180295E-03 9.879122E+01  2.172995E-03 9.869791E+01  9.668640E-01 -1.547409E+02 
8.315000E+02  9.419445E-01 -1.237803E+02  2.197843E-03 9.896065E+01  2.183845E-03 9.872365E+01  9.666636E-01 -1.547955E+02 
8.316250E+02  9.416984E-01 -1.238625E+02  2.210104E-03 9.879112E+01  2.199499E-03 9.859748E+01  9.665781E-01 -1.548275E+02 
8.317500E+02  9.418052E-01 -1.239093E+02  2.230902E-03 9.894490E+01  2.210895E-03 9.867944E+01  9.666461E-01 -1.548903E+02 
8.318750E+02  9.416514E-01 -1.239664E+02  2.239849E-03 9.900052E+01  2.222249E-03 9.885536E+01  9.667713E-01 -1.549194E+02 
8.320000E+02  9.413781E-01 -1.240415E+02  2.249773E-03 9.883986E+01  2.232846E-03 9.876471E+01  9.666938E-01 -1.549716E+02 
8.321250E+02  9.413173E-01 -1.240903E+02  2.255515E-03 9.896770E+01  2.246179E-03 9.876615E+01  9.664293E-01 -1.550301E+02 
8.322500E+02  9.412205E-01 -1.241380E+02  2.264423E-03 9.902092E+01  2.253838E-03 9.882585E+01  9.666044E-01 -1.550448E+02 
8.323750E+02  9.407327E-01 -1.241886E+02  2.280825E-03 9.916156E+01  2.265320E-03 9.915083E+01  9.666483E-01 -1.551125E+02 
8.325000E+02  9.406588E-01 -1.242493E+02  2.288678E-03 9.914300E+01  2.266954E-03 9.889406E+01  9.663001E-01 -1.551686E+02 
8.326250E+02  9.405533E-01 -1.242912E+02  2.297296E-03 9.922383E+01  2.286117E-03 9.893745E+01  9.662929E-01 -1.552032E+02 
8.327500E+02  9.403324E-01 -1.243518E+02  2.306645E-03 9.925836E+01  2.288808E-03 9.899529E+01  9.661545E-01 -1.552292E+02 
8.328750E+02  9.399490E-01 -1.244225E+02  2.308101E-03 9.930570E+01  2.300923E-03 9.910146E+01  9.659433E-01 -1.552969E+02 
8.330000E+02  9.395936E-01 -1.244604E+02  2.321008E-03 9.949953E+01  2.306408E-03 9.920883E+01  9.658254E-01 -1.553314E+02 
8.331250E+02  9.395680E-01 -1.245148E+02  2.322812E-03 9.953108E+01  2.310451E-03 9.936499E+01  9.654610E-01 -1.553920E+02 
8.332500E+02  9.391990E-01 -1.245616E+02  2.332900E-03 9.976531E+01  2.315118E-03 9.959619E+01  9.655962E-01 -1.554130E+02 
8.333750E+02  9.388341E-01 -1.246157E+02  2.341920E-03 9.993519E+01  2.323837E-03 9.976560E+01  9.651883E-01 -1.554586E+02 
8.335000E+02  9.387004E-01 -1.246731E+02  2.349322E-03 1.002470E+02  2.334253E-03 1.000396E+02  9.648246E-01 -1.554946E+02 
8.336250E+02  9.384079E-01 -1.247303E+02  2.375082E-03 1.005361E+02  2.358400E-03 1.005130E+02  9.647406E-01 -1.555355E+02 
8.337500E+02  9.381319E-01 -1.247631E+02  2.385460E-03 1.006314E+02  2.375821E-03 1.004067E+02  9.643114E-01 -1.555761E+02 
8.338750E+02  9.378812E-01 -1.248125E+02  2.411253E-03 1.005538E+02  2.390509E-03 1.003659E+02  9.641115E-01 -1.556193E+02 
8.340000E+02  9.374279E-01 -1.248775E+02  2.419575E-03 1.006357E+02  2.399165E-03 1.003833E+02  9.637482E-01 -1.556503E+02 
8.341250E+02  9.370108E-01 -1.249075E+02  2.419668E-03 1.007361E+02  2.397891E-03 1.006347E+02  9.632823E-01 -1.556862E+02 
8.342500E+02  9.366797E-01 -1.249573E+02  2.431287E-03 1.011100E+02  2.422180E-03 1.007567E+02  9.630904E-01 -1.557136E+02 
8.343750E+02  9.364996E-01 -1.249883E+02  2.448873E-03 1.011558E+02  2.432669E-03 1.012309E+02  9.625143E-01 -1.557399E+02 
8.345000E+02  9.360222E-01 -1.250339E+02  2.479656E-03 1.010519E+02  2.463838E-03 1.009985E+02  9.623431E-01 -1.557537E+02 
