! Matrix data file written by TouchstoneData, EPCOS AG
! FILENAME: "B3726_NB.s2p"
! COMMENT: "PCB:2022 PIN:2/5 PORTEXT1:87.4 PORTEXT2:173."
! INFO: nport=2, nfreq=1601
! DATE: "Tue Dec 30 11:03:29 2008"
! USER: "Sergey Rostovtsev"
!
! port | pin | signal
! -----|-----|--------
!   1  |  2  |  in
!   2  |  5  |  out
! --------------------
! 
# MHZ S MA R 50
! freq  magS11 angS11  magS21 angS21  magS12 angS12  magS22 angS22
8.800000E+02  9.499289E-01 -1.023613E+02  2.187675E-03 1.433662E+02  2.173563E-03 1.434806E+02  9.364035E-01 -1.031735E+02 
8.800500E+02  9.499943E-01 -1.024337E+02  2.200213E-03 1.434490E+02  2.184223E-03 1.433804E+02  9.365133E-01 -1.032093E+02 
8.801000E+02  9.501468E-01 -1.024965E+02  2.220439E-03 1.434840E+02  2.205312E-03 1.435868E+02  9.368161E-01 -1.032637E+02 
8.801500E+02  9.502655E-01 -1.025574E+02  2.232441E-03 1.430133E+02  2.218235E-03 1.429513E+02  9.370971E-01 -1.033228E+02 
8.802000E+02  9.502684E-01 -1.026248E+02  2.223993E-03 1.430490E+02  2.210035E-03 1.429547E+02  9.371514E-01 -1.033765E+02 
8.802500E+02  9.503656E-01 -1.026909E+02  2.219768E-03 1.434652E+02  2.205058E-03 1.433230E+02  9.369239E-01 -1.034445E+02 
8.803000E+02  9.501517E-01 -1.027511E+02  2.217424E-03 1.438346E+02  2.208568E-03 1.437095E+02  9.367768E-01 -1.035117E+02 
8.803500E+02  9.501860E-01 -1.028186E+02  2.231211E-03 1.450240E+02  2.216129E-03 1.448193E+02  9.366942E-01 -1.035560E+02 
8.804000E+02  9.501586E-01 -1.028892E+02  2.282788E-03 1.456281E+02  2.260235E-03 1.456820E+02  9.363127E-01 -1.035800E+02 
8.804500E+02  9.500163E-01 -1.029301E+02  2.322431E-03 1.452066E+02  2.303696E-03 1.452303E+02  9.361704E-01 -1.036261E+02 
8.805000E+02  9.496638E-01 -1.029955E+02  2.338042E-03 1.447211E+02  2.318084E-03 1.448031E+02  9.365651E-01 -1.036635E+02 
8.805500E+02  9.496870E-01 -1.030456E+02  2.334576E-03 1.449154E+02  2.316348E-03 1.449449E+02  9.366180E-01 -1.037138E+02 
8.806000E+02  9.497105E-01 -1.030847E+02  2.362593E-03 1.452665E+02  2.342084E-03 1.454774E+02  9.367090E-01 -1.037553E+02 
8.806500E+02  9.497569E-01 -1.031428E+02  2.381920E-03 1.450351E+02  2.362898E-03 1.449410E+02  9.368981E-01 -1.038119E+02 
8.807000E+02  9.500921E-01 -1.032030E+02  2.374493E-03 1.453619E+02  2.358927E-03 1.451903E+02  9.373665E-01 -1.038609E+02 
8.807500E+02  9.503039E-01 -1.032631E+02  2.402705E-03 1.458533E+02  2.382204E-03 1.456431E+02  9.372972E-01 -1.039114E+02 
8.808000E+02  9.502941E-01 -1.033357E+02  2.428616E-03 1.458787E+02  2.411952E-03 1.460078E+02  9.376827E-01 -1.039934E+02 
8.808500E+02  9.502237E-01 -1.034044E+02  2.461428E-03 1.459727E+02  2.439378E-03 1.459386E+02  9.376288E-01 -1.040413E+02 
8.809000E+02  9.501979E-01 -1.034637E+02  2.469046E-03 1.460039E+02  2.451240E-03 1.458771E+02  9.378994E-01 -1.040846E+02 
8.809500E+02  9.500551E-01 -1.035345E+02  2.493821E-03 1.461061E+02  2.469153E-03 1.463820E+02  9.380598E-01 -1.041431E+02 
8.810000E+02  9.500410E-01 -1.035962E+02  2.526167E-03 1.460964E+02  2.507570E-03 1.462230E+02  9.384066E-01 -1.042091E+02 
8.810500E+02  9.499577E-01 -1.036457E+02  2.553345E-03 1.458481E+02  2.534871E-03 1.458029E+02  9.387518E-01 -1.042595E+02 
8.811000E+02  9.498963E-01 -1.036971E+02  2.551155E-03 1.455325E+02  2.539142E-03 1.455873E+02  9.388740E-01 -1.043467E+02 
8.811500E+02  9.499328E-01 -1.037588E+02  2.548773E-03 1.456026E+02  2.535039E-03 1.456271E+02  9.390354E-01 -1.044156E+02 
8.812000E+02  9.500332E-01 -1.038140E+02  2.567846E-03 1.464817E+02  2.547778E-03 1.462660E+02  9.391198E-01 -1.044800E+02 
8.812500E+02  9.498545E-01 -1.038665E+02  2.617027E-03 1.467460E+02  2.583902E-03 1.468329E+02  9.390340E-01 -1.045407E+02 
8.813000E+02  9.498959E-01 -1.039144E+02  2.659325E-03 1.467974E+02  2.631164E-03 1.466283E+02  9.389744E-01 -1.046186E+02 
8.813500E+02  9.501561E-01 -1.039744E+02  2.696337E-03 1.460246E+02  2.674482E-03 1.461156E+02  9.391729E-01 -1.046707E+02 
8.814000E+02  9.501700E-01 -1.040450E+02  2.693676E-03 1.457037E+02  2.672588E-03 1.456528E+02  9.394316E-01 -1.047182E+02 
8.814500E+02  9.499902E-01 -1.041126E+02  2.714783E-03 1.455824E+02  2.695301E-03 1.455596E+02  9.397395E-01 -1.047778E+02 
8.815000E+02  9.502406E-01 -1.041698E+02  2.716164E-03 1.453660E+02  2.698994E-03 1.453669E+02  9.399277E-01 -1.048595E+02 
8.815500E+02  9.502844E-01 -1.042294E+02  2.734066E-03 1.453381E+02  2.710352E-03 1.454909E+02  9.400711E-01 -1.049258E+02 
8.816000E+02  9.502221E-01 -1.042899E+02  2.757532E-03 1.452485E+02  2.740037E-03 1.454542E+02  9.400602E-01 -1.050044E+02 
8.816500E+02  9.502750E-01 -1.043419E+02  2.776306E-03 1.449381E+02  2.751410E-03 1.448494E+02  9.398638E-01 -1.050794E+02 
8.817000E+02  9.503634E-01 -1.044019E+02  2.775506E-03 1.444130E+02  2.760730E-03 1.445312E+02  9.401139E-01 -1.051357E+02 
8.817500E+02  9.502416E-01 -1.044552E+02  2.760757E-03 1.443142E+02  2.745773E-03 1.443149E+02  9.399427E-01 -1.052131E+02 
8.818000E+02  9.506043E-01 -1.045276E+02  2.755280E-03 1.448981E+02  2.734482E-03 1.447719E+02  9.398995E-01 -1.052847E+02 
8.818500E+02  9.506395E-01 -1.045966E+02  2.763130E-03 1.454204E+02  2.744259E-03 1.453729E+02  9.401276E-01 -1.053250E+02 
8.819000E+02  9.509028E-01 -1.046597E+02  2.797978E-03 1.457845E+02  2.770658E-03 1.457375E+02  9.402459E-01 -1.053878E+02 
8.819500E+02  9.507703E-01 -1.047202E+02  2.833023E-03 1.457387E+02  2.810602E-03 1.457781E+02  9.405299E-01 -1.054820E+02 
8.820000E+02  9.509851E-01 -1.047883E+02  2.856059E-03 1.456197E+02  2.832858E-03 1.456179E+02  9.404071E-01 -1.055400E+02 
8.820500E+02  9.509826E-01 -1.048587E+02  2.870316E-03 1.453480E+02  2.853395E-03 1.454569E+02  9.406619E-01 -1.055987E+02 
8.821000E+02  9.510739E-01 -1.049193E+02  2.879626E-03 1.452719E+02  2.861722E-03 1.453055E+02  9.408589E-01 -1.056783E+02 
8.821500E+02  9.511990E-01 -1.049824E+02  2.896105E-03 1.453631E+02  2.878803E-03 1.453228E+02  9.410696E-01 -1.057475E+02 
8.822000E+02  9.513246E-01 -1.050373E+02  2.918618E-03 1.452099E+02  2.900232E-03 1.452487E+02  9.407307E-01 -1.058343E+02 
8.822500E+02  9.514857E-01 -1.051297E+02  2.922667E-03 1.451046E+02  2.903400E-03 1.451051E+02  9.409863E-01 -1.059021E+02 
8.823000E+02  9.517281E-01 -1.051984E+02  2.933794E-03 1.451084E+02  2.914674E-03 1.450728E+02  9.411507E-01 -1.059675E+02 
8.823500E+02  9.516941E-01 -1.052717E+02  2.941337E-03 1.451920E+02  2.916877E-03 1.451763E+02  9.416412E-01 -1.060344E+02 
8.824000E+02  9.518569E-01 -1.053469E+02  2.961355E-03 1.452471E+02  2.940484E-03 1.453549E+02  9.415593E-01 -1.061067E+02 
8.824500E+02  9.518465E-01 -1.054253E+02  2.984092E-03 1.452217E+02  2.957039E-03 1.452944E+02  9.415818E-01 -1.061909E+02 
8.825000E+02  9.520099E-01 -1.054926E+02  2.991492E-03 1.450517E+02  2.976876E-03 1.450423E+02  9.415711E-01 -1.062852E+02 
8.825500E+02  9.521606E-01 -1.055719E+02  2.997817E-03 1.448427E+02  2.979180E-03 1.449225E+02  9.419156E-01 -1.063504E+02 
8.826000E+02  9.519765E-01 -1.056571E+02  2.995574E-03 1.449328E+02  2.983210E-03 1.447079E+02  9.419001E-01 -1.064305E+02 
8.826500E+02  9.522029E-01 -1.057444E+02  3.002391E-03 1.450650E+02  2.976145E-03 1.450921E+02  9.420116E-01 -1.065214E+02 
8.827000E+02  9.520382E-01 -1.058127E+02  3.006176E-03 1.453816E+02  2.993632E-03 1.453763E+02  9.420712E-01 -1.065818E+02 
8.827500E+02  9.520503E-01 -1.058858E+02  3.036921E-03 1.454380E+02  3.009283E-03 1.454777E+02  9.419694E-01 -1.066712E+02 
8.828000E+02  9.521857E-01 -1.059636E+02  3.048738E-03 1.454281E+02  3.023865E-03 1.455018E+02  9.419377E-01 -1.067667E+02 
8.828500E+02  9.521368E-01 -1.060435E+02  3.051737E-03 1.455324E+02  3.039600E-03 1.455863E+02  9.423578E-01 -1.068416E+02 
8.829000E+02  9.521533E-01 -1.061094E+02  3.072687E-03 1.458813E+02  3.049497E-03 1.458436E+02  9.421426E-01 -1.069211E+02 
8.829500E+02  9.520109E-01 -1.062043E+02  3.094746E-03 1.459461E+02  3.077751E-03 1.459213E+02  9.420843E-01 -1.070051E+02 
8.830000E+02  9.519953E-01 -1.062763E+02  3.111678E-03 1.460202E+02  3.091227E-03 1.460504E+02  9.418842E-01 -1.070957E+02 
8.830500E+02  9.522005E-01 -1.063447E+02  3.125742E-03 1.460875E+02  3.107290E-03 1.458494E+02  9.419404E-01 -1.071817E+02 
8.831000E+02  9.518226E-01 -1.064481E+02  3.143786E-03 1.461117E+02  3.119661E-03 1.462372E+02  9.420566E-01 -1.072538E+02 
8.831500E+02  9.518477E-01 -1.065138E+02  3.164265E-03 1.462770E+02  3.143376E-03 1.462407E+02  9.418464E-01 -1.073491E+02 
8.832000E+02  9.517860E-01 -1.066029E+02  3.190511E-03 1.463708E+02  3.161497E-03 1.463652E+02  9.417764E-01 -1.074487E+02 
8.832500E+02  9.517866E-01 -1.066741E+02  3.210636E-03 1.463563E+02  3.193805E-03 1.463005E+02  9.417271E-01 -1.075254E+02 
8.833000E+02  9.514237E-01 -1.067706E+02  3.231811E-03 1.462964E+02  3.209531E-03 1.462677E+02  9.416432E-01 -1.076071E+02 
8.833500E+02  9.515456E-01 -1.068557E+02  3.244733E-03 1.461968E+02  3.231119E-03 1.461662E+02  9.418076E-01 -1.076880E+02 
8.834000E+02  9.515445E-01 -1.069162E+02  3.256395E-03 1.461669E+02  3.241192E-03 1.461686E+02  9.413770E-01 -1.077942E+02 
8.834500E+02  9.513520E-01 -1.070038E+02  3.279082E-03 1.461408E+02  3.256029E-03 1.461877E+02  9.414603E-01 -1.078767E+02 
8.835000E+02  9.511614E-01 -1.070836E+02  3.298223E-03 1.461887E+02  3.270690E-03 1.463011E+02  9.415187E-01 -1.079433E+02 
8.835500E+02  9.512406E-01 -1.071678E+02  3.317739E-03 1.460443E+02  3.297556E-03 1.460946E+02  9.413136E-01 -1.080441E+02 
8.836000E+02  9.511584E-01 -1.072411E+02  3.322543E-03 1.459399E+02  3.304522E-03 1.459721E+02  9.413775E-01 -1.081270E+02 
8.836500E+02  9.508277E-01 -1.073394E+02  3.323790E-03 1.460157E+02  3.308320E-03 1.460365E+02  9.411956E-01 -1.082102E+02 
8.837000E+02  9.508997E-01 -1.074123E+02  3.332699E-03 1.461099E+02  3.316479E-03 1.460520E+02  9.410440E-01 -1.083111E+02 
8.837500E+02  9.509541E-01 -1.074821E+02  3.353449E-03 1.462074E+02  3.326869E-03 1.462247E+02  9.409526E-01 -1.083975E+02 
8.838000E+02  9.504844E-01 -1.075748E+02  3.371650E-03 1.462812E+02  3.348252E-03 1.463242E+02  9.408944E-01 -1.084805E+02 
8.838500E+02  9.506750E-01 -1.076602E+02  3.388151E-03 1.462969E+02  3.362308E-03 1.463725E+02  9.405718E-01 -1.085874E+02 
8.839000E+02  9.505021E-01 -1.077282E+02  3.390212E-03 1.464617E+02  3.379625E-03 1.464197E+02  9.406653E-01 -1.086694E+02 
8.839500E+02  9.504140E-01 -1.078247E+02  3.408259E-03 1.467471E+02  3.386900E-03 1.467031E+02  9.404178E-01 -1.087647E+02 
8.840000E+02  9.501842E-01 -1.079134E+02  3.430271E-03 1.468519E+02  3.409646E-03 1.467504E+02  9.402358E-01 -1.088601E+02 
8.840500E+02  9.499695E-01 -1.080126E+02  3.456979E-03 1.470262E+02  3.426975E-03 1.469800E+02  9.401868E-01 -1.089459E+02 
8.841000E+02  9.501152E-01 -1.080847E+02  3.479548E-03 1.470367E+02  3.457742E-03 1.469986E+02  9.400760E-01 -1.090415E+02 
8.841500E+02  9.497150E-01 -1.081876E+02  3.505090E-03 1.470196E+02  3.481939E-03 1.470974E+02  9.398674E-01 -1.091386E+02 
8.842000E+02  9.496781E-01 -1.082736E+02  3.529659E-03 1.470021E+02  3.504007E-03 1.469813E+02  9.396760E-01 -1.092279E+02 
8.842500E+02  9.495802E-01 -1.083649E+02  3.549312E-03 1.469439E+02  3.524744E-03 1.469462E+02  9.392748E-01 -1.093185E+02 
8.843000E+02  9.491848E-01 -1.084544E+02  3.565149E-03 1.468761E+02  3.530606E-03 1.469076E+02  9.389188E-01 -1.094386E+02 
8.843500E+02  9.491426E-01 -1.085348E+02  3.577918E-03 1.469471E+02  3.554692E-03 1.469398E+02  9.390684E-01 -1.095158E+02 
8.844000E+02  9.489226E-01 -1.086184E+02  3.597566E-03 1.470866E+02  3.568162E-03 1.470967E+02  9.384185E-01 -1.096086E+02 
8.844500E+02  9.486624E-01 -1.087054E+02  3.615070E-03 1.471405E+02  3.593661E-03 1.470993E+02  9.382005E-01 -1.097157E+02 
8.845000E+02  9.484416E-01 -1.088099E+02  3.635415E-03 1.472653E+02  3.608949E-03 1.472751E+02  9.378731E-01 -1.098257E+02 
8.845500E+02  9.483617E-01 -1.088997E+02  3.666358E-03 1.473592E+02  3.645971E-03 1.472939E+02  9.377032E-01 -1.099184E+02 
8.846000E+02  9.480175E-01 -1.090052E+02  3.700668E-03 1.473745E+02  3.678110E-03 1.473818E+02  9.372106E-01 -1.100086E+02 
8.846500E+02  9.474976E-01 -1.090943E+02  3.734209E-03 1.470523E+02  3.699362E-03 1.470912E+02  9.371916E-01 -1.101144E+02 
8.847000E+02  9.475043E-01 -1.091830E+02  3.741817E-03 1.468112E+02  3.721448E-03 1.468351E+02  9.367585E-01 -1.102061E+02 
8.847500E+02  9.471714E-01 -1.092912E+02  3.750506E-03 1.467927E+02  3.724422E-03 1.468391E+02  9.362459E-01 -1.103217E+02 
8.848000E+02  9.464848E-01 -1.093761E+02  3.770628E-03 1.469076E+02  3.740468E-03 1.469048E+02  9.360976E-01 -1.104168E+02 
8.848500E+02  9.464578E-01 -1.094692E+02  3.794205E-03 1.467649E+02  3.764125E-03 1.468370E+02  9.352716E-01 -1.105251E+02 
8.849000E+02  9.460810E-01 -1.095456E+02  3.796873E-03 1.467275E+02  3.779273E-03 1.466414E+02  9.348112E-01 -1.106257E+02 
8.849500E+02  9.456340E-01 -1.096456E+02  3.803996E-03 1.469749E+02  3.780248E-03 1.469290E+02  9.342068E-01 -1.107356E+02 
8.850000E+02  9.453156E-01 -1.097225E+02  3.851995E-03 1.472782E+02  3.814812E-03 1.473094E+02  9.337044E-01 -1.108320E+02 
8.850500E+02  9.450111E-01 -1.098098E+02  3.900518E-03 1.472346E+02  3.873010E-03 1.472992E+02  9.333741E-01 -1.109136E+02 
8.851000E+02  9.445695E-01 -1.099135E+02  3.938225E-03 1.469387E+02  3.911065E-03 1.469479E+02  9.329157E-01 -1.110114E+02 
8.851500E+02  9.444118E-01 -1.100139E+02  3.965876E-03 1.462842E+02  3.941005E-03 1.463332E+02  9.323554E-01 -1.111134E+02 
8.852000E+02  9.440904E-01 -1.100920E+02  3.955940E-03 1.461691E+02  3.930945E-03 1.462476E+02  9.319363E-01 -1.112170E+02 
8.852500E+02  9.436984E-01 -1.101979E+02  3.977589E-03 1.459981E+02  3.946927E-03 1.460853E+02  9.312183E-01 -1.113284E+02 
8.853000E+02  9.432321E-01 -1.102927E+02  3.982205E-03 1.458675E+02  3.970866E-03 1.458382E+02  9.304895E-01 -1.114296E+02 
8.853500E+02  9.427662E-01 -1.103934E+02  3.990870E-03 1.456395E+02  3.957889E-03 1.456550E+02  9.296781E-01 -1.115268E+02 
8.854000E+02  9.424050E-01 -1.104912E+02  3.980612E-03 1.458457E+02  3.959014E-03 1.457788E+02  9.292145E-01 -1.116189E+02 
8.854500E+02  9.417947E-01 -1.105959E+02  3.998697E-03 1.460579E+02  3.971597E-03 1.460633E+02  9.284054E-01 -1.117167E+02 
8.855000E+02  9.413632E-01 -1.106879E+02  4.030051E-03 1.462086E+02  4.006203E-03 1.461641E+02  9.280545E-01 -1.117952E+02 
8.855500E+02  9.406216E-01 -1.107940E+02  4.057226E-03 1.460585E+02  4.035249E-03 1.460070E+02  9.270822E-01 -1.119072E+02 
8.856000E+02  9.398929E-01 -1.109058E+02  4.091729E-03 1.458775E+02  4.058949E-03 1.459760E+02  9.267256E-01 -1.120094E+02 
8.856500E+02  9.397584E-01 -1.109748E+02  4.104288E-03 1.457799E+02  4.081378E-03 1.457833E+02  9.262386E-01 -1.121062E+02 
8.857000E+02  9.390029E-01 -1.110679E+02  4.132142E-03 1.455548E+02  4.105287E-03 1.456909E+02  9.251267E-01 -1.122171E+02 
8.857500E+02  9.382784E-01 -1.111614E+02  4.147517E-03 1.451663E+02  4.125184E-03 1.453355E+02  9.244919E-01 -1.123171E+02 
8.858000E+02  9.377168E-01 -1.112645E+02  4.149785E-03 1.449696E+02  4.129800E-03 1.448889E+02  9.232788E-01 -1.124461E+02 
8.858500E+02  9.371894E-01 -1.113495E+02  4.158386E-03 1.448779E+02  4.133995E-03 1.449320E+02  9.220928E-01 -1.125276E+02 
8.859000E+02  9.365919E-01 -1.114481E+02  4.153031E-03 1.444427E+02  4.131532E-03 1.444812E+02  9.211782E-01 -1.126014E+02 
8.859500E+02  9.361934E-01 -1.115406E+02  4.133917E-03 1.446520E+02  4.114686E-03 1.446015E+02  9.203841E-01 -1.126816E+02 
8.860000E+02  9.354584E-01 -1.116402E+02  4.131994E-03 1.447089E+02  4.105240E-03 1.447121E+02  9.193199E-01 -1.127588E+02 
8.860500E+02  9.348199E-01 -1.117489E+02  4.129462E-03 1.453072E+02  4.101766E-03 1.451782E+02  9.186018E-01 -1.128473E+02 
8.861000E+02  9.341052E-01 -1.118600E+02  4.180637E-03 1.455987E+02  4.143031E-03 1.456468E+02  9.178141E-01 -1.129461E+02 
8.861500E+02  9.333769E-01 -1.119556E+02  4.232011E-03 1.455718E+02  4.195934E-03 1.456227E+02  9.165851E-01 -1.130579E+02 
8.862000E+02  9.323245E-01 -1.120663E+02  4.253135E-03 1.451829E+02  4.229620E-03 1.451774E+02  9.154556E-01 -1.131495E+02 
8.862500E+02  9.312473E-01 -1.121651E+02  4.263848E-03 1.450760E+02  4.225707E-03 1.451249E+02  9.139731E-01 -1.132451E+02 
8.863000E+02  9.303261E-01 -1.122471E+02  4.287315E-03 1.448134E+02  4.268762E-03 1.448386E+02  9.124006E-01 -1.133249E+02 
8.863500E+02  9.292292E-01 -1.123354E+02  4.294186E-03 1.443378E+02  4.264681E-03 1.443937E+02  9.111242E-01 -1.133728E+02 
8.864000E+02  9.282548E-01 -1.124064E+02  4.255857E-03 1.442283E+02  4.243091E-03 1.441477E+02  9.099767E-01 -1.134157E+02 
8.864500E+02  9.276931E-01 -1.124734E+02  4.234462E-03 1.446377E+02  4.212489E-03 1.445457E+02  9.087780E-01 -1.134647E+02 
8.865000E+02  9.269259E-01 -1.125736E+02  4.274475E-03 1.450053E+02  4.237464E-03 1.450793E+02  9.079528E-01 -1.135207E+02 
8.865500E+02  9.258901E-01 -1.126742E+02  4.298781E-03 1.452512E+02  4.265823E-03 1.452134E+02  9.074415E-01 -1.136066E+02 
8.866000E+02  9.248817E-01 -1.127888E+02  4.335986E-03 1.453887E+02  4.305301E-03 1.453385E+02  9.062811E-01 -1.136942E+02 
8.866500E+02  9.236373E-01 -1.128793E+02  4.379980E-03 1.450798E+02  4.349637E-03 1.452498E+02  9.044932E-01 -1.137997E+02 
8.867000E+02  9.223611E-01 -1.129462E+02  4.380035E-03 1.449010E+02  4.352164E-03 1.448591E+02  9.025784E-01 -1.138675E+02 
8.867500E+02  9.211116E-01 -1.130128E+02  4.431028E-03 1.451118E+02  4.386737E-03 1.451492E+02  9.004322E-01 -1.139065E+02 
8.868000E+02  9.203237E-01 -1.130690E+02  4.473862E-03 1.443035E+02  4.442597E-03 1.444879E+02  8.989225E-01 -1.138927E+02 
8.868500E+02  9.193758E-01 -1.131415E+02  4.460074E-03 1.435573E+02  4.437098E-03 1.436295E+02  8.976069E-01 -1.138443E+02 
8.869000E+02  9.183493E-01 -1.132110E+02  4.425743E-03 1.437578E+02  4.390392E-03 1.437678E+02  8.970169E-01 -1.138494E+02 
8.869500E+02  9.172931E-01 -1.132968E+02  4.442819E-03 1.435907E+02  4.417347E-03 1.436268E+02  8.963911E-01 -1.138568E+02 
8.870000E+02  9.162914E-01 -1.133849E+02  4.424119E-03 1.432296E+02  4.396486E-03 1.431825E+02  8.961384E-01 -1.138924E+02 
8.870500E+02  9.149315E-01 -1.134442E+02  4.388272E-03 1.434683E+02  4.357969E-03 1.434297E+02  8.958342E-01 -1.139383E+02 
8.871000E+02  9.135560E-01 -1.135235E+02  4.400458E-03 1.438570E+02  4.368477E-03 1.438293E+02  8.948056E-01 -1.139888E+02 
8.871500E+02  9.123660E-01 -1.135942E+02  4.416215E-03 1.441239E+02  4.387478E-03 1.441312E+02  8.940208E-01 -1.140405E+02 
8.872000E+02  9.109577E-01 -1.136360E+02  4.475406E-03 1.438166E+02  4.443801E-03 1.439223E+02  8.925555E-01 -1.140476E+02 
8.872500E+02  9.094723E-01 -1.136891E+02  4.423937E-03 1.429496E+02  4.407207E-03 1.429103E+02  8.912937E-01 -1.140585E+02 
8.873000E+02  9.084259E-01 -1.137401E+02  4.332169E-03 1.437588E+02  4.313605E-03 1.436332E+02  8.901967E-01 -1.140417E+02 
8.873500E+02  9.073761E-01 -1.137615E+02  4.392692E-03 1.455065E+02  4.341559E-03 1.454517E+02  8.896737E-01 -1.140183E+02 
8.874000E+02  9.064440E-01 -1.138086E+02  4.547950E-03 1.453960E+02  4.505665E-03 1.454938E+02  8.896285E-01 -1.139914E+02 
8.874500E+02  9.054449E-01 -1.138648E+02  4.599068E-03 1.437603E+02  4.574396E-03 1.439211E+02  8.895965E-01 -1.139823E+02 
8.875000E+02  9.042540E-01 -1.139222E+02  4.550781E-03 1.427242E+02  4.524890E-03 1.429114E+02  8.896495E-01 -1.140249E+02 
8.875500E+02  9.031761E-01 -1.139523E+02  4.413100E-03 1.422655E+02  4.403435E-03 1.420883E+02  8.890472E-01 -1.140582E+02 
8.876000E+02  9.018199E-01 -1.139977E+02  4.388518E-03 1.439147E+02  4.351615E-03 1.438508E+02  8.883311E-01 -1.140662E+02 
8.876500E+02  9.005730E-01 -1.140465E+02  4.437727E-03 1.442435E+02  4.407337E-03 1.442734E+02  8.878394E-01 -1.140523E+02 
8.877000E+02  8.995865E-01 -1.140576E+02  4.432913E-03 1.439810E+02  4.413320E-03 1.438417E+02  8.874191E-01 -1.139970E+02 
8.877500E+02  8.984063E-01 -1.140902E+02  4.385077E-03 1.441769E+02  4.360706E-03 1.441623E+02  8.876579E-01 -1.139613E+02 
8.878000E+02  8.971551E-01 -1.141231E+02  4.389607E-03 1.457224E+02  4.348747E-03 1.455732E+02  8.883918E-01 -1.139420E+02 
