! Matrix data file written by TouchstoneData, EPCOS AG
! FILENAME: "B3727_NB.s2p"
! COMMENT: "PCB:2023 PIN:1/4 PEXT1:93.0ps PEXT2:179.5ps"
! INFO: nport=2, nfreq=1601
! DATE: "Thu Apr 16 15:55:16 2009"
! USER: "Sergey Rostovtsev"
!
! port | pin | signal
! -----|-----|--------
!   1  |  1  |  in
!   2  |  4  |  out
! --------------------
! 
# MHZ S MA R 50
! freq  magS11 angS11  magS21 angS21  magS12 angS12  magS22 angS22
4.200000E+02  9.486958E-01 -1.222618E+02  8.760993E-04 1.401673E+02  8.733551E-04 1.382713E+02  9.490318E-01 -1.218042E+02 
4.200188E+02  9.489850E-01 -1.223401E+02  8.709276E-04 1.397447E+02  8.794480E-04 1.387109E+02  9.489041E-01 -1.218957E+02 
4.200375E+02  9.487855E-01 -1.224228E+02  8.751587E-04 1.391754E+02  8.764610E-04 1.380206E+02  9.487820E-01 -1.219832E+02 
4.200562E+02  9.484736E-01 -1.225235E+02  8.687283E-04 1.391749E+02  8.764319E-04 1.387481E+02  9.486103E-01 -1.220790E+02 
4.200750E+02  9.484012E-01 -1.226224E+02  8.665893E-04 1.388323E+02  8.717199E-04 1.383424E+02  9.485573E-01 -1.221704E+02 
4.200938E+02  9.481536E-01 -1.227114E+02  8.549912E-04 1.394606E+02  8.667817E-04 1.385381E+02  9.483163E-01 -1.222593E+02 
4.201125E+02  9.479088E-01 -1.228089E+02  8.451721E-04 1.397644E+02  8.636335E-04 1.404414E+02  9.483201E-01 -1.223520E+02 
4.201313E+02  9.477730E-01 -1.228984E+02  8.567585E-04 1.405920E+02  8.709584E-04 1.409521E+02  9.480887E-01 -1.224406E+02 
4.201500E+02  9.474319E-01 -1.230064E+02  8.659537E-04 1.420650E+02  8.708969E-04 1.410127E+02  9.477908E-01 -1.225385E+02 
4.201687E+02  9.473195E-01 -1.231145E+02  8.797049E-04 1.420001E+02  8.830665E-04 1.424955E+02  9.476071E-01 -1.226335E+02 
4.201875E+02  9.468118E-01 -1.232089E+02  9.138456E-04 1.423036E+02  9.062382E-04 1.425050E+02  9.475422E-01 -1.227340E+02 
4.202063E+02  9.466485E-01 -1.232935E+02  9.347607E-04 1.415960E+02  9.317485E-04 1.424691E+02  9.476189E-01 -1.228305E+02 
4.202250E+02  9.466543E-01 -1.234076E+02  9.676019E-04 1.412548E+02  9.616996E-04 1.401546E+02  9.471397E-01 -1.229210E+02 
4.202437E+02  9.466060E-01 -1.235126E+02  9.815564E-04 1.392783E+02  9.734952E-04 1.399217E+02  9.468777E-01 -1.230217E+02 
4.202625E+02  9.463309E-01 -1.236012E+02  9.895253E-04 1.385342E+02  9.977256E-04 1.379163E+02  9.469486E-01 -1.231171E+02 
4.202812E+02  9.458942E-01 -1.237175E+02  9.904159E-04 1.364906E+02  1.002175E-03 1.360591E+02  9.465816E-01 -1.232205E+02 
4.203000E+02  9.453878E-01 -1.238000E+02  9.941449E-04 1.360511E+02  9.957922E-04 1.351035E+02  9.463904E-01 -1.233136E+02 
4.203188E+02  9.453120E-01 -1.238930E+02  9.900304E-04 1.347736E+02  9.904741E-04 1.336296E+02  9.461444E-01 -1.234269E+02 
4.203375E+02  9.449084E-01 -1.239914E+02  9.855662E-04 1.338141E+02  9.822978E-04 1.333845E+02  9.459563E-01 -1.235283E+02 
4.203562E+02  9.450081E-01 -1.241081E+02  9.802640E-04 1.329182E+02  9.811660E-04 1.326688E+02  9.459311E-01 -1.236244E+02 
4.203750E+02  9.447399E-01 -1.242101E+02  9.799865E-04 1.329711E+02  9.948401E-04 1.319921E+02  9.457442E-01 -1.237250E+02 
4.203938E+02  9.447953E-01 -1.243149E+02  9.799854E-04 1.327584E+02  9.733533E-04 1.322528E+02  9.453993E-01 -1.238383E+02 
4.204125E+02  9.443171E-01 -1.244046E+02  9.731377E-04 1.322844E+02  9.812035E-04 1.313799E+02  9.452820E-01 -1.239281E+02 
4.204312E+02  9.436964E-01 -1.245280E+02  9.844687E-04 1.318985E+02  9.898729E-04 1.314878E+02  9.450724E-01 -1.240379E+02 
4.204500E+02  9.433526E-01 -1.246319E+02  9.981835E-04 1.310231E+02  9.947390E-04 1.307398E+02  9.446367E-01 -1.241457E+02 
4.204688E+02  9.430677E-01 -1.247502E+02  9.933281E-04 1.307886E+02  9.905528E-04 1.302009E+02  9.442228E-01 -1.242603E+02 
4.204875E+02  9.426118E-01 -1.248423E+02  1.001314E-03 1.302285E+02  1.000863E-03 1.299772E+02  9.440737E-01 -1.243643E+02 
4.205063E+02  9.426484E-01 -1.249261E+02  1.009897E-03 1.299247E+02  1.008094E-03 1.300184E+02  9.437580E-01 -1.244677E+02 
4.205250E+02  9.422911E-01 -1.250433E+02  1.018516E-03 1.300435E+02  1.029693E-03 1.291551E+02  9.435274E-01 -1.245881E+02 
4.205437E+02  9.419615E-01 -1.251738E+02  1.025273E-03 1.289622E+02  1.030259E-03 1.288278E+02  9.432359E-01 -1.246864E+02 
4.205625E+02  9.415666E-01 -1.252737E+02  1.032631E-03 1.287660E+02  1.029230E-03 1.277571E+02  9.428181E-01 -1.247959E+02 
4.205813E+02  9.411408E-01 -1.253995E+02  1.050593E-03 1.280424E+02  1.031381E-03 1.280406E+02  9.425124E-01 -1.249208E+02 
4.206000E+02  9.407765E-01 -1.255092E+02  1.063972E-03 1.280203E+02  1.062928E-03 1.273960E+02  9.421578E-01 -1.250382E+02 
4.206187E+02  9.404701E-01 -1.256128E+02  1.084962E-03 1.267358E+02  1.075865E-03 1.257162E+02  9.416616E-01 -1.251414E+02 
4.206375E+02  9.398334E-01 -1.257144E+02  1.097833E-03 1.252325E+02  1.098767E-03 1.246517E+02  9.414075E-01 -1.252626E+02 
4.206562E+02  9.393376E-01 -1.258383E+02  1.114061E-03 1.243347E+02  1.125688E-03 1.239559E+02  9.407873E-01 -1.253814E+02 
4.206750E+02  9.388564E-01 -1.259428E+02  1.109115E-03 1.225659E+02  1.132846E-03 1.219224E+02  9.406401E-01 -1.254905E+02 
4.206938E+02  9.382394E-01 -1.260570E+02  1.119986E-03 1.216185E+02  1.128559E-03 1.211141E+02  9.399559E-01 -1.256091E+02 
4.207125E+02  9.375911E-01 -1.261783E+02  1.127149E-03 1.203473E+02  1.129065E-03 1.193314E+02  9.395361E-01 -1.257351E+02 
4.207312E+02  9.371060E-01 -1.263048E+02  1.120819E-03 1.185297E+02  1.119654E-03 1.184673E+02  9.391948E-01 -1.258457E+02 
4.207500E+02  9.362870E-01 -1.264056E+02  1.125026E-03 1.183646E+02  1.127009E-03 1.175942E+02  9.385020E-01 -1.259642E+02 
4.207688E+02  9.357446E-01 -1.265161E+02  1.123147E-03 1.168441E+02  1.133195E-03 1.164634E+02  9.379591E-01 -1.260800E+02 
4.207875E+02  9.357278E-01 -1.266303E+02  1.115990E-03 1.154863E+02  1.119528E-03 1.153174E+02  9.374153E-01 -1.262128E+02 
4.208062E+02  9.349873E-01 -1.267664E+02  1.107634E-03 1.156006E+02  1.117996E-03 1.154754E+02  9.370240E-01 -1.263271E+02 
4.208250E+02  9.342612E-01 -1.268554E+02  1.108933E-03 1.146767E+02  1.108020E-03 1.137037E+02  9.363891E-01 -1.264531E+02 
4.208438E+02  9.339824E-01 -1.269827E+02  1.107616E-03 1.138861E+02  1.118017E-03 1.138846E+02  9.356880E-01 -1.265789E+02 
4.208625E+02  9.332547E-01 -1.271090E+02  1.104930E-03 1.133313E+02  1.114908E-03 1.128664E+02  9.350077E-01 -1.267034E+02 
4.208813E+02  9.321394E-01 -1.272148E+02  1.111483E-03 1.132317E+02  1.105968E-03 1.125761E+02  9.342657E-01 -1.268231E+02 
4.209000E+02  9.313666E-01 -1.273499E+02  1.115616E-03 1.125079E+02  1.123366E-03 1.122688E+02  9.333948E-01 -1.269433E+02 
4.209187E+02  9.305441E-01 -1.274657E+02  1.128802E-03 1.125158E+02  1.127965E-03 1.120032E+02  9.327673E-01 -1.270646E+02 
4.209375E+02  9.298680E-01 -1.275573E+02  1.147920E-03 1.124204E+02  1.146582E-03 1.121002E+02  9.317003E-01 -1.271988E+02 
4.209563E+02  9.288524E-01 -1.277041E+02  1.154467E-03 1.122126E+02  1.171921E-03 1.111526E+02  9.310898E-01 -1.273256E+02 
4.209750E+02  9.285531E-01 -1.278264E+02  1.184640E-03 1.117436E+02  1.190882E-03 1.113542E+02  9.300417E-01 -1.274399E+02 
4.209937E+02  9.276052E-01 -1.279163E+02  1.212695E-03 1.113859E+02  1.218949E-03 1.107063E+02  9.293158E-01 -1.275607E+02 
4.210125E+02  9.265243E-01 -1.280396E+02  1.249696E-03 1.102316E+02  1.254172E-03 1.096792E+02  9.283162E-01 -1.276800E+02 
4.210312E+02  9.254482E-01 -1.281769E+02  1.276161E-03 1.088095E+02  1.291254E-03 1.084572E+02  9.272570E-01 -1.278036E+02 
4.210500E+02  9.244181E-01 -1.282770E+02  1.298582E-03 1.075393E+02  1.320220E-03 1.073825E+02  9.263189E-01 -1.279226E+02 
4.210688E+02  9.235454E-01 -1.284013E+02  1.330054E-03 1.058472E+02  1.340526E-03 1.057321E+02  9.254483E-01 -1.280527E+02 
4.210875E+02  9.226005E-01 -1.285165E+02  1.348031E-03 1.044389E+02  1.361331E-03 1.037289E+02  9.242798E-01 -1.281798E+02 
4.211062E+02  9.216466E-01 -1.286389E+02  1.365519E-03 1.027264E+02  1.391783E-03 1.026303E+02  9.233264E-01 -1.283020E+02 
4.211250E+02  9.208257E-01 -1.287485E+02  1.390930E-03 1.017903E+02  1.410044E-03 1.011672E+02  9.222611E-01 -1.284208E+02 
4.211438E+02  9.196274E-01 -1.288421E+02  1.408399E-03 9.985880E+01  1.423071E-03 9.961955E+01  9.211834E-01 -1.285567E+02 
4.211625E+02  9.181476E-01 -1.289681E+02  1.440236E-03 9.821238E+01  1.442711E-03 9.779739E+01  9.199167E-01 -1.286818E+02 
4.211812E+02  9.168497E-01 -1.291008E+02  1.459979E-03 9.624056E+01  1.475416E-03 9.614902E+01  9.185398E-01 -1.287871E+02 
4.212000E+02  9.156927E-01 -1.291840E+02  1.469401E-03 9.447202E+01  1.478558E-03 9.437910E+01  9.173974E-01 -1.289202E+02 
4.212188E+02  9.147148E-01 -1.293292E+02  1.468036E-03 9.306087E+01  1.472144E-03 9.222300E+01  9.162983E-01 -1.290268E+02 
4.212375E+02  9.131350E-01 -1.294519E+02  1.468570E-03 9.235943E+01  1.478707E-03 9.199831E+01  9.148473E-01 -1.291593E+02 
4.212563E+02  9.119537E-01 -1.295309E+02  1.493557E-03 9.213889E+01  1.495059E-03 9.165184E+01  9.132694E-01 -1.292771E+02 
4.212750E+02  9.108363E-01 -1.296581E+02  1.538990E-03 9.113245E+01  1.535041E-03 9.126877E+01  9.118122E-01 -1.293947E+02 
4.212937E+02  9.095342E-01 -1.297527E+02  1.590433E-03 9.036499E+01  1.596723E-03 8.995529E+01  9.104523E-01 -1.295276E+02 
4.213125E+02  9.077963E-01 -1.298709E+02  1.633059E-03 8.876026E+01  1.637937E-03 8.821401E+01  9.086710E-01 -1.296334E+02 
4.213313E+02  9.064491E-01 -1.299627E+02  1.701310E-03 8.756018E+01  1.687274E-03 8.723216E+01  9.072393E-01 -1.297530E+02 
4.213500E+02  9.052022E-01 -1.300807E+02  1.764110E-03 8.617370E+01  1.773081E-03 8.568905E+01  9.054520E-01 -1.298702E+02 
4.213687E+02  9.033904E-01 -1.301731E+02  1.837297E-03 8.412962E+01  1.836184E-03 8.371500E+01  9.038273E-01 -1.299742E+02 
4.213875E+02  9.020240E-01 -1.302669E+02  1.914557E-03 8.179533E+01  1.903739E-03 8.136712E+01  9.018519E-01 -1.300892E+02 
4.214062E+02  9.002655E-01 -1.303723E+02  1.983065E-03 7.921892E+01  1.989207E-03 7.874668E+01  9.000717E-01 -1.301912E+02 
4.214250E+02  8.987597E-01 -1.304538E+02  2.059334E-03 7.654460E+01  2.057065E-03 7.605122E+01  8.982926E-01 -1.302958E+02 
4.214438E+02  8.971758E-01 -1.305405E+02  2.133159E-03 7.349251E+01  2.138816E-03 7.310448E+01  8.962950E-01 -1.303940E+02 
4.214625E+02  8.952046E-01 -1.306171E+02  2.205023E-03 7.044920E+01  2.204227E-03 6.996721E+01  8.941311E-01 -1.304835E+02 
4.214812E+02  8.935972E-01 -1.307098E+02  2.273099E-03 6.719477E+01  2.277849E-03 6.655056E+01  8.920220E-01 -1.305816E+02 
4.215000E+02  8.918028E-01 -1.308069E+02  2.340032E-03 6.382016E+01  2.347978E-03 6.345337E+01  8.896155E-01 -1.306679E+02 
4.215188E+02  8.897951E-01 -1.308558E+02  2.405315E-03 6.031705E+01  2.409006E-03 6.002544E+01  8.873917E-01 -1.307495E+02 
4.215375E+02  8.883261E-01 -1.309283E+02  2.470303E-03 5.670689E+01  2.475565E-03 5.636940E+01  8.851828E-01 -1.308213E+02 
4.215562E+02  8.862200E-01 -1.309825E+02  2.528346E-03 5.310717E+01  2.539345E-03 5.263291E+01  8.825088E-01 -1.308814E+02 
4.215750E+02  8.844058E-01 -1.310433E+02  2.592709E-03 4.931555E+01  2.583992E-03 4.877374E+01  8.800698E-01 -1.309236E+02 
4.215938E+02  8.828451E-01 -1.310852E+02  2.640808E-03 4.530852E+01  2.644302E-03 4.501491E+01  8.775648E-01 -1.309610E+02 
4.216125E+02  8.806160E-01 -1.311135E+02  2.665545E-03 4.147744E+01  2.694219E-03 4.099515E+01  8.750841E-01 -1.309835E+02 
4.216313E+02  8.788778E-01 -1.311515E+02  2.709549E-03 3.726114E+01  2.705839E-03 3.687160E+01  8.726378E-01 -1.310023E+02 
4.216500E+02  8.771808E-01 -1.311701E+02  2.727512E-03 3.329449E+01  2.743511E-03 3.291632E+01  8.704537E-01 -1.309913E+02 
4.216687E+02  8.754667E-01 -1.312036E+02  2.741525E-03 2.933081E+01  2.758317E-03 2.909333E+01  8.682399E-01 -1.309940E+02 
4.216875E+02  8.743436E-01 -1.311995E+02  2.742944E-03 2.549325E+01  2.760230E-03 2.540435E+01  8.659021E-01 -1.309573E+02 
4.217063E+02  8.726840E-01 -1.312043E+02  2.736139E-03 2.209225E+01  2.756660E-03 2.178719E+01  8.638452E-01 -1.309193E+02 
4.217250E+02  8.714497E-01 -1.312162E+02  2.745204E-03 1.866262E+01  2.761539E-03 1.844653E+01  8.620047E-01 -1.308710E+02 
4.217437E+02  8.700062E-01 -1.311814E+02  2.771375E-03 1.539959E+01  2.778228E-03 1.495332E+01  8.602912E-01 -1.308237E+02 
4.217625E+02  8.687741E-01 -1.312253E+02  2.793093E-03 1.183683E+01  2.816558E-03 1.141880E+01  8.586886E-01 -1.307519E+02 
4.217812E+02  8.681716E-01 -1.311963E+02  2.811470E-03 8.063143E+00  2.831177E-03 7.677092E+00  8.573170E-01 -1.306865E+02 
4.218000E+02  8.673981E-01 -1.311726E+02  2.820429E-03 4.381964E+00  2.832745E-03 4.007759E+00  8.562279E-01 -1.306079E+02 
4.218188E+02  8.663586E-01 -1.311760E+02  2.811018E-03 7.068099E-01  2.833311E-03 3.224459E-01  8.554778E-01 -1.305397E+02 
4.218375E+02  8.656246E-01 -1.311669E+02  2.809925E-03 -2.672946E+00  2.810544E-03 -3.333254E+00  8.547640E-01 -1.304640E+02 
4.218562E+02  8.652647E-01 -1.311706E+02  2.819710E-03 -6.226065E+00  2.824245E-03 -6.350575E+00  8.542255E-01 -1.303911E+02 
4.218750E+02  8.649438E-01 -1.311584E+02  2.838151E-03 -1.001159E+01  2.843446E-03 -1.023528E+01  8.540567E-01 -1.303199E+02 
4.218938E+02  8.643974E-01 -1.311687E+02  2.826340E-03 -1.405134E+01  2.845654E-03 -1.426126E+01  8.540573E-01 -1.302489E+02 
4.219125E+02  8.642235E-01 -1.311718E+02  2.793524E-03 -1.801233E+01  2.809251E-03 -1.838822E+01  8.541838E-01 -1.301877E+02 
4.219312E+02  8.642248E-01 -1.311973E+02  2.743620E-03 -2.174021E+01  2.757047E-03 -2.210663E+01  8.545429E-01 -1.301392E+02 
4.219500E+02  8.641122E-01 -1.312087E+02  2.692529E-03 -2.490846E+01  2.708006E-03 -2.529037E+01  8.550799E-01 -1.300950E+02 
4.219688E+02  8.644137E-01 -1.312478E+02  2.662498E-03 -2.760416E+01  2.672357E-03 -2.829976E+01  8.557073E-01 -1.300787E+02 
4.219875E+02  8.644539E-01 -1.312703E+02  2.638225E-03 -3.060967E+01  2.631176E-03 -3.107408E+01  8.563918E-01 -1.300641E+02 
4.220063E+02  8.641623E-01 -1.313421E+02  2.596494E-03 -3.390988E+01  2.620918E-03 -3.428615E+01  8.571648E-01 -1.300595E+02 
4.220250E+02  8.642650E-01 -1.313813E+02  2.544530E-03 -3.696808E+01  2.559018E-03 -3.717142E+01  8.584563E-01 -1.300733E+02 
4.220437E+02  8.641607E-01 -1.314385E+02  2.476028E-03 -3.884864E+01  2.483408E-03 -3.962758E+01  8.594416E-01 -1.300910E+02 
4.220625E+02  8.645523E-01 -1.315166E+02  2.434068E-03 -4.076586E+01  2.435124E-03 -4.121242E+01  8.605009E-01 -1.301260E+02 
4.220813E+02  8.648479E-01 -1.315720E+02  2.420765E-03 -4.223344E+01  2.418608E-03 -4.267570E+01  8.616363E-01 -1.301768E+02 
4.221000E+02  8.648984E-01 -1.316471E+02  2.430061E-03 -4.397179E+01  2.417288E-03 -4.444374E+01  8.624170E-01 -1.302414E+02 
4.221187E+02  8.645227E-01 -1.317358E+02  2.427031E-03 -4.599006E+01  2.438426E-03 -4.625069E+01  8.634376E-01 -1.303078E+02 
4.221375E+02  8.645839E-01 -1.318397E+02  2.421722E-03 -4.775514E+01  2.439096E-03 -4.840728E+01  8.642070E-01 -1.303977E+02 
4.221562E+02  8.643015E-01 -1.319182E+02  2.433933E-03 -4.947473E+01  2.459949E-03 -5.014886E+01  8.650738E-01 -1.304894E+02 
4.221750E+02  8.639970E-01 -1.319926E+02  2.482829E-03 -5.170275E+01  2.485041E-03 -5.233137E+01  8.657752E-01 -1.305790E+02 
4.221938E+02  8.637203E-01 -1.321112E+02  2.506963E-03 -5.463200E+01  2.525676E-03 -5.522888E+01  8.666049E-01 -1.306927E+02 
4.222125E+02  8.632557E-01 -1.322071E+02  2.512520E-03 -5.756055E+01  2.528919E-03 -5.812493E+01  8.670839E-01 -1.308073E+02 
4.222312E+02  8.631144E-01 -1.323218E+02  2.503409E-03 -6.001130E+01  2.510763E-03 -6.019601E+01  8.675179E-01 -1.309212E+02 
4.222500E+02  8.625099E-01 -1.324150E+02  2.487953E-03 -6.280677E+01  2.512240E-03 -6.287170E+01  8.679473E-01 -1.310534E+02 
4.222688E+02  8.621082E-01 -1.325235E+02  2.464825E-03 -6.480749E+01  2.494180E-03 -6.536155E+01  8.680837E-01 -1.311837E+02 
4.222875E+02  8.614351E-01 -1.326448E+02  2.463643E-03 -6.721509E+01  2.479222E-03 -6.725210E+01  8.683777E-01 -1.313244E+02 
4.223062E+02  8.604643E-01 -1.327338E+02  2.458419E-03 -6.915183E+01  2.478817E-03 -6.959353E+01  8.685635E-01 -1.314460E+02 
4.223250E+02  8.598648E-01 -1.328342E+02  2.448251E-03 -7.105084E+01  2.452823E-03 -7.149866E+01  8.683005E-01 -1.315918E+02 
4.223438E+02  8.589870E-01 -1.329500E+02  2.442339E-03 -7.281496E+01  2.443432E-03 -7.316151E+01  8.681940E-01 -1.317338E+02 
4.223625E+02  8.584652E-01 -1.330667E+02  2.446028E-03 -7.473570E+01  2.449548E-03 -7.502615E+01  8.678739E-01 -1.318935E+02 
4.223813E+02  8.577407E-01 -1.331604E+02  2.453518E-03 -7.699152E+01  2.475553E-03 -7.742634E+01  8.674359E-01 -1.320290E+02 
4.224000E+02  8.565877E-01 -1.332825E+02  2.425414E-03 -7.918456E+01  2.445360E-03 -7.970128E+01  8.669461E-01 -1.321820E+02 
4.224187E+02  8.554628E-01 -1.333808E+02  2.393123E-03 -8.056679E+01  2.397555E-03 -8.116148E+01  8.665876E-01 -1.323194E+02 
4.224375E+02  8.542796E-01 -1.334767E+02  2.369214E-03 -8.097425E+01  2.390696E-03 -8.182770E+01  8.660305E-01 -1.324679E+02 
4.224563E+02  8.530878E-01 -1.336029E+02  2.395242E-03 -8.124631E+01  2.401059E-03 -8.192414E+01  8.654824E-01 -1.326198E+02 
4.224750E+02  8.519388E-01 -1.337001E+02  2.440898E-03 -8.178365E+01  2.450014E-03 -8.247444E+01  8.648636E-01 -1.327597E+02 
4.224937E+02  8.509456E-01 -1.337879E+02  2.524671E-03 -8.259407E+01  2.524699E-03 -8.275198E+01  8.636676E-01 -1.329203E+02 
4.225125E+02  8.491092E-01 -1.339132E+02  2.608979E-03 -8.402616E+01  2.607228E-03 -8.424468E+01  8.627856E-01 -1.330729E+02 
4.225312E+02  8.477667E-01 -1.340072E+02  2.714250E-03 -8.579412E+01  2.719904E-03 -8.620963E+01  8.616026E-01 -1.332232E+02 
4.225500E+02  8.460688E-01 -1.340924E+02  2.822309E-03 -8.844371E+01  2.816555E-03 -8.871657E+01  8.606316E-01 -1.333781E+02 
4.225688E+02  8.445477E-01 -1.341657E+02  2.925358E-03 -9.129719E+01  2.932671E-03 -9.171695E+01  8.591866E-01 -1.335142E+02 
4.225875E+02  8.430336E-01 -1.342511E+02  3.010002E-03 -9.493244E+01  3.027208E-03 -9.518537E+01  8.579367E-01 -1.336593E+02 
4.226062E+02  8.414666E-01 -1.343230E+02  3.073223E-03 -9.870823E+01  3.077070E-03 -9.905383E+01  8.563605E-01 -1.338023E+02 
4.226250E+02  8.399370E-01 -1.343995E+02  3.098467E-03 -1.028205E+02  3.107032E-03 -1.029556E+02  8.549489E-01 -1.339419E+02 
4.226438E+02  8.382282E-01 -1.344712E+02  3.096567E-03 -1.061233E+02  3.105364E-03 -1.064721E+02  8.533388E-01 -1.340823E+02 
4.226625E+02  8.364518E-01 -1.345198E+02  3.084179E-03 -1.098173E+02  3.094130E-03 -1.100318E+02  8.516853E-01 -1.342124E+02 
4.226812E+02  8.347930E-01 -1.345717E+02  3.036118E-03 -1.128274E+02  3.059183E-03 -1.132667E+02  8.499079E-01 -1.343314E+02 
4.227000E+02  8.333465E-01 -1.346298E+02  2.987564E-03 -1.155986E+02  3.004221E-03 -1.157888E+02  8.480090E-01 -1.344576E+02 
4.227188E+02  8.315933E-01 -1.347137E+02  2.936596E-03 -1.175892E+02  2.951467E-03 -1.179664E+02  8.460406E-01 -1.345757E+02 
4.227375E+02  8.303172E-01 -1.347578E+02  2.895875E-03 -1.188169E+02  2.918038E-03 -1.194760E+02  8.441377E-01 -1.346889E+02 
4.227563E+02  8.286561E-01 -1.347914E+02  2.909628E-03 -1.198067E+02  2.923527E-03 -1.204529E+02  8.422589E-01 -1.348035E+02 
4.227750E+02  8.269049E-01 -1.348559E+02  2.964032E-03 -1.212349E+02  2.959575E-03 -1.215770E+02  8.401140E-01 -1.349126E+02 
4.227937E+02  8.252421E-01 -1.348844E+02  3.038763E-03 -1.231833E+02  3.044096E-03 -1.235593E+02  8.377492E-01 -1.350159E+02 
4.228125E+02  8.237035E-01 -1.349427E+02  3.104873E-03 -1.260804E+02  3.107042E-03 -1.263065E+02  8.355777E-01 -1.351029E+02 
4.228313E+02  8.220924E-01 -1.349573E+02  3.162290E-03 -1.292833E+02  3.165525E-03 -1.295610E+02  8.334956E-01 -1.351877E+02 
4.228500E+02  8.202568E-01 -1.350008E+02  3.174898E-03 -1.328966E+02  3.192630E-03 -1.330799E+02  8.311454E-01 -1.352770E+02 
4.228687E+02  8.187744E-01 -1.350402E+02  3.179459E-03 -1.363631E+02  3.194356E-03 -1.366069E+02  8.287489E-01 -1.353492E+02 
4.228875E+02  8.170195E-01 -1.350423E+02  3.141586E-03 -1.398957E+02  3.156527E-03 -1.401556E+02  8.263738E-01 -1.354238E+02 
4.229062E+02  8.155409E-01 -1.350752E+02  3.106350E-03 -1.427850E+02  3.116336E-03 -1.431144E+02  8.240925E-01 -1.355190E+02 
