! S-Parameter for B3721 in Touchstone format with Magnitude (lin) and Phase 
! Normalised impedance: 50 Ohm. Measurement system: 50 Ohm. Ta=25°C
! B3721_SB.S2P not matched. Measurement full 2-port calibrated incl. Port.Ext. 
! Start: 423.92MHz, Stop: 443.92MHz, Span 20MHz, 1601 Pts., Step 125kHz
! Date: 07/12/2007 - EPCOS COM WT AE PD; AB
!
# MHZ S MA R 50
! freq  magS11 angS11  magS21 angS21  magS12 angS12  magS22 angS22
4.239200E+02  9.169410E-01 -9.846877E+01  1.437673E-03 -1.753513E+02  1.441930E-03 -1.751182E+02  9.130893E-01 -9.853268E+01 
4.239325E+02  9.167737E-01 -9.856111E+01  1.437963E-03 -1.755077E+02  1.442774E-03 -1.755776E+02  9.132023E-01 -9.862895E+01 
4.239450E+02  9.167650E-01 -9.865695E+01  1.438296E-03 -1.758135E+02  1.439080E-03 -1.758502E+02  9.131576E-01 -9.872820E+01 
4.239575E+02  9.167013E-01 -9.875946E+01  1.429353E-03 -1.761998E+02  1.437825E-03 -1.760456E+02  9.131126E-01 -9.882165E+01 
4.239700E+02  9.166148E-01 -9.885018E+01  1.433941E-03 -1.762965E+02  1.435539E-03 -1.763024E+02  9.130170E-01 -9.891482E+01 
4.239825E+02  9.165217E-01 -9.893643E+01  1.426078E-03 -1.765357E+02  1.424849E-03 -1.764602E+02  9.129858E-01 -9.901454E+01 
4.239950E+02  9.163877E-01 -9.904235E+01  1.433902E-03 -1.768710E+02  1.438117E-03 -1.769292E+02  9.129378E-01 -9.911529E+01 
4.240075E+02  9.161112E-01 -9.912743E+01  1.439533E-03 -1.774577E+02  1.435079E-03 -1.770323E+02  9.128276E-01 -9.921106E+01 
4.240200E+02  9.159823E-01 -9.922487E+01  1.439421E-03 -1.776822E+02  1.440470E-03 -1.772817E+02  9.127785E-01 -9.931236E+01 
4.240325E+02  9.158724E-01 -9.932706E+01  1.438824E-03 -1.776691E+02  1.445303E-03 -1.775094E+02  9.126835E-01 -9.940821E+01 
4.240450E+02  9.158154E-01 -9.942016E+01  1.441007E-03 -1.783944E+02  1.446779E-03 -1.785478E+02  9.125429E-01 -9.950617E+01 
4.240575E+02  9.157412E-01 -9.951305E+01  1.448661E-03 -1.790380E+02  1.446438E-03 -1.789504E+02  9.126025E-01 -9.961288E+01 
4.240700E+02  9.156765E-01 -9.960799E+01  1.448862E-03 -1.796921E+02  1.451217E-03 -1.791489E+02  9.124187E-01 -9.971307E+01 
4.240825E+02  9.154812E-01 -9.970486E+01  1.448347E-03 -1.798313E+02  1.452142E-03 -1.797010E+02  9.123988E-01 -9.981164E+01 
4.240950E+02  9.153728E-01 -9.980546E+01  1.450627E-03 1.799021E+02  1.447313E-03 1.796012E+02  9.122999E-01 -9.990907E+01 
4.241075E+02  9.152243E-01 -9.990353E+01  1.451552E-03 1.792828E+02  1.446778E-03 1.795444E+02  9.121883E-01 -1.000125E+02 
4.241200E+02  9.149899E-01 -9.999864E+01  1.447765E-03 1.785517E+02  1.449563E-03 1.790583E+02  9.121751E-01 -1.001147E+02 
4.241325E+02  9.147876E-01 -1.001041E+02  1.450070E-03 1.781655E+02  1.440619E-03 1.784352E+02  9.120449E-01 -1.002217E+02 
4.241450E+02  9.146691E-01 -1.001997E+02  1.444798E-03 1.780430E+02  1.447307E-03 1.778541E+02  9.119878E-01 -1.003201E+02 
4.241575E+02  9.145801E-01 -1.002916E+02  1.444876E-03 1.771075E+02  1.441143E-03 1.774117E+02  9.117414E-01 -1.004239E+02 
4.241700E+02  9.145288E-01 -1.003965E+02  1.441585E-03 1.770963E+02  1.441560E-03 1.769054E+02  9.116161E-01 -1.005314E+02 
4.241825E+02  9.143535E-01 -1.004988E+02  1.437706E-03 1.768563E+02  1.441490E-03 1.768218E+02  9.114926E-01 -1.006295E+02 
4.241950E+02  9.142383E-01 -1.005948E+02  1.431983E-03 1.765234E+02  1.451293E-03 1.769125E+02  9.114367E-01 -1.007349E+02 
4.242075E+02  9.140740E-01 -1.006836E+02  1.442550E-03 1.766316E+02  1.442220E-03 1.764452E+02  9.112693E-01 -1.008360E+02 
4.242200E+02  9.139079E-01 -1.007898E+02  1.444239E-03 1.761102E+02  1.451186E-03 1.761909E+02  9.111781E-01 -1.009414E+02 
4.242325E+02  9.138238E-01 -1.008849E+02  1.459643E-03 1.759041E+02  1.445366E-03 1.758936E+02  9.108275E-01 -1.010436E+02 
4.242450E+02  9.136786E-01 -1.009821E+02  1.457440E-03 1.755069E+02  1.457547E-03 1.758470E+02  9.107923E-01 -1.011456E+02 
4.242575E+02  9.135242E-01 -1.010824E+02  1.466796E-03 1.753202E+02  1.469306E-03 1.753297E+02  9.105708E-01 -1.012566E+02 
4.242700E+02  9.133260E-01 -1.011878E+02  1.477164E-03 1.751350E+02  1.478022E-03 1.756896E+02  9.102428E-01 -1.013611E+02 
4.242825E+02  9.132256E-01 -1.012907E+02  1.484065E-03 1.747165E+02  1.485935E-03 1.748962E+02  9.101140E-01 -1.014667E+02 
4.242950E+02  9.130612E-01 -1.013932E+02  1.499671E-03 1.744475E+02  1.502760E-03 1.742215E+02  9.098948E-01 -1.015724E+02 
4.243075E+02  9.129145E-01 -1.014949E+02  1.516049E-03 1.742289E+02  1.518919E-03 1.741748E+02  9.098297E-01 -1.016774E+02 
4.243200E+02  9.127572E-01 -1.016026E+02  1.536252E-03 1.734343E+02  1.531751E-03 1.739697E+02  9.096376E-01 -1.017803E+02 
4.243325E+02  9.125690E-01 -1.017094E+02  1.544162E-03 1.729989E+02  1.552193E-03 1.730575E+02  9.092934E-01 -1.018901E+02 
4.243450E+02  9.121775E-01 -1.018031E+02  1.562635E-03 1.723662E+02  1.565641E-03 1.726170E+02  9.092162E-01 -1.019958E+02 
4.243575E+02  9.119693E-01 -1.019088E+02  1.579794E-03 1.717332E+02  1.588861E-03 1.719455E+02  9.087929E-01 -1.021018E+02 
4.243700E+02  9.118547E-01 -1.020172E+02  1.600386E-03 1.711897E+02  1.594322E-03 1.710625E+02  9.085170E-01 -1.022086E+02 
4.243825E+02  9.115634E-01 -1.021176E+02  1.619180E-03 1.699065E+02  1.619396E-03 1.702627E+02  9.083365E-01 -1.023130E+02 
4.243950E+02  9.112775E-01 -1.022289E+02  1.632022E-03 1.688270E+02  1.636390E-03 1.691291E+02  9.080738E-01 -1.024238E+02 
4.244075E+02  9.110603E-01 -1.023281E+02  1.644235E-03 1.678920E+02  1.645148E-03 1.682876E+02  9.078760E-01 -1.025271E+02 
4.244200E+02  9.109447E-01 -1.024313E+02  1.648367E-03 1.668782E+02  1.657546E-03 1.669147E+02  9.076028E-01 -1.026340E+02 
4.244325E+02  9.106268E-01 -1.025321E+02  1.669446E-03 1.659075E+02  1.667191E-03 1.662290E+02  9.073411E-01 -1.027430E+02 
4.244450E+02  9.104160E-01 -1.026386E+02  1.677889E-03 1.651804E+02  1.678971E-03 1.653915E+02  9.071425E-01 -1.028514E+02 
4.244575E+02  9.100802E-01 -1.027421E+02  1.684496E-03 1.642087E+02  1.683715E-03 1.643797E+02  9.068570E-01 -1.029635E+02 
4.244700E+02  9.099074E-01 -1.028552E+02  1.689764E-03 1.633587E+02  1.686027E-03 1.634067E+02  9.064530E-01 -1.030720E+02 
4.244825E+02  9.097175E-01 -1.029619E+02  1.693060E-03 1.624452E+02  1.692063E-03 1.626050E+02  9.062793E-01 -1.031810E+02 
4.244950E+02  9.093926E-01 -1.030644E+02  1.708206E-03 1.616151E+02  1.715291E-03 1.618220E+02  9.060495E-01 -1.032881E+02 
4.245075E+02  9.091937E-01 -1.031730E+02  1.713127E-03 1.608773E+02  1.719862E-03 1.608630E+02  9.058308E-01 -1.034008E+02 
4.245200E+02  9.088411E-01 -1.032709E+02  1.720848E-03 1.600001E+02  1.718006E-03 1.601220E+02  9.055343E-01 -1.035194E+02 
4.245325E+02  9.086285E-01 -1.033834E+02  1.719958E-03 1.588346E+02  1.721487E-03 1.591041E+02  9.053258E-01 -1.036309E+02 
4.245450E+02  9.083805E-01 -1.034890E+02  1.732216E-03 1.580855E+02  1.730566E-03 1.582864E+02  9.049335E-01 -1.037422E+02 
4.245575E+02  9.082142E-01 -1.036042E+02  1.726914E-03 1.575021E+02  1.730073E-03 1.575432E+02  9.045573E-01 -1.038575E+02 
4.245700E+02  9.078751E-01 -1.037061E+02  1.731755E-03 1.569820E+02  1.737078E-03 1.567457E+02  9.042748E-01 -1.039617E+02 
4.245825E+02  9.074638E-01 -1.038207E+02  1.740093E-03 1.561708E+02  1.740288E-03 1.564783E+02  9.038742E-01 -1.040765E+02 
4.245950E+02  9.073112E-01 -1.039275E+02  1.741353E-03 1.558218E+02  1.739894E-03 1.561459E+02  9.035566E-01 -1.041838E+02 
4.246075E+02  9.070114E-01 -1.040345E+02  1.740973E-03 1.554825E+02  1.743970E-03 1.555557E+02  9.032522E-01 -1.042993E+02 
4.246200E+02  9.066235E-01 -1.041576E+02  1.757743E-03 1.547570E+02  1.754753E-03 1.549994E+02  9.028793E-01 -1.044213E+02 
4.246325E+02  9.063816E-01 -1.042675E+02  1.765333E-03 1.546863E+02  1.768396E-03 1.550225E+02  9.025143E-01 -1.045329E+02 
4.246450E+02  9.060827E-01 -1.043712E+02  1.785916E-03 1.542715E+02  1.781533E-03 1.546201E+02  9.020924E-01 -1.046486E+02 
4.246575E+02  9.057416E-01 -1.044900E+02  1.798812E-03 1.540364E+02  1.801085E-03 1.539800E+02  9.016885E-01 -1.047641E+02 
4.246700E+02  9.054568E-01 -1.046082E+02  1.813891E-03 1.536871E+02  1.816171E-03 1.535986E+02  9.012875E-01 -1.048760E+02 
4.246825E+02  9.049805E-01 -1.047201E+02  1.826614E-03 1.531300E+02  1.836042E-03 1.533061E+02  9.009014E-01 -1.049857E+02 
4.246950E+02  9.045982E-01 -1.048411E+02  1.848396E-03 1.526368E+02  1.857408E-03 1.531144E+02  9.005687E-01 -1.050985E+02 
4.247075E+02  9.042892E-01 -1.049501E+02  1.876697E-03 1.522203E+02  1.875026E-03 1.524868E+02  9.000548E-01 -1.052190E+02 
4.247200E+02  9.038563E-01 -1.050687E+02  1.903335E-03 1.520392E+02  1.907765E-03 1.520451E+02  8.996310E-01 -1.053378E+02 
4.247325E+02  9.034477E-01 -1.051884E+02  1.926189E-03 1.516365E+02  1.933337E-03 1.516148E+02  8.991160E-01 -1.054501E+02 
4.247450E+02  9.030769E-01 -1.052937E+02  1.949739E-03 1.509666E+02  1.957104E-03 1.509999E+02  8.986816E-01 -1.055675E+02 
4.247575E+02  9.026368E-01 -1.054072E+02  1.978250E-03 1.505182E+02  1.980332E-03 1.504552E+02  8.981287E-01 -1.056872E+02 
4.247700E+02  9.022119E-01 -1.055263E+02  1.993905E-03 1.498216E+02  2.003911E-03 1.501183E+02  8.977049E-01 -1.058031E+02 
4.247825E+02  9.018214E-01 -1.056471E+02  2.029459E-03 1.495547E+02  2.024238E-03 1.495694E+02  8.972197E-01 -1.059183E+02 
4.247950E+02  9.013090E-01 -1.057676E+02  2.050691E-03 1.488190E+02  2.055363E-03 1.490204E+02  8.968203E-01 -1.060355E+02 
4.248075E+02  9.008902E-01 -1.058749E+02  2.069054E-03 1.485699E+02  2.073224E-03 1.487226E+02  8.962770E-01 -1.061522E+02 
4.248200E+02  9.003587E-01 -1.059946E+02  2.097359E-03 1.482620E+02  2.099252E-03 1.485410E+02  8.957305E-01 -1.062630E+02 
4.248325E+02  8.999259E-01 -1.061136E+02  2.115229E-03 1.481123E+02  2.130437E-03 1.482196E+02  8.951644E-01 -1.063782E+02 
4.248450E+02  8.993643E-01 -1.062278E+02  2.149454E-03 1.477804E+02  2.152221E-03 1.478559E+02  8.945120E-01 -1.064978E+02 
4.248575E+02  8.988889E-01 -1.063462E+02  2.188251E-03 1.476589E+02  2.186486E-03 1.477326E+02  8.939001E-01 -1.066153E+02 
4.248700E+02  8.983109E-01 -1.064536E+02  2.230323E-03 1.474723E+02  2.223000E-03 1.475094E+02  8.933860E-01 -1.067318E+02 
4.248825E+02  8.978178E-01 -1.065724E+02  2.265166E-03 1.474028E+02  2.264603E-03 1.471195E+02  8.929086E-01 -1.068481E+02 
4.248950E+02  8.970835E-01 -1.066954E+02  2.298084E-03 1.468480E+02  2.306144E-03 1.468001E+02  8.922361E-01 -1.069572E+02 
4.249075E+02  8.966543E-01 -1.068123E+02  2.340771E-03 1.463085E+02  2.340447E-03 1.466624E+02  8.915870E-01 -1.070733E+02 
4.249200E+02  8.960455E-01 -1.069248E+02  2.378131E-03 1.462900E+02  2.376795E-03 1.465432E+02  8.909259E-01 -1.071881E+02 
4.249325E+02  8.954037E-01 -1.070431E+02  2.411081E-03 1.461401E+02  2.413723E-03 1.463026E+02  8.902710E-01 -1.072990E+02 
4.249450E+02  8.948101E-01 -1.071564E+02  2.452609E-03 1.463305E+02  2.460788E-03 1.464347E+02  8.895687E-01 -1.074136E+02 
4.249575E+02  8.941228E-01 -1.072718E+02  2.496986E-03 1.466047E+02  2.503831E-03 1.465474E+02  8.888965E-01 -1.075258E+02 
4.249700E+02  8.935658E-01 -1.073849E+02  2.557039E-03 1.467900E+02  2.556920E-03 1.469205E+02  8.882716E-01 -1.076385E+02 
4.249825E+02  8.928894E-01 -1.075017E+02  2.615495E-03 1.471379E+02  2.614790E-03 1.472266E+02  8.875990E-01 -1.077416E+02 
4.249950E+02  8.921824E-01 -1.076197E+02  2.693121E-03 1.473751E+02  2.694628E-03 1.474367E+02  8.869302E-01 -1.078494E+02 
4.250075E+02  8.915528E-01 -1.077301E+02  2.767017E-03 1.474609E+02  2.775164E-03 1.475437E+02  8.863254E-01 -1.079676E+02 
4.250200E+02  8.907696E-01 -1.078563E+02  2.850920E-03 1.475743E+02  2.853358E-03 1.477601E+02  8.856791E-01 -1.080785E+02 
4.250325E+02  8.900939E-01 -1.079648E+02  2.943725E-03 1.478463E+02  2.945072E-03 1.478752E+02  8.848812E-01 -1.081911E+02 
4.250450E+02  8.893148E-01 -1.080753E+02  3.036576E-03 1.478422E+02  3.044734E-03 1.479409E+02  8.842265E-01 -1.083014E+02 
4.250575E+02  8.887528E-01 -1.081881E+02  3.151156E-03 1.482087E+02  3.140920E-03 1.482380E+02  8.835062E-01 -1.084126E+02 
4.250700E+02  8.879220E-01 -1.083000E+02  3.261323E-03 1.482795E+02  3.267159E-03 1.484157E+02  8.828199E-01 -1.085206E+02 
4.250825E+02  8.872481E-01 -1.084134E+02  3.395471E-03 1.486426E+02  3.396716E-03 1.485115E+02  8.821954E-01 -1.086246E+02 
4.250950E+02  8.863588E-01 -1.085302E+02  3.541216E-03 1.486523E+02  3.544866E-03 1.487876E+02  8.815027E-01 -1.087246E+02 
4.251075E+02  8.856383E-01 -1.086382E+02  3.709029E-03 1.487671E+02  3.707924E-03 1.488561E+02  8.806849E-01 -1.088407E+02 
4.251200E+02  8.848083E-01 -1.087505E+02  3.887503E-03 1.485749E+02  3.887430E-03 1.487053E+02  8.799835E-01 -1.089447E+02 
4.251325E+02  8.839543E-01 -1.088655E+02  4.087103E-03 1.482322E+02  4.094122E-03 1.483620E+02  8.791663E-01 -1.090512E+02 
4.251450E+02  8.832576E-01 -1.089662E+02  4.298216E-03 1.479435E+02  4.297221E-03 1.479276E+02  8.784250E-01 -1.091662E+02 
4.251575E+02  8.823918E-01 -1.090782E+02  4.529440E-03 1.473163E+02  4.526152E-03 1.474967E+02  8.777491E-01 -1.092722E+02 
4.251700E+02  8.814962E-01 -1.091866E+02  4.758694E-03 1.464777E+02  4.766799E-03 1.467362E+02  8.769873E-01 -1.093844E+02 
4.251825E+02  8.806011E-01 -1.092904E+02  5.018955E-03 1.456847E+02  5.011208E-03 1.457930E+02  8.763029E-01 -1.094866E+02 
4.251950E+02  8.796329E-01 -1.093994E+02  5.286170E-03 1.447165E+02  5.279282E-03 1.448664E+02  8.754737E-01 -1.095847E+02 
4.252075E+02  8.787859E-01 -1.094993E+02  5.566684E-03 1.436301E+02  5.564985E-03 1.438461E+02  8.745703E-01 -1.096889E+02 
4.252200E+02  8.778570E-01 -1.096048E+02  5.850124E-03 1.425205E+02  5.856868E-03 1.425829E+02  8.738438E-01 -1.097995E+02 
4.252325E+02  8.768254E-01 -1.097085E+02  6.159160E-03 1.411149E+02  6.160868E-03 1.412863E+02  8.729574E-01 -1.099000E+02 
4.252450E+02  8.759312E-01 -1.098084E+02  6.481161E-03 1.397671E+02  6.478132E-03 1.399534E+02  8.721023E-01 -1.100010E+02 
4.252575E+02  8.751124E-01 -1.099052E+02  6.821692E-03 1.383648E+02  6.823263E-03 1.384860E+02  8.712198E-01 -1.100977E+02 
4.252700E+02  8.741436E-01 -1.100002E+02  7.165049E-03 1.367602E+02  7.161538E-03 1.369165E+02  8.705156E-01 -1.101994E+02 
4.252825E+02  8.731527E-01 -1.100906E+02  7.534001E-03 1.350742E+02  7.535780E-03 1.351991E+02  8.696072E-01 -1.102930E+02 
4.252950E+02  8.720640E-01 -1.101917E+02  7.911852E-03 1.333343E+02  7.909848E-03 1.334222E+02  8.687477E-01 -1.103842E+02 
4.253075E+02  8.712597E-01 -1.102787E+02  8.308288E-03 1.314281E+02  8.305143E-03 1.316083E+02  8.679539E-01 -1.104800E+02 
4.253200E+02  8.701698E-01 -1.103726E+02  8.702725E-03 1.294501E+02  8.705324E-03 1.296035E+02  8.670917E-01 -1.105740E+02 
4.253325E+02  8.692637E-01 -1.104635E+02  9.120279E-03 1.274493E+02  9.121032E-03 1.275824E+02  8.662390E-01 -1.106671E+02 
4.253450E+02  8.682130E-01 -1.105403E+02  9.547386E-03 1.253130E+02  9.551867E-03 1.254690E+02  8.653165E-01 -1.107546E+02 
4.253575E+02  8.672969E-01 -1.106164E+02  9.995526E-03 1.231126E+02  9.995528E-03 1.232944E+02  8.645591E-01 -1.108389E+02 
4.253700E+02  8.661696E-01 -1.107015E+02  1.044955E-02 1.208476E+02  1.044266E-02 1.210532E+02  8.636089E-01 -1.109248E+02 
4.253825E+02  8.652920E-01 -1.107759E+02  1.090876E-02 1.184955E+02  1.090842E-02 1.186725E+02  8.628562E-01 -1.110075E+02 
4.253950E+02  8.642986E-01 -1.108509E+02  1.137553E-02 1.160371E+02  1.138241E-02 1.162405E+02  8.619548E-01 -1.110851E+02 
4.254075E+02  8.634456E-01 -1.109129E+02  1.185969E-02 1.135533E+02  1.185618E-02 1.136616E+02  8.612173E-01 -1.111669E+02 
4.254200E+02  8.624243E-01 -1.109825E+02  1.232577E-02 1.108710E+02  1.233175E-02 1.110574E+02  8.603700E-01 -1.112454E+02 
4.254325E+02  8.615422E-01 -1.110484E+02  1.280671E-02 1.081788E+02  1.281416E-02 1.083326E+02  8.595905E-01 -1.113182E+02 
4.254450E+02  8.606968E-01 -1.111029E+02  1.326392E-02 1.054248E+02  1.328181E-02 1.056026E+02  8.587894E-01 -1.113891E+02 
4.254575E+02  8.599508E-01 -1.111589E+02  1.372327E-02 1.025836E+02  1.373624E-02 1.027485E+02  8.580584E-01 -1.114579E+02 
4.254700E+02  8.590633E-01 -1.112033E+02  1.416418E-02 9.969921E+01  1.417799E-02 9.991444E+01  8.574286E-01 -1.115272E+02 
4.254825E+02  8.584483E-01 -1.112573E+02  1.458043E-02 9.678682E+01  1.460263E-02 9.700761E+01  8.567795E-01 -1.115897E+02 
4.254950E+02  8.577221E-01 -1.113112E+02  1.500640E-02 9.389741E+01  1.500904E-02 9.409193E+01  8.561670E-01 -1.116501E+02 
4.255075E+02  8.571023E-01 -1.113583E+02  1.537963E-02 9.100634E+01  1.539379E-02 9.116694E+01  8.555551E-01 -1.117082E+02 
4.255200E+02  8.566345E-01 -1.113971E+02  1.574995E-02 8.811419E+01  1.576208E-02 8.824443E+01  8.550627E-01 -1.117701E+02 
4.255325E+02  8.560537E-01 -1.114495E+02  1.609458E-02 8.523136E+01  1.611999E-02 8.540203E+01  8.546670E-01 -1.118326E+02 
4.255450E+02  8.558476E-01 -1.114883E+02  1.642754E-02 8.237570E+01  1.644313E-02 8.253733E+01  8.541456E-01 -1.118917E+02 
4.255575E+02  8.555967E-01 -1.115289E+02  1.673596E-02 7.950506E+01  1.674908E-02 7.969525E+01  8.537380E-01 -1.119537E+02 
4.255700E+02  8.553148E-01 -1.115673E+02  1.703031E-02 7.667500E+01  1.703790E-02 7.686717E+01  8.534889E-01 -1.120184E+02 
4.255825E+02  8.551801E-01 -1.116142E+02  1.730439E-02 7.386141E+01  1.731742E-02 7.404798E+01  8.531962E-01 -1.120773E+02 
4.255950E+02  8.550135E-01 -1.116666E+02  1.755863E-02 7.107626E+01  1.757171E-02 7.122278E+01  8.530969E-01 -1.121298E+02 
4.256075E+02  8.550200E-01 -1.117095E+02  1.778448E-02 6.828585E+01  1.781018E-02 6.846577E+01  8.527947E-01 -1.121899E+02 
4.256200E+02  8.550887E-01 -1.117531E+02  1.800606E-02 6.553564E+01  1.802494E-02 6.575341E+01  8.526999E-01 -1.122556E+02 
4.256325E+02  8.552364E-01 -1.118085E+02  1.820750E-02 6.284489E+01  1.822214E-02 6.302183E+01  8.526085E-01 -1.123086E+02 
4.256450E+02  8.555326E-01 -1.118614E+02  1.837048E-02 6.012132E+01  1.838756E-02 6.029295E+01  8.525329E-01 -1.123764E+02 
4.256575E+02  8.559325E-01 -1.119113E+02  1.852032E-02 5.744930E+01  1.853435E-02 5.760385E+01  8.526369E-01 -1.124332E+02 
4.256700E+02  8.561002E-01 -1.119701E+02  1.863782E-02 5.480390E+01  1.865460E-02 5.493564E+01  8.527361E-01 -1.125083E+02 
4.256825E+02  8.565090E-01 -1.120362E+02  1.872942E-02 5.218786E+01  1.874892E-02 5.235250E+01  8.529534E-01 -1.125713E+02 
4.256950E+02  8.569300E-01 -1.121152E+02  1.878534E-02 4.963767E+01  1.882355E-02 4.980174E+01  8.532066E-01 -1.126374E+02 
4.257075E+02  8.574336E-01 -1.121819E+02  1.885203E-02 4.712967E+01  1.885832E-02 4.729957E+01  8.534744E-01 -1.127195E+02 
4.257200E+02  8.578628E-01 -1.122638E+02  1.886234E-02 4.469354E+01  1.889310E-02 4.485499E+01  8.537441E-01 -1.127952E+02 
4.257325E+02  8.582940E-01 -1.123419E+02  1.886824E-02 4.229920E+01  1.890018E-02 4.246744E+01  8.541485E-01 -1.128769E+02 
4.257450E+02  8.589194E-01 -1.124328E+02  1.886060E-02 3.998661E+01  1.889410E-02 4.016772E+01  8.544487E-01 -1.129623E+02 
4.257575E+02  8.595567E-01 -1.125175E+02  1.883373E-02 3.772876E+01  1.886265E-02 3.790201E+01  8.548912E-01 -1.130477E+02 
4.257700E+02  8.600186E-01 -1.126147E+02  1.880615E-02 3.553622E+01  1.883811E-02 3.569761E+01  8.552868E-01 -1.131422E+02 
4.257825E+02  8.606664E-01 -1.127166E+02  1.876121E-02 3.341234E+01  1.878310E-02 3.356932E+01  8.557537E-01 -1.132426E+02 
4.257950E+02  8.611580E-01 -1.128173E+02  1.870317E-02 3.134903E+01  1.872490E-02 3.148468E+01  8.562554E-01 -1.133355E+02 
4.258075E+02  8.618613E-01 -1.129279E+02  1.863620E-02 2.931254E+01  1.867526E-02 2.948660E+01  8.567081E-01 -1.134410E+02 
4.258200E+02  8.624120E-01 -1.130356E+02  1.856830E-02 2.732808E+01  1.859112E-02 2.748965E+01  8.571212E-01 -1.135504E+02 
4.258325E+02  8.628387E-01 -1.131530E+02  1.849075E-02 2.542610E+01  1.852022E-02 2.554570E+01  8.576204E-01 -1.136538E+02 
4.258450E+02  8.636342E-01 -1.132713E+02  1.838934E-02 2.353531E+01  1.843104E-02 2.370171E+01  8.580792E-01 -1.137721E+02 
4.258575E+02  8.641998E-01 -1.133939E+02  1.830346E-02 2.170030E+01  1.832783E-02 2.185616E+01  8.586774E-01 -1.138831E+02 
