! Matrix data file written by TouchstoneData, EPCOS AG
! FILENAME: "B3722_SB.s2p"
! COMMENT: "PCB: 2016; PINNING: 25; PORTEXT1: 82ps; PORT"
! INFO: nport=2, nfreq=1601
! DATE: "Thu Jul  3 11:45:09 2008"
! USER: "Thomas Telgmann"
!
! port | pin | signal
! -----|-----|--------
!   1  |  2  |  in
!   2  |  5  |  out
! --------------------
! 
# MHZ S MA R 50
! freq  magS11 angS11  magS21 angS21  magS12 angS12  magS22 angS22
3.050000E+02  9.588488E-01 -6.959743E+01  1.613634E-03 -1.030340E+02  1.607730E-03 -1.026380E+02  9.545046E-01 -6.917631E+01 
3.050125E+02  9.588717E-01 -6.965758E+01  1.629318E-03 -1.032132E+02  1.621389E-03 -1.027887E+02  9.546346E-01 -6.923552E+01 
3.050250E+02  9.587055E-01 -6.970491E+01  1.643895E-03 -1.035281E+02  1.634569E-03 -1.034591E+02  9.545871E-01 -6.928438E+01 
3.050375E+02  9.586994E-01 -6.976672E+01  1.655143E-03 -1.039070E+02  1.651749E-03 -1.036169E+02  9.545798E-01 -6.933911E+01 
3.050500E+02  9.585951E-01 -6.981833E+01  1.670661E-03 -1.044319E+02  1.661864E-03 -1.038823E+02  9.544595E-01 -6.938882E+01 
3.050625E+02  9.584493E-01 -6.987613E+01  1.690163E-03 -1.045111E+02  1.680800E-03 -1.042289E+02  9.544298E-01 -6.943740E+01 
3.050750E+02  9.585350E-01 -6.991843E+01  1.706083E-03 -1.047571E+02  1.698754E-03 -1.043356E+02  9.543495E-01 -6.949644E+01 
3.050875E+02  9.584667E-01 -6.998686E+01  1.727186E-03 -1.050592E+02  1.725628E-03 -1.048100E+02  9.543985E-01 -6.954834E+01 
3.051000E+02  9.585851E-01 -7.004081E+01  1.743482E-03 -1.053540E+02  1.738110E-03 -1.051643E+02  9.543529E-01 -6.959537E+01 
3.051125E+02  9.584264E-01 -7.009052E+01  1.768878E-03 -1.057794E+02  1.762863E-03 -1.052431E+02  9.544942E-01 -6.965484E+01 
3.051250E+02  9.584251E-01 -7.014723E+01  1.792547E-03 -1.058162E+02  1.793093E-03 -1.056177E+02  9.543749E-01 -6.969526E+01 
3.051375E+02  9.583826E-01 -7.020109E+01  1.829482E-03 -1.059957E+02  1.811685E-03 -1.060126E+02  9.543186E-01 -6.975235E+01 
3.051500E+02  9.584159E-01 -7.024896E+01  1.865374E-03 -1.065217E+02  1.857396E-03 -1.062352E+02  9.542450E-01 -6.980153E+01 
3.051625E+02  9.581456E-01 -7.030594E+01  1.899596E-03 -1.073060E+02  1.884782E-03 -1.069523E+02  9.542446E-01 -6.984825E+01 
3.051750E+02  9.582734E-01 -7.036697E+01  1.933601E-03 -1.077950E+02  1.926038E-03 -1.076326E+02  9.541950E-01 -6.990840E+01 
3.051875E+02  9.581551E-01 -7.041238E+01  1.972280E-03 -1.087297E+02  1.962932E-03 -1.084245E+02  9.541777E-01 -6.995107E+01 
3.052000E+02  9.580879E-01 -7.046464E+01  1.995590E-03 -1.096568E+02  1.994810E-03 -1.091486E+02  9.542482E-01 -7.000493E+01 
3.052125E+02  9.582143E-01 -7.051498E+01  2.020396E-03 -1.105274E+02  2.018374E-03 -1.102918E+02  9.542698E-01 -7.005034E+01 
3.052250E+02  9.580483E-01 -7.057440E+01  2.061344E-03 -1.113978E+02  2.056904E-03 -1.112468E+02  9.543013E-01 -7.010390E+01 
3.052375E+02  9.581476E-01 -7.061661E+01  2.093686E-03 -1.122847E+02  2.084396E-03 -1.119716E+02  9.542806E-01 -7.015078E+01 
3.052500E+02  9.580196E-01 -7.066579E+01  2.125294E-03 -1.132027E+02  2.115886E-03 -1.131045E+02  9.544045E-01 -7.020405E+01 
3.052625E+02  9.579432E-01 -7.072270E+01  2.151664E-03 -1.143739E+02  2.153471E-03 -1.139351E+02  9.543138E-01 -7.024791E+01 
3.052750E+02  9.579230E-01 -7.076884E+01  2.175167E-03 -1.154215E+02  2.173016E-03 -1.149409E+02  9.544871E-01 -7.029910E+01 
3.052875E+02  9.579576E-01 -7.082046E+01  2.209466E-03 -1.165602E+02  2.200399E-03 -1.161451E+02  9.544834E-01 -7.034347E+01 
3.053000E+02  9.579026E-01 -7.086299E+01  2.229589E-03 -1.177821E+02  2.222589E-03 -1.174741E+02  9.545804E-01 -7.039370E+01 
3.053125E+02  9.578411E-01 -7.091785E+01  2.260740E-03 -1.188554E+02  2.254399E-03 -1.185568E+02  9.546821E-01 -7.044527E+01 
3.053250E+02  9.578882E-01 -7.097037E+01  2.282224E-03 -1.201982E+02  2.278251E-03 -1.196142E+02  9.546613E-01 -7.048787E+01 
3.053375E+02  9.578394E-01 -7.102296E+01  2.296476E-03 -1.212984E+02  2.288918E-03 -1.208844E+02  9.546936E-01 -7.054321E+01 
3.053500E+02  9.580784E-01 -7.107950E+01  2.319674E-03 -1.223308E+02  2.320536E-03 -1.220566E+02  9.547451E-01 -7.059048E+01 
3.053625E+02  9.579040E-01 -7.112267E+01  2.345913E-03 -1.238150E+02  2.344409E-03 -1.232764E+02  9.550283E-01 -7.064488E+01 
3.053750E+02  9.580108E-01 -7.118078E+01  2.381630E-03 -1.250963E+02  2.370143E-03 -1.247645E+02  9.550295E-01 -7.068441E+01 
3.053875E+02  9.579541E-01 -7.123371E+01  2.395079E-03 -1.267164E+02  2.384741E-03 -1.263660E+02  9.550900E-01 -7.073701E+01 
3.054000E+02  9.580769E-01 -7.127008E+01  2.406556E-03 -1.282699E+02  2.395299E-03 -1.278283E+02  9.552325E-01 -7.078499E+01 
3.054125E+02  9.581770E-01 -7.133094E+01  2.412373E-03 -1.295379E+02  2.404651E-03 -1.293253E+02  9.555584E-01 -7.084288E+01 
3.054250E+02  9.581702E-01 -7.137412E+01  2.423929E-03 -1.308986E+02  2.416883E-03 -1.305165E+02  9.556380E-01 -7.088949E+01 
3.054375E+02  9.583903E-01 -7.143287E+01  2.432934E-03 -1.319442E+02  2.425713E-03 -1.317603E+02  9.558333E-01 -7.094278E+01 
3.054500E+02  9.584707E-01 -7.148090E+01  2.444465E-03 -1.335945E+02  2.439148E-03 -1.332104E+02  9.560286E-01 -7.098875E+01 
3.054625E+02  9.586287E-01 -7.153280E+01  2.464737E-03 -1.350800E+02  2.446151E-03 -1.347782E+02  9.561488E-01 -7.105243E+01 
3.054750E+02  9.587098E-01 -7.158141E+01  2.469223E-03 -1.367380E+02  2.451257E-03 -1.364453E+02  9.562928E-01 -7.110135E+01 
3.054875E+02  9.589745E-01 -7.163220E+01  2.462030E-03 -1.384909E+02  2.452077E-03 -1.381717E+02  9.565811E-01 -7.115540E+01 
3.055000E+02  9.589770E-01 -7.168294E+01  2.458433E-03 -1.399502E+02  2.447896E-03 -1.396090E+02  9.566291E-01 -7.120556E+01 
3.055125E+02  9.591936E-01 -7.173305E+01  2.442108E-03 -1.414514E+02  2.430602E-03 -1.411179E+02  9.570427E-01 -7.126746E+01 
3.055250E+02  9.594174E-01 -7.179243E+01  2.431769E-03 -1.430684E+02  2.424048E-03 -1.427460E+02  9.572526E-01 -7.132799E+01 
3.055375E+02  9.594602E-01 -7.184048E+01  2.418776E-03 -1.446361E+02  2.410108E-03 -1.443113E+02  9.575415E-01 -7.138047E+01 
3.055500E+02  9.597972E-01 -7.189623E+01  2.401064E-03 -1.461158E+02  2.390933E-03 -1.460402E+02  9.577575E-01 -7.144149E+01 
3.055625E+02  9.599374E-01 -7.194988E+01  2.361498E-03 -1.474835E+02  2.366613E-03 -1.472251E+02  9.580595E-01 -7.150048E+01 
3.055750E+02  9.602043E-01 -7.200815E+01  2.341168E-03 -1.487635E+02  2.331527E-03 -1.485340E+02  9.582884E-01 -7.156847E+01 
3.055875E+02  9.602914E-01 -7.206904E+01  2.322332E-03 -1.498584E+02  2.313330E-03 -1.496197E+02  9.583315E-01 -7.163051E+01 
3.056000E+02  9.606093E-01 -7.212440E+01  2.301547E-03 -1.510476E+02  2.294497E-03 -1.505706E+02  9.586591E-01 -7.168948E+01 
3.056125E+02  9.606944E-01 -7.217604E+01  2.285783E-03 -1.521280E+02  2.283828E-03 -1.518147E+02  9.588973E-01 -7.175496E+01 
3.056250E+02  9.610369E-01 -7.224498E+01  2.266477E-03 -1.533863E+02  2.264630E-03 -1.530006E+02  9.590534E-01 -7.181403E+01 
3.056375E+02  9.613082E-01 -7.229870E+01  2.248645E-03 -1.547612E+02  2.235849E-03 -1.543060E+02  9.594219E-01 -7.188546E+01 
3.056500E+02  9.615926E-01 -7.236651E+01  2.220150E-03 -1.561262E+02  2.219077E-03 -1.556271E+02  9.596740E-01 -7.194155E+01 
3.056625E+02  9.618833E-01 -7.243118E+01  2.190827E-03 -1.573034E+02  2.190148E-03 -1.570441E+02  9.599367E-01 -7.200962E+01 
3.056750E+02  9.620029E-01 -7.249277E+01  2.158594E-03 -1.585627E+02  2.152956E-03 -1.583127E+02  9.601362E-01 -7.207199E+01 
3.056875E+02  9.623637E-01 -7.255379E+01  2.121806E-03 -1.596925E+02  2.123206E-03 -1.593760E+02  9.603199E-01 -7.214520E+01 
3.057000E+02  9.625799E-01 -7.261637E+01  2.091893E-03 -1.607983E+02  2.094920E-03 -1.604050E+02  9.604315E-01 -7.221455E+01 
3.057125E+02  9.628500E-01 -7.268788E+01  2.058178E-03 -1.617999E+02  2.059702E-03 -1.614638E+02  9.607383E-01 -7.228878E+01 
3.057250E+02  9.629878E-01 -7.275325E+01  2.030583E-03 -1.626097E+02  2.020630E-03 -1.622838E+02  9.608491E-01 -7.235381E+01 
3.057375E+02  9.633714E-01 -7.281995E+01  1.996091E-03 -1.636939E+02  1.987626E-03 -1.629490E+02  9.612045E-01 -7.242026E+01 
3.057500E+02  9.634383E-01 -7.288718E+01  1.964672E-03 -1.642725E+02  1.952999E-03 -1.641674E+02  9.614195E-01 -7.248998E+01 
3.057625E+02  9.638267E-01 -7.296728E+01  1.935705E-03 -1.653689E+02  1.925540E-03 -1.647944E+02  9.615809E-01 -7.256424E+01 
3.057750E+02  9.640104E-01 -7.303325E+01  1.892355E-03 -1.662589E+02  1.889842E-03 -1.659674E+02  9.619097E-01 -7.263890E+01 
3.057875E+02  9.642651E-01 -7.310700E+01  1.847144E-03 -1.669349E+02  1.852276E-03 -1.666684E+02  9.621902E-01 -7.271515E+01 
3.058000E+02  9.645037E-01 -7.317434E+01  1.809640E-03 -1.673879E+02  1.814052E-03 -1.672309E+02  9.622923E-01 -7.279573E+01 
3.058125E+02  9.647128E-01 -7.324856E+01  1.774721E-03 -1.676038E+02  1.764357E-03 -1.674758E+02  9.624407E-01 -7.287468E+01 
3.058250E+02  9.649754E-01 -7.331710E+01  1.739819E-03 -1.683424E+02  1.741893E-03 -1.678946E+02  9.626164E-01 -7.294170E+01 
3.058375E+02  9.649870E-01 -7.339457E+01  1.717843E-03 -1.683387E+02  1.712417E-03 -1.681689E+02  9.627841E-01 -7.301949E+01 
3.058500E+02  9.654631E-01 -7.347127E+01  1.687016E-03 -1.691430E+02  1.679222E-03 -1.686447E+02  9.630175E-01 -7.309084E+01 
3.058625E+02  9.655053E-01 -7.354932E+01  1.658224E-03 -1.694023E+02  1.657779E-03 -1.687767E+02  9.631985E-01 -7.317363E+01 
3.058750E+02  9.658487E-01 -7.362761E+01  1.631492E-03 -1.695356E+02  1.629926E-03 -1.692789E+02  9.634000E-01 -7.324183E+01 
3.058875E+02  9.659819E-01 -7.370390E+01  1.599204E-03 -1.700165E+02  1.592293E-03 -1.697044E+02  9.635360E-01 -7.332670E+01 
3.059000E+02  9.659918E-01 -7.378026E+01  1.572392E-03 -1.700811E+02  1.569949E-03 -1.698736E+02  9.637470E-01 -7.339694E+01 
3.059125E+02  9.661274E-01 -7.386492E+01  1.538819E-03 -1.704808E+02  1.541333E-03 -1.702087E+02  9.637383E-01 -7.348987E+01 
3.059250E+02  9.662813E-01 -7.394127E+01  1.514393E-03 -1.706676E+02  1.511352E-03 -1.702331E+02  9.638488E-01 -7.356217E+01 
3.059375E+02  9.664603E-01 -7.401676E+01  1.485672E-03 -1.701600E+02  1.477663E-03 -1.702939E+02  9.640781E-01 -7.364038E+01 
3.059500E+02  9.665731E-01 -7.409979E+01  1.460924E-03 -1.703581E+02  1.454828E-03 -1.697614E+02  9.641480E-01 -7.372713E+01 
3.059625E+02  9.668448E-01 -7.417894E+01  1.435715E-03 -1.700981E+02  1.433990E-03 -1.699031E+02  9.643420E-01 -7.379964E+01 
3.059750E+02  9.668306E-01 -7.425718E+01  1.423197E-03 -1.695578E+02  1.415483E-03 -1.696553E+02  9.643200E-01 -7.388925E+01 
3.059875E+02  9.671933E-01 -7.434296E+01  1.396410E-03 -1.694534E+02  1.397993E-03 -1.691282E+02  9.644844E-01 -7.396747E+01 
3.060000E+02  9.670442E-01 -7.442181E+01  1.375710E-03 -1.687703E+02  1.376825E-03 -1.687488E+02  9.647022E-01 -7.404776E+01 
3.060125E+02  9.673715E-01 -7.450765E+01  1.371999E-03 -1.681067E+02  1.365595E-03 -1.683484E+02  9.646924E-01 -7.413065E+01 
3.060250E+02  9.673136E-01 -7.459049E+01  1.360156E-03 -1.677905E+02  1.365380E-03 -1.676098E+02  9.647547E-01 -7.420546E+01 
3.060375E+02  9.673768E-01 -7.467239E+01  1.364680E-03 -1.678735E+02  1.365958E-03 -1.673045E+02  9.648312E-01 -7.429865E+01 
3.060500E+02  9.674895E-01 -7.475432E+01  1.366720E-03 -1.675261E+02  1.359725E-03 -1.675204E+02  9.649124E-01 -7.437805E+01 
3.060625E+02  9.674786E-01 -7.483906E+01  1.371947E-03 -1.682209E+02  1.363994E-03 -1.680400E+02  9.650337E-01 -7.446755E+01 
3.060750E+02  9.675238E-01 -7.491843E+01  1.345680E-03 -1.687557E+02  1.334922E-03 -1.686518E+02  9.650935E-01 -7.454985E+01 
3.060875E+02  9.676240E-01 -7.499863E+01  1.338417E-03 -1.685169E+02  1.332219E-03 -1.682420E+02  9.651427E-01 -7.463668E+01 
3.061000E+02  9.676763E-01 -7.508686E+01  1.321446E-03 -1.689882E+02  1.319135E-03 -1.688617E+02  9.651782E-01 -7.470624E+01 
3.061125E+02  9.677235E-01 -7.517027E+01  1.301257E-03 -1.687599E+02  1.302871E-03 -1.684266E+02  9.651158E-01 -7.479575E+01 
3.061250E+02  9.678633E-01 -7.526337E+01  1.285619E-03 -1.684849E+02  1.285624E-03 -1.678477E+02  9.651535E-01 -7.488222E+01 
3.061375E+02  9.678003E-01 -7.533923E+01  1.297573E-03 -1.681356E+02  1.286368E-03 -1.676185E+02  9.653023E-01 -7.497238E+01 
3.061500E+02  9.678680E-01 -7.542132E+01  1.287556E-03 -1.684571E+02  1.284828E-03 -1.678456E+02  9.652455E-01 -7.505924E+01 
3.061625E+02  9.679168E-01 -7.551820E+01  1.278300E-03 -1.687981E+02  1.268253E-03 -1.682344E+02  9.654060E-01 -7.514220E+01 
3.061750E+02  9.678603E-01 -7.559678E+01  1.257832E-03 -1.686623E+02  1.262498E-03 -1.680236E+02  9.652233E-01 -7.523509E+01 
3.061875E+02  9.679337E-01 -7.568326E+01  1.247802E-03 -1.685060E+02  1.236170E-03 -1.683969E+02  9.654155E-01 -7.532309E+01 
3.062000E+02  9.678771E-01 -7.576653E+01  1.222987E-03 -1.679896E+02  1.222500E-03 -1.678318E+02  9.653464E-01 -7.540744E+01 
3.062125E+02  9.679806E-01 -7.585489E+01  1.202916E-03 -1.678737E+02  1.207586E-03 -1.678040E+02  9.653212E-01 -7.549701E+01 
3.062250E+02  9.678694E-01 -7.594348E+01  1.196849E-03 -1.663893E+02  1.195705E-03 -1.666812E+02  9.653629E-01 -7.559342E+01 
3.062375E+02  9.681172E-01 -7.603989E+01  1.188647E-03 -1.661770E+02  1.193837E-03 -1.657783E+02  9.652252E-01 -7.567486E+01 
3.062500E+02  9.680335E-01 -7.612191E+01  1.191824E-03 -1.653544E+02  1.187630E-03 -1.649063E+02  9.651994E-01 -7.576647E+01 
3.062625E+02  9.679748E-01 -7.620766E+01  1.194147E-03 -1.646520E+02  1.191275E-03 -1.647328E+02  9.651754E-01 -7.585779E+01 
3.062750E+02  9.679194E-01 -7.630030E+01  1.197423E-03 -1.642097E+02  1.197057E-03 -1.639244E+02  9.651705E-01 -7.594583E+01 
3.062875E+02  9.679346E-01 -7.639125E+01  1.199824E-03 -1.635839E+02  1.192985E-03 -1.633309E+02  9.649499E-01 -7.604089E+01 
3.063000E+02  9.679112E-01 -7.647500E+01  1.203305E-03 -1.629125E+02  1.202675E-03 -1.624550E+02  9.650483E-01 -7.612330E+01 
3.063125E+02  9.677978E-01 -7.656289E+01  1.220479E-03 -1.621357E+02  1.216166E-03 -1.620437E+02  9.650036E-01 -7.620113E+01 
3.063250E+02  9.678571E-01 -7.665881E+01  1.242703E-03 -1.622944E+02  1.231040E-03 -1.618578E+02  9.649289E-01 -7.629621E+01 
3.063375E+02  9.676332E-01 -7.674702E+01  1.242033E-03 -1.618855E+02  1.239673E-03 -1.615568E+02  9.650400E-01 -7.638710E+01 
3.063500E+02  9.677899E-01 -7.683644E+01  1.253120E-03 -1.621441E+02  1.266456E-03 -1.620343E+02  9.647008E-01 -7.647374E+01 
3.063625E+02  9.677488E-01 -7.692320E+01  1.269612E-03 -1.624487E+02  1.264313E-03 -1.621167E+02  9.647459E-01 -7.655653E+01 
3.063750E+02  9.676509E-01 -7.701604E+01  1.279780E-03 -1.625337E+02  1.286760E-03 -1.618318E+02  9.646436E-01 -7.665291E+01 
3.063875E+02  9.674142E-01 -7.710984E+01  1.288993E-03 -1.623205E+02  1.285249E-03 -1.622597E+02  9.646472E-01 -7.673552E+01 
3.064000E+02  9.673307E-01 -7.719400E+01  1.308071E-03 -1.626068E+02  1.305471E-03 -1.624283E+02  9.643961E-01 -7.683002E+01 
3.064125E+02  9.673549E-01 -7.728903E+01  1.320634E-03 -1.629177E+02  1.315159E-03 -1.628223E+02  9.643119E-01 -7.691300E+01 
3.064250E+02  9.672689E-01 -7.737605E+01  1.342327E-03 -1.634040E+02  1.331272E-03 -1.631524E+02  9.642014E-01 -7.700930E+01 
3.064375E+02  9.672736E-01 -7.747389E+01  1.349164E-03 -1.640817E+02  1.345500E-03 -1.640336E+02  9.641200E-01 -7.709746E+01 
3.064500E+02  9.669853E-01 -7.755762E+01  1.358564E-03 -1.646486E+02  1.354702E-03 -1.645636E+02  9.642207E-01 -7.719423E+01 
3.064625E+02  9.670949E-01 -7.765049E+01  1.373193E-03 -1.651337E+02  1.362430E-03 -1.649571E+02  9.640717E-01 -7.728437E+01 
3.064750E+02  9.668658E-01 -7.773790E+01  1.372097E-03 -1.664050E+02  1.364111E-03 -1.660753E+02  9.639086E-01 -7.737428E+01 
3.064875E+02  9.668715E-01 -7.783903E+01  1.369676E-03 -1.670801E+02  1.367522E-03 -1.669110E+02  9.637687E-01 -7.746609E+01 
3.065000E+02  9.665836E-01 -7.792557E+01  1.366960E-03 -1.675770E+02  1.364728E-03 -1.673876E+02  9.637888E-01 -7.755538E+01 
3.065125E+02  9.666186E-01 -7.801901E+01  1.355459E-03 -1.683838E+02  1.353811E-03 -1.677009E+02  9.636947E-01 -7.765643E+01 
3.065250E+02  9.665662E-01 -7.810844E+01  1.349348E-03 -1.686444E+02  1.347226E-03 -1.681798E+02  9.636298E-01 -7.774542E+01 
3.065375E+02  9.665148E-01 -7.820849E+01  1.350148E-03 -1.687105E+02  1.344746E-03 -1.682264E+02  9.634726E-01 -7.784436E+01 
3.065500E+02  9.664622E-01 -7.830128E+01  1.355844E-03 -1.689012E+02  1.349918E-03 -1.688852E+02  9.634888E-01 -7.793266E+01 
3.065625E+02  9.662911E-01 -7.838623E+01  1.349489E-03 -1.691472E+02  1.347749E-03 -1.691192E+02  9.633465E-01 -7.803104E+01 
3.065750E+02  9.662192E-01 -7.849110E+01  1.346368E-03 -1.699446E+02  1.349315E-03 -1.696179E+02  9.631614E-01 -7.813128E+01 
3.065875E+02  9.661235E-01 -7.858598E+01  1.341552E-03 -1.701738E+02  1.345620E-03 -1.696671E+02  9.629923E-01 -7.822480E+01 
3.066000E+02  9.659965E-01 -7.868351E+01  1.344787E-03 -1.705870E+02  1.345456E-03 -1.700977E+02  9.628844E-01 -7.831216E+01 
3.066125E+02  9.658913E-01 -7.877986E+01  1.343966E-03 -1.705800E+02  1.333948E-03 -1.702729E+02  9.627994E-01 -7.840788E+01 
3.066250E+02  9.658364E-01 -7.887533E+01  1.338039E-03 -1.709536E+02  1.334396E-03 -1.705199E+02  9.626241E-01 -7.850344E+01 
3.066375E+02  9.656995E-01 -7.897022E+01  1.342874E-03 -1.705448E+02  1.332632E-03 -1.705146E+02  9.626268E-01 -7.860413E+01 
3.066500E+02  9.656972E-01 -7.907436E+01  1.344799E-03 -1.709359E+02  1.342229E-03 -1.705263E+02  9.623559E-01 -7.870398E+01 
3.066625E+02  9.653387E-01 -7.916785E+01  1.351329E-03 -1.711703E+02  1.347976E-03 -1.706658E+02  9.623946E-01 -7.879336E+01 
3.066750E+02  9.652882E-01 -7.926862E+01  1.347217E-03 -1.709231E+02  1.347032E-03 -1.707190E+02  9.621315E-01 -7.889238E+01 
3.066875E+02  9.650705E-01 -7.935472E+01  1.352565E-03 -1.711168E+02  1.350613E-03 -1.709040E+02  9.620614E-01 -7.899501E+01 
3.067000E+02  9.650005E-01 -7.946430E+01  1.367679E-03 -1.713215E+02  1.364722E-03 -1.709300E+02  9.618613E-01 -7.909175E+01 
3.067125E+02  9.647942E-01 -7.956239E+01  1.374672E-03 -1.718548E+02  1.370899E-03 -1.713542E+02  9.615619E-01 -7.919305E+01 
3.067250E+02  9.646251E-01 -7.965950E+01  1.382872E-03 -1.716336E+02  1.381161E-03 -1.714044E+02  9.615679E-01 -7.928309E+01 
3.067375E+02  9.645157E-01 -7.975597E+01  1.393404E-03 -1.722091E+02  1.388700E-03 -1.715911E+02  9.614283E-01 -7.938454E+01 
3.067500E+02  9.642234E-01 -7.985100E+01  1.411068E-03 -1.726780E+02  1.402915E-03 -1.723462E+02  9.613808E-01 -7.948609E+01 
3.067625E+02  9.641816E-01 -7.995901E+01  1.419407E-03 -1.732966E+02  1.419008E-03 -1.729491E+02  9.610662E-01 -7.958944E+01 
3.067750E+02  9.639169E-01 -8.005578E+01  1.420510E-03 -1.736470E+02  1.422567E-03 -1.733905E+02  9.610026E-01 -7.968522E+01 
3.067875E+02  9.637463E-01 -8.014954E+01  1.425367E-03 -1.742931E+02  1.424227E-03 -1.738705E+02  9.607200E-01 -7.978076E+01 
3.068000E+02  9.635970E-01 -8.025552E+01  1.437626E-03 -1.746838E+02  1.438585E-03 -1.748038E+02  9.605238E-01 -7.988760E+01 
3.068125E+02  9.634650E-01 -8.035974E+01  1.454291E-03 -1.758120E+02  1.439043E-03 -1.754431E+02  9.603799E-01 -7.998776E+01 
3.068250E+02  9.632657E-01 -8.047118E+01  1.439518E-03 -1.763814E+02  1.448854E-03 -1.760606E+02  9.601918E-01 -8.009431E+01 
3.068375E+02  9.630056E-01 -8.056832E+01  1.445291E-03 -1.772133E+02  1.436914E-03 -1.766599E+02  9.600522E-01 -8.019854E+01 
3.068500E+02  9.629290E-01 -8.066456E+01  1.437722E-03 -1.774900E+02  1.437641E-03 -1.774232E+02  9.597950E-01 -8.029955E+01 
3.068625E+02  9.626956E-01 -8.076902E+01  1.447004E-03 -1.775297E+02  1.444788E-03 -1.776622E+02  9.596320E-01 -8.039577E+01 
3.068750E+02  9.625970E-01 -8.087781E+01  1.440448E-03 -1.783525E+02  1.448054E-03 -1.780207E+02  9.595064E-01 -8.050361E+01 
3.068875E+02  9.623352E-01 -8.097746E+01  1.445308E-03 -1.788205E+02  1.450357E-03 -1.786216E+02  9.593801E-01 -8.060295E+01 
3.069000E+02  9.622859E-01 -8.108587E+01  1.449189E-03 -1.790471E+02  1.446583E-03 -1.790960E+02  9.590266E-01 -8.071691E+01 
3.069125E+02  9.620340E-01 -8.119355E+01  1.455480E-03 -1.795135E+02  1.452173E-03 -1.792952E+02  9.588933E-01 -8.080891E+01 
