! Matrix data file written by TouchstoneData, EPCOS AG
! FILENAME: "B3729_NB.s2p"
! COMMENT: "PCB:D6E PINN:1/4 PORTEXT1:94.5ps PORTEXT2:18"
! INFO: nport=2, nfreq=1601
! DATE: "Mon Sep 28 17:40:24 2009"
! USER: "Sergey Rostovtsev"
!
! port | pin | signal
! -----|-----|--------
!   1  |  1  |  in
!   2  |  4  |  out
! --------------------
! 
# MHZ S MA R 50
! freq  magS11 angS11  magS21 angS21  magS12 angS12  magS22 angS22
2.700000E+02  9.863591E-01 -4.231640E+01  8.798347E-05 -2.538627E+01  8.788455E-05 -2.971707E+01  9.866947E-01 -4.092205E+01 
2.700625E+02  9.859338E-01 -4.235738E+01  5.905387E-05 -2.279617E+01  4.682837E-05 -3.142899E+01  9.869587E-01 -4.094081E+01 
2.701250E+02  9.864790E-01 -4.236431E+01  6.947490E-05 -2.700600E+01  4.424627E-05 -6.478861E+00  9.873652E-01 -4.095290E+01 
2.701875E+02  9.866040E-01 -4.238360E+01  7.408246E-05 -1.442078E+01  6.479857E-05 -1.544048E+01  9.871957E-01 -4.097280E+01 
2.702500E+02  9.866628E-01 -4.241702E+01  6.647741E-05 -1.017751E+01  4.963904E-05 9.668980E+00  9.873949E-01 -4.099297E+01 
2.703125E+02  9.869559E-01 -4.241940E+01  5.109153E-05 -1.969377E+00  4.977031E-05 -1.871059E-01  9.878418E-01 -4.100330E+01 
2.703750E+02  9.869944E-01 -4.246496E+01  6.443820E-05 -2.073890E+01  6.375122E-05 -8.846454E+00  9.878285E-01 -4.103513E+01 
2.704375E+02  9.871348E-01 -4.248264E+01  6.873533E-05 -1.889378E+01  5.560417E-05 1.848702E+00  9.879796E-01 -4.105868E+01 
2.705000E+02  9.871526E-01 -4.250203E+01  4.615819E-05 -6.564133E+00  6.195829E-05 -5.305096E+00  9.881603E-01 -4.108404E+01 
2.705625E+02  9.875558E-01 -4.251927E+01  4.380330E-05 -6.213064E+00  5.274283E-05 -5.610928E+00  9.880848E-01 -4.109937E+01 
2.706250E+02  9.876353E-01 -4.254462E+01  4.403004E-05 -7.578081E+00  3.603218E-05 -1.578302E+01  9.882702E-01 -4.112847E+01 
2.706875E+02  9.876764E-01 -4.256994E+01  4.738840E-05 -4.725612E+00  5.576196E-05 7.316006E-01  9.885398E-01 -4.115022E+01 
2.707500E+02  9.877827E-01 -4.260682E+01  5.422403E-05 2.109247E+00  3.174343E-05 7.427351E+00  9.884575E-01 -4.118864E+01 
2.708125E+02  9.876804E-01 -4.262959E+01  4.381460E-05 7.644096E+00  5.467381E-05 -2.806393E+00  9.884988E-01 -4.119779E+01 
2.708750E+02  9.873213E-01 -4.263342E+01  5.120905E-05 2.612411E+00  4.446481E-05 8.026225E+00  9.885492E-01 -4.122567E+01 
2.709375E+02  9.875488E-01 -4.266358E+01  3.887206E-05 -9.040757E+00  5.057601E-05 1.004605E+00  9.886140E-01 -4.124590E+01 
2.710000E+02  9.876343E-01 -4.270348E+01  5.543061E-05 -2.343482E+01  5.787510E-05 -1.323708E+01  9.886328E-01 -4.128069E+01 
2.710625E+02  9.876986E-01 -4.272534E+01  5.568867E-05 -3.154933E+00  5.454606E-05 4.035364E+00  9.889374E-01 -4.130287E+01 
2.711250E+02  9.878763E-01 -4.273712E+01  5.657504E-05 -1.716720E+01  5.057709E-05 -2.075975E+01  9.886276E-01 -4.133024E+01 
2.711875E+02  9.878625E-01 -4.275288E+01  4.943142E-05 9.167309E+00  5.168742E-05 2.045646E+00  9.888666E-01 -4.134751E+01 
2.712500E+02  9.880585E-01 -4.280869E+01  5.293500E-05 -5.533386E+00  4.245489E-05 -1.055658E+01  9.888337E-01 -4.137282E+01 
2.713125E+02  9.881813E-01 -4.281549E+01  5.164173E-05 -1.759919E+01  4.817600E-05 -2.084781E+01  9.887735E-01 -4.140156E+01 
2.713750E+02  9.877168E-01 -4.283947E+01  4.809908E-05 -1.419742E+01  5.448187E-05 -6.602918E+00  9.887504E-01 -4.142479E+01 
2.714375E+02  9.880417E-01 -4.287879E+01  3.656911E-05 -1.022414E+01  4.026721E-05 3.143676E+00  9.887822E-01 -4.144369E+01 
2.715000E+02  9.882362E-01 -4.287054E+01  4.584242E-05 -2.248257E+01  2.457558E-05 1.499124E+01  9.889706E-01 -4.146948E+01 
2.715625E+02  9.879448E-01 -4.290358E+01  2.599568E-05 -2.718924E+01  3.642752E-05 -2.190551E+01  9.890558E-01 -4.148486E+01 
2.716250E+02  9.881260E-01 -4.292462E+01  3.897464E-05 -5.311646E+00  3.922953E-05 -4.026023E-01  9.890436E-01 -4.151083E+01 
2.716875E+02  9.880609E-01 -4.295558E+01  2.753671E-05 -4.211032E+01  3.592961E-05 -2.156602E+01  9.889048E-01 -4.154093E+01 
2.717500E+02  9.882563E-01 -4.297987E+01  3.817551E-05 -1.526215E+01  3.165712E-05 -3.678966E+01  9.890438E-01 -4.156304E+01 
2.718125E+02  9.882721E-01 -4.299864E+01  2.188582E-05 -4.861117E+01  1.943776E-05 9.902533E+00  9.891446E-01 -4.159069E+01 
2.718750E+02  9.883457E-01 -4.302991E+01  1.141482E-05 -4.328134E+01  4.247452E-05 -4.254257E+01  9.890069E-01 -4.161228E+01 
2.719375E+02  9.881339E-01 -4.304373E+01  1.473263E-05 -8.141293E+01  3.176903E-05 -1.032702E+02  9.890760E-01 -4.163574E+01 
2.720000E+02  9.882574E-01 -4.305335E+01  1.267167E-06 -1.498569E+02  1.083027E-05 -1.408492E+02  9.891738E-01 -4.165464E+01 
2.720625E+02  9.881167E-01 -4.310888E+01  2.853845E-06 8.584278E+01  2.247224E-05 5.832553E+01  9.892202E-01 -4.169024E+01 
2.721250E+02  9.879520E-01 -4.313476E+01  1.572759E-05 9.969589E+00  9.754751E-06 6.201253E+01  9.890496E-01 -4.171210E+01 
2.721875E+02  9.885514E-01 -4.314336E+01  1.186199E-05 1.138679E+02  5.864171E-06 5.219725E+01  9.890349E-01 -4.174066E+01 
2.722500E+02  9.884871E-01 -4.317485E+01  1.684362E-05 5.195083E+01  3.862376E-06 -2.373740E+01  9.892801E-01 -4.176802E+01 
2.723125E+02  9.884359E-01 -4.320307E+01  3.392463E-05 5.096426E+01  2.271919E-05 5.740894E+01  9.891675E-01 -4.177557E+01 
2.723750E+02  9.881645E-01 -4.324366E+01  1.262174E-05 2.692732E+01  5.358035E-06 4.056615E+01  9.891516E-01 -4.181501E+01 
2.724375E+02  9.880088E-01 -4.325835E+01  1.322212E-05 6.847616E+01  1.576145E-06 -1.646354E+02  9.892450E-01 -4.183984E+01 
2.725000E+02  9.886140E-01 -4.327361E+01  1.074317E-05 6.446685E+01  1.952680E-05 4.774707E+01  9.893907E-01 -4.185820E+01 
2.725625E+02  9.882356E-01 -4.330175E+01  1.038444E-05 8.866603E+01  2.584462E-05 1.005160E+02  9.893301E-01 -4.188485E+01 
2.726250E+02  9.882028E-01 -4.333382E+01  2.456562E-05 1.075262E+02  2.230636E-05 9.604758E+01  9.893912E-01 -4.189887E+01 
2.726875E+02  9.885805E-01 -4.333789E+01  1.890758E-05 6.501057E+01  2.682258E-05 5.697978E+01  9.894725E-01 -4.194034E+01 
2.727500E+02  9.882395E-01 -4.338041E+01  2.591057E-05 7.247452E+01  3.004512E-05 5.245193E+01  9.895177E-01 -4.196041E+01 
2.728125E+02  9.884082E-01 -4.340124E+01  9.185744E-06 9.245746E+01  1.879309E-05 8.076404E+01  9.893085E-01 -4.199338E+01 
2.728750E+02  9.880505E-01 -4.344789E+01  1.379018E-05 7.852517E+01  6.550574E-06 8.787418E+01  9.892823E-01 -4.201939E+01 
2.729375E+02  9.881486E-01 -4.344087E+01  1.644900E-05 1.042854E+02  1.840494E-05 1.009106E+02  9.892920E-01 -4.204526E+01 
2.730000E+02  9.883857E-01 -4.348277E+01  3.381963E-05 1.349002E+02  3.237249E-05 1.265230E+02  9.892051E-01 -4.207286E+01 
2.730625E+02  9.881879E-01 -4.352483E+01  4.699479E-05 1.046037E+02  3.222053E-05 1.074824E+02  9.891638E-01 -4.209396E+01 
2.731250E+02  9.881199E-01 -4.354640E+01  4.114252E-05 1.064218E+02  4.526535E-05 1.096162E+02  9.891488E-01 -4.212909E+01 
2.731875E+02  9.880985E-01 -4.355181E+01  5.320593E-05 1.027445E+02  4.676865E-05 1.008107E+02  9.891525E-01 -4.215042E+01 
2.732500E+02  9.881829E-01 -4.357608E+01  4.796432E-05 8.999372E+01  4.281692E-05 1.001641E+02  9.891960E-01 -4.218027E+01 
2.733125E+02  9.882548E-01 -4.363394E+01  5.857341E-05 8.659498E+01  5.472337E-05 9.220519E+01  9.893945E-01 -4.219997E+01 
2.733750E+02  9.882256E-01 -4.363139E+01  5.190296E-05 8.268225E+01  5.234171E-05 7.544485E+01  9.893048E-01 -4.222353E+01 
2.734375E+02  9.880657E-01 -4.367078E+01  4.440238E-05 6.921135E+01  5.033591E-05 7.677114E+01  9.890713E-01 -4.226158E+01 
2.735000E+02  9.883322E-01 -4.370605E+01  4.738963E-05 8.965678E+01  4.414792E-05 7.518138E+01  9.891333E-01 -4.228028E+01 
2.735625E+02  9.879484E-01 -4.373077E+01  4.086157E-05 7.852407E+01  2.389066E-05 6.234318E+01  9.890486E-01 -4.230663E+01 
2.736250E+02  9.879253E-01 -4.374687E+01  3.736071E-05 8.880878E+01  4.249518E-05 6.233867E+01  9.889818E-01 -4.232595E+01 
2.736875E+02  9.882535E-01 -4.378450E+01  4.833624E-05 9.022013E+01  3.445091E-05 1.204199E+02  9.889789E-01 -4.235910E+01 
2.737500E+02  9.878275E-01 -4.379435E+01  4.742741E-05 9.628811E+01  6.241232E-05 8.997500E+01  9.889197E-01 -4.238810E+01 
2.738125E+02  9.876968E-01 -4.384004E+01  6.394094E-05 1.216859E+02  6.294635E-05 9.964241E+01  9.888811E-01 -4.241393E+01 
2.738750E+02  9.881188E-01 -4.387004E+01  7.104338E-05 9.366456E+01  6.588177E-05 9.819937E+01  9.887684E-01 -4.245092E+01 
2.739375E+02  9.875772E-01 -4.389530E+01  7.519565E-05 9.807180E+01  8.223290E-05 9.537932E+01  9.886661E-01 -4.246490E+01 
2.740000E+02  9.875694E-01 -4.393338E+01  9.070812E-05 8.991102E+01  1.059060E-04 8.671897E+01  9.885285E-01 -4.249380E+01 
2.740625E+02  9.876095E-01 -4.393781E+01  9.306745E-05 8.552733E+01  8.544571E-05 9.207528E+01  9.886428E-01 -4.253319E+01 
2.741250E+02  9.870106E-01 -4.397023E+01  9.954106E-05 8.784301E+01  8.975616E-05 9.380794E+01  9.884049E-01 -4.255329E+01 
2.741875E+02  9.872445E-01 -4.400772E+01  1.043941E-04 8.390887E+01  1.048355E-04 8.039174E+01  9.883271E-01 -4.258150E+01 
2.742500E+02  9.869585E-01 -4.402359E+01  1.173403E-04 7.924386E+01  1.168308E-04 7.549325E+01  9.883376E-01 -4.260063E+01 
2.743125E+02  9.869246E-01 -4.403358E+01  1.170815E-04 6.674063E+01  1.140725E-04 6.484459E+01  9.881363E-01 -4.263130E+01 
2.743750E+02  9.869290E-01 -4.407465E+01  1.160905E-04 6.163272E+01  1.298073E-04 6.724268E+01  9.882045E-01 -4.265768E+01 
2.744375E+02  9.865703E-01 -4.408254E+01  1.175853E-04 6.257981E+01  1.195609E-04 5.642349E+01  9.879389E-01 -4.267156E+01 
2.745000E+02  9.865990E-01 -4.412422E+01  1.299936E-04 5.313814E+01  1.298877E-04 5.370091E+01  9.875914E-01 -4.270166E+01 
2.745625E+02  9.867063E-01 -4.413727E+01  1.149333E-04 4.672459E+01  1.069908E-04 4.774841E+01  9.876231E-01 -4.272328E+01 
2.746250E+02  9.863435E-01 -4.414881E+01  1.017091E-04 4.244957E+01  1.037172E-04 4.805247E+01  9.875305E-01 -4.274573E+01 
2.746875E+02  9.861154E-01 -4.417328E+01  1.050387E-04 5.405140E+01  1.006027E-04 4.941913E+01  9.874173E-01 -4.276595E+01 
2.747500E+02  9.866600E-01 -4.420987E+01  9.149548E-05 5.185485E+01  8.984345E-05 4.868236E+01  9.874164E-01 -4.278649E+01 
2.748125E+02  9.860764E-01 -4.421782E+01  1.103464E-04 5.281496E+01  1.016397E-04 5.312566E+01  9.872610E-01 -4.281970E+01 
2.748750E+02  9.863195E-01 -4.425616E+01  1.040571E-04 5.277978E+01  1.029322E-04 5.135281E+01  9.872023E-01 -4.284105E+01 
2.749375E+02  9.860665E-01 -4.426906E+01  1.102776E-04 5.676937E+01  1.103223E-04 5.490877E+01  9.871723E-01 -4.285203E+01 
2.750000E+02  9.860382E-01 -4.429438E+01  1.253550E-04 5.411403E+01  1.348300E-04 4.955046E+01  9.871013E-01 -4.287545E+01 
2.750625E+02  9.858926E-01 -4.430493E+01  1.456116E-04 4.815897E+01  1.520543E-04 5.098931E+01  9.869676E-01 -4.290448E+01 
2.751250E+02  9.860522E-01 -4.433846E+01  1.519057E-04 4.196190E+01  1.546986E-04 4.245724E+01  9.869506E-01 -4.292095E+01 
2.751875E+02  9.860801E-01 -4.436340E+01  1.480074E-04 3.386946E+01  1.519998E-04 3.148453E+01  9.867718E-01 -4.295135E+01 
2.752500E+02  9.858929E-01 -4.439914E+01  1.450495E-04 2.620610E+01  1.524500E-04 2.862998E+01  9.868269E-01 -4.297720E+01 
2.753125E+02  9.860114E-01 -4.439790E+01  1.413982E-04 2.288270E+01  1.472313E-04 2.602850E+01  9.869743E-01 -4.300490E+01 
2.753750E+02  9.861172E-01 -4.442571E+01  1.325666E-04 1.944862E+01  1.393863E-04 2.212379E+01  9.867673E-01 -4.302375E+01 
2.754375E+02  9.856398E-01 -4.447232E+01  1.319557E-04 1.651297E+01  1.284194E-04 1.906588E+01  9.866805E-01 -4.305241E+01 
2.755000E+02  9.860555E-01 -4.448932E+01  1.099063E-04 1.964393E+01  1.003308E-04 2.312094E+01  9.868076E-01 -4.306170E+01 
2.755625E+02  9.856458E-01 -4.450984E+01  1.310481E-04 2.022444E+01  1.295928E-04 2.771793E+01  9.868535E-01 -4.310769E+01 
2.756250E+02  9.856265E-01 -4.455081E+01  1.343192E-04 1.636629E+01  1.352966E-04 1.787134E+01  9.865533E-01 -4.313199E+01 
2.756875E+02  9.855289E-01 -4.458205E+01  1.287344E-04 6.583068E+00  1.288753E-04 1.216992E+01  9.864909E-01 -4.315638E+01 
2.757500E+02  9.853532E-01 -4.459551E+01  1.169813E-04 9.290760E+00  1.124477E-04 1.148036E+01  9.864686E-01 -4.318898E+01 
2.758125E+02  9.851476E-01 -4.462637E+01  1.276506E-04 1.146628E+01  1.218462E-04 1.119775E+01  9.862965E-01 -4.321644E+01 
2.758750E+02  9.854196E-01 -4.464164E+01  1.296631E-04 8.238423E+00  1.374154E-04 9.634517E+00  9.861092E-01 -4.324378E+01 
2.759375E+02  9.847253E-01 -4.469000E+01  1.193550E-04 2.947091E+00  1.234795E-04 4.742545E+00  9.859721E-01 -4.327686E+01 
2.760000E+02  9.847693E-01 -4.472428E+01  1.156799E-04 6.977574E+00  1.170725E-04 2.297660E+00  9.859041E-01 -4.328551E+01 
2.760625E+02  9.849113E-01 -4.474995E+01  1.256075E-04 6.863325E+00  1.245659E-04 5.861349E+00  9.857286E-01 -4.331578E+01 
2.761250E+02  9.841810E-01 -4.478142E+01  1.311123E-04 4.186340E+00  1.467518E-04 5.404263E+00  9.853579E-01 -4.334374E+01 
2.761875E+02  9.840323E-01 -4.479191E+01  1.391498E-04 1.431119E+00  1.374161E-04 -1.024456E+00  9.852238E-01 -4.336482E+01 
2.762500E+02  9.839695E-01 -4.480764E+01  1.385037E-04 -5.063402E+00  1.457005E-04 -1.772487E+00  9.850747E-01 -4.339382E+01 
2.763125E+02  9.836518E-01 -4.483154E+01  1.353401E-04 -1.122016E+01  1.280431E-04 -6.836333E+00  9.851091E-01 -4.342602E+01 
2.763750E+02  9.834651E-01 -4.484219E+01  1.336213E-04 -1.069956E+01  1.263595E-04 -3.448765E+00  9.845979E-01 -4.341875E+01 
2.764375E+02  9.831804E-01 -4.486641E+01  1.372220E-04 -1.148025E+01  1.268039E-04 -1.110550E+01  9.844674E-01 -4.346016E+01 
2.765000E+02  9.830906E-01 -4.485880E+01  1.451537E-04 -1.039364E+01  1.465820E-04 -9.560015E+00  9.843084E-01 -4.346960E+01 
2.765625E+02  9.828421E-01 -4.489235E+01  1.701270E-04 -1.693381E+01  1.650255E-04 -1.717949E+01  9.840990E-01 -4.348068E+01 
2.766250E+02  9.830077E-01 -4.491149E+01  1.806393E-04 -2.707442E+01  1.811994E-04 -2.512317E+01  9.841931E-01 -4.352238E+01 
2.766875E+02  9.824929E-01 -4.490812E+01  1.656402E-04 -3.817621E+01  1.685626E-04 -3.795236E+01  9.840826E-01 -4.351726E+01 
2.767500E+02  9.826822E-01 -4.492334E+01  1.532530E-04 -4.973646E+01  1.521135E-04 -4.663348E+01  9.835794E-01 -4.355162E+01 
2.768125E+02  9.823941E-01 -4.494304E+01  1.264344E-04 -5.565818E+01  1.272735E-04 -5.858723E+01  9.837302E-01 -4.355465E+01 
2.768750E+02  9.823367E-01 -4.495323E+01  1.208298E-04 -5.341860E+01  1.147038E-04 -5.756231E+01  9.834266E-01 -4.358648E+01 
2.769375E+02  9.825560E-01 -4.497896E+01  9.204719E-05 -5.793036E+01  9.696795E-05 -5.156052E+01  9.834792E-01 -4.359702E+01 
2.770000E+02  9.823128E-01 -4.499799E+01  1.024588E-04 -5.252541E+01  1.126300E-04 -5.342248E+01  9.834287E-01 -4.362793E+01 
2.770625E+02  9.824856E-01 -4.500137E+01  1.034163E-04 -6.029681E+01  1.194442E-04 -6.429271E+01  9.830659E-01 -4.365483E+01 
2.771250E+02  9.823838E-01 -4.501313E+01  9.536661E-05 -5.951259E+01  9.529475E-05 -6.437690E+01  9.830417E-01 -4.366866E+01 
2.771875E+02  9.822844E-01 -4.505786E+01  8.586163E-05 -5.989828E+01  8.116172E-05 -6.228583E+01  9.826199E-01 -4.367570E+01 
2.772500E+02  9.821820E-01 -4.508322E+01  8.716579E-05 -6.600386E+01  9.133827E-05 -6.738239E+01  9.826654E-01 -4.368833E+01 
2.773125E+02  9.824752E-01 -4.510616E+01  7.251010E-05 -7.321286E+01  8.024626E-05 -7.215293E+01  9.824660E-01 -4.371401E+01 
2.773750E+02  9.819648E-01 -4.512167E+01  6.069136E-05 -8.030908E+01  5.882164E-05 -8.023191E+01  9.823638E-01 -4.372360E+01 
2.774375E+02  9.819311E-01 -4.515835E+01  3.931221E-05 -5.648160E+01  3.599704E-05 -4.922415E+01  9.821087E-01 -4.373507E+01 
2.775000E+02  9.820118E-01 -4.515421E+01  6.524569E-05 -3.057580E+01  6.931810E-05 -3.862369E+01  9.818496E-01 -4.374625E+01 
2.775625E+02  9.817255E-01 -4.517919E+01  9.369571E-05 -4.465170E+01  8.932378E-05 -4.663694E+01  9.820025E-01 -4.374344E+01 
2.776250E+02  9.813748E-01 -4.520080E+01  1.021547E-04 -5.909141E+01  9.464235E-05 -4.955943E+01  9.819131E-01 -4.375381E+01 
2.776875E+02  9.816656E-01 -4.518487E+01  9.655313E-05 -7.027667E+01  8.924546E-05 -7.826759E+01  9.820068E-01 -4.375902E+01 
2.777500E+02  9.813904E-01 -4.521481E+01  9.661581E-05 -7.520026E+01  8.340681E-05 -8.247108E+01  9.822066E-01 -4.376827E+01 
2.778125E+02  9.814019E-01 -4.523895E+01  8.693312E-05 -1.010077E+02  8.991786E-05 -9.558446E+01  9.824448E-01 -4.378662E+01 
2.778750E+02  9.822313E-01 -4.523787E+01  5.880531E-05 -1.069676E+02  7.656565E-05 -1.133536E+02  9.824042E-01 -4.379323E+01 
2.779375E+02  9.815980E-01 -4.524796E+01  3.710101E-05 -1.085051E+02  3.760000E-05 -1.209117E+02  9.827047E-01 -4.381792E+01 
2.780000E+02  9.818714E-01 -4.526856E+01  2.544517E-05 -7.791570E+01  3.153520E-05 -6.821771E+01  9.828159E-01 -4.383724E+01 
2.780625E+02  9.823298E-01 -4.530429E+01  2.535036E-05 -5.149374E+01  3.158802E-05 -4.670371E+01  9.827135E-01 -4.386524E+01 
2.781250E+02  9.819479E-01 -4.533185E+01  4.744206E-05 -3.294184E+01  3.768722E-05 -2.365654E+01  9.832077E-01 -4.389403E+01 
2.781875E+02  9.819072E-01 -4.536225E+01  5.971614E-05 -4.713662E+01  6.294485E-05 -4.367083E+01  9.831279E-01 -4.392455E+01 
2.782500E+02  9.821291E-01 -4.537854E+01  6.149404E-05 -5.461148E+01  5.789459E-05 -4.940946E+01  9.831042E-01 -4.395049E+01 
2.783125E+02  9.822616E-01 -4.540395E+01  7.538394E-05 -6.082608E+01  7.719739E-05 -5.854218E+01  9.834175E-01 -4.398533E+01 
2.783750E+02  9.822563E-01 -4.545207E+01  7.281534E-05 -7.524575E+01  7.657083E-05 -6.705172E+01  9.831833E-01 -4.400605E+01 
2.784375E+02  9.818825E-01 -4.547571E+01  9.268354E-05 -6.875925E+01  8.939081E-05 -7.196378E+01  9.833394E-01 -4.403689E+01 
2.785000E+02  9.816932E-01 -4.549295E+01  9.783683E-05 -8.960392E+01  9.104450E-05 -8.735725E+01  9.829496E-01 -4.406785E+01 
2.785625E+02  9.812149E-01 -4.553895E+01  8.866153E-05 -1.067137E+02  8.858588E-05 -1.073151E+02  9.830407E-01 -4.409162E+01 
2.786250E+02  9.814264E-01 -4.556033E+01  8.402178E-05 -1.200254E+02  7.388316E-05 -1.163109E+02  9.827666E-01 -4.411461E+01 
2.786875E+02  9.808870E-01 -4.557725E+01  6.477064E-05 -1.364580E+02  6.416118E-05 -1.429834E+02  9.827312E-01 -4.415105E+01 
2.787500E+02  9.807305E-01 -4.558521E+01  3.571544E-05 -1.422683E+02  4.033528E-05 -1.407076E+02  9.824515E-01 -4.416044E+01 
2.788125E+02  9.806674E-01 -4.560705E+01  2.769338E-05 -1.122477E+02  3.194442E-05 -1.241541E+02  9.824683E-01 -4.419695E+01 
2.788750E+02  9.801758E-01 -4.560223E+01  3.594020E-05 -9.278246E+01  2.387375E-05 -8.498643E+01  9.822623E-01 -4.419570E+01 
2.789375E+02  9.800150E-01 -4.559917E+01  4.735847E-05 -1.004353E+02  4.426747E-05 -1.032412E+02  9.820970E-01 -4.423047E+01 
2.790000E+02  9.805756E-01 -4.561343E+01  6.021560E-05 -1.008113E+02  5.209675E-05 -9.993843E+01  9.820608E-01 -4.424468E+01 
2.790625E+02  9.802726E-01 -4.561915E+01  6.050071E-05 -1.198956E+02  5.914824E-05 -1.240480E+02  9.818108E-01 -4.425687E+01 
2.791250E+02  9.804043E-01 -4.564786E+01  6.352524E-05 -1.303723E+02  5.283848E-05 -1.311257E+02  9.818479E-01 -4.428312E+01 
2.791875E+02  9.808075E-01 -4.567012E+01  7.166941E-05 -1.478432E+02  6.861615E-05 -1.465288E+02  9.815141E-01 -4.429536E+01 
2.792500E+02  9.804045E-01 -4.564486E+01  5.539840E-05 -1.475922E+02  5.912593E-05 -1.593306E+02  9.816213E-01 -4.430569E+01 
2.793125E+02  9.810216E-01 -4.568012E+01  5.634653E-05 -1.791501E+02  4.717120E-05 -1.791296E+02  9.814410E-01 -4.431330E+01 
2.793750E+02  9.808064E-01 -4.569664E+01  4.425270E-05 1.670232E+02  3.931392E-05 1.726716E+02  9.814977E-01 -4.432085E+01 
2.794375E+02  9.810706E-01 -4.569707E+01  3.348782E-05 1.355602E+02  3.062106E-05 1.404159E+02  9.814010E-01 -4.433649E+01 
2.795000E+02  9.811624E-01 -4.573056E+01  5.313094E-06 -1.740403E+02  8.949636E-06 1.043486E+02  9.815204E-01 -4.433415E+01 
2.795625E+02  9.812185E-01 -4.574591E+01  1.781013E-05 -1.530105E+02  1.649578E-05 -1.502378E+02  9.814142E-01 -4.433254E+01 
2.796250E+02  9.812078E-01 -4.577943E+01  2.949271E-05 -1.594264E+02  2.937066E-05 -1.722990E+02  9.817641E-01 -4.435409E+01 
2.796875E+02  9.818277E-01 -4.579389E+01  1.822989E-05 1.551944E+02  2.758889E-05 1.462304E+02  9.819979E-01 -4.436397E+01 
