! Matrix data file written by TouchstoneData, EPCOS AG
! FILENAME: "B3729_WB.s2p"
! COMMENT: "PCB:D6E PINN:1/4 PORTEXT1:94.5ps PORTEXT2:18"
! INFO: nport=2, nfreq=1601
! DATE: "Mon Sep 28 17:40:05 2009"
! USER: "Sergey Rostovtsev"
!
! port | pin | signal
! -----|-----|--------
!   1  |  1  |  in
!   2  |  4  |  out
! --------------------
! 
# MHZ S MA R 50
! freq  magS11 angS11  magS21 angS21  magS12 angS12  magS22 angS22
1.000000E+01  9.996533E-01 -1.399104E+00  7.342834E-05 -7.508821E+01  7.719891E-05 -7.622598E+01  9.991420E-01 -1.232716E+00 
1.186875E+01  9.989115E-01 -1.653084E+00  1.011740E-05 3.021139E+01  1.237080E-05 9.427585E+01  9.993625E-01 -1.571684E+00 
1.373750E+01  9.995063E-01 -1.904979E+00  5.602749E-05 -1.332075E+02  4.981821E-05 -1.185660E+02  9.997314E-01 -1.974481E+00 
1.560625E+01  9.990643E-01 -2.138704E+00  4.028222E-05 -1.273138E+02  3.997574E-05 -1.174750E+02  1.000227E+00 -2.154353E+00 
1.747500E+01  9.993418E-01 -2.444792E+00  4.698754E-05 6.298378E+01  5.796949E-05 7.327477E+01  1.000032E+00 -2.277770E+00 
1.934375E+01  9.988885E-01 -2.691939E+00  1.697015E-05 -2.483891E+01  1.016931E-05 3.884776E+00  9.985901E-01 -2.444946E+00 
2.121250E+01  9.986679E-01 -2.958035E+00  7.328092E-05 7.137380E+01  8.742011E-05 6.788976E+01  9.991030E-01 -2.812985E+00 
2.308125E+01  9.995200E-01 -3.240177E+00  6.729483E-05 6.745990E+01  5.869128E-05 6.818213E+01  9.987709E-01 -3.055281E+00 
2.495000E+01  9.990080E-01 -3.496735E+00  1.003918E-04 1.266634E+02  1.041171E-04 1.296964E+02  9.990174E-01 -3.324218E+00 
2.681875E+01  9.987288E-01 -3.761744E+00  7.811142E-05 8.341593E+01  8.482291E-05 8.237724E+01  9.992384E-01 -3.568318E+00 
2.868750E+01  9.992188E-01 -4.016214E+00  7.653915E-05 1.086651E+02  7.607115E-05 1.074745E+02  9.987180E-01 -3.781795E+00 
3.055625E+01  9.986024E-01 -4.257728E+00  7.641191E-05 5.940964E+01  7.118815E-05 5.085770E+01  9.983655E-01 -4.058734E+00 
3.242500E+01  9.988733E-01 -4.532095E+00  5.387919E-05 1.322048E+02  5.808979E-05 1.339151E+02  9.987531E-01 -4.319713E+00 
3.429375E+01  9.987716E-01 -4.800523E+00  1.478997E-04 1.064983E+02  1.387937E-04 1.017817E+02  9.987103E-01 -4.588754E+00 
3.616250E+01  9.986579E-01 -5.051803E+00  3.396371E-05 5.617779E+01  1.650665E-05 6.806880E+01  9.986118E-01 -4.834687E+00 
3.803125E+01  9.984044E-01 -5.281398E+00  8.223015E-05 5.912753E+01  8.766174E-05 5.479289E+01  9.988873E-01 -5.090753E+00 
3.990000E+01  9.985626E-01 -5.556732E+00  8.192866E-05 1.211664E+02  8.483281E-05 1.164824E+02  9.986305E-01 -5.332556E+00 
4.176875E+01  9.982622E-01 -5.827045E+00  8.120980E-05 4.248420E+01  9.334984E-05 3.600705E+01  9.984141E-01 -5.611856E+00 
4.363750E+01  9.984169E-01 -6.094184E+00  6.979586E-05 8.885589E+01  8.034904E-05 9.656470E+01  9.983217E-01 -5.833323E+00 
4.550625E+01  9.979988E-01 -6.358615E+00  8.413129E-05 1.376960E+01  8.865331E-05 2.212158E+01  9.977901E-01 -6.018614E+00 
4.737500E+01  9.984785E-01 -6.615170E+00  9.433640E-05 8.239665E+01  1.001632E-04 8.818450E+01  9.988435E-01 -6.226254E+00 
4.924375E+01  9.980864E-01 -6.856092E+00  4.244221E-05 4.372245E+01  5.887653E-05 3.526419E+01  9.983755E-01 -6.474586E+00 
5.111250E+01  9.978810E-01 -7.149014E+00  1.506009E-04 8.493409E+01  1.566500E-04 7.928032E+01  9.980042E-01 -6.772476E+00 
5.298125E+01  9.977956E-01 -7.393056E+00  1.191030E-04 1.404468E+02  1.057276E-04 1.437612E+02  9.984641E-01 -7.047098E+00 
5.485000E+01  9.982264E-01 -7.663328E+00  1.007318E-04 1.162290E+02  1.032249E-04 1.216230E+02  9.981971E-01 -7.254004E+00 
5.671875E+01  9.980502E-01 -7.921973E+00  1.051167E-04 4.699813E+01  1.132705E-04 4.995623E+01  9.984092E-01 -7.435585E+00 
5.858750E+01  9.980888E-01 -8.161526E+00  7.645825E-05 1.052323E+02  7.192548E-05 1.068779E+02  9.983321E-01 -7.683240E+00 
6.045625E+01  9.977309E-01 -8.438887E+00  2.107083E-05 1.468036E+02  3.620676E-05 1.437260E+02  9.979478E-01 -7.944913E+00 
6.232500E+01  9.978132E-01 -8.714978E+00  9.323983E-05 3.854966E+01  9.276572E-05 3.396091E+01  9.978404E-01 -8.226338E+00 
6.419375E+01  9.977425E-01 -8.959188E+00  7.617113E-05 8.727364E+01  7.057634E-05 8.821938E+01  9.974333E-01 -8.477598E+00 
6.606250E+01  9.979306E-01 -9.200198E+00  7.363844E-05 8.971271E+01  7.739829E-05 8.403098E+01  9.977333E-01 -8.727725E+00 
6.793125E+01  9.976710E-01 -9.473408E+00  8.150844E-05 7.648791E+01  8.347283E-05 6.772693E+01  9.977213E-01 -8.999580E+00 
6.980000E+01  9.979390E-01 -9.730235E+00  1.851504E-04 9.725835E+01  1.741242E-04 9.547875E+01  9.977873E-01 -9.260164E+00 
7.166875E+01  9.975878E-01 -9.979147E+00  7.181885E-05 4.867569E+01  7.027531E-05 5.410302E+01  9.973441E-01 -9.524314E+00 
7.353750E+01  9.973303E-01 -1.025736E+01  1.016446E-04 8.180908E+01  1.161098E-04 8.883612E+01  9.974015E-01 -9.759128E+00 
7.540625E+01  9.971427E-01 -1.048762E+01  8.161635E-05 7.005087E+01  8.509359E-05 6.911627E+01  9.975009E-01 -1.000146E+01 
7.727500E+01  9.969080E-01 -1.076475E+01  1.045419E-04 8.653728E+01  1.087415E-04 8.450045E+01  9.971615E-01 -1.024422E+01 
7.914375E+01  9.973340E-01 -1.105151E+01  1.814046E-04 7.420585E+01  1.890052E-04 7.598296E+01  9.973948E-01 -1.050531E+01 
8.101250E+01  9.967454E-01 -1.130330E+01  9.277311E-05 6.495719E+01  1.029063E-04 5.112161E+01  9.972403E-01 -1.076764E+01 
8.288125E+01  9.972904E-01 -1.157570E+01  1.361019E-04 9.366920E+01  1.362902E-04 9.563798E+01  9.971224E-01 -1.100104E+01 
8.475000E+01  9.966563E-01 -1.182073E+01  1.153488E-04 7.096834E+01  1.079642E-04 7.410158E+01  9.971325E-01 -1.124536E+01 
8.661875E+01  9.966725E-01 -1.207677E+01  6.288576E-05 1.168894E+02  5.425804E-05 1.245065E+02  9.970327E-01 -1.148302E+01 
8.848750E+01  9.968864E-01 -1.234670E+01  1.323634E-04 9.241278E+01  1.340961E-04 9.010874E+01  9.970492E-01 -1.174692E+01 
9.035625E+01  9.969455E-01 -1.261277E+01  7.681896E-05 7.356052E+01  8.298485E-05 7.446091E+01  9.970991E-01 -1.198490E+01 
9.222500E+01  9.967204E-01 -1.286337E+01  1.154198E-04 8.899556E+01  1.109702E-04 9.075255E+01  9.970273E-01 -1.223666E+01 
9.409375E+01  9.967708E-01 -1.314967E+01  1.082764E-04 5.955313E+01  9.650066E-05 6.306277E+01  9.970910E-01 -1.249411E+01 
9.596250E+01  9.968476E-01 -1.340032E+01  1.486718E-04 8.630513E+01  1.449316E-04 8.781757E+01  9.972028E-01 -1.272731E+01 
9.783125E+01  9.965443E-01 -1.363961E+01  1.729203E-04 3.994286E+01  1.727518E-04 3.802973E+01  9.969590E-01 -1.298867E+01 
9.970000E+01  9.965350E-01 -1.392444E+01  1.541406E-04 6.813728E+01  1.542691E-04 6.572691E+01  9.970303E-01 -1.324791E+01 
1.015687E+02  9.967249E-01 -1.417538E+01  1.318341E-04 7.779960E+01  1.333389E-04 7.613124E+01  9.968531E-01 -1.346526E+01 
1.034375E+02  9.966911E-01 -1.444905E+01  1.702022E-04 7.638757E+01  1.674341E-04 7.450752E+01  9.972920E-01 -1.372929E+01 
1.053063E+02  9.965960E-01 -1.470288E+01  1.603992E-04 5.459061E+01  1.628316E-04 5.846228E+01  9.973092E-01 -1.398287E+01 
1.071750E+02  9.966851E-01 -1.497700E+01  1.072459E-04 7.705591E+01  1.120323E-04 7.475450E+01  9.973019E-01 -1.423675E+01 
1.090438E+02  9.966580E-01 -1.522776E+01  1.162394E-04 8.705848E+01  1.265335E-04 8.461109E+01  9.972218E-01 -1.449383E+01 
1.109125E+02  9.963697E-01 -1.548713E+01  1.907454E-04 7.982384E+01  1.946198E-04 8.123781E+01  9.973009E-01 -1.470922E+01 
1.127812E+02  9.966617E-01 -1.575239E+01  1.160278E-04 7.174685E+01  1.261289E-04 6.969731E+01  9.975105E-01 -1.495744E+01 
1.146500E+02  9.966243E-01 -1.600755E+01  1.774027E-04 7.778816E+01  1.636593E-04 7.554221E+01  9.975153E-01 -1.521623E+01 
1.165187E+02  9.967481E-01 -1.627972E+01  1.705499E-04 6.429662E+01  1.737066E-04 6.520639E+01  9.974288E-01 -1.547662E+01 
1.183875E+02  9.963674E-01 -1.654423E+01  1.582766E-04 6.677996E+01  1.488329E-04 6.865936E+01  9.972317E-01 -1.573974E+01 
1.202562E+02  9.961181E-01 -1.678035E+01  1.385670E-04 6.964443E+01  1.484357E-04 6.735825E+01  9.974129E-01 -1.595281E+01 
1.221250E+02  9.965989E-01 -1.704657E+01  1.628191E-04 6.843690E+01  1.687194E-04 7.023170E+01  9.975784E-01 -1.620431E+01 
1.239938E+02  9.971688E-01 -1.730746E+01  1.431600E-04 6.849611E+01  1.428078E-04 6.583960E+01  9.978182E-01 -1.644137E+01 
1.258625E+02  9.969277E-01 -1.759650E+01  1.170572E-04 8.168546E+01  1.131774E-04 8.499329E+01  9.977192E-01 -1.671136E+01 
1.277313E+02  9.959797E-01 -1.788082E+01  1.100219E-04 6.189144E+01  9.896481E-05 6.490427E+01  9.974484E-01 -1.696186E+01 
1.296000E+02  9.960241E-01 -1.811605E+01  1.675468E-04 8.310394E+01  1.706617E-04 7.536245E+01  9.975035E-01 -1.718611E+01 
1.314688E+02  9.965750E-01 -1.839177E+01  1.331890E-04 6.640310E+01  1.367124E-04 6.281726E+01  9.972191E-01 -1.745201E+01 
1.333375E+02  9.963034E-01 -1.862264E+01  1.531545E-04 7.153470E+01  1.510604E-04 7.625303E+01  9.972719E-01 -1.768146E+01 
1.352063E+02  9.969256E-01 -1.890827E+01  1.714511E-04 8.164483E+01  1.762010E-04 7.836019E+01  9.974276E-01 -1.793730E+01 
1.370750E+02  9.962153E-01 -1.917608E+01  1.724807E-04 6.860658E+01  1.811610E-04 7.145021E+01  9.973169E-01 -1.818697E+01 
1.389437E+02  9.958440E-01 -1.942938E+01  1.711796E-04 6.904735E+01  1.589144E-04 6.448286E+01  9.970794E-01 -1.844210E+01 
1.408125E+02  9.959022E-01 -1.968625E+01  2.281501E-04 7.105495E+01  2.185477E-04 6.821671E+01  9.974737E-01 -1.870900E+01 
1.426813E+02  9.960516E-01 -1.993971E+01  1.105574E-04 5.477671E+01  1.051460E-04 5.180098E+01  9.971120E-01 -1.892964E+01 
1.445500E+02  9.961359E-01 -2.021875E+01  1.795656E-04 7.579651E+01  1.744665E-04 7.349373E+01  9.967985E-01 -1.918900E+01 
1.464187E+02  9.957698E-01 -2.048249E+01  1.477447E-04 6.244681E+01  1.254130E-04 6.412713E+01  9.969683E-01 -1.944099E+01 
1.482875E+02  9.956092E-01 -2.074922E+01  1.457222E-04 7.247022E+01  1.462912E-04 7.415197E+01  9.969235E-01 -1.969750E+01 
1.501562E+02  9.959107E-01 -2.102351E+01  1.685263E-04 7.276623E+01  1.708385E-04 7.200282E+01  9.970383E-01 -1.995189E+01 
1.520250E+02  9.957813E-01 -2.129805E+01  1.521817E-04 7.189436E+01  1.606913E-04 7.324366E+01  9.966705E-01 -2.021208E+01 
1.538938E+02  9.954181E-01 -2.155819E+01  1.500562E-04 6.747408E+01  1.652064E-04 6.946038E+01  9.965539E-01 -2.048076E+01 
1.557625E+02  9.960342E-01 -2.181809E+01  1.805220E-04 7.899262E+01  1.808393E-04 8.364049E+01  9.964772E-01 -2.075151E+01 
1.576312E+02  9.953488E-01 -2.208990E+01  1.863689E-04 6.780010E+01  1.891346E-04 6.976654E+01  9.966940E-01 -2.100058E+01 
1.595000E+02  9.950456E-01 -2.240167E+01  1.868764E-04 7.641958E+01  1.824982E-04 7.598547E+01  9.960565E-01 -2.130196E+01 
1.613688E+02  9.955145E-01 -2.268361E+01  1.510141E-04 6.195370E+01  1.540481E-04 6.213345E+01  9.958953E-01 -2.155311E+01 
1.632375E+02  9.948372E-01 -2.294000E+01  1.642120E-04 6.293258E+01  1.739177E-04 5.981651E+01  9.956709E-01 -2.183392E+01 
1.651062E+02  9.942102E-01 -2.318238E+01  1.856524E-04 5.165552E+01  1.700147E-04 5.384066E+01  9.951549E-01 -2.207147E+01 
1.669750E+02  9.943016E-01 -2.344452E+01  9.962410E-05 6.358241E+01  1.038026E-04 5.879122E+01  9.955043E-01 -2.231256E+01 
1.688438E+02  9.945131E-01 -2.372100E+01  1.566597E-04 6.429339E+01  1.617285E-04 6.764042E+01  9.956683E-01 -2.258594E+01 
1.707125E+02  9.949206E-01 -2.402118E+01  2.076304E-04 6.617782E+01  2.121112E-04 6.932241E+01  9.956996E-01 -2.287276E+01 
1.725813E+02  9.946677E-01 -2.430529E+01  1.672299E-04 6.597498E+01  1.660098E-04 6.544476E+01  9.954788E-01 -2.315175E+01 
1.744500E+02  9.942297E-01 -2.456265E+01  1.883511E-04 6.947243E+01  1.750037E-04 6.760135E+01  9.950513E-01 -2.341459E+01 
1.763187E+02  9.939848E-01 -2.483566E+01  2.076369E-04 7.657874E+01  2.080246E-04 7.791680E+01  9.948296E-01 -2.367656E+01 
1.781875E+02  9.942071E-01 -2.510162E+01  1.550884E-04 6.137033E+01  1.594527E-04 7.028358E+01  9.950282E-01 -2.392501E+01 
1.800563E+02  9.943785E-01 -2.539087E+01  1.921285E-04 6.251666E+01  1.875453E-04 6.405539E+01  9.954420E-01 -2.419846E+01 
1.819250E+02  9.945845E-01 -2.567140E+01  1.460693E-04 6.153933E+01  1.574299E-04 6.348340E+01  9.955072E-01 -2.448875E+01 
1.837937E+02  9.943595E-01 -2.597979E+01  1.895013E-04 6.096614E+01  1.847465E-04 5.960872E+01  9.952879E-01 -2.475367E+01 
1.856625E+02  9.942175E-01 -2.624448E+01  1.795153E-04 6.317723E+01  1.731901E-04 6.653567E+01  9.951585E-01 -2.503932E+01 
1.875312E+02  9.935683E-01 -2.650686E+01  1.680003E-04 5.520356E+01  1.688651E-04 5.516592E+01  9.948490E-01 -2.531403E+01 
1.894000E+02  9.937807E-01 -2.678527E+01  1.442269E-04 5.154269E+01  1.425284E-04 4.752301E+01  9.948787E-01 -2.556617E+01 
1.912688E+02  9.936426E-01 -2.707117E+01  1.360933E-04 7.883333E+01  1.257546E-04 7.678415E+01  9.949144E-01 -2.582985E+01 
1.931375E+02  9.938798E-01 -2.735718E+01  1.908541E-04 8.041619E+01  1.872782E-04 8.051663E+01  9.951062E-01 -2.610420E+01 
1.950062E+02  9.936665E-01 -2.762539E+01  1.971574E-04 5.835684E+01  2.057061E-04 5.671725E+01  9.952163E-01 -2.640747E+01 
1.968750E+02  9.933576E-01 -2.794925E+01  1.563733E-04 7.194443E+01  1.585615E-04 7.003959E+01  9.945637E-01 -2.668784E+01 
1.987438E+02  9.929489E-01 -2.822783E+01  1.814949E-04 4.629524E+01  1.796291E-04 4.780446E+01  9.943678E-01 -2.696073E+01 
2.006125E+02  9.930656E-01 -2.848971E+01  1.625188E-04 6.227907E+01  1.639530E-04 6.052983E+01  9.944832E-01 -2.720802E+01 
2.024812E+02  9.934996E-01 -2.874380E+01  1.429319E-04 5.962438E+01  1.375654E-04 6.249651E+01  9.945530E-01 -2.746530E+01 
2.043500E+02  9.933616E-01 -2.906008E+01  1.656452E-04 5.805939E+01  1.730142E-04 5.377284E+01  9.948142E-01 -2.776576E+01 
2.062188E+02  9.933592E-01 -2.939311E+01  1.870977E-04 6.098398E+01  1.946806E-04 6.052786E+01  9.946959E-01 -2.809485E+01 
2.080875E+02  9.928188E-01 -2.972094E+01  1.594380E-04 6.032339E+01  1.679816E-04 6.045294E+01  9.939477E-01 -2.840582E+01 
2.099563E+02  9.924682E-01 -3.001343E+01  1.550728E-04 6.239712E+01  1.571986E-04 6.448294E+01  9.933502E-01 -2.866659E+01 
2.118250E+02  9.920787E-01 -3.024617E+01  1.574511E-04 7.263149E+01  1.630753E-04 7.097112E+01  9.933422E-01 -2.891560E+01 
2.136937E+02  9.918189E-01 -3.053539E+01  1.226066E-04 5.621349E+01  1.307789E-04 5.692571E+01  9.930922E-01 -2.921690E+01 
2.155625E+02  9.924154E-01 -3.085302E+01  1.497122E-04 6.678121E+01  1.554209E-04 6.737944E+01  9.934439E-01 -2.952300E+01 
2.174313E+02  9.920713E-01 -3.119560E+01  1.632143E-04 6.596040E+01  1.662881E-04 6.828575E+01  9.934863E-01 -2.986343E+01 
2.193000E+02  9.917328E-01 -3.152897E+01  1.811889E-04 5.860605E+01  1.932919E-04 6.007505E+01  9.928854E-01 -3.019018E+01 
2.211687E+02  9.907017E-01 -3.179854E+01  1.911354E-04 5.031446E+01  1.907003E-04 5.059446E+01  9.918825E-01 -3.046156E+01 
2.230375E+02  9.902586E-01 -3.209463E+01  1.285126E-04 3.452520E+01  1.237978E-04 4.517094E+01  9.913908E-01 -3.075988E+01 
2.249062E+02  9.906788E-01 -3.244454E+01  1.101421E-04 6.107514E+01  1.052851E-04 6.191491E+01  9.916659E-01 -3.107464E+01 
2.267750E+02  9.906620E-01 -3.276467E+01  1.479128E-04 7.172527E+01  1.553700E-04 6.732631E+01  9.921061E-01 -3.142109E+01 
2.286438E+02  9.908036E-01 -3.316919E+01  1.477255E-04 5.418307E+01  1.464306E-04 5.195159E+01  9.918151E-01 -3.177019E+01 
2.305125E+02  9.900726E-01 -3.349502E+01  1.320883E-04 6.381952E+01  1.363924E-04 6.521630E+01  9.913852E-01 -3.213528E+01 
2.323812E+02  9.890824E-01 -3.384119E+01  1.431988E-04 6.678390E+01  1.457352E-04 6.379372E+01  9.899599E-01 -3.247880E+01 
2.342500E+02  9.881496E-01 -3.421034E+01  1.731043E-04 3.928661E+01  1.631536E-04 3.971674E+01  9.893692E-01 -3.283298E+01 
2.361188E+02  9.884943E-01 -3.449724E+01  1.342488E-04 5.185515E+01  1.331812E-04 5.125723E+01  9.893491E-01 -3.311643E+01 
2.379875E+02  9.883331E-01 -3.499052E+01  1.233657E-04 5.889803E+01  1.217727E-04 6.373505E+01  9.897216E-01 -3.360851E+01 
2.398562E+02  9.890925E-01 -3.521803E+01  1.411826E-04 5.476770E+01  1.425321E-04 5.564050E+01  9.901225E-01 -3.386602E+01 
2.417250E+02  9.875267E-01 -3.567264E+01  1.498801E-04 5.978186E+01  1.409608E-04 6.093526E+01  9.889489E-01 -3.430339E+01 
2.435938E+02  9.841661E-01 -3.596698E+01  1.627598E-04 4.122075E+01  1.613257E-04 4.103569E+01  9.852868E-01 -3.465556E+01 
2.454625E+02  9.865373E-01 -3.626804E+01  1.339888E-04 4.480313E+01  1.301754E-04 4.130529E+01  9.875934E-01 -3.486156E+01 
2.473313E+02  9.877485E-01 -3.660318E+01  9.954375E-05 4.086727E+01  1.072143E-04 4.428875E+01  9.886940E-01 -3.521676E+01 
2.492000E+02  9.885964E-01 -3.705273E+01  8.636360E-05 6.342646E+01  9.059011E-05 6.523814E+01  9.894392E-01 -3.566670E+01 
2.510687E+02  9.884365E-01 -3.754266E+01  1.296939E-04 5.904129E+01  1.295940E-04 6.230287E+01  9.897743E-01 -3.615655E+01 
2.529375E+02  9.870251E-01 -3.801664E+01  1.106901E-04 5.862991E+01  1.019043E-04 5.936924E+01  9.886308E-01 -3.663899E+01 
2.548063E+02  9.869031E-01 -3.845010E+01  1.427000E-04 3.989567E+01  1.362270E-04 3.887534E+01  9.879837E-01 -3.706894E+01 
2.566750E+02  9.859597E-01 -3.880324E+01  1.119115E-04 3.618908E+01  1.181671E-04 3.614327E+01  9.876829E-01 -3.740510E+01 
2.585437E+02  9.867945E-01 -3.919369E+01  6.380113E-05 3.860663E+01  7.173873E-05 3.425046E+01  9.881996E-01 -3.780078E+01 
2.604125E+02  9.877360E-01 -3.969059E+01  9.911580E-05 4.916683E+01  9.541942E-05 4.794547E+01  9.895415E-01 -3.832411E+01 
2.622812E+02  9.879206E-01 -4.029002E+01  9.549668E-05 5.156176E+01  9.644027E-05 5.168237E+01  9.899074E-01 -3.890236E+01 
2.641500E+02  9.866268E-01 -4.087400E+01  5.965666E-05 3.647297E+01  5.911234E-05 3.575381E+01  9.888235E-01 -3.948128E+01 
2.660188E+02  9.853524E-01 -4.132607E+01  8.369402E-05 3.685336E+01  8.379446E-05 3.787682E+01  9.871117E-01 -3.993137E+01 
2.678875E+02  9.839432E-01 -4.171422E+01  6.666299E-05 2.227675E+01  7.125392E-05 2.884945E+01  9.856906E-01 -4.035258E+01 
2.697563E+02  9.845724E-01 -4.224831E+01  1.126172E-04 -6.953878E+00  1.320019E-04 -1.124157E+01  9.867664E-01 -4.088903E+01 
2.716250E+02  9.867695E-01 -4.290640E+01  2.558361E-05 4.248090E+00  3.551338E-05 -3.667349E+01  9.894562E-01 -4.153629E+01 
2.734937E+02  9.870166E-01 -4.364971E+01  4.615050E-05 9.043408E+01  5.485755E-05 8.448792E+01  9.894222E-01 -4.229225E+01 
2.753625E+02  9.848343E-01 -4.440670E+01  1.305221E-04 2.062892E+01  1.340729E-04 2.051198E+01  9.871589E-01 -4.303596E+01 
2.772312E+02  9.814405E-01 -4.504347E+01  8.374785E-05 -6.137566E+01  8.393652E-05 -6.852032E+01  9.831292E-01 -4.369492E+01 
2.791000E+02  9.794900E-01 -4.559839E+01  6.376613E-05 -1.235529E+02  6.779358E-05 -1.291325E+02  9.823147E-01 -4.428447E+01 
2.809688E+02  9.824460E-01 -4.628132E+01  4.956636E-05 1.308871E+01  5.194463E-05 2.143622E+01  9.853044E-01 -4.491956E+01 
2.828375E+02  9.861523E-01 -4.725589E+01  1.917304E-05 -1.444650E+02  1.784087E-05 -1.749137E+02  9.886955E-01 -4.589044E+01 
2.847063E+02  9.853277E-01 -4.851146E+01  2.651239E-05 -1.447842E+02  2.585209E-05 -1.420468E+02  9.880160E-01 -4.717061E+01 
2.865750E+02  9.800830E-01 -4.973926E+01  1.232562E-04 1.171776E+02  1.259912E-04 1.208964E+02  9.825140E-01 -4.843792E+01 
2.884438E+02  9.717499E-01 -5.055565E+01  4.380874E-04 2.912140E+01  4.434038E-04 3.070783E+01  9.753160E-01 -4.930866E+01 
2.903125E+02  9.662637E-01 -5.136633E+01  7.457157E-04 -7.653219E+01  7.509772E-04 -7.672931E+01  9.695414E-01 -5.008185E+01 
2.921812E+02  9.751348E-01 -5.282470E+01  4.858121E-04 -1.294186E+02  4.887890E-04 -1.290821E+02  9.766089E-01 -5.155639E+01 
2.940500E+02  9.832165E-01 -5.481283E+01  1.519204E-04 -1.406204E+02  1.477218E-04 -1.441137E+02  9.855368E-01 -5.356129E+01 
2.959187E+02  9.797802E-01 -5.770524E+01  1.041421E-04 -4.244648E+01  1.130671E-04 -3.310929E+01  9.823216E-01 -5.653218E+01 
2.977875E+02  9.537248E-01 -6.034531E+01  5.039878E-04 -1.292927E+02  4.990578E-04 -1.306180E+02  9.581618E-01 -5.930893E+01 
2.996562E+02  8.949098E-01 -6.190984E+01  4.900819E-04 -1.383900E+02  4.953224E-04 -1.369643E+02  9.014372E-01 -6.100122E+01 
3.015250E+02  9.184798E-01 -6.524498E+01  5.582711E-04 6.340564E+01  5.585626E-04 6.325948E+01  9.157042E-01 -6.420075E+01 
