! Matrix data file written by TouchstoneData, EPCOS AG
! FILENAME: "LT97B_WB.s2p"
! INFO: nport=2, nfreq=1601
!
! port | pin | signal
! -----|-----|--------
!   1  |  2  |  IN
!   2  |  5  |  OUT
! --------------------
!
# MHZ S RI R 50
! freq  reS11 imS11  reS21 imS21  reS12 imS12  reS22 imS22
10  0.999698 -0.014167  5.031212e-05 0.000233  4.323529e-05 0.000212  0.99969 -0.013734 
11.86875  0.999554 -0.016469  2.859266e-05 5.00282e-05  6.105187e-06 3.653068e-05  0.999698 -0.016201 
13.7375  0.999399 -0.019101  3.810112e-05 0.000135  1.585738e-05 0.000143  0.999282 -0.018595 
15.60625  0.999405 -0.021905  2.140504e-06 0.000126  8.573674e-06 0.000103  0.99939 -0.021598 
17.475  0.999377 -0.024193  -2.932181e-06 0.000182  -2.187738e-06 0.000151  0.998888 -0.02368 
19.34375  0.998644 -0.027032  -0.000104 0.000231  -0.000103 0.000215  0.999076 -0.026307 
21.2125  0.999106 -0.029385  -1.049405e-05 0.000213  -3.711485e-05 0.000225  0.999008 -0.028887 
23.08125  0.999087 -0.031723  1.579641e-06 0.000267  3.29971e-06 0.000215  0.998816 -0.031349 
24.95  0.999113 -0.034777  -6.960794e-06 0.000167  -6.037743e-06 0.000174  0.998763 -0.034032 
26.81875  0.997997 -0.037233  -0.000869 0.00125  -0.000838 0.001262  0.996458 -0.037282 
28.6875  0.998679 -0.039189  2.857971e-05 0.000133  5.970589e-05 0.000135  0.998371 -0.038668 
30.55625  0.998496 -0.042075  4.086689e-05 0.00021  8.169166e-06 0.000197  0.998439 -0.041533 
32.425  0.998331 -0.044426  9.770505e-06 0.000358  -1.768847e-06 0.000344  0.998181 -0.043852 
34.29375  0.998222 -0.047059  1.382056e-05 0.00033  -8.880739e-06 0.0003  0.99839 -0.046678 
36.1625  0.997804 -0.049668  -0.000171 0.00022  -0.000155 0.000237  0.997773 -0.048808 
38.03125  0.997316 -0.052707  1.647882e-05 0.000384  3.091845e-06 0.000393  0.997626 -0.052012 
39.9  0.99764 -0.05485  5.126734e-05 0.000344  1.95561e-05 0.000344  0.997641 -0.053878 
41.76875  0.997243 -0.057345  8.699623e-05 0.000368  7.707823e-05 0.000325  0.997498 -0.056629 
43.6375  0.997363 -0.059875  7.022657e-05 0.000419  7.365665e-05 0.000435  0.997112 -0.059509 
45.50625  0.996916 -0.062447  3.669648e-05 0.00028  2.354115e-05 0.000263  0.996884 -0.061101 
47.375  0.997081 -0.064906  0.000138 0.000334  0.000189 0.000362  0.996503 -0.063856 
49.24375  0.996634 -0.067748  -4.389528e-05 0.000399  -7.184593e-06 0.000426  0.99659 -0.066606 
51.1125  0.996599 -0.070261  4.649498e-05 0.000481  4.31935e-05 0.00045  0.996547 -0.069449 
52.98125  0.996006 -0.072766  2.534352e-06 0.000511  5.334962e-06 0.000482  0.996067 -0.072153 
54.85  0.995864 -0.07495  1.688757e-05 0.000458  2.543309e-05 0.000468  0.995592 -0.074195 
56.71875  0.995931 -0.077784  2.776799e-05 0.000536  3.266319e-05 0.000507  0.99529 -0.077117 
58.5875  0.995491 -0.080146  2.308513e-05 0.000564  4.327092e-05 0.000534  0.995341 -0.079153 
60.45625  0.995176 -0.083084  2.823663e-05 0.000547  3.641596e-05 0.000513  0.995389 -0.081908 
62.325  0.995079 -0.085746  6.305216e-05 0.000473  2.758192e-05 0.000501  0.994757 -0.085228 
64.19375  0.994983 -0.087307  5.145253e-05 0.000516  3.768253e-05 0.000525  0.994569 -0.086117 
66.0625  0.994311 -0.090454  6.709406e-05 0.000566  6.730016e-05 0.000549  0.994301 -0.08959 
67.93125  0.994097 -0.092517  5.633167e-05 0.000637  6.208047e-05 0.00064  0.994294 -0.091639 
69.8  0.994009 -0.095346  2.980185e-05 0.000611  2.3725e-05 0.0006  0.994038 -0.094328 
71.66875  0.993184 -0.098195  0.000106 0.000545  0.00012 0.000563  0.993277 -0.097355 
73.5375  0.993147 -0.100533  -1.053929e-05 0.000614  2.24372e-05 0.000612  0.993407 -0.099458 
75.40625  0.993034 -0.102699  5.79014e-05 0.000609  5.560391e-05 0.000605  0.99317 -0.102183 
77.275  0.992776 -0.105448  0.000171 0.000708  0.000159 0.000697  0.99294 -0.104611 
79.14375  0.992506 -0.10823  0.000101 0.000693  0.000104 0.000689  0.992701 -0.107147 
81.0125  0.991719 -0.11011  0.00011 0.000542  9.649019e-05 0.000565  0.991985 -0.108988 
82.88125  0.991875 -0.112708  0.000138 0.000721  0.000112 0.000698  0.991873 -0.111943 
84.75  0.991489 -0.115873  9.999251e-05 0.000794  7.474322e-05 0.000771  0.991916 -0.114394 
86.61875  0.991371 -0.117961  8.999236e-05 0.000775  6.966932e-05 0.000753  0.991521 -0.116942 
88.4875  0.991077 -0.120631  8.577819e-05 0.000777  0.000106 0.000751  0.990773 -0.119723 
90.35625  0.990577 -0.123128  0.00013 0.000705  0.000126 0.000703  0.990357 -0.122025 
92.225  0.990252 -0.125299  0.000115 0.000774  0.00012 0.000751  0.990014 -0.124308 
94.09375  0.990072 -0.128135  9.624509e-05 0.000836  0.000109 0.000818  0.990425 -0.126964 
95.9625  0.989211 -0.130768  9.933436e-05 0.000795  0.000126 0.000802  0.989674 -0.129203 
97.83125  0.989301 -0.133699  0.000127 0.000879  0.00011 0.000887  0.989302 -0.132426 
99.7  0.988353 -0.135044  7.377842e-05 0.00086  9.08938e-05 0.000849  0.98868 -0.133863 
101.56875  0.988577 -0.137859  0.00015 0.000859  0.000124 0.00087  0.988457 -0.136706 
103.4375  0.988365 -0.140507  0.00018 0.00093  0.000192 0.000918  0.988385 -0.13908 
105.30625  0.987539 -0.143192  0.000127 0.000874  0.000105 0.000893  0.987696 -0.141617 
107.175  0.987242 -0.145902  0.00014 0.000921  0.000151 0.000917  0.987245 -0.144452 
109.04375  0.986643 -0.14801  0.000149 0.000866  0.000128 0.000872  0.986878 -0.14614 
110.9125  0.986395 -0.150395  0.00015 0.000919  0.000149 0.000936  0.98657 -0.149169 
112.78125  0.986071 -0.15316  0.000216 0.00098  0.000255 0.000983  0.985934 -0.151268 
114.65  0.98567 -0.155518  0.000155 0.001005  0.000162 0.000991  0.985718 -0.154061 
116.51875  0.984211 -0.15803  0.000162 0.000781  0.000184 0.000766  0.983256 -0.155982 
118.3875  0.984883 -0.16003  0.000162 0.001009  0.000163 0.001006  0.984542 -0.158121 
120.25625  0.984176 -0.1628  0.000151 0.001056  0.000142 0.001026  0.984352 -0.161072 
122.125  0.983768 -0.165154  0.000181 0.001043  0.000172 0.001062  0.983985 -0.163214 
123.99375  0.983359 -0.167955  0.00019 0.001058  0.000207 0.001047  0.98328 -0.166255 
125.8625  0.98237 -0.170418  0.000235 0.001107  0.000212 0.00112  0.982497 -0.168227 
127.73125  0.982217 -0.172775  0.000204 0.001087  0.000181 0.001083  0.982152 -0.170771 
129.6  0.982091 -0.175119  0.000231 0.001144  0.000226 0.001134  0.981888 -0.172988 
131.46875  0.98134 -0.177903  0.000273 0.001106  0.00027 0.001137  0.981138 -0.17569 
133.3375  0.980623 -0.180585  0.000161 0.001192  0.000187 0.001193  0.981088 -0.178546 
135.20625  0.980006 -0.182551  0.000168 0.001147  0.000186 0.00113  0.980598 -0.180141 
137.075  0.979864 -0.185189  0.000209 0.001148  0.000243 0.001165  0.979859 -0.182574 
138.94375  0.979527 -0.187703  0.000221 0.001185  0.000246 0.001213  0.979416 -0.18515 
140.8125  0.978661 -0.190124  0.000263 0.00121  0.000271 0.001188  0.979186 -0.187843 
142.68125  0.978179 -0.192905  0.000219 0.001196  0.000222 0.001208  0.978855 -0.190397 
144.55  0.977544 -0.194748  0.000285 0.00124  0.000278 0.00122  0.97816 -0.192263 
146.41875  0.977021 -0.197496  0.000265 0.001297  0.000298 0.001265  0.977471 -0.194702 
148.2875  0.976559 -0.200113  0.00026 0.001278  0.000259 0.001272  0.977246 -0.197605 
150.15625  0.976387 -0.202448  0.000253 0.001297  0.000252 0.001318  0.976902 -0.199996 
152.025  0.97503 -0.205669  0.000284 0.001323  0.000281 0.00134  0.975482 -0.203576 
153.89375  0.974728 -0.207175  0.000286 0.001333  0.000272 0.001352  0.975453 -0.204197 
155.7625  0.974294 -0.209701  0.00023 0.001266  0.000242 0.001262  0.975108 -0.207164 
157.63125  0.973807 -0.212327  0.000266 0.001295  0.00027 0.001315  0.974701 -0.209617 
159.5  0.973107 -0.215023  0.000298 0.00137  0.000296 0.001364  0.973801 -0.212216 
161.36875  0.971618 -0.21762  0.000364 0.001391  0.000388 0.001399  0.97232 -0.214399 
163.2375  0.971739 -0.219741  0.000331 0.001346  0.000354 0.001345  0.972802 -0.216577 
165.10625  0.97146 -0.222491  0.000342 0.001387  0.000343 0.001385  0.97237 -0.219194 
166.975  0.970556 -0.224701  0.000291 0.001412  0.000276 0.00142  0.972057 -0.221885 
168.84375  0.970003 -0.2275  0.000376 0.00143  0.000359 0.001445  0.971 -0.224535 
170.7125  0.968949 -0.229244  0.000395 0.001537  0.000382 0.001506  0.96986 -0.225384 
172.58125  0.968956 -0.231992  0.000325 0.001453  0.000321 0.001462  0.969823 -0.228765 
174.45  0.968467 -0.234673  0.000333 0.001475  0.000341 0.001497  0.969364 -0.231204 
176.31875  0.967528 -0.237101  0.000377 0.001453  0.000373 0.001464  0.968806 -0.233767 
178.1875  0.967237 -0.239893  0.000389 0.001465  0.000367 0.001456  0.968168 -0.236805 
180.05625  0.966215 -0.241838  0.000415 0.001453  0.000409 0.001438  0.967157 -0.238328 
181.925  0.965712 -0.244839  0.000415 0.001464  0.00042 0.001483  0.96663 -0.24118 
183.79375  0.964694 -0.246538  0.000418 0.001551  0.00041 0.001537  0.965661 -0.243609 
185.6625  0.964365 -0.249629  0.000392 0.001534  0.000378 0.001528  0.965121 -0.246093 
187.53125  0.963356 -0.252043  0.000408 0.001553  0.000405 0.001548  0.964393 -0.248737 
189.4  0.962924 -0.253819  0.000441 0.001547  0.000439 0.001565  0.963506 -0.250009 
191.26875  0.962144 -0.256477  0.000405 0.001549  0.000403 0.001564  0.963138 -0.252699 
193.1375  0.961729 -0.259298  0.000466 0.00158  0.000463 0.001583  0.962691 -0.255305 
195.00625  0.96074 -0.26153  0.000409 0.001617  0.00042 0.001609  0.961837 -0.257717 
196.875  0.960036 -0.264366  0.000451 0.00157  0.000445 0.001566  0.960825 -0.261297 
198.74375  0.95924 -0.266191  0.00044 0.001661  0.000457 0.001667  0.960308 -0.262413 
200.6125  0.958917 -0.268908  0.000457 0.001634  0.000476 0.001645  0.959382 -0.2653 
202.48125  0.958158 -0.271568  0.000457 0.001661  0.000456 0.001678  0.958613 -0.267757 
204.35  0.957352 -0.274091  0.000501 0.001599  0.000526 0.001604  0.958527 -0.270384 
206.21875  0.955195 -0.276162  0.000494 0.001774  0.000482 0.001754  0.956457 -0.270941 
208.0875  0.955897 -0.278503  0.000471 0.001663  0.000462 0.001649  0.956719 -0.27432 
209.95625  0.954897 -0.280935  0.000496 0.001682  0.000518 0.001689  0.956031 -0.277156 
211.825  0.954318 -0.283539  0.000479 0.00171  0.000476 0.001745  0.955439 -0.279626 
213.69375  0.953478 -0.286028  0.000547 0.001737  0.00057 0.001731  0.954084 -0.282231 
215.5625  0.952406 -0.288025  0.000547 0.001848  0.000545 0.001852  0.953521 -0.283931 
217.43125  0.951885 -0.290384  0.000526 0.001744  0.000523 0.001737  0.952671 -0.286479 
219.3  0.95122 -0.292804  0.000543 0.001785  0.000566 0.001777  0.952391 -0.289347 
221.16875  0.950344 -0.295395  0.00051 0.001765  0.000524 0.001776  0.951485 -0.291642 
223.0375  0.949495 -0.298124  0.000601 0.001772  0.000581 0.001801  0.950435 -0.294139 
224.90625  0.948414 -0.299978  0.000503 0.0018  0.000527 0.001818  0.950069 -0.295554 
226.775  0.948076 -0.302488  0.000556 0.001777  0.000577 0.001767  0.949247 -0.298219 
228.64375  0.947107 -0.304982  0.000601 0.001813  0.0006 0.001794  0.948657 -0.300836 
230.5125  0.946337 -0.307611  0.00059 0.001863  0.000584 0.001864  0.947448 -0.302911 
232.38125  0.945198 -0.310176  0.000595 0.001869  0.000626 0.001894  0.946518 -0.305794 
234.25  0.94431 -0.312068  0.000599 0.001869  0.000595 0.0019  0.945884 -0.307565 
236.11875  0.944182 -0.314572  0.000621 0.001907  0.000619 0.00191  0.945255 -0.309948 
237.9875  0.94296 -0.317026  0.000606 0.001896  0.000612 0.00191  0.944709 -0.312 
239.85625  0.942272 -0.319219  0.000661 0.001905  0.000663 0.001912  0.943867 -0.314608 
241.725  0.940579 -0.322003  0.000639 0.001929  0.00063 0.001914  0.940574 -0.316902 
243.59375  0.940827 -0.323935  0.000664 0.001917  0.000669 0.001939  0.942412 -0.318393 
245.4625  0.940011 -0.326253  0.000671 0.001955  0.00066 0.001923  0.941939 -0.321095 
247.33125  0.93863 -0.328474  0.000698 0.001912  0.000699 0.001899  0.940867 -0.323171 
249.2  0.938067 -0.331102  0.000695 0.001915  0.000687 0.001916  0.940026 -0.325988 
251.06875  0.936296 -0.333179  0.000683 0.001975  0.000695 0.001996  0.938784 -0.327461 
252.9375  0.9363 -0.335611  0.000697 0.001972  0.000699 0.001995  0.938333 -0.330282 
254.80625  0.935265 -0.337945  0.000708 0.002026  0.0007 0.002015  0.937756 -0.332676 
256.675  0.93444 -0.340533  0.000717 0.001993  0.000694 0.001962  0.936556 -0.334836 
258.54375  0.93332 -0.343191  0.000752 0.002017  0.000761 0.002034  0.935201 -0.337167 
260.4125  0.932274 -0.344344  0.00072 0.001996  0.000692 0.002007  0.934598 -0.338209 
262.28125  0.931727 -0.347259  0.000749 0.002007  0.000745 0.002022  0.934168 -0.341122 
264.15  0.930445 -0.349587  0.000712 0.00206  0.000695 0.002047  0.93314 -0.343532 
266.01875  0.929977 -0.352064  0.000787 0.002052  0.000804 0.002059  0.932535 -0.345778 
267.8875  0.928746 -0.354509  0.000778 0.002057  0.00077 0.002061  0.931656 -0.348069 
269.75625  0.927993 -0.356031  0.000777 0.002013  0.000757 0.002006  0.930458 -0.349941 
271.625  0.926824 -0.358878  0.000764 0.002113  0.000787 0.00214  0.929753 -0.35243 
273.49375  0.926084 -0.361112  0.000783 0.002061  0.000795 0.002061  0.928973 -0.354572 
275.3625  0.925205 -0.363708  0.000858 0.002112  0.000846 0.002102  0.927863 -0.356901 
277.23125  0.923909 -0.366266  0.000796 0.002131  0.000787 0.002119  0.926072 -0.360076 
279.1  0.923101 -0.367567  0.000874 0.00211  0.000875 0.002117  0.926165 -0.360877 
280.96875  0.922273 -0.370641  0.000824 0.002151  0.00082 0.002156  0.925547 -0.363133 
282.8375  0.921155 -0.372857  0.000834 0.002129  0.000825 0.002114  0.923839 -0.365523 
284.70625  0.920317 -0.375201  0.000876 0.00219  0.00088 0.002178  0.923464 -0.367813 
286.575  0.918652 -0.37738  0.000841 0.002133  0.000835 0.002123  0.921516 -0.369768 
288.44375  0.91839 -0.379503  0.000899 0.002177  0.000907 0.002186  0.921851 -0.372244 
290.3125  0.917249 -0.381795  0.000824 0.002214  0.000819 0.002221  0.920617 -0.374143 
292.18125  0.916439 -0.384103  0.000926 0.002199  0.000882 0.002225  0.920004 -0.376723 
294.05  0.915531 -0.386768  0.000842 0.002256  0.000822 0.002268  0.918783 -0.37921 
295.91875  0.914164 -0.387698  0.000917 0.002194  0.000928 0.002218  0.917534 -0.380291 
297.7875  0.913325 -0.390862  0.000914 0.00222  0.000909 0.002205  0.916724 -0.383339 
299.65625  0.912581 -0.393249  0.00092 0.002207  0.000934 0.002232  0.915893 -0.385359 
301.525  0.911391 -0.395622  0.000967 0.002291  0.00093 0.002282  0.914754 -0.387956 
303.39375  0.910293 -0.397992  0.000934 0.002257  0.000908 0.002237  0.91343 -0.390535 
305.2625  0.908934 -0.399047  0.001001 0.002287  0.001001 0.002283  0.912781 -0.391824 
307.13125  0.90812 -0.401695  0.000953 0.00231  0.000935 0.002335  0.911519 -0.394047 
309  0.907154 -0.404047  0.000965 0.002261  0.000946 0.002245  0.910559 -0.396509 
310.86875  0.905683 -0.40641  0.001008 0.002319  0.001012 0.002331  0.909569 -0.398895 
312.7375  0.904846 -0.409201  0.000939 0.002279  0.000945 0.002281  0.908326 -0.401882 
314.60625  0.904067 -0.410349  0.001036 0.002271  0.001012 0.002278  0.907758 -0.402753 
316.475  0.903286 -0.412913  0.00104 0.002358  0.001042 0.00234  0.906575 -0.405275 
318.34375  0.90194 -0.415088  0.001025 0.002312  0.001004 0.002309  0.905605 -0.407782 
320.2125  0.900964 -0.417725  0.000998 0.002365  0.001033 0.002355  0.904355 -0.410105 
322.08125  0.899545 -0.420084  0.001042 0.002271  0.001062 0.002298  0.902806 -0.413037 
323.95  0.898494 -0.421928  0.00107 0.00238  0.001038 0.002383  0.902019 -0.414671 
325.81875  0.897364 -0.423768  0.001057 0.002328  0.001072 0.002338  0.901007 -0.417174 
327.6875  0.896662 -0.426488  0.001087 0.00235  0.001076 0.002373  0.89958 -0.419323 
329.55625  0.895311 -0.428587  0.0011 0.00239  0.001066 0.002362  0.898663 -0.421784 
331.425  0.893281 -0.430173  0.001063 0.002349  0.001066 0.002376  0.896421 -0.422468 
333.29375  0.892996 -0.432524  0.001095 0.002354  0.001084 0.002355  0.896458 -0.425545 
335.1625  0.892241 -0.434929  0.001172 0.002351  0.001159 0.002363  0.895383 -0.428206 
337.03125  0.890671 -0.437439  0.001098 0.002418  0.001116 0.002441  0.89454 -0.430456 
338.9  0.889468 -0.439631  0.001108 0.002372  0.001124 0.002367  0.893029 -0.4328 
340.76875  0.888123 -0.441145  0.001193 0.002427  0.001231 0.00244  0.89184 -0.434729 
342.6375  0.887377 -0.443631  0.001137 0.002458  0.001173 0.002436  0.890742 -0.437426 
344.50625  0.886256 -0.445968  0.00122 0.002371  0.001218 0.002364  0.889577 -0.439732 
346.375  0.885128 -0.448607  0.001172 0.002456  0.001157 0.002447  0.888434 -0.442207 
348.24375  0.8839 -0.450433  0.001187 0.002416  0.001192 0.002432  0.886664 -0.444501 
350.1125  0.882506 -0.452129  0.001218 0.002436  0.001234 0.002452  0.88561 -0.445537 
351.98125  0.881575 -0.454176  0.001215 0.002421  0.001191 0.002433  0.884885 -0.448257 
353.85  0.880583 -0.456646  0.001263 0.002489  0.001273 0.002454  0.883379 -0.450723 
355.71875  0.879105 -0.459099  0.001218 0.002478  0.00119 0.002456  0.882156 -0.453304 
357.5875  0.878155 -0.461477  0.001242 0.002437  0.001261 0.002464  0.881181 -0.455303 
359.45625  0.877092 -0.463114  0.001274 0.002465  0.001261 0.002501  0.880002 -0.457077 
361.325  0.876002 -0.465264  0.001296 0.002481  0.001297 0.002473  0.879376 -0.45943 
363.19375  0.874736 -0.467708  0.001246 0.002515  0.00124 0.002498  0.877564 -0.46195 
365.0625  0.873263 -0.470091  0.001265 0.002499  0.001272 0.002493  0.876407 -0.464326 
366.93125  0.871233 -0.472428  0.00132 0.002473  0.001329 0.002482  0.873578 -0.466372 
368.8  0.871142 -0.474044  0.001277 0.002457  0.001297 0.00247  0.873937 -0.468219 
370.66875  0.869802 -0.476323  0.001368 0.002491  0.001357 0.002477  0.872992 -0.470795 
372.5375  0.868574 -0.478699  0.001339 0.002506  0.001325 0.002496  0.871602 -0.473345 
374.40625  0.867007 -0.480957  0.001366 0.002489  0.001357 0.002515  0.869981 -0.475344 
376.275  0.865125 -0.482554  0.001323 0.002545  0.001339 0.002536  0.868442 -0.477111 
378.14375  0.864342 -0.484939  0.001356 0.002514  0.001341 0.002522  0.867588 -0.479383 
380.0125  0.863174 -0.486859  0.001384 0.00255  0.00141 0.002574  0.866593 -0.481557 
381.88125  0.861974 -0.489271  0.001363 0.002594  0.00137 0.002553  0.865076 -0.483712 
383.75  0.860751 -0.491535  0.001426 0.002524  0.001409 0.002534  0.863965 -0.486383 
385.61875  0.859307 -0.492826  0.001394 0.002537  0.001397 0.002571  0.862864 -0.487312 
387.4875  0.858251 -0.495305  0.001425 0.002523  0.001428 0.002527  0.862068 -0.490105 
389.35625  0.857168 -0.497871  0.001446 0.002583  0.001442 0.002597  0.860633 -0.492309 
391.225  0.855646 -0.500197  0.00141 0.00254  0.001418 0.002562  0.859298 -0.494702 
393.09375  0.8543 -0.502617  0.001464 0.00256  0.00146 0.002567  0.857698 -0.497177 
394.9625  0.852946 -0.504033  0.001449 0.002588  0.00143 0.002573  0.856641 -0.498674 
396.83125  0.851484 -0.506514  0.001453 0.002589  0.001463 0.002588  0.855207 -0.500827 
398.7  0.850171 -0.508578  0.001447 0.002602  0.00147 0.002626  0.854057 -0.503058 
400.56875  0.848823 -0.510712  0.001508 0.002617  0.001522 0.002601  0.852968 -0.505134 
402.4375  0.847436 -0.512701  0.001497 0.002634  0.00149 0.002661  0.850856 -0.506925 
404.30625  0.846637 -0.514242  0.001518 0.002522  0.001518 0.002533  0.850323 -0.508358 
406.175  0.845103 -0.516649  0.001537 0.002615  0.001553 0.002613  0.849222 -0.510428 
408.04375  0.843757 -0.518965  0.001514 0.002576  0.001499 0.002592  0.848053 -0.513207 
409.9125  0.842298 -0.521454  0.001581 0.00261  0.001546 0.002616  0.84708 -0.514972 
411.78125  0.840378 -0.523112  0.001518 0.002658  0.001525 0.002626  0.8448 -0.516909 
413.65  0.839755 -0.52535  0.001579 0.002589  0.001565 0.002592  0.844205 -0.519235 
415.51875  0.838006 -0.527545  0.001539 0.002665  0.001543 0.002655  0.842728 -0.521244 
417.3875  0.836511 -0.529815  0.001593 0.002597  0.001587 0.002619  0.841333 -0.523233 
419.25625  0.835021 -0.531795  0.001594 0.002663  0.001589 0.002678  0.839727 -0.525307 
421.125  0.833115 -0.533127  0.001576 0.002599  0.001599 0.002612  0.838364 -0.525877 
422.99375  0.832302 -0.535462  0.001644 0.00263  0.00164 0.002635  0.837237 -0.528573 
424.8625  0.830998 -0.537938  0.001638 0.00263  0.001598 0.002647  0.836231 -0.53097 
