! Matrix data file written by TouchstoneData, EPCOS AG
! FILENAME: "B3726_WB.s2p"
! COMMENT: "PCB:2022 PIN:2/5 PORTEXT1:87.4 PORTEXT2:173."
! INFO: nport=2, nfreq=1601
! DATE: "Tue Dec 30 11:03:50 2008"
! USER: "Sergey Rostovtsev"
!
! port | pin | signal
! -----|-----|--------
!   1  |  2  |  in
!   2  |  5  |  out
! --------------------
! 
# MHZ S MA R 50
! freq  magS11 angS11  magS21 angS21  magS12 angS12  magS22 angS22
!1.000000E+00  9.999882E-01 -9.369029E-02  2.588622E-02 1.196022E+01  2.554484E-02 1.219012E+01  1.003851E+00 -4.459481E-02 
!3.499375E+00  1.000496E+00 -3.696470E-01  1.625159E-04 -5.556573E+00  1.659473E-04 -7.625253E+00  9.998649E-01 -3.415912E-01 
!5.998750E+00  1.000496E+00 -6.066440E-01  1.120306E-05 -1.874271E+00  9.210822E-06 -3.625380E+01  1.000393E+00 -6.326915E-01 
!8.498125E+00  9.994526E-01 -8.148454E-01  1.743931E-04 7.797031E+01  1.704065E-04 8.154558E+01  9.995445E-01 -8.341599E-01 
1.000000E+00  9.994526E-01 -8.148454E-01  1.743931E-04 7.797031E+01  1.704065E-04 8.154558E+01  9.995445E-01 -8.341599E-01 
3.499375E+00  9.994526E-01 -8.148454E-01  1.743931E-04 7.797031E+01  1.704065E-04 8.154558E+01  9.995445E-01 -8.341599E-01 
5.998750E+00  9.994526E-01 -8.148454E-01  1.743931E-04 7.797031E+01  1.704065E-04 8.154558E+01  9.995445E-01 -8.341599E-01 
8.498125E+00  9.994526E-01 -8.148454E-01  1.743931E-04 7.797031E+01  1.704065E-04 8.154558E+01  9.995445E-01 -8.341599E-01 
1.099750E+01  9.993594E-01 -1.041942E+00  5.744167E-05 4.875092E+01  5.763000E-05 4.749580E+01  9.997342E-01 -1.029823E+00 
1.349687E+01  1.000068E+00 -1.306357E+00  2.222785E-04 1.285732E+02  2.176364E-04 1.283205E+02  9.991047E-01 -1.190556E+00 
1.599625E+01  9.996693E-01 -1.530660E+00  1.414013E-04 9.317676E+01  1.407601E-04 9.096224E+01  9.994172E-01 -1.501765E+00 
1.849563E+01  9.991853E-01 -1.749400E+00  1.494824E-04 8.299924E+01  1.486822E-04 8.247291E+01  9.990260E-01 -1.723920E+00 
2.099500E+01  9.991943E-01 -1.990844E+00  1.706748E-04 9.141340E+01  1.678202E-04 9.029569E+01  9.991753E-01 -1.974323E+00 
2.349438E+01  9.995908E-01 -2.210193E+00  2.432916E-04 7.579798E+01  2.358396E-04 7.620332E+01  9.997806E-01 -2.137660E+00 
2.599375E+01  9.992146E-01 -2.424579E+00  2.568280E-04 8.151858E+01  2.528465E-04 8.259612E+01  9.989318E-01 -2.349373E+00 
2.849312E+01  9.992656E-01 -2.595602E+00  2.800869E-04 8.616005E+01  2.757334E-04 8.585326E+01  9.996252E-01 -2.647362E+00 
3.099250E+01  9.992785E-01 -2.883057E+00  2.871356E-04 9.094337E+01  2.859284E-04 9.078740E+01  9.997436E-01 -2.875956E+00 
3.349188E+01  9.989575E-01 -3.136412E+00  2.747842E-04 8.884622E+01  2.693001E-04 8.885677E+01  9.987838E-01 -3.096735E+00 
3.599125E+01  9.988653E-01 -3.365533E+00  3.243029E-04 8.678426E+01  3.236690E-04 8.616330E+01  9.987675E-01 -3.308509E+00 
3.849063E+01  9.988898E-01 -3.579055E+00  4.222091E-04 9.525150E+01  4.183437E-04 9.528761E+01  9.985775E-01 -3.536751E+00 
4.099000E+01  9.988287E-01 -3.810403E+00  4.234782E-04 8.566429E+01  4.189850E-04 8.507272E+01  9.988749E-01 -3.771865E+00 
4.348938E+01  9.988164E-01 -4.065844E+00  4.292385E-04 8.566080E+01  4.296145E-04 8.652335E+01  9.994209E-01 -4.031662E+00 
4.598875E+01  9.985109E-01 -4.322941E+00  3.615235E-04 8.773850E+01  3.604600E-04 8.751523E+01  9.985741E-01 -4.053294E+00 
4.848812E+01  9.985214E-01 -4.495666E+00  4.381323E-04 8.004546E+01  4.389906E-04 8.056595E+01  9.981024E-01 -4.376014E+00 
5.098750E+01  9.985097E-01 -4.736991E+00  5.018314E-04 8.671473E+01  4.964245E-04 8.673948E+01  9.983098E-01 -4.671088E+00 
5.348687E+01  9.984860E-01 -4.973381E+00  4.932366E-04 8.480186E+01  4.891416E-04 8.511872E+01  9.985684E-01 -4.924303E+00 
5.598625E+01  9.983232E-01 -5.201858E+00  6.206707E-04 8.813593E+01  6.151529E-04 8.833749E+01  9.980425E-01 -5.124234E+00 
5.848562E+01  9.986783E-01 -5.432579E+00  5.937988E-04 8.702550E+01  5.902476E-04 8.704742E+01  9.981517E-01 -5.340872E+00 
6.098500E+01  9.983045E-01 -5.653204E+00  6.080548E-04 8.814605E+01  6.011917E-04 8.808607E+01  9.986682E-01 -5.616344E+00 
6.348438E+01  9.974038E-01 -5.908925E+00  1.191893E-03 9.356148E+01  1.183036E-03 9.416809E+01  9.970262E-01 -5.799409E+00 
6.598375E+01  9.982718E-01 -6.127556E+00  6.495899E-04 8.533381E+01  6.449228E-04 8.529036E+01  9.977368E-01 -6.023631E+00 
6.848313E+01  9.980164E-01 -6.358397E+00  6.353768E-04 8.435694E+01  6.288735E-04 8.443857E+01  9.977939E-01 -6.232497E+00 
7.098250E+01  9.981606E-01 -6.564952E+00  7.141318E-04 8.382435E+01  7.050860E-04 8.432957E+01  9.976573E-01 -6.480165E+00 
7.348188E+01  9.980102E-01 -6.810554E+00  7.793855E-04 8.561443E+01  7.702788E-04 8.573059E+01  9.974951E-01 -6.717776E+00 
7.598125E+01  9.980236E-01 -7.038881E+00  6.867383E-04 8.460771E+01  6.763404E-04 8.395489E+01  9.983708E-01 -6.979202E+00 
7.848063E+01  9.976804E-01 -7.283787E+00  7.260608E-04 8.304475E+01  7.256156E-04 8.299214E+01  9.973887E-01 -7.170801E+00 
8.098000E+01  9.977686E-01 -7.540127E+00  8.304722E-04 8.089533E+01  8.245184E-04 8.094235E+01  9.974951E-01 -7.434323E+00 
8.347938E+01  9.974740E-01 -7.719185E+00  7.843779E-04 8.318835E+01  7.785900E-04 8.267082E+01  9.979800E-01 -7.650685E+00 
8.597875E+01  9.978435E-01 -7.950220E+00  8.627338E-04 7.802571E+01  8.586869E-04 7.817991E+01  9.973356E-01 -7.841525E+00 
8.847813E+01  9.980049E-01 -8.180332E+00  8.763892E-04 8.265843E+01  8.742300E-04 8.268076E+01  9.974771E-01 -8.065010E+00 
9.097750E+01  9.974653E-01 -8.410354E+00  8.414185E-04 7.970432E+01  8.337031E-04 7.942935E+01  9.972696E-01 -8.288745E+00 
9.347688E+01  9.980227E-01 -8.626790E+00  9.171965E-04 8.288905E+01  9.129382E-04 8.262237E+01  9.973401E-01 -8.514465E+00 
9.597625E+01  9.978037E-01 -8.852495E+00  9.475899E-04 8.277229E+01  9.440066E-04 8.263578E+01  9.981881E-01 -8.793608E+00 
9.847562E+01  9.975997E-01 -9.078590E+00  9.594885E-04 8.273986E+01  9.549323E-04 8.256577E+01  9.979652E-01 -8.956471E+00 
1.009750E+02  9.975810E-01 -9.292982E+00  9.363384E-04 7.883736E+01  9.330433E-04 7.897751E+01  9.976829E-01 -9.173636E+00 
1.034744E+02  9.979438E-01 -9.509741E+00  1.015019E-03 8.084085E+01  1.010626E-03 8.088611E+01  9.975318E-01 -9.380400E+00 
1.059737E+02  9.979998E-01 -9.740480E+00  1.051022E-03 8.101090E+01  1.046299E-03 8.115530E+01  9.979194E-01 -9.596995E+00 
1.084731E+02  9.971169E-01 -9.975074E+00  1.021099E-03 7.898674E+01  1.018401E-03 7.906937E+01  9.968850E-01 -9.830003E+00 
1.109725E+02  9.976149E-01 -1.016855E+01  1.117779E-03 7.912332E+01  1.110599E-03 7.921040E+01  9.974403E-01 -1.003702E+01 
1.134719E+02  9.975687E-01 -1.040661E+01  1.117323E-03 8.153882E+01  1.108446E-03 8.160765E+01  9.974543E-01 -1.026932E+01 
1.159712E+02  9.974949E-01 -1.064820E+01  1.123351E-03 7.996478E+01  1.118226E-03 7.993923E+01  9.972245E-01 -1.050578E+01 
1.184706E+02  9.973144E-01 -1.085569E+01  1.120725E-03 8.155260E+01  1.113805E-03 8.145597E+01  9.969826E-01 -1.070282E+01 
1.209700E+02  9.971853E-01 -1.108047E+01  1.159147E-03 8.022723E+01  1.154425E-03 8.022037E+01  9.970950E-01 -1.092915E+01 
1.234694E+02  9.970167E-01 -1.130179E+01  1.192416E-03 8.088915E+01  1.184960E-03 8.088664E+01  9.970923E-01 -1.114451E+01 
1.259688E+02  9.966706E-01 -1.154776E+01  1.144220E-03 8.119970E+01  1.140735E-03 8.119085E+01  9.971642E-01 -1.139464E+01 
1.284681E+02  9.972280E-01 -1.175662E+01  1.243433E-03 8.097713E+01  1.235633E-03 8.100652E+01  9.968121E-01 -1.160263E+01 
1.309675E+02  9.969633E-01 -1.196705E+01  1.209881E-03 7.963600E+01  1.202865E-03 7.948742E+01  9.970118E-01 -1.181565E+01 
1.334669E+02  9.969991E-01 -1.221424E+01  1.265713E-03 7.801927E+01  1.258211E-03 7.816236E+01  9.966306E-01 -1.203377E+01 
1.359663E+02  9.961610E-01 -1.241568E+01  1.307010E-03 7.715566E+01  1.298528E-03 7.716634E+01  9.963189E-01 -1.222353E+01 
1.384656E+02  9.967645E-01 -1.264141E+01  1.259337E-03 7.559090E+01  1.253785E-03 7.561856E+01  9.968021E-01 -1.248931E+01 
1.409650E+02  9.970007E-01 -1.286978E+01  1.318174E-03 7.868613E+01  1.310945E-03 7.845198E+01  9.968356E-01 -1.271979E+01 
1.434644E+02  9.967084E-01 -1.310734E+01  1.356896E-03 7.607145E+01  1.349969E-03 7.607751E+01  9.964819E-01 -1.293909E+01 
1.459638E+02  9.968164E-01 -1.331159E+01  1.367804E-03 7.744586E+01  1.358755E-03 7.740615E+01  9.964791E-01 -1.313845E+01 
1.484631E+02  9.964766E-01 -1.354603E+01  1.416815E-03 7.791746E+01  1.409634E-03 7.806917E+01  9.968066E-01 -1.336352E+01 
1.509625E+02  9.965531E-01 -1.375592E+01  1.426492E-03 7.622932E+01  1.416199E-03 7.622112E+01  9.964612E-01 -1.359539E+01 
1.534619E+02  9.960022E-01 -1.401018E+01  1.456719E-03 7.938510E+01  1.445170E-03 7.934404E+01  9.951617E-01 -1.381150E+01 
1.559613E+02  9.962702E-01 -1.418975E+01  1.474750E-03 7.650411E+01  1.469223E-03 7.668210E+01  9.966303E-01 -1.401959E+01 
1.584606E+02  9.963415E-01 -1.442373E+01  1.468519E-03 7.679949E+01  1.460890E-03 7.683895E+01  9.966178E-01 -1.422982E+01 
1.609600E+02  9.960362E-01 -1.465427E+01  1.504675E-03 7.661841E+01  1.498468E-03 7.654618E+01  9.963603E-01 -1.445507E+01 
1.634594E+02  9.956404E-01 -1.486696E+01  1.582587E-03 7.891587E+01  1.571837E-03 7.894006E+01  9.957781E-01 -1.464314E+01 
1.659588E+02  9.953876E-01 -1.508885E+01  1.527739E-03 7.323196E+01  1.516094E-03 7.328765E+01  9.959292E-01 -1.486906E+01 
1.684581E+02  9.955683E-01 -1.531422E+01  1.568707E-03 7.713970E+01  1.560912E-03 7.714834E+01  9.957820E-01 -1.509529E+01 
1.709575E+02  9.952439E-01 -1.556364E+01  1.555365E-03 7.519097E+01  1.547339E-03 7.517407E+01  9.952267E-01 -1.535254E+01 
1.734569E+02  9.951293E-01 -1.577061E+01  1.629161E-03 7.495081E+01  1.617163E-03 7.521883E+01  9.948922E-01 -1.550520E+01 
1.759563E+02  9.950903E-01 -1.598350E+01  1.648881E-03 7.399870E+01  1.640311E-03 7.387946E+01  9.949558E-01 -1.574589E+01 
1.784556E+02  9.946655E-01 -1.622288E+01  1.697293E-03 7.563853E+01  1.688555E-03 7.581382E+01  9.947953E-01 -1.597607E+01 
1.809550E+02  9.942344E-01 -1.643995E+01  1.714355E-03 7.276612E+01  1.704557E-03 7.286040E+01  9.942063E-01 -1.618923E+01 
1.834544E+02  9.944419E-01 -1.666884E+01  1.730324E-03 7.401595E+01  1.720038E-03 7.409750E+01  9.944881E-01 -1.640503E+01 
1.859538E+02  9.942453E-01 -1.690532E+01  1.723100E-03 7.353400E+01  1.714235E-03 7.342087E+01  9.943523E-01 -1.663146E+01 
1.884531E+02  9.940956E-01 -1.713562E+01  1.812246E-03 7.608104E+01  1.798998E-03 7.625939E+01  9.942496E-01 -1.687913E+01 
1.909525E+02  9.937652E-01 -1.736729E+01  1.743044E-03 7.456951E+01  1.736660E-03 7.475604E+01  9.940479E-01 -1.706751E+01 
1.934519E+02  9.941219E-01 -1.758710E+01  1.761419E-03 7.481908E+01  1.750472E-03 7.496744E+01  9.937057E-01 -1.730574E+01 
1.959512E+02  9.940837E-01 -1.780985E+01  1.762493E-03 7.145257E+01  1.754666E-03 7.157247E+01  9.937498E-01 -1.753858E+01 
1.984506E+02  9.939749E-01 -1.807894E+01  1.796773E-03 7.205502E+01  1.785685E-03 7.204585E+01  9.934133E-01 -1.778683E+01 
2.009500E+02  9.938155E-01 -1.826797E+01  1.813110E-03 7.171173E+01  1.801855E-03 7.191363E+01  9.935913E-01 -1.797688E+01 
2.034494E+02  9.936488E-01 -1.850560E+01  1.885632E-03 7.210520E+01  1.872519E-03 7.220631E+01  9.935404E-01 -1.821350E+01 
2.059487E+02  9.939588E-01 -1.874557E+01  1.922565E-03 7.605992E+01  1.907370E-03 7.596898E+01  9.932689E-01 -1.844443E+01 
2.084481E+02  9.936961E-01 -1.892938E+01  1.922424E-03 7.334386E+01  1.909964E-03 7.347548E+01  9.932352E-01 -1.864701E+01 
2.109475E+02  9.938479E-01 -1.917288E+01  1.965433E-03 7.438870E+01  1.950259E-03 7.452695E+01  9.933732E-01 -1.885875E+01 
2.134469E+02  9.940186E-01 -1.940646E+01  1.978829E-03 7.146501E+01  1.967091E-03 7.162608E+01  9.935604E-01 -1.910098E+01 
2.159462E+02  9.935998E-01 -1.964528E+01  1.948163E-03 7.276621E+01  1.933135E-03 7.288468E+01  9.934711E-01 -1.934694E+01 
2.184456E+02  9.935745E-01 -1.985831E+01  1.963635E-03 7.047491E+01  1.949245E-03 7.062044E+01  9.933673E-01 -1.953016E+01 
2.209450E+02  9.936133E-01 -2.006431E+01  2.064903E-03 7.110026E+01  2.055107E-03 7.119385E+01  9.931686E-01 -1.975636E+01 
2.234444E+02  9.936304E-01 -2.030004E+01  1.989659E-03 7.054228E+01  1.970181E-03 7.062607E+01  9.931986E-01 -1.997810E+01 
2.259437E+02  9.928014E-01 -2.049379E+01  2.080101E-03 6.976899E+01  2.074917E-03 6.985900E+01  9.925019E-01 -2.014629E+01 
2.284431E+02  9.935562E-01 -2.074550E+01  2.135676E-03 7.112155E+01  2.123705E-03 7.128674E+01  9.930498E-01 -2.039446E+01 
2.309425E+02  9.935181E-01 -2.096776E+01  2.175818E-03 7.143822E+01  2.162110E-03 7.153284E+01  9.929381E-01 -2.061489E+01 
2.334419E+02  9.934155E-01 -2.124868E+01  2.125408E-03 7.107356E+01  2.109337E-03 7.127934E+01  9.926520E-01 -2.083953E+01 
2.359412E+02  9.928504E-01 -2.139781E+01  2.125156E-03 6.968307E+01  2.109434E-03 6.976660E+01  9.924502E-01 -2.103525E+01 
2.384406E+02  9.937006E-01 -2.169455E+01  2.111888E-03 7.061676E+01  2.097826E-03 7.083103E+01  9.927237E-01 -2.126379E+01 
2.409400E+02  9.928710E-01 -2.187286E+01  2.168794E-03 6.906765E+01  2.152724E-03 6.921439E+01  9.919168E-01 -2.149908E+01 
2.434394E+02  9.924485E-01 -2.213042E+01  2.199440E-03 6.890124E+01  2.186095E-03 6.897730E+01  9.910575E-01 -2.178541E+01 
2.459387E+02  9.927944E-01 -2.231879E+01  2.196013E-03 6.914229E+01  2.188719E-03 6.937452E+01  9.919928E-01 -2.193764E+01 
2.484381E+02  9.934376E-01 -2.258734E+01  2.278276E-03 6.880117E+01  2.264415E-03 6.882427E+01  9.916922E-01 -2.217915E+01 
2.509375E+02  9.929161E-01 -2.279112E+01  2.263273E-03 6.959076E+01  2.247233E-03 6.968788E+01  9.916967E-01 -2.241431E+01 
2.534369E+02  9.926243E-01 -2.299681E+01  2.312228E-03 6.865235E+01  2.295743E-03 6.883252E+01  9.912978E-01 -2.262935E+01 
2.559363E+02  9.929700E-01 -2.324478E+01  2.284297E-03 6.889020E+01  2.272776E-03 6.877198E+01  9.915994E-01 -2.286937E+01 
2.584356E+02  9.927212E-01 -2.347895E+01  2.373258E-03 6.822059E+01  2.352332E-03 6.841358E+01  9.915276E-01 -2.311603E+01 
2.609350E+02  9.926973E-01 -2.373656E+01  2.355080E-03 6.821592E+01  2.337011E-03 6.833943E+01  9.914590E-01 -2.335251E+01 
2.634344E+02  9.929765E-01 -2.392128E+01  2.331738E-03 6.844235E+01  2.312880E-03 6.833715E+01  9.914040E-01 -2.354232E+01 
2.659337E+02  9.932238E-01 -2.417126E+01  2.423269E-03 6.819973E+01  2.403489E-03 6.828736E+01  9.914909E-01 -2.378901E+01 
2.684331E+02  9.929806E-01 -2.438998E+01  2.349871E-03 6.643378E+01  2.336358E-03 6.648662E+01  9.917632E-01 -2.402529E+01 
2.709325E+02  9.931752E-01 -2.465663E+01  2.426596E-03 6.672437E+01  2.412252E-03 6.685961E+01  9.914308E-01 -2.424321E+01 
2.734319E+02  9.932414E-01 -2.484267E+01  2.404764E-03 6.637553E+01  2.387922E-03 6.645022E+01  9.918839E-01 -2.446696E+01 
2.759312E+02  9.935285E-01 -2.505437E+01  2.457221E-03 6.562694E+01  2.438468E-03 6.577741E+01  9.919913E-01 -2.468655E+01 
2.784306E+02  9.936180E-01 -2.528983E+01  2.523012E-03 6.500082E+01  2.502245E-03 6.519168E+01  9.922463E-01 -2.492564E+01 
2.809300E+02  9.943080E-01 -2.552682E+01  2.492878E-03 6.638347E+01  2.478491E-03 6.629241E+01  9.922313E-01 -2.510217E+01 
2.834294E+02  9.938923E-01 -2.570347E+01  2.524263E-03 6.722763E+01  2.505213E-03 6.719203E+01  9.928200E-01 -2.532876E+01 
2.859287E+02  9.937644E-01 -2.592247E+01  2.593569E-03 6.554983E+01  2.577524E-03 6.548648E+01  9.928476E-01 -2.553203E+01 
2.884281E+02  9.936424E-01 -2.614422E+01  2.491203E-03 6.711538E+01  2.472735E-03 6.707850E+01  9.923277E-01 -2.577188E+01 
2.909275E+02  9.938652E-01 -2.632256E+01  2.561654E-03 6.615376E+01  2.547737E-03 6.624069E+01  9.924639E-01 -2.595644E+01 
2.934269E+02  9.937842E-01 -2.654751E+01  2.590361E-03 6.428567E+01  2.571487E-03 6.445538E+01  9.928136E-01 -2.616889E+01 
2.959262E+02  9.939855E-01 -2.676826E+01  2.566484E-03 6.471359E+01  2.551779E-03 6.482979E+01  9.926261E-01 -2.637635E+01 
2.984256E+02  9.935360E-01 -2.695230E+01  2.557386E-03 6.448448E+01  2.543625E-03 6.445084E+01  9.919933E-01 -2.655840E+01 
3.009250E+02  9.935282E-01 -2.718809E+01  2.650826E-03 6.450469E+01  2.635712E-03 6.464795E+01  9.921950E-01 -2.681365E+01 
3.034244E+02  9.934303E-01 -2.740061E+01  2.600555E-03 6.453308E+01  2.581661E-03 6.457420E+01  9.921066E-01 -2.701213E+01 
3.059237E+02  9.931014E-01 -2.761791E+01  2.608871E-03 6.350033E+01  2.596497E-03 6.355838E+01  9.921414E-01 -2.723150E+01 
3.084231E+02  9.939687E-01 -2.787345E+01  2.689734E-03 6.447045E+01  2.674358E-03 6.454427E+01  9.919767E-01 -2.742804E+01 
3.109225E+02  9.932145E-01 -2.804793E+01  2.711619E-03 6.471254E+01  2.694268E-03 6.471098E+01  9.914205E-01 -2.764906E+01 
3.134219E+02  9.934639E-01 -2.827410E+01  2.692288E-03 6.377366E+01  2.677271E-03 6.387333E+01  9.916155E-01 -2.787905E+01 
3.159212E+02  9.926898E-01 -2.847778E+01  2.753694E-03 6.285740E+01  2.734457E-03 6.291210E+01  9.907622E-01 -2.806992E+01 
3.184206E+02  9.934476E-01 -2.869505E+01  2.714960E-03 6.338357E+01  2.701804E-03 6.334890E+01  9.915158E-01 -2.829655E+01 
3.209200E+02  9.935662E-01 -2.890329E+01  2.736445E-03 6.219535E+01  2.718031E-03 6.219129E+01  9.915249E-01 -2.850896E+01 
3.234194E+02  9.936215E-01 -2.912876E+01  2.789882E-03 6.318524E+01  2.768383E-03 6.327426E+01  9.920176E-01 -2.874241E+01 
3.259187E+02  9.941931E-01 -2.936379E+01  2.744901E-03 6.258751E+01  2.733083E-03 6.273384E+01  9.917216E-01 -2.895198E+01 
3.284181E+02  9.938848E-01 -2.955578E+01  2.759726E-03 6.298618E+01  2.746964E-03 6.288869E+01  9.916305E-01 -2.917743E+01 
3.309175E+02  9.938948E-01 -2.977098E+01  2.807623E-03 6.311659E+01  2.784438E-03 6.298919E+01  9.919097E-01 -2.940024E+01 
3.334169E+02  9.936233E-01 -2.999406E+01  2.807130E-03 6.245223E+01  2.794357E-03 6.243687E+01  9.915610E-01 -2.963644E+01 
3.359162E+02  9.939596E-01 -3.015801E+01  2.879553E-03 6.172861E+01  2.861275E-03 6.176401E+01  9.918532E-01 -2.979477E+01 
3.384156E+02  9.940162E-01 -3.037397E+01  2.874533E-03 6.035822E+01  2.856582E-03 6.043445E+01  9.919093E-01 -2.999672E+01 
3.409150E+02  9.938553E-01 -3.057945E+01  2.884917E-03 6.233646E+01  2.867003E-03 6.238637E+01  9.923286E-01 -3.021164E+01 
3.434144E+02  9.935324E-01 -3.076898E+01  2.899812E-03 6.104968E+01  2.882761E-03 6.100141E+01  9.918181E-01 -3.039143E+01 
3.459137E+02  9.933876E-01 -3.097770E+01  2.943899E-03 6.105473E+01  2.928804E-03 6.098874E+01  9.922454E-01 -3.060397E+01 
3.484131E+02  9.932223E-01 -3.119314E+01  2.938699E-03 6.212447E+01  2.917107E-03 6.227733E+01  9.914159E-01 -3.083654E+01 
3.509125E+02  9.927243E-01 -3.142288E+01  2.926014E-03 6.059450E+01  2.909965E-03 6.063714E+01  9.912932E-01 -3.104777E+01 
3.534119E+02  9.925979E-01 -3.158747E+01  2.922531E-03 5.988646E+01  2.909456E-03 5.986691E+01  9.909239E-01 -3.120376E+01 
3.559112E+02  9.924574E-01 -3.181506E+01  2.973534E-03 5.946535E+01  2.957226E-03 5.939331E+01  9.908403E-01 -3.141504E+01 
3.584106E+02  9.920935E-01 -3.204261E+01  2.988955E-03 6.003954E+01  2.978490E-03 5.999038E+01  9.908238E-01 -3.164259E+01 
3.609100E+02  9.914139E-01 -3.225855E+01  2.970435E-03 6.039602E+01  2.944133E-03 6.038352E+01  9.897601E-01 -3.183816E+01 
3.634094E+02  9.912120E-01 -3.248506E+01  3.011405E-03 5.939056E+01  2.995754E-03 5.941354E+01  9.898865E-01 -3.204143E+01 
3.659087E+02  9.910129E-01 -3.268605E+01  3.023422E-03 5.977445E+01  3.001733E-03 5.983884E+01  9.894518E-01 -3.226706E+01 
3.684081E+02  9.908816E-01 -3.290303E+01  3.044584E-03 6.024524E+01  3.026307E-03 6.030958E+01  9.890267E-01 -3.247246E+01 
3.709075E+02  9.902993E-01 -3.311216E+01  3.062625E-03 5.950771E+01  3.045635E-03 5.958360E+01  9.886042E-01 -3.267468E+01 
3.734069E+02  9.905710E-01 -3.333277E+01  3.034113E-03 5.848627E+01  3.016527E-03 5.858565E+01  9.885648E-01 -3.291507E+01 
3.759062E+02  9.900663E-01 -3.357825E+01  3.107349E-03 5.855536E+01  3.082053E-03 5.867911E+01  9.882143E-01 -3.313051E+01 
3.784056E+02  9.898677E-01 -3.381358E+01  3.085055E-03 5.814551E+01  3.065531E-03 5.827034E+01  9.876072E-01 -3.338444E+01 
3.809050E+02  9.897146E-01 -3.400347E+01  3.145523E-03 5.862148E+01  3.130844E-03 5.880918E+01  9.876684E-01 -3.356537E+01 
