! Matrix data file written by TouchstoneData, EPCOS AG
! FILENAME: "B3728_WB.s2p"
! COMMENT: "PINNING 2/5; PCB NEW DCC6C ML; PORTEX 1=85PS"
! INFO: nport=2, nfreq=1601
! DATE: "Thu Sep  3 09:31:11 2009"
! USER: "Sergey Rostovtsev"
!
! port | pin | signal
! -----|-----|--------
!   1  |  2  |  in
!   2  |  5  |  out
! --------------------
! 
# MHZ S MA R 50
! freq  magS11 angS11  magS21 angS21  magS12 angS12  magS22 angS22
1.000000E+01  9.994345E-01 -1.568010E+00  6.172923E-04 9.894443E+01  6.221399E-04 9.879113E+01  9.993450E-01 -3.019021E+00 
1.249375E+01  9.994937E-01 -1.956203E+00  6.482702E-04 8.378426E+01  6.453368E-04 8.413039E+01  9.994397E-01 -3.778994E+00 
1.498750E+01  9.992597E-01 -2.329310E+00  8.093588E-04 8.613350E+01  8.050331E-04 8.630337E+01  9.989224E-01 -4.529122E+00 
1.748125E+01  9.992227E-01 -2.707680E+00  9.016735E-04 8.409613E+01  8.830575E-04 8.502640E+01  9.988911E-01 -5.201805E+00 
1.997500E+01  9.990714E-01 -3.111914E+00  1.105276E-03 8.279092E+01  1.097005E-03 8.307685E+01  9.997869E-01 -6.023262E+00 
2.246875E+01  9.991438E-01 -3.475447E+00  1.156286E-03 8.302840E+01  1.145075E-03 8.324065E+01  9.998102E-01 -6.691598E+00 
2.496250E+01  9.993137E-01 -3.846508E+00  1.329332E-03 8.237666E+01  1.323471E-03 8.266698E+01  9.988543E-01 -7.410819E+00 
2.745625E+01  9.989053E-01 -4.193204E+00  1.549472E-03 8.499246E+01  1.544080E-03 8.536085E+01  9.989834E-01 -8.111213E+00 
2.995000E+01  9.990846E-01 -4.638222E+00  1.675186E-03 8.389330E+01  1.665287E-03 8.373663E+01  9.992498E-01 -8.939629E+00 
3.244375E+01  9.991479E-01 -5.018410E+00  1.676252E-03 8.279933E+01  1.663467E-03 8.243531E+01  9.993169E-01 -9.693776E+00 
3.493750E+01  9.989290E-01 -5.413716E+00  1.815097E-03 8.299272E+01  1.794652E-03 8.295254E+01  9.992831E-01 -1.039054E+01 
3.743125E+01  9.987935E-01 -5.778090E+00  1.902796E-03 7.910685E+01  1.891219E-03 7.918971E+01  9.991973E-01 -1.117204E+01 
3.992500E+01  9.988366E-01 -6.185029E+00  2.122790E-03 7.934235E+01  2.110777E-03 7.914785E+01  9.994828E-01 -1.190246E+01 
4.241875E+01  9.986784E-01 -6.541977E+00  2.172170E-03 8.067669E+01  2.155062E-03 8.043845E+01  9.986206E-01 -1.260966E+01 
4.491250E+01  9.975911E-01 -6.951715E+00  2.656750E-03 7.704901E+01  2.639356E-03 7.700506E+01  9.967461E-01 -1.335275E+01 
4.740625E+01  9.985700E-01 -7.309163E+00  2.510021E-03 7.853868E+01  2.498436E-03 7.848292E+01  9.983827E-01 -1.401264E+01 
4.990000E+01  9.984879E-01 -7.683781E+00  2.579498E-03 7.995293E+01  2.559033E-03 7.962929E+01  9.979625E-01 -1.479064E+01 
5.239375E+01  9.983592E-01 -8.070009E+00  2.658413E-03 7.916555E+01  2.645060E-03 7.905877E+01  9.982484E-01 -1.555601E+01 
5.488750E+01  9.983146E-01 -8.454765E+00  2.818024E-03 7.593408E+01  2.792571E-03 7.574420E+01  9.975994E-01 -1.623294E+01 
5.738125E+01  9.982037E-01 -8.832155E+00  2.825512E-03 7.919466E+01  2.799202E-03 7.903131E+01  9.978244E-01 -1.699741E+01 
5.987500E+01  9.978789E-01 -9.211415E+00  3.052938E-03 7.774605E+01  3.026009E-03 7.754074E+01  9.971830E-01 -1.769188E+01 
6.236875E+01  9.983601E-01 -9.630389E+00  3.287475E-03 7.582623E+01  3.265652E-03 7.553594E+01  9.975228E-01 -1.846908E+01 
6.486250E+01  9.977563E-01 -9.949831E+00  3.210319E-03 7.679131E+01  3.186919E-03 7.641074E+01  9.968820E-01 -1.910742E+01 
6.735625E+01  9.979284E-01 -1.034501E+01  3.429781E-03 7.715662E+01  3.408211E-03 7.683876E+01  9.971565E-01 -1.985939E+01 
6.985000E+01  9.980342E-01 -1.072815E+01  3.487223E-03 7.596647E+01  3.458746E-03 7.576514E+01  9.972088E-01 -2.060389E+01 
7.234375E+01  9.974866E-01 -1.110659E+01  4.033281E-03 7.962945E+01  3.990901E-03 7.950690E+01  9.955558E-01 -2.128459E+01 
7.483750E+01  9.976402E-01 -1.149139E+01  3.736636E-03 7.338747E+01  3.703758E-03 7.320422E+01  9.971838E-01 -2.206244E+01 
7.733125E+01  9.976539E-01 -1.191038E+01  3.925505E-03 7.449931E+01  3.886523E-03 7.430941E+01  9.967438E-01 -2.274017E+01 
7.982500E+01  9.979006E-01 -1.227771E+01  4.069436E-03 7.295746E+01  4.027641E-03 7.284369E+01  9.965688E-01 -2.349041E+01 
8.231875E+01  9.976321E-01 -1.261935E+01  4.080653E-03 7.152832E+01  4.045611E-03 7.120450E+01  9.968774E-01 -2.419183E+01 
8.481250E+01  9.977176E-01 -1.300623E+01  4.178036E-03 6.925058E+01  4.138857E-03 6.897140E+01  9.966441E-01 -2.492366E+01 
8.730625E+01  9.975717E-01 -1.340238E+01  4.345711E-03 7.270601E+01  4.308255E-03 7.240765E+01  9.966124E-01 -2.561975E+01 
8.980000E+01  9.970025E-01 -1.378680E+01  4.353687E-03 7.254234E+01  4.319714E-03 7.233666E+01  9.956253E-01 -2.633751E+01 
9.229375E+01  9.974925E-01 -1.414053E+01  4.555119E-03 7.176223E+01  4.511831E-03 7.158228E+01  9.967989E-01 -2.699637E+01 
9.478750E+01  9.976829E-01 -1.452232E+01  4.650145E-03 7.027620E+01  4.606688E-03 7.007631E+01  9.964994E-01 -2.769894E+01 
9.728125E+01  9.977019E-01 -1.491711E+01  4.760947E-03 6.977315E+01  4.714368E-03 6.955828E+01  9.973377E-01 -2.846602E+01 
9.977500E+01  9.973375E-01 -1.524993E+01  5.078380E-03 6.885570E+01  5.029742E-03 6.869257E+01  9.962167E-01 -2.904615E+01 
1.022687E+02  9.978372E-01 -1.563324E+01  4.996363E-03 6.887891E+01  4.947358E-03 6.853884E+01  9.965735E-01 -2.975307E+01 
1.047625E+02  9.978650E-01 -1.599969E+01  5.208697E-03 6.874254E+01  5.161677E-03 6.844693E+01  9.961392E-01 -3.044247E+01 
1.072562E+02  9.978314E-01 -1.639817E+01  5.139470E-03 6.594503E+01  5.083372E-03 6.584472E+01  9.964109E-01 -3.115822E+01 
1.097500E+02  9.971285E-01 -1.673949E+01  5.373388E-03 6.751392E+01  5.309706E-03 6.730586E+01  9.956516E-01 -3.180106E+01 
1.122438E+02  9.969932E-01 -1.712691E+01  5.450853E-03 6.694267E+01  5.395236E-03 6.672552E+01  9.962311E-01 -3.247799E+01 
1.147375E+02  9.974812E-01 -1.751106E+01  5.609802E-03 6.551241E+01  5.554458E-03 6.527848E+01  9.961419E-01 -3.323614E+01 
1.172313E+02  9.962058E-01 -1.784408E+01  5.526941E-03 6.592958E+01  5.468996E-03 6.569623E+01  9.938968E-01 -3.384436E+01 
1.197250E+02  9.970778E-01 -1.822036E+01  5.836840E-03 6.532711E+01  5.780110E-03 6.505402E+01  9.955927E-01 -3.453525E+01 
1.222188E+02  9.974358E-01 -1.865231E+01  5.795271E-03 6.439993E+01  5.734233E-03 6.403302E+01  9.946790E-01 -3.520808E+01 
1.247125E+02  9.969875E-01 -1.898787E+01  5.976925E-03 6.405557E+01  5.904571E-03 6.384580E+01  9.948801E-01 -3.593063E+01 
1.272062E+02  9.972589E-01 -1.939773E+01  6.048501E-03 6.358652E+01  5.982869E-03 6.331823E+01  9.938030E-01 -3.654708E+01 
1.297000E+02  9.964225E-01 -1.973572E+01  6.143860E-03 6.288501E+01  6.063023E-03 6.269590E+01  9.944221E-01 -3.725456E+01 
1.321937E+02  9.962990E-01 -2.009906E+01  6.357186E-03 6.258785E+01  6.289557E-03 6.235714E+01  9.931867E-01 -3.791402E+01 
1.346875E+02  9.950633E-01 -2.049103E+01  6.210871E-03 6.247322E+01  6.139974E-03 6.212398E+01  9.920879E-01 -3.854401E+01 
1.371813E+02  9.963338E-01 -2.083411E+01  6.349861E-03 6.155781E+01  6.278105E-03 6.123515E+01  9.931326E-01 -3.922681E+01 
1.396750E+02  9.961477E-01 -2.121901E+01  6.505232E-03 6.061740E+01  6.426932E-03 6.035255E+01  9.934952E-01 -3.990528E+01 
1.421687E+02  9.962122E-01 -2.160141E+01  6.623095E-03 6.022388E+01  6.553774E-03 5.991188E+01  9.931229E-01 -4.056323E+01 
1.446625E+02  9.961064E-01 -2.194285E+01  6.662304E-03 6.067160E+01  6.582475E-03 6.037624E+01  9.927113E-01 -4.120063E+01 
1.471562E+02  9.961031E-01 -2.232742E+01  6.760325E-03 5.958012E+01  6.680633E-03 5.931488E+01  9.926232E-01 -4.187100E+01 
1.496500E+02  9.961437E-01 -2.269662E+01  7.022483E-03 5.830218E+01  6.940978E-03 5.799783E+01  9.929802E-01 -4.254022E+01 
1.521438E+02  9.959376E-01 -2.309827E+01  6.971345E-03 5.750738E+01  6.889514E-03 5.718075E+01  9.923537E-01 -4.320560E+01 
1.546375E+02  9.957546E-01 -2.342172E+01  7.098587E-03 5.860817E+01  7.022030E-03 5.828258E+01  9.924033E-01 -4.379713E+01 
1.571312E+02  9.957187E-01 -2.380333E+01  7.183396E-03 5.718378E+01  7.095370E-03 5.686171E+01  9.920613E-01 -4.442702E+01 
1.596250E+02  9.955854E-01 -2.415759E+01  7.274930E-03 5.769796E+01  7.180454E-03 5.746837E+01  9.919540E-01 -4.510073E+01 
1.621188E+02  9.944764E-01 -2.450187E+01  7.538097E-03 5.579810E+01  7.449260E-03 5.547584E+01  9.908544E-01 -4.569062E+01 
1.646125E+02  9.949140E-01 -2.486817E+01  7.436402E-03 5.568074E+01  7.345942E-03 5.533197E+01  9.913093E-01 -4.636956E+01 
1.671062E+02  9.943110E-01 -2.525981E+01  7.566451E-03 5.467412E+01  7.476021E-03 5.428734E+01  9.910810E-01 -4.699914E+01 
1.696000E+02  9.939991E-01 -2.564121E+01  7.688428E-03 5.477965E+01  7.587161E-03 5.451124E+01  9.908766E-01 -4.768384E+01 
1.720938E+02  9.937286E-01 -2.597960E+01  7.643531E-03 5.389994E+01  7.545249E-03 5.360984E+01  9.892769E-01 -4.823362E+01 
1.745875E+02  9.935578E-01 -2.636822E+01  7.873076E-03 5.433764E+01  7.775123E-03 5.404548E+01  9.894082E-01 -4.891783E+01 
1.770813E+02  9.933020E-01 -2.674715E+01  7.913481E-03 5.316605E+01  7.803666E-03 5.283639E+01  9.890732E-01 -4.954395E+01 
1.795750E+02  9.921214E-01 -2.711044E+01  7.923719E-03 5.236263E+01  7.819804E-03 5.203816E+01  9.874623E-01 -5.019426E+01 
1.820687E+02  9.926898E-01 -2.745883E+01  8.038940E-03 5.168652E+01  7.920982E-03 5.140743E+01  9.883566E-01 -5.075278E+01 
1.845625E+02  9.925637E-01 -2.785253E+01  8.078645E-03 5.145031E+01  7.961207E-03 5.116014E+01  9.880353E-01 -5.141704E+01 
1.870563E+02  9.926606E-01 -2.824170E+01  8.235764E-03 5.176872E+01  8.117983E-03 5.152405E+01  9.876930E-01 -5.207495E+01 
1.895500E+02  9.919675E-01 -2.856950E+01  8.151188E-03 5.044324E+01  8.033683E-03 5.010800E+01  9.864303E-01 -5.265058E+01 
1.920437E+02  9.920577E-01 -2.894321E+01  8.393534E-03 5.017637E+01  8.276492E-03 4.989599E+01  9.869788E-01 -5.330165E+01 
1.945375E+02  9.922352E-01 -2.933124E+01  8.422504E-03 4.988878E+01  8.295898E-03 4.961648E+01  9.865607E-01 -5.394125E+01 
1.970312E+02  9.919226E-01 -2.975194E+01  8.472262E-03 4.946521E+01  8.352026E-03 4.919218E+01  9.865407E-01 -5.460320E+01 
1.995250E+02  9.920125E-01 -3.007585E+01  8.522890E-03 4.877011E+01  8.405723E-03 4.848450E+01  9.865595E-01 -5.517644E+01 
2.020188E+02  9.918362E-01 -3.047974E+01  8.607218E-03 4.765022E+01  8.476899E-03 4.742243E+01  9.860249E-01 -5.580789E+01 
2.045125E+02  9.916388E-01 -3.085661E+01  8.750549E-03 4.800789E+01  8.629181E-03 4.779208E+01  9.864436E-01 -5.644341E+01 
2.070062E+02  9.911607E-01 -3.116217E+01  8.643017E-03 4.780970E+01  8.527210E-03 4.753387E+01  9.856557E-01 -5.701506E+01 
2.095000E+02  9.914503E-01 -3.156991E+01  8.820661E-03 4.714173E+01  8.700773E-03 4.690759E+01  9.859354E-01 -5.764706E+01 
2.119938E+02  9.916196E-01 -3.194373E+01  8.924454E-03 4.698883E+01  8.806155E-03 4.666122E+01  9.860240E-01 -5.823888E+01 
2.144875E+02  9.914929E-01 -3.233782E+01  9.036927E-03 4.611294E+01  8.916932E-03 4.574974E+01  9.862166E-01 -5.887344E+01 
2.169812E+02  9.913534E-01 -3.268018E+01  9.000991E-03 4.553759E+01  8.868370E-03 4.514705E+01  9.857552E-01 -5.945089E+01 
2.194750E+02  9.911032E-01 -3.306727E+01  9.167455E-03 4.529995E+01  9.046477E-03 4.497974E+01  9.856291E-01 -5.999990E+01 
2.219688E+02  9.914594E-01 -3.341845E+01  9.148843E-03 4.484749E+01  9.019126E-03 4.457037E+01  9.864312E-01 -6.058991E+01 
2.244625E+02  9.898031E-01 -3.374176E+01  9.185439E-03 4.390474E+01  9.059153E-03 4.358717E+01  9.843972E-01 -6.117765E+01 
2.269563E+02  9.906847E-01 -3.412105E+01  9.324232E-03 4.396579E+01  9.199747E-03 4.359858E+01  9.858869E-01 -6.178482E+01 
2.294500E+02  9.906843E-01 -3.448900E+01  9.309505E-03 4.372555E+01  9.183929E-03 4.332545E+01  9.854012E-01 -6.236769E+01 
2.319437E+02  9.901820E-01 -3.486786E+01  9.366956E-03 4.260971E+01  9.235723E-03 4.222019E+01  9.849311E-01 -6.296109E+01 
2.344375E+02  9.896763E-01 -3.520576E+01  9.430065E-03 4.260266E+01  9.298380E-03 4.216972E+01  9.848595E-01 -6.346468E+01 
2.369313E+02  9.892569E-01 -3.558251E+01  9.493808E-03 4.205367E+01  9.353975E-03 4.165070E+01  9.850412E-01 -6.406458E+01 
2.394250E+02  9.893843E-01 -3.594439E+01  9.614081E-03 4.129946E+01  9.467112E-03 4.090548E+01  9.846468E-01 -6.466983E+01 
2.419187E+02  9.890158E-01 -3.642619E+01  9.618599E-03 4.072954E+01  9.478629E-03 4.028962E+01  9.832012E-01 -6.526087E+01 
2.444125E+02  9.891400E-01 -3.666516E+01  9.731038E-03 4.072135E+01  9.576881E-03 4.032046E+01  9.844570E-01 -6.576886E+01 
2.469062E+02  9.890337E-01 -3.705198E+01  9.694377E-03 3.977846E+01  9.542441E-03 3.935116E+01  9.838538E-01 -6.636459E+01 
2.494000E+02  9.894594E-01 -3.748378E+01  9.780152E-03 4.007890E+01  9.628251E-03 3.967230E+01  9.833412E-01 -6.695176E+01 
2.518938E+02  9.883086E-01 -3.777151E+01  9.743113E-03 3.956633E+01  9.583885E-03 3.912195E+01  9.831612E-01 -6.746247E+01 
2.543875E+02  9.886807E-01 -3.815529E+01  9.930979E-03 3.843405E+01  9.760210E-03 3.811657E+01  9.832452E-01 -6.807623E+01 
2.568813E+02  9.888722E-01 -3.853911E+01  9.995144E-03 3.835555E+01  9.821172E-03 3.804617E+01  9.834114E-01 -6.864313E+01 
2.593750E+02  9.883521E-01 -3.896068E+01  9.979103E-03 3.864169E+01  9.825414E-03 3.828609E+01  9.830479E-01 -6.924532E+01 
2.618687E+02  9.888733E-01 -3.925748E+01  9.973602E-03 3.695330E+01  9.810620E-03 3.652410E+01  9.837338E-01 -6.977088E+01 
2.643625E+02  9.887793E-01 -3.964483E+01  1.012950E-02 3.703932E+01  9.974483E-03 3.658174E+01  9.829946E-01 -7.034577E+01 
2.668562E+02  9.889168E-01 -4.003113E+01  1.012180E-02 3.674443E+01  9.960019E-03 3.635300E+01  9.836785E-01 -7.089681E+01 
2.693500E+02  9.881809E-01 -4.038064E+01  1.007830E-02 3.600326E+01  9.914053E-03 3.559177E+01  9.829355E-01 -7.143153E+01 
2.718438E+02  9.891856E-01 -4.073422E+01  1.011450E-02 3.550370E+01  9.953761E-03 3.512771E+01  9.842477E-01 -7.195831E+01 
2.743375E+02  9.892508E-01 -4.111470E+01  1.025238E-02 3.540880E+01  1.009074E-02 3.504478E+01  9.841146E-01 -7.248991E+01 
2.768313E+02  9.894859E-01 -4.148131E+01  1.028103E-02 3.472545E+01  1.012030E-02 3.432523E+01  9.849261E-01 -7.305740E+01 
2.793250E+02  9.891946E-01 -4.179343E+01  1.028032E-02 3.431805E+01  1.013173E-02 3.386783E+01  9.844199E-01 -7.349409E+01 
2.818188E+02  9.898207E-01 -4.216714E+01  1.042521E-02 3.388692E+01  1.027273E-02 3.338067E+01  9.852121E-01 -7.405628E+01 
2.843125E+02  9.891779E-01 -4.251008E+01  1.039885E-02 3.391831E+01  1.025012E-02 3.348656E+01  9.849846E-01 -7.457608E+01 
2.868062E+02  9.888969E-01 -4.287729E+01  1.036042E-02 3.352520E+01  1.020192E-02 3.303246E+01  9.845444E-01 -7.508095E+01 
2.893000E+02  9.895650E-01 -4.319303E+01  1.046236E-02 3.264155E+01  1.029367E-02 3.211802E+01  9.852767E-01 -7.555152E+01 
2.917937E+02  9.892351E-01 -4.353737E+01  1.045578E-02 3.258877E+01  1.029515E-02 3.211856E+01  9.853571E-01 -7.606078E+01 
2.942875E+02  9.891753E-01 -4.390591E+01  1.053781E-02 3.148263E+01  1.038043E-02 3.105309E+01  9.851212E-01 -7.656776E+01 
2.967812E+02  9.885629E-01 -4.421735E+01  1.057099E-02 3.165474E+01  1.039320E-02 3.118904E+01  9.851131E-01 -7.700089E+01 
2.992750E+02  9.884695E-01 -4.455225E+01  1.057432E-02 3.102961E+01  1.042340E-02 3.058027E+01  9.851121E-01 -7.754509E+01 
3.017688E+02  9.886104E-01 -4.492469E+01  1.060582E-02 3.094194E+01  1.043487E-02 3.045478E+01  9.844832E-01 -7.804689E+01 
3.042625E+02  9.880515E-01 -4.529369E+01  1.057953E-02 3.017902E+01  1.039868E-02 2.973504E+01  9.846615E-01 -7.855029E+01 
3.067563E+02  9.881638E-01 -4.561657E+01  1.067059E-02 2.983736E+01  1.050912E-02 2.932992E+01  9.842409E-01 -7.902858E+01 
3.092500E+02  9.882217E-01 -4.596962E+01  1.069507E-02 2.966148E+01  1.052893E-02 2.918406E+01  9.840673E-01 -7.951922E+01 
3.117437E+02  9.876099E-01 -4.634641E+01  1.065608E-02 2.931362E+01  1.049154E-02 2.882519E+01  9.843520E-01 -7.999408E+01 
3.142375E+02  9.873892E-01 -4.662810E+01  1.069116E-02 2.876305E+01  1.052002E-02 2.833203E+01  9.831688E-01 -8.046000E+01 
3.167312E+02  9.878417E-01 -4.697964E+01  1.072860E-02 2.802016E+01  1.054787E-02 2.760568E+01  9.837062E-01 -8.098212E+01 
3.192250E+02  9.881932E-01 -4.734922E+01  1.083354E-02 2.822979E+01  1.065775E-02 2.774981E+01  9.839447E-01 -8.142552E+01 
3.217188E+02  9.878055E-01 -4.773026E+01  1.074226E-02 2.816141E+01  1.056619E-02 2.772171E+01  9.838521E-01 -8.194558E+01 
3.242125E+02  9.879691E-01 -4.802971E+01  1.071328E-02 2.709975E+01  1.054009E-02 2.662080E+01  9.835011E-01 -8.239612E+01 
3.267063E+02  9.879008E-01 -4.838941E+01  1.075220E-02 2.639828E+01  1.057955E-02 2.590171E+01  9.839131E-01 -8.286722E+01 
3.292000E+02  9.878764E-01 -4.872851E+01  1.090143E-02 2.643097E+01  1.071948E-02 2.586998E+01  9.839832E-01 -8.336298E+01 
3.316938E+02  9.871319E-01 -4.906297E+01  1.082177E-02 2.610357E+01  1.064457E-02 2.547254E+01  9.828509E-01 -8.383586E+01 
3.341875E+02  9.879855E-01 -4.938960E+01  1.082994E-02 2.547794E+01  1.065015E-02 2.490490E+01  9.837153E-01 -8.423763E+01 
3.366812E+02  9.880161E-01 -4.973094E+01  1.094987E-02 2.520570E+01  1.076488E-02 2.468556E+01  9.838125E-01 -8.470698E+01 
3.391750E+02  9.878284E-01 -5.006938E+01  1.089465E-02 2.572414E+01  1.070715E-02 2.514510E+01  9.836431E-01 -8.517856E+01 
3.416687E+02  9.872437E-01 -5.036228E+01  1.081243E-02 2.478070E+01  1.063001E-02 2.421220E+01  9.836003E-01 -8.555852E+01 
3.441625E+02  9.869489E-01 -5.072245E+01  1.092324E-02 2.397846E+01  1.074020E-02 2.347432E+01  9.835750E-01 -8.605706E+01 
3.466562E+02  9.868222E-01 -5.106638E+01  1.095188E-02 2.389659E+01  1.076778E-02 2.335771E+01  9.830239E-01 -8.648898E+01 
3.491500E+02  9.862266E-01 -5.143013E+01  1.091379E-02 2.368529E+01  1.072866E-02 2.315636E+01  9.831834E-01 -8.693417E+01 
3.516438E+02  9.855976E-01 -5.172061E+01  1.094846E-02 2.293996E+01  1.076205E-02 2.240393E+01  9.828701E-01 -8.733582E+01 
3.541375E+02  9.854597E-01 -5.207880E+01  1.095231E-02 2.288205E+01  1.077251E-02 2.236211E+01  9.823988E-01 -8.779052E+01 
3.566313E+02  9.848662E-01 -5.241032E+01  1.093833E-02 2.259768E+01  1.074882E-02 2.212567E+01  9.823733E-01 -8.820409E+01 
3.591250E+02  9.838736E-01 -5.272228E+01  1.091005E-02 2.195391E+01  1.072111E-02 2.154433E+01  9.819552E-01 -8.862654E+01 
3.616187E+02  9.840134E-01 -5.306546E+01  1.097457E-02 2.146899E+01  1.078781E-02 2.102923E+01  9.817185E-01 -8.904814E+01 
3.641125E+02  9.834253E-01 -5.340613E+01  1.098449E-02 2.164237E+01  1.079531E-02 2.122595E+01  9.811167E-01 -8.951401E+01 
3.666062E+02  9.827780E-01 -5.377731E+01  1.093306E-02 2.107128E+01  1.075033E-02 2.075421E+01  9.817869E-01 -8.993837E+01 
3.691000E+02  9.825539E-01 -5.409409E+01  1.097687E-02 2.044801E+01  1.077818E-02 2.022886E+01  9.807877E-01 -9.036278E+01 
3.715938E+02  9.825324E-01 -5.443528E+01  1.095957E-02 2.043929E+01  1.075656E-02 2.021561E+01  9.808432E-01 -9.075524E+01 
3.740875E+02  9.821678E-01 -5.479296E+01  1.099582E-02 1.989370E+01  1.080249E-02 1.969257E+01  9.808946E-01 -9.122519E+01 
3.765813E+02  9.810321E-01 -5.515398E+01  1.097127E-02 1.942252E+01  1.078391E-02 1.925803E+01  9.798987E-01 -9.166108E+01 
3.790750E+02  9.816525E-01 -5.546264E+01  1.100742E-02 1.883165E+01  1.082072E-02 1.864588E+01  9.801676E-01 -9.206086E+01 
3.815688E+02  9.813243E-01 -5.580686E+01  1.104960E-02 1.876689E+01  1.085961E-02 1.857409E+01  9.798955E-01 -9.249216E+01 
3.840625E+02  9.810387E-01 -5.620631E+01  1.098703E-02 1.839639E+01  1.081640E-02 1.825160E+01  9.799725E-01 -9.293224E+01 
3.865562E+02  9.808000E-01 -5.650573E+01  1.093807E-02 1.793410E+01  1.077200E-02 1.786470E+01  9.794399E-01 -9.330443E+01 
3.890500E+02  9.808422E-01 -5.688343E+01  1.099154E-02 1.728454E+01  1.082478E-02 1.714922E+01  9.795506E-01 -9.375760E+01 
3.915437E+02  9.804998E-01 -5.720607E+01  1.101626E-02 1.723708E+01  1.085594E-02 1.712899E+01  9.794691E-01 -9.418711E+01 
3.940375E+02  9.803580E-01 -5.756143E+01  1.095824E-02 1.705165E+01  1.079693E-02 1.696188E+01  9.791228E-01 -9.462640E+01 
3.965312E+02  9.803522E-01 -5.788868E+01  1.090822E-02 1.618345E+01  1.074010E-02 1.612939E+01  9.790202E-01 -9.499735E+01 
3.990250E+02  9.806177E-01 -5.823431E+01  1.099450E-02 1.593538E+01  1.083221E-02 1.589578E+01  9.791651E-01 -9.544005E+01 
