! S-Parameter for B3721 in Touchstone format with Magnitude (lin) and Phase 
! Normalised impedance: 50 Ohm. Measurement system: 50 Ohm. Ta=25°C
! B3721_SB.S2P not matched. Measurement full 2-port calibrated incl. Port.Ext. 
! Start: 373.92MHz, Stop: 493.92MHz, Span 120MHz, 1601 Pts., Step 750kHz
! Date: 07/12/2007 - EPCOS COM WT AE PD; AB
!
# MHZ S MA R 50
! freq  magS11 angS11  magS21 angS21  magS12 angS12  magS22 angS22
3.739200E+02  9.770476E-01 -5.034533E+01  4.284341E-04 -1.424387E+02  4.266044E-04 -1.438466E+02  9.750468E-01 -4.956892E+01 
3.739950E+02  9.769647E-01 -5.037965E+01  4.388558E-04 -1.439511E+02  4.404241E-04 -1.432422E+02  9.748089E-01 -4.958538E+01 
3.740700E+02  9.768727E-01 -5.040267E+01  4.441634E-04 -1.447200E+02  4.375095E-04 -1.455175E+02  9.746977E-01 -4.961079E+01 
3.741450E+02  9.769023E-01 -5.042760E+01  4.294309E-04 -1.460321E+02  4.207177E-04 -1.442951E+02  9.746443E-01 -4.962949E+01 
3.742200E+02  9.764609E-01 -5.045500E+01  4.209020E-04 -1.455266E+02  4.130047E-04 -1.446850E+02  9.744700E-01 -4.965093E+01 
3.742950E+02  9.764611E-01 -5.046754E+01  4.078021E-04 -1.444746E+02  4.068037E-04 -1.440646E+02  9.745574E-01 -4.966897E+01 
3.743700E+02  9.763617E-01 -5.049784E+01  4.148394E-04 -1.426356E+02  4.219480E-04 -1.420077E+02  9.743846E-01 -4.968308E+01 
3.744450E+02  9.762122E-01 -5.051646E+01  4.264290E-04 -1.428414E+02  4.206121E-04 -1.425629E+02  9.743374E-01 -4.970116E+01 
3.745200E+02  9.760742E-01 -5.054041E+01  4.266714E-04 -1.422825E+02  4.223968E-04 -1.413613E+02  9.743494E-01 -4.972359E+01 
3.745950E+02  9.759321E-01 -5.055912E+01  4.332565E-04 -1.406595E+02  4.260970E-04 -1.402111E+02  9.743001E-01 -4.973536E+01 
3.746700E+02  9.756880E-01 -5.057198E+01  4.467899E-04 -1.409561E+02  4.433119E-04 -1.406649E+02  9.741975E-01 -4.975759E+01 
3.747450E+02  9.755946E-01 -5.060391E+01  4.530354E-04 -1.431475E+02  4.476035E-04 -1.422404E+02  9.743611E-01 -4.978019E+01 
3.748200E+02  9.756456E-01 -5.062358E+01  4.436728E-04 -1.437714E+02  4.423213E-04 -1.429361E+02  9.743924E-01 -4.980349E+01 
3.748950E+02  9.753881E-01 -5.063399E+01  4.395170E-04 -1.440976E+02  4.341648E-04 -1.445170E+02  9.742716E-01 -4.982945E+01 
3.749700E+02  9.751950E-01 -5.066039E+01  4.377735E-04 -1.427431E+02  4.391101E-04 -1.418817E+02  9.742199E-01 -4.985288E+01 
3.750450E+02  9.752828E-01 -5.067615E+01  4.527189E-04 -1.431555E+02  4.490410E-04 -1.424003E+02  9.741413E-01 -4.987632E+01 
3.751200E+02  9.751056E-01 -5.070005E+01  4.610318E-04 -1.429833E+02  4.558219E-04 -1.426050E+02  9.741304E-01 -4.991082E+01 
3.751950E+02  9.749644E-01 -5.072211E+01  4.572331E-04 -1.453506E+02  4.527788E-04 -1.455261E+02  9.742131E-01 -4.992858E+01 
3.752700E+02  9.748261E-01 -5.073212E+01  4.516149E-04 -1.452575E+02  4.431207E-04 -1.457414E+02  9.741504E-01 -4.996402E+01 
3.753450E+02  9.747953E-01 -5.075021E+01  4.394018E-04 -1.458499E+02  4.297410E-04 -1.446092E+02  9.740591E-01 -4.998851E+01 
3.754200E+02  9.748983E-01 -5.076977E+01  4.281999E-04 -1.453434E+02  4.268712E-04 -1.449733E+02  9.739785E-01 -5.001005E+01 
3.754950E+02  9.745636E-01 -5.078819E+01  4.175917E-04 -1.434496E+02  4.198025E-04 -1.430474E+02  9.738769E-01 -5.003952E+01 
3.755700E+02  9.747359E-01 -5.081178E+01  4.302041E-04 -1.405864E+02  4.315991E-04 -1.400281E+02  9.738325E-01 -5.005909E+01 
3.756450E+02  9.745595E-01 -5.082131E+01  4.413901E-04 -1.403014E+02  4.380161E-04 -1.398993E+02  9.735202E-01 -5.008844E+01 
3.757200E+02  9.744074E-01 -5.084392E+01  4.477676E-04 -1.408065E+02  4.476418E-04 -1.397342E+02  9.736230E-01 -5.011651E+01 
3.757950E+02  9.743717E-01 -5.085748E+01  4.673693E-04 -1.413824E+02  4.554966E-04 -1.411714E+02  9.732790E-01 -5.013587E+01 
3.758700E+02  9.743478E-01 -5.087904E+01  4.640469E-04 -1.417479E+02  4.663789E-04 -1.411111E+02  9.730946E-01 -5.016239E+01 
3.759450E+02  9.742364E-01 -5.090333E+01  4.744572E-04 -1.415652E+02  4.665149E-04 -1.410949E+02  9.730726E-01 -5.018997E+01 
3.760200E+02  9.744647E-01 -5.091298E+01  4.810094E-04 -1.411012E+02  4.840812E-04 -1.416270E+02  9.727515E-01 -5.022507E+01 
3.760950E+02  9.743832E-01 -5.093953E+01  4.866013E-04 -1.424941E+02  4.893782E-04 -1.426590E+02  9.726139E-01 -5.024265E+01 
3.761700E+02  9.742875E-01 -5.097377E+01  4.909080E-04 -1.433342E+02  4.895383E-04 -1.431408E+02  9.723329E-01 -5.027111E+01 
3.762450E+02  9.743599E-01 -5.098733E+01  4.943615E-04 -1.454585E+02  4.991822E-04 -1.446324E+02  9.721950E-01 -5.029636E+01 
3.763200E+02  9.742890E-01 -5.101113E+01  4.942839E-04 -1.467907E+02  4.935246E-04 -1.465285E+02  9.717364E-01 -5.031469E+01 
3.763950E+02  9.742508E-01 -5.103855E+01  4.741293E-04 -1.484796E+02  4.823238E-04 -1.481735E+02  9.715298E-01 -5.032365E+01 
3.764700E+02  9.741809E-01 -5.107111E+01  4.640539E-04 -1.480044E+02  4.615665E-04 -1.476952E+02  9.714763E-01 -5.034147E+01 
3.765450E+02  9.741438E-01 -5.108985E+01  4.642254E-04 -1.458650E+02  4.533169E-04 -1.460198E+02  9.710924E-01 -5.035870E+01 
3.766200E+02  9.740098E-01 -5.112656E+01  4.584533E-04 -1.448479E+02  4.676348E-04 -1.448587E+02  9.708786E-01 -5.036646E+01 
3.766950E+02  9.739124E-01 -5.115699E+01  4.819360E-04 -1.448616E+02  4.759303E-04 -1.455558E+02  9.706457E-01 -5.038531E+01 
3.767700E+02  9.736105E-01 -5.118420E+01  4.862431E-04 -1.466829E+02  4.815857E-04 -1.467575E+02  9.705697E-01 -5.039524E+01 
3.768450E+02  9.733754E-01 -5.121463E+01  4.710476E-04 -1.481784E+02  4.774705E-04 -1.488031E+02  9.703339E-01 -5.040154E+01 
3.769200E+02  9.730460E-01 -5.122239E+01  4.752789E-04 -1.493764E+02  4.634349E-04 -1.492146E+02  9.702373E-01 -5.041763E+01 
3.769950E+02  9.729182E-01 -5.126352E+01  4.452462E-04 -1.517894E+02  4.426839E-04 -1.496838E+02  9.702903E-01 -5.043312E+01 
3.770700E+02  9.724992E-01 -5.127439E+01  4.107045E-04 -1.476225E+02  4.140201E-04 -1.471633E+02  9.699523E-01 -5.044147E+01 
3.771450E+02  9.723825E-01 -5.129707E+01  4.272648E-04 -1.412090E+02  4.280583E-04 -1.403823E+02  9.699022E-01 -5.045566E+01 
3.772200E+02  9.720542E-01 -5.130523E+01  4.496622E-04 -1.400629E+02  4.460276E-04 -1.399243E+02  9.699221E-01 -5.046795E+01 
3.772950E+02  9.718147E-01 -5.132493E+01  4.843813E-04 -1.390153E+02  4.910680E-04 -1.388290E+02  9.697624E-01 -5.047945E+01 
3.773700E+02  9.713575E-01 -5.133784E+01  5.091030E-04 -1.421976E+02  5.139886E-04 -1.408592E+02  9.697407E-01 -5.050336E+01 
3.774450E+02  9.712939E-01 -5.135490E+01  5.178523E-04 -1.445791E+02  5.204285E-04 -1.436594E+02  9.695175E-01 -5.050756E+01 
3.775200E+02  9.710619E-01 -5.136720E+01  5.254488E-04 -1.462100E+02  5.250991E-04 -1.461346E+02  9.693859E-01 -5.052088E+01 
3.775950E+02  9.708306E-01 -5.137778E+01  5.269870E-04 -1.487193E+02  5.283757E-04 -1.483581E+02  9.692751E-01 -5.052908E+01 
3.776700E+02  9.704940E-01 -5.138141E+01  5.159558E-04 -1.523097E+02  5.158417E-04 -1.514855E+02  9.692962E-01 -5.054293E+01 
3.777450E+02  9.703806E-01 -5.138644E+01  4.857502E-04 -1.530758E+02  4.903469E-04 -1.530816E+02  9.693121E-01 -5.054489E+01 
3.778200E+02  9.702499E-01 -5.138641E+01  4.532605E-04 -1.531344E+02  4.499633E-04 -1.523326E+02  9.692111E-01 -5.054796E+01 
3.778950E+02  9.699230E-01 -5.139247E+01  4.392009E-04 -1.482425E+02  4.417502E-04 -1.468432E+02  9.693774E-01 -5.055678E+01 
3.779700E+02  9.700773E-01 -5.139264E+01  4.671714E-04 -1.451805E+02  4.623127E-04 -1.450295E+02  9.695188E-01 -5.055975E+01 
3.780450E+02  9.700152E-01 -5.138896E+01  4.932550E-04 -1.450308E+02  4.885041E-04 -1.443085E+02  9.696217E-01 -5.057029E+01 
3.781200E+02  9.699071E-01 -5.138527E+01  5.193281E-04 -1.486881E+02  5.169195E-04 -1.481032E+02  9.698192E-01 -5.058987E+01 
3.781950E+02  9.701609E-01 -5.137749E+01  4.997647E-04 -1.523772E+02  5.028726E-04 -1.515134E+02  9.700137E-01 -5.059708E+01 
3.782700E+02  9.703985E-01 -5.139526E+01  4.769267E-04 -1.524886E+02  4.802915E-04 -1.533098E+02  9.701224E-01 -5.062720E+01 
3.783450E+02  9.703806E-01 -5.139340E+01  4.597813E-04 -1.526458E+02  4.583664E-04 -1.524938E+02  9.702581E-01 -5.064340E+01 
3.784200E+02  9.709232E-01 -5.141781E+01  4.522230E-04 -1.517368E+02  4.564845E-04 -1.508562E+02  9.705222E-01 -5.067097E+01 
3.784950E+02  9.709700E-01 -5.142523E+01  4.422481E-04 -1.495768E+02  4.392216E-04 -1.493171E+02  9.705751E-01 -5.069823E+01 
3.785700E+02  9.711885E-01 -5.145043E+01  4.495100E-04 -1.472780E+02  4.446644E-04 -1.461432E+02  9.706383E-01 -5.071659E+01 
3.786450E+02  9.715062E-01 -5.147299E+01  4.618678E-04 -1.473599E+02  4.619196E-04 -1.476016E+02  9.708003E-01 -5.074592E+01 
3.787200E+02  9.716686E-01 -5.149190E+01  4.697034E-04 -1.450581E+02  4.712737E-04 -1.459164E+02  9.708649E-01 -5.076769E+01 
3.787950E+02  9.716672E-01 -5.152003E+01  4.845569E-04 -1.476688E+02  4.834546E-04 -1.465436E+02  9.708579E-01 -5.079325E+01 
3.788700E+02  9.717922E-01 -5.152362E+01  4.920262E-04 -1.487827E+02  4.963816E-04 -1.476599E+02  9.707946E-01 -5.081974E+01 
3.789450E+02  9.719205E-01 -5.155292E+01  4.987702E-04 -1.498037E+02  5.027561E-04 -1.499170E+02  9.708907E-01 -5.084372E+01 
3.790200E+02  9.720445E-01 -5.157539E+01  4.876406E-04 -1.525978E+02  4.914797E-04 -1.523355E+02  9.708888E-01 -5.088232E+01 
3.790950E+02  9.722499E-01 -5.160313E+01  4.762470E-04 -1.542286E+02  4.691072E-04 -1.539759E+02  9.708312E-01 -5.090076E+01 
3.791700E+02  9.721163E-01 -5.162244E+01  4.546764E-04 -1.532829E+02  4.564314E-04 -1.527579E+02  9.706848E-01 -5.093625E+01 
3.792450E+02  9.722805E-01 -5.165334E+01  4.450713E-04 -1.525008E+02  4.394195E-04 -1.526269E+02  9.707029E-01 -5.096264E+01 
3.793200E+02  9.722907E-01 -5.167993E+01  4.223009E-04 -1.513373E+02  4.257731E-04 -1.506946E+02  9.705506E-01 -5.098910E+01 
3.793950E+02  9.722003E-01 -5.169786E+01  4.142132E-04 -1.469016E+02  4.184757E-04 -1.480324E+02  9.703587E-01 -5.102313E+01 
3.794700E+02  9.724749E-01 -5.172287E+01  4.386399E-04 -1.448669E+02  4.403364E-04 -1.448164E+02  9.703138E-01 -5.104458E+01 
3.795450E+02  9.725061E-01 -5.175816E+01  4.581701E-04 -1.449663E+02  4.583281E-04 -1.440643E+02  9.701023E-01 -5.106176E+01 
3.796200E+02  9.723186E-01 -5.179166E+01  4.776184E-04 -1.450921E+02  4.776625E-04 -1.451614E+02  9.698799E-01 -5.108649E+01 
3.796950E+02  9.724546E-01 -5.181495E+01  4.894760E-04 -1.448272E+02  4.884631E-04 -1.453294E+02  9.694614E-01 -5.110345E+01 
3.797700E+02  9.724512E-01 -5.183747E+01  5.076662E-04 -1.479624E+02  5.105726E-04 -1.475583E+02  9.693432E-01 -5.111708E+01 
3.798450E+02  9.722931E-01 -5.186530E+01  5.027638E-04 -1.514084E+02  5.027151E-04 -1.513456E+02  9.691236E-01 -5.113612E+01 
3.799200E+02  9.721187E-01 -5.188725E+01  4.902866E-04 -1.533188E+02  4.873985E-04 -1.535204E+02  9.689089E-01 -5.113894E+01 
3.799950E+02  9.719857E-01 -5.192046E+01  4.680004E-04 -1.547807E+02  4.713612E-04 -1.547484E+02  9.686459E-01 -5.114726E+01 
3.800700E+02  9.718042E-01 -5.193532E+01  4.500736E-04 -1.550841E+02  4.469373E-04 -1.551540E+02  9.684764E-01 -5.114139E+01 
3.801450E+02  9.719615E-01 -5.195751E+01  4.217839E-04 -1.528111E+02  4.239250E-04 -1.523154E+02  9.686239E-01 -5.115322E+01 
3.802200E+02  9.717665E-01 -5.198652E+01  4.228884E-04 -1.489412E+02  4.182704E-04 -1.487084E+02  9.686693E-01 -5.114724E+01 
3.802950E+02  9.715670E-01 -5.200025E+01  4.336972E-04 -1.465897E+02  4.298526E-04 -1.464354E+02  9.688165E-01 -5.114557E+01 
3.803700E+02  9.715879E-01 -5.202809E+01  4.529059E-04 -1.474150E+02  4.516240E-04 -1.460599E+02  9.689227E-01 -5.116484E+01 
3.804450E+02  9.711888E-01 -5.204553E+01  4.572707E-04 -1.472119E+02  4.556038E-04 -1.470455E+02  9.691069E-01 -5.116866E+01 
3.805200E+02  9.711817E-01 -5.205045E+01  4.672847E-04 -1.470332E+02  4.688406E-04 -1.470493E+02  9.694305E-01 -5.118972E+01 
3.805950E+02  9.708452E-01 -5.207114E+01  4.686096E-04 -1.483605E+02  4.727447E-04 -1.477044E+02  9.694988E-01 -5.119279E+01 
3.806700E+02  9.710830E-01 -5.208848E+01  4.814250E-04 -1.494582E+02  4.698462E-04 -1.485621E+02  9.696665E-01 -5.121650E+01 
3.807450E+02  9.708776E-01 -5.209371E+01  4.738253E-04 -1.507094E+02  4.710765E-04 -1.496507E+02  9.699009E-01 -5.123124E+01 
3.808200E+02  9.707716E-01 -5.209857E+01  4.607049E-04 -1.507634E+02  4.564904E-04 -1.499498E+02  9.701662E-01 -5.126407E+01 
3.808950E+02  9.707982E-01 -5.211966E+01  4.484685E-04 -1.509686E+02  4.423886E-04 -1.503654E+02  9.702722E-01 -5.127295E+01 
3.809700E+02  9.707805E-01 -5.212551E+01  4.367179E-04 -1.486736E+02  4.371681E-04 -1.485872E+02  9.704370E-01 -5.130218E+01 
3.810450E+02  9.708287E-01 -5.213381E+01  4.482267E-04 -1.465263E+02  4.465326E-04 -1.462910E+02  9.706398E-01 -5.131848E+01 
3.811200E+02  9.710223E-01 -5.214775E+01  4.631131E-04 -1.462732E+02  4.627975E-04 -1.461730E+02  9.707514E-01 -5.134102E+01 
3.811950E+02  9.710115E-01 -5.215724E+01  4.627795E-04 -1.469248E+02  4.650538E-04 -1.475368E+02  9.709309E-01 -5.136703E+01 
3.812700E+02  9.711466E-01 -5.216596E+01  4.884329E-04 -1.466302E+02  4.701446E-04 -1.466404E+02  9.709910E-01 -5.139306E+01 
3.813450E+02  9.712076E-01 -5.217946E+01  4.882720E-04 -1.484902E+02  4.771539E-04 -1.481466E+02  9.712168E-01 -5.141744E+01 
3.814200E+02  9.715501E-01 -5.217860E+01  4.839021E-04 -1.497882E+02  4.778264E-04 -1.504937E+02  9.711875E-01 -5.144427E+01 
3.814950E+02  9.717094E-01 -5.219453E+01  4.708707E-04 -1.514924E+02  4.782948E-04 -1.500009E+02  9.714327E-01 -5.146891E+01 
3.815700E+02  9.721256E-01 -5.220265E+01  4.712439E-04 -1.516659E+02  4.654002E-04 -1.517865E+02  9.715056E-01 -5.149435E+01 
3.816450E+02  9.723681E-01 -5.221649E+01  4.457035E-04 -1.509362E+02  4.510280E-04 -1.508906E+02  9.716136E-01 -5.151661E+01 
3.817200E+02  9.725130E-01 -5.224416E+01  4.410756E-04 -1.500194E+02  4.417904E-04 -1.494401E+02  9.716193E-01 -5.154779E+01 
3.817950E+02  9.729801E-01 -5.226709E+01  4.514349E-04 -1.475499E+02  4.506996E-04 -1.485750E+02  9.717947E-01 -5.156661E+01 
3.818700E+02  9.732670E-01 -5.230134E+01  4.571123E-04 -1.479720E+02  4.542181E-04 -1.476924E+02  9.720033E-01 -5.159883E+01 
3.819450E+02  9.736402E-01 -5.232353E+01  4.619809E-04 -1.488816E+02  4.541648E-04 -1.481184E+02  9.719438E-01 -5.162475E+01 
3.820200E+02  9.739093E-01 -5.236110E+01  4.464386E-04 -1.491417E+02  4.491688E-04 -1.492376E+02  9.720249E-01 -5.164867E+01 
3.820950E+02  9.739904E-01 -5.238704E+01  4.503315E-04 -1.467315E+02  4.470350E-04 -1.474044E+02  9.722118E-01 -5.167556E+01 
3.821700E+02  9.743024E-01 -5.242714E+01  4.562851E-04 -1.453077E+02  4.571070E-04 -1.453210E+02  9.723543E-01 -5.169946E+01 
3.822450E+02  9.744061E-01 -5.245755E+01  4.640276E-04 -1.456162E+02  4.665462E-04 -1.444275E+02  9.724472E-01 -5.172599E+01 
3.823200E+02  9.744696E-01 -5.249327E+01  4.769517E-04 -1.465723E+02  4.748564E-04 -1.455359E+02  9.724323E-01 -5.175884E+01 
3.823950E+02  9.747646E-01 -5.253552E+01  4.855576E-04 -1.472692E+02  4.827709E-04 -1.476087E+02  9.724537E-01 -5.179000E+01 
3.824700E+02  9.747901E-01 -5.256339E+01  4.743008E-04 -1.469277E+02  4.689247E-04 -1.473127E+02  9.725346E-01 -5.181050E+01 
3.825450E+02  9.746692E-01 -5.259830E+01  4.717573E-04 -1.465498E+02  4.762559E-04 -1.462981E+02  9.728352E-01 -5.183826E+01 
3.826200E+02  9.747937E-01 -5.263472E+01  4.818548E-04 -1.469790E+02  4.809749E-04 -1.466111E+02  9.729514E-01 -5.186505E+01 
3.826950E+02  9.748228E-01 -5.266181E+01  4.861323E-04 -1.479888E+02  4.804647E-04 -1.485218E+02  9.728830E-01 -5.189868E+01 
3.827700E+02  9.746774E-01 -5.270069E+01  4.820185E-04 -1.481888E+02  4.789611E-04 -1.487360E+02  9.729148E-01 -5.192923E+01 
3.828450E+02  9.749796E-01 -5.272897E+01  4.822709E-04 -1.492646E+02  4.902072E-04 -1.488979E+02  9.730066E-01 -5.195936E+01 
3.829200E+02  9.748598E-01 -5.275706E+01  4.695440E-04 -1.500146E+02  4.718375E-04 -1.502831E+02  9.731046E-01 -5.197714E+01 
3.829950E+02  9.747644E-01 -5.278945E+01  4.694067E-04 -1.488424E+02  4.637448E-04 -1.485634E+02  9.730892E-01 -5.201354E+01 
3.830700E+02  9.746472E-01 -5.280447E+01  4.688003E-04 -1.492460E+02  4.717965E-04 -1.476151E+02  9.731019E-01 -5.204066E+01 
3.831450E+02  9.748472E-01 -5.283845E+01  4.643875E-04 -1.485023E+02  4.707880E-04 -1.485674E+02  9.731512E-01 -5.206771E+01 
3.832200E+02  9.749435E-01 -5.287781E+01  4.693569E-04 -1.479224E+02  4.614899E-04 -1.479975E+02  9.731286E-01 -5.209546E+01 
3.832950E+02  9.748700E-01 -5.289888E+01  4.655968E-04 -1.469197E+02  4.616554E-04 -1.463688E+02  9.732000E-01 -5.213427E+01 
3.833700E+02  9.748321E-01 -5.293394E+01  4.659712E-04 -1.467971E+02  4.679867E-04 -1.469676E+02  9.732809E-01 -5.216248E+01 
3.834450E+02  9.747082E-01 -5.296764E+01  4.752727E-04 -1.479228E+02  4.658910E-04 -1.472866E+02  9.732834E-01 -5.219144E+01 
3.835200E+02  9.749489E-01 -5.298804E+01  4.638116E-04 -1.470617E+02  4.664706E-04 -1.462980E+02  9.734564E-01 -5.221003E+01 
3.835950E+02  9.749917E-01 -5.301790E+01  4.662601E-04 -1.462543E+02  4.679969E-04 -1.460835E+02  9.734970E-01 -5.224163E+01 
3.836700E+02  9.748072E-01 -5.304593E+01  4.740173E-04 -1.450272E+02  4.769211E-04 -1.450498E+02  9.735343E-01 -5.227244E+01 
3.837450E+02  9.747904E-01 -5.308107E+01  4.807108E-04 -1.451744E+02  4.856590E-04 -1.448124E+02  9.735464E-01 -5.229519E+01 
3.838200E+02  9.749515E-01 -5.310336E+01  4.881526E-04 -1.456762E+02  4.854817E-04 -1.469036E+02  9.735366E-01 -5.232662E+01 
3.838950E+02  9.748340E-01 -5.312834E+01  4.893053E-04 -1.467864E+02  4.946132E-04 -1.464131E+02  9.736898E-01 -5.236313E+01 
3.839700E+02  9.749250E-01 -5.315999E+01  5.002046E-04 -1.472698E+02  4.924569E-04 -1.470618E+02  9.737727E-01 -5.239152E+01 
3.840450E+02  9.750447E-01 -5.318714E+01  4.890916E-04 -1.473021E+02  4.907961E-04 -1.473986E+02  9.739532E-01 -5.242704E+01 
3.841200E+02  9.750932E-01 -5.320789E+01  4.818509E-04 -1.471431E+02  4.865935E-04 -1.473436E+02  9.738961E-01 -5.245591E+01 
3.841950E+02  9.751893E-01 -5.324773E+01  4.823376E-04 -1.466311E+02  4.770899E-04 -1.466352E+02  9.738892E-01 -5.249113E+01 
3.842700E+02  9.753010E-01 -5.326664E+01  4.835518E-04 -1.466016E+02  4.845286E-04 -1.469495E+02  9.739209E-01 -5.252292E+01 
3.843450E+02  9.753547E-01 -5.331025E+01  4.859162E-04 -1.464713E+02  4.868411E-04 -1.461299E+02  9.740451E-01 -5.255131E+01 
3.844200E+02  9.754428E-01 -5.333807E+01  4.911232E-04 -1.457383E+02  4.843012E-04 -1.451852E+02  9.739397E-01 -5.258558E+01 
3.844950E+02  9.753889E-01 -5.337482E+01  4.869576E-04 -1.460503E+02  4.893203E-04 -1.463214E+02  9.741271E-01 -5.262479E+01 
3.845700E+02  9.752391E-01 -5.340643E+01  4.949724E-04 -1.461754E+02  4.957499E-04 -1.454899E+02  9.739968E-01 -5.265803E+01 
3.846450E+02  9.754729E-01 -5.343650E+01  5.022988E-04 -1.465137E+02  5.051694E-04 -1.457793E+02  9.740552E-01 -5.269002E+01 
3.847200E+02  9.753771E-01 -5.347300E+01  5.025598E-04 -1.469472E+02  5.019108E-04 -1.467916E+02  9.743293E-01 -5.272331E+01 
3.847950E+02  9.754209E-01 -5.350476E+01  5.081321E-04 -1.474698E+02  5.048441E-04 -1.474435E+02  9.739791E-01 -5.275902E+01 
3.848700E+02  9.756351E-01 -5.353644E+01  4.991743E-04 -1.471041E+02  5.050287E-04 -1.467058E+02  9.741108E-01 -5.279272E+01 
3.849450E+02  9.754745E-01 -5.357138E+01  5.076322E-04 -1.465490E+02  5.033987E-04 -1.467715E+02  9.741271E-01 -5.282746E+01 
3.850200E+02  9.755287E-01 -5.360717E+01  4.984427E-04 -1.466721E+02  5.028043E-04 -1.460518E+02  9.740744E-01 -5.285984E+01 
3.850950E+02  9.753760E-01 -5.364946E+01  5.101617E-04 -1.456552E+02  5.125730E-04 -1.464260E+02  9.741751E-01 -5.289755E+01 
3.851700E+02  9.755412E-01 -5.368249E+01  5.190327E-04 -1.465685E+02  5.139406E-04 -1.476638E+02  9.739795E-01 -5.293005E+01 
3.852450E+02  9.755064E-01 -5.371094E+01  5.157184E-04 -1.469420E+02  5.203414E-04 -1.473228E+02  9.741297E-01 -5.296355E+01 
3.853200E+02  9.753468E-01 -5.374667E+01  5.151350E-04 -1.475646E+02  5.134430E-04 -1.480861E+02  9.740324E-01 -5.300786E+01 
3.853950E+02  9.754760E-01 -5.377801E+01  5.090683E-04 -1.480143E+02  5.090388E-04 -1.475576E+02  9.741120E-01 -5.303097E+01 
