! Matrix data file written by TouchstoneData, EPCOS AG
! FILENAME: "B3735_WB.s2p"
! COMMENT: "PORTEX1 93PS;PORTEX2 179.5PS;  4 May 2007 S1"
! INFO: nport=2, nfreq=1601
! DATE: "Tue May 22 16:18:46 2007"
! USER: "Wilfried Schott"
!
! port | pin | signal
! -----|-----|--------
!   1  |  1  |  input
!   2  |  4  |  output
! --------------------
!
# MHZ S MA R 50
! freq  magS11 angS11  magS21 angS21  magS12 angS12  magS22 angS22
4.084200E+02  9.912444E-01 -3.190104E+01  1.153497E-04 4.391875E+01  1.193534E-04 4.510943E+01  9.888814E-01 -3.046522E+01 
4.084513E+02  9.912358E-01 -3.190615E+01  1.172202E-04 4.048107E+01  1.141469E-04 3.735081E+01  9.888218E-01 -3.046336E+01 
4.084825E+02  9.912010E-01 -3.190600E+01  1.129585E-04 3.959301E+01  1.158967E-04 3.684143E+01  9.887551E-01 -3.046237E+01 
4.085138E+02  9.913088E-01 -3.191341E+01  1.136770E-04 3.536818E+01  1.069958E-04 3.697206E+01  9.888439E-01 -3.046583E+01 
4.085450E+02  9.911577E-01 -3.190666E+01  1.051605E-04 3.209482E+01  1.096608E-04 3.090295E+01  9.889177E-01 -3.047795E+01 
4.085763E+02  9.913671E-01 -3.191289E+01  9.528392E-05 2.859549E+01  1.027356E-04 3.406113E+01  9.889057E-01 -3.047496E+01 
4.086075E+02  9.912763E-01 -3.191295E+01  9.611598E-05 2.772977E+01  9.933828E-05 3.355951E+01  9.888080E-01 -3.047634E+01 
4.086388E+02  9.913908E-01 -3.191952E+01  8.884778E-05 3.053673E+01  9.724434E-05 2.903525E+01  9.887878E-01 -3.048414E+01 
4.086700E+02  9.912498E-01 -3.191661E+01  9.418305E-05 2.639435E+01  8.752305E-05 2.795992E+01  9.888274E-01 -3.048338E+01 
4.087013E+02  9.912940E-01 -3.192301E+01  9.214748E-05 2.048005E+01  8.798464E-05 2.783351E+01  9.887697E-01 -3.047663E+01 
4.087325E+02  9.913698E-01 -3.192609E+01  7.872256E-05 2.167935E+01  7.916806E-05 2.250092E+01  9.888433E-01 -3.048556E+01 
4.087638E+02  9.912894E-01 -3.192740E+01  7.181074E-05 2.278543E+01  6.874272E-05 2.217081E+01  9.888762E-01 -3.049038E+01 
4.087950E+02  9.912433E-01 -3.192834E+01  6.986308E-05 1.954289E+01  7.475356E-05 2.281846E+01  9.889373E-01 -3.048755E+01 
4.088263E+02  9.913572E-01 -3.193396E+01  6.072327E-05 1.962302E+01  6.624925E-05 2.140981E+01  9.887906E-01 -3.049489E+01 
4.088575E+02  9.912673E-01 -3.193571E+01  6.543962E-05 2.242398E+01  4.829880E-05 2.072336E+01  9.888851E-01 -3.050362E+01 
4.088888E+02  9.912127E-01 -3.193384E+01  5.677365E-05 3.174756E+01  5.246544E-05 2.948998E+01  9.888792E-01 -3.049870E+01 
4.089200E+02  9.911682E-01 -3.194091E+01  5.387850E-05 2.925702E+01  5.435145E-05 2.486080E+01  9.888674E-01 -3.049131E+01 
4.089513E+02  9.910938E-01 -3.194381E+01  4.887529E-05 2.945865E+01  5.101312E-05 3.785437E+01  9.888937E-01 -3.050724E+01 
4.089825E+02  9.912826E-01 -3.194733E+01  5.112469E-05 3.529452E+01  4.225068E-05 4.427983E+01  9.888661E-01 -3.050406E+01 
4.090138E+02  9.911500E-01 -3.194653E+01  3.970095E-05 4.021531E+01  4.919492E-05 4.630921E+01  9.889494E-01 -3.050382E+01 
4.090450E+02  9.911750E-01 -3.194360E+01  4.449953E-05 4.127681E+01  4.548841E-05 5.205041E+01  9.889923E-01 -3.050899E+01 
4.090763E+02  9.912011E-01 -3.194334E+01  3.453348E-05 5.888611E+01  3.384849E-05 4.773853E+01  9.889701E-01 -3.050415E+01 
4.091075E+02  9.913091E-01 -3.195249E+01  3.794484E-05 5.205121E+01  4.090071E-05 5.811780E+01  9.887448E-01 -3.050982E+01 
4.091388E+02  9.914072E-01 -3.195439E+01  4.378568E-05 6.197458E+01  3.631023E-05 6.580236E+01  9.888477E-01 -3.051571E+01 
4.091700E+02  9.911931E-01 -3.196627E+01  4.374375E-05 6.222091E+01  4.343772E-05 5.712609E+01  9.888007E-01 -3.052037E+01 
4.092013E+02  9.912529E-01 -3.196746E+01  4.852636E-05 6.536921E+01  4.712086E-05 7.523705E+01  9.889777E-01 -3.052304E+01 
4.092325E+02  9.913393E-01 -3.196356E+01  5.030031E-05 7.491129E+01  5.707690E-05 7.828930E+01  9.888972E-01 -3.051603E+01 
4.092638E+02  9.913724E-01 -3.196921E+01  5.501905E-05 7.503850E+01  4.749807E-05 6.282174E+01  9.888987E-01 -3.052632E+01 
4.092950E+02  9.913770E-01 -3.196971E+01  5.467956E-05 7.156615E+01  5.652198E-05 7.123664E+01  9.888730E-01 -3.052592E+01 
4.093263E+02  9.915199E-01 -3.196875E+01  5.493065E-05 7.165260E+01  6.044148E-05 7.130220E+01  9.888187E-01 -3.052975E+01 
4.093575E+02  9.912414E-01 -3.197490E+01  6.019278E-05 7.185205E+01  5.991752E-05 6.713282E+01  9.889006E-01 -3.053218E+01 
4.093888E+02  9.912783E-01 -3.197818E+01  6.369493E-05 6.918227E+01  6.567297E-05 7.254441E+01  9.889254E-01 -3.054067E+01 
4.094200E+02  9.913309E-01 -3.198040E+01  6.349799E-05 7.564481E+01  6.093149E-05 7.037834E+01  9.889303E-01 -3.053311E+01 
4.094513E+02  9.912002E-01 -3.197320E+01  6.393066E-05 7.225890E+01  6.824908E-05 7.709834E+01  9.889711E-01 -3.054154E+01 
4.094825E+02  9.913116E-01 -3.198790E+01  7.168890E-05 6.971605E+01  6.605220E-05 7.047812E+01  9.889655E-01 -3.054279E+01 
4.095138E+02  9.914142E-01 -3.199058E+01  6.517570E-05 6.371382E+01  7.409884E-05 7.243737E+01  9.888490E-01 -3.055171E+01 
4.095450E+02  9.913344E-01 -3.199513E+01  6.883400E-05 7.325611E+01  6.941204E-05 7.267985E+01  9.889155E-01 -3.054630E+01 
4.095763E+02  9.914072E-01 -3.199576E+01  6.516117E-05 7.039090E+01  7.312396E-05 7.799227E+01  9.889180E-01 -3.055261E+01 
4.096075E+02  9.913290E-01 -3.199382E+01  7.378241E-05 7.069958E+01  7.794902E-05 7.037946E+01  9.890327E-01 -3.055240E+01 
4.096388E+02  9.912021E-01 -3.200057E+01  7.179380E-05 7.030466E+01  7.488399E-05 7.162139E+01  9.889101E-01 -3.055681E+01 
4.096700E+02  9.913239E-01 -3.200759E+01  7.779107E-05 7.431935E+01  7.202840E-05 7.159711E+01  9.888963E-01 -3.055978E+01 
4.097013E+02  9.912754E-01 -3.200967E+01  7.592760E-05 7.629533E+01  7.238510E-05 7.554067E+01  9.890350E-01 -3.055918E+01 
4.097325E+02  9.913331E-01 -3.200737E+01  7.280236E-05 7.529284E+01  7.585059E-05 7.381368E+01  9.890033E-01 -3.056311E+01 
4.097638E+02  9.913939E-01 -3.201089E+01  7.433860E-05 7.095672E+01  7.630453E-05 6.910852E+01  9.891144E-01 -3.057314E+01 
4.097950E+02  9.913406E-01 -3.202310E+01  7.739220E-05 7.151108E+01  8.138230E-05 6.905690E+01  9.889876E-01 -3.056686E+01 
4.098263E+02  9.914009E-01 -3.201826E+01  8.454018E-05 7.082705E+01  7.895738E-05 7.029017E+01  9.889760E-01 -3.056919E+01 
4.098575E+02  9.914144E-01 -3.203067E+01  8.302243E-05 6.739437E+01  8.238368E-05 6.744449E+01  9.889931E-01 -3.057003E+01 
4.098888E+02  9.912788E-01 -3.202309E+01  8.410640E-05 6.802678E+01  8.524742E-05 7.289651E+01  9.890178E-01 -3.057868E+01 
4.099200E+02  9.912827E-01 -3.202860E+01  8.703668E-05 7.317295E+01  8.526446E-05 6.870736E+01  9.888771E-01 -3.057826E+01 
4.099513E+02  9.911705E-01 -3.202838E+01  8.165468E-05 6.765914E+01  8.501592E-05 6.959465E+01  9.889173E-01 -3.058351E+01 
4.099825E+02  9.912878E-01 -3.203296E+01  8.648395E-05 6.389449E+01  8.743891E-05 6.665842E+01  9.888907E-01 -3.058991E+01 
4.100138E+02  9.912573E-01 -3.203528E+01  9.219752E-05 6.542080E+01  8.889098E-05 6.762043E+01  9.889577E-01 -3.058007E+01 
4.100450E+02  9.913725E-01 -3.204962E+01  9.683802E-05 6.626146E+01  9.769663E-05 6.423803E+01  9.889124E-01 -3.058529E+01 
4.100763E+02  9.911534E-01 -3.204329E+01  1.046604E-04 6.775508E+01  9.224892E-05 7.177937E+01  9.889229E-01 -3.058943E+01 
4.101075E+02  9.913447E-01 -3.204253E+01  1.055674E-04 6.299809E+01  9.573505E-05 6.186555E+01  9.889068E-01 -3.059816E+01 
4.101388E+02  9.913082E-01 -3.204677E+01  9.830379E-05 6.344134E+01  9.634194E-05 6.024005E+01  9.888400E-01 -3.060354E+01 
4.101700E+02  9.913623E-01 -3.205395E+01  1.000215E-04 6.045247E+01  9.798661E-05 5.942682E+01  9.888238E-01 -3.060567E+01 
4.102013E+02  9.914179E-01 -3.205136E+01  9.803083E-05 5.485760E+01  9.217032E-05 5.692136E+01  9.889792E-01 -3.060555E+01 
4.102325E+02  9.914001E-01 -3.206222E+01  1.005798E-04 5.488543E+01  9.501577E-05 5.633551E+01  9.888979E-01 -3.060483E+01 
4.102638E+02  9.913169E-01 -3.205688E+01  1.009186E-04 5.596303E+01  9.864166E-05 4.804275E+01  9.889008E-01 -3.060685E+01 
4.102950E+02  9.912758E-01 -3.206014E+01  9.433581E-05 5.052955E+01  1.016360E-04 5.284698E+01  9.890162E-01 -3.061333E+01 
4.103263E+02  9.914384E-01 -3.206719E+01  9.382264E-05 4.959000E+01  9.139569E-05 4.989872E+01  9.888671E-01 -3.061620E+01 
4.103575E+02  9.912606E-01 -3.207263E+01  8.913296E-05 4.729903E+01  9.247091E-05 5.017358E+01  9.889521E-01 -3.061012E+01 
4.103888E+02  9.913744E-01 -3.207306E+01  8.901384E-05 4.816557E+01  8.445142E-05 4.918186E+01  9.888704E-01 -3.062163E+01 
4.104200E+02  9.913365E-01 -3.206930E+01  9.033471E-05 4.968959E+01  7.806776E-05 5.099898E+01  9.890024E-01 -3.062765E+01 
4.104513E+02  9.911958E-01 -3.207675E+01  8.113080E-05 4.759800E+01  8.561529E-05 4.986545E+01  9.889309E-01 -3.062978E+01 
4.104825E+02  9.914012E-01 -3.207514E+01  8.577274E-05 4.781106E+01  7.635619E-05 4.435544E+01  9.888578E-01 -3.062495E+01 
4.105138E+02  9.911996E-01 -3.208242E+01  8.283734E-05 5.047868E+01  7.703454E-05 4.613679E+01  9.889140E-01 -3.063575E+01 
4.105450E+02  9.912317E-01 -3.209026E+01  8.077255E-05 4.684293E+01  7.775108E-05 4.972232E+01  9.890077E-01 -3.062621E+01 
4.105763E+02  9.912681E-01 -3.208740E+01  7.924370E-05 5.110874E+01  8.023592E-05 4.734412E+01  9.889929E-01 -3.063251E+01 
4.106075E+02  9.913127E-01 -3.208732E+01  8.376250E-05 5.092335E+01  7.682027E-05 5.153573E+01  9.890436E-01 -3.064156E+01 
4.106388E+02  9.912868E-01 -3.209429E+01  7.905561E-05 5.065124E+01  7.293179E-05 5.239314E+01  9.888603E-01 -3.063911E+01 
4.106700E+02  9.913411E-01 -3.209648E+01  7.629584E-05 4.948571E+01  7.681630E-05 4.955629E+01  9.888658E-01 -3.064228E+01 
4.107013E+02  9.912666E-01 -3.210767E+01  7.177214E-05 5.323762E+01  7.088886E-05 4.701731E+01  9.889841E-01 -3.064832E+01 
4.107325E+02  9.913766E-01 -3.209515E+01  7.329884E-05 5.058221E+01  7.768338E-05 5.349184E+01  9.890244E-01 -3.064758E+01 
4.107638E+02  9.912471E-01 -3.210144E+01  7.533937E-05 5.057612E+01  7.669705E-05 5.462020E+01  9.890045E-01 -3.065429E+01 
4.107950E+02  9.912335E-01 -3.210708E+01  6.793595E-05 4.991280E+01  7.493931E-05 4.748733E+01  9.889299E-01 -3.065197E+01 
4.108263E+02  9.913155E-01 -3.211488E+01  7.389618E-05 4.780063E+01  7.456705E-05 5.159301E+01  9.888344E-01 -3.066264E+01 
4.108575E+02  9.912746E-01 -3.210866E+01  6.808046E-05 4.625305E+01  6.624458E-05 5.170975E+01  9.888677E-01 -3.065815E+01 
4.108888E+02  9.913294E-01 -3.210775E+01  5.992384E-05 4.807629E+01  6.648717E-05 5.394562E+01  9.888971E-01 -3.065587E+01 
4.109200E+02  9.912309E-01 -3.211759E+01  6.244102E-05 4.868475E+01  5.891616E-05 5.265846E+01  9.889839E-01 -3.066468E+01 
4.109513E+02  9.912648E-01 -3.212119E+01  6.247377E-05 5.411658E+01  5.724880E-05 5.173926E+01  9.889164E-01 -3.067038E+01 
4.109825E+02  9.912868E-01 -3.212867E+01  6.056611E-05 6.382917E+01  6.153990E-05 5.921271E+01  9.888746E-01 -3.067043E+01 
4.110138E+02  9.910956E-01 -3.211493E+01  6.214016E-05 6.422939E+01  4.818198E-05 7.043725E+01  9.889278E-01 -3.067132E+01 
4.110450E+02  9.911443E-01 -3.212099E+01  6.090488E-05 7.669321E+01  5.667571E-05 6.610540E+01  9.888027E-01 -3.067416E+01 
4.110763E+02  9.913437E-01 -3.212802E+01  6.069461E-05 7.309008E+01  6.061654E-05 7.677700E+01  9.888489E-01 -3.068060E+01 
4.111075E+02  9.911882E-01 -3.213277E+01  6.463983E-05 8.097826E+01  6.908218E-05 8.180302E+01  9.888756E-01 -3.068317E+01 
4.111388E+02  9.912261E-01 -3.214206E+01  6.968075E-05 7.421542E+01  7.435660E-05 7.888849E+01  9.889657E-01 -3.068620E+01 
4.111700E+02  9.912316E-01 -3.213533E+01  7.789757E-05 7.894319E+01  7.831875E-05 8.056163E+01  9.889157E-01 -3.069035E+01 
4.112013E+02  9.911916E-01 -3.213717E+01  8.359261E-05 7.883395E+01  8.315772E-05 7.975239E+01  9.888938E-01 -3.069042E+01 
4.112325E+02  9.912439E-01 -3.214468E+01  8.864569E-05 8.225765E+01  8.558525E-05 7.300712E+01  9.887441E-01 -3.069281E+01 
4.112638E+02  9.911824E-01 -3.214128E+01  9.710254E-05 8.078858E+01  9.613352E-05 7.956946E+01  9.888199E-01 -3.069383E+01 
4.112950E+02  9.911634E-01 -3.215189E+01  1.022655E-04 7.576002E+01  9.280244E-05 7.855337E+01  9.889238E-01 -3.069728E+01 
4.113263E+02  9.910540E-01 -3.215540E+01  1.017570E-04 7.565025E+01  9.963567E-05 7.754136E+01  9.889911E-01 -3.070047E+01 
4.113575E+02  9.910790E-01 -3.216119E+01  1.104655E-04 7.529895E+01  1.085771E-04 7.432065E+01  9.888843E-01 -3.070953E+01 
4.113888E+02  9.911877E-01 -3.215651E+01  1.098743E-04 7.640653E+01  1.095248E-04 7.367499E+01  9.887535E-01 -3.070553E+01 
4.114200E+02  9.911269E-01 -3.216551E+01  1.169695E-04 7.238015E+01  1.113757E-04 7.005101E+01  9.888167E-01 -3.070629E+01 
4.114513E+02  9.912079E-01 -3.216177E+01  1.186992E-04 6.724279E+01  1.191073E-04 6.986062E+01  9.887914E-01 -3.071361E+01 
4.114825E+02  9.912565E-01 -3.216623E+01  1.251719E-04 6.779911E+01  1.262151E-04 6.471581E+01  9.888787E-01 -3.071782E+01 
4.115138E+02  9.911171E-01 -3.216695E+01  1.256143E-04 6.620953E+01  1.285623E-04 6.612092E+01  9.888971E-01 -3.072206E+01 
4.115450E+02  9.910616E-01 -3.217065E+01  1.275452E-04 6.330820E+01  1.391682E-04 6.224616E+01  9.888829E-01 -3.071631E+01 
4.115763E+02  9.910459E-01 -3.217596E+01  1.327160E-04 5.889134E+01  1.336115E-04 6.092654E+01  9.888098E-01 -3.071398E+01 
4.116075E+02  9.911739E-01 -3.217549E+01  1.455890E-04 5.757997E+01  1.376282E-04 6.044121E+01  9.888001E-01 -3.071898E+01 
4.116388E+02  9.911718E-01 -3.217920E+01  1.358742E-04 5.588900E+01  1.384611E-04 5.645158E+01  9.888000E-01 -3.072985E+01 
4.116700E+02  9.911608E-01 -3.217629E+01  1.424145E-04 5.524577E+01  1.443614E-04 5.507728E+01  9.887243E-01 -3.072308E+01 
4.117013E+02  9.910395E-01 -3.218119E+01  1.437487E-04 5.202846E+01  1.451983E-04 5.305241E+01  9.887090E-01 -3.072951E+01 
4.117325E+02  9.910429E-01 -3.218561E+01  1.509296E-04 5.149049E+01  1.485114E-04 5.149143E+01  9.886997E-01 -3.073147E+01 
4.117638E+02  9.911636E-01 -3.218784E+01  1.531824E-04 4.750572E+01  1.506015E-04 4.836379E+01  9.887528E-01 -3.073193E+01 
4.117950E+02  9.910243E-01 -3.219672E+01  1.548252E-04 4.354305E+01  1.551372E-04 4.444168E+01  9.887875E-01 -3.074541E+01 
4.118263E+02  9.911080E-01 -3.219354E+01  1.625049E-04 4.356133E+01  1.488477E-04 4.019857E+01  9.886895E-01 -3.074552E+01 
4.118575E+02  9.910275E-01 -3.219534E+01  1.528991E-04 3.524926E+01  1.579737E-04 3.868859E+01  9.887367E-01 -3.074002E+01 
4.118888E+02  9.910470E-01 -3.219872E+01  1.554419E-04 3.429843E+01  1.598997E-04 3.328912E+01  9.888030E-01 -3.074761E+01 
4.119200E+02  9.910768E-01 -3.219344E+01  1.609120E-04 3.207375E+01  1.659295E-04 2.799412E+01  9.887912E-01 -3.074337E+01 
4.119513E+02  9.910557E-01 -3.219963E+01  1.582511E-04 2.578337E+01  1.621151E-04 2.551853E+01  9.887592E-01 -3.074975E+01 
4.119825E+02  9.910807E-01 -3.220856E+01  1.639271E-04 2.198121E+01  1.518426E-04 2.104552E+01  9.888059E-01 -3.075104E+01 
4.120138E+02  9.911355E-01 -3.220765E+01  1.552752E-04 1.933373E+01  1.584235E-04 1.931278E+01  9.887184E-01 -3.075419E+01 
4.120450E+02  9.910989E-01 -3.220397E+01  1.541097E-04 1.480558E+01  1.464595E-04 1.757761E+01  9.886605E-01 -3.075432E+01 
4.120763E+02  9.912970E-01 -3.220837E+01  1.451465E-04 1.175344E+01  1.466169E-04 1.137364E+01  9.886738E-01 -3.075879E+01 
4.121075E+02  9.910859E-01 -3.221859E+01  1.453769E-04 7.213378E+00  1.442264E-04 4.540328E+00  9.887396E-01 -3.076054E+01 
4.121388E+02  9.910365E-01 -3.221586E+01  1.376015E-04 2.697667E+00  1.379436E-04 5.458657E+00  9.886440E-01 -3.076544E+01 
4.121700E+02  9.908912E-01 -3.222234E+01  1.336301E-04 -2.518829E-01  1.412088E-04 1.288302E+00  9.885628E-01 -3.076447E+01 
4.122013E+02  9.910518E-01 -3.221796E+01  1.294677E-04 -5.008630E+00  1.248889E-04 -6.373666E+00  9.886628E-01 -3.076714E+01 
4.122325E+02  9.910725E-01 -3.222092E+01  1.289336E-04 -8.732013E+00  1.207052E-04 -7.486078E+00  9.887596E-01 -3.076140E+01 
4.122638E+02  9.910757E-01 -3.222270E+01  1.188689E-04 -1.391528E+01  1.123066E-04 -1.623273E+01  9.887111E-01 -3.076715E+01 
4.122950E+02  9.910924E-01 -3.222432E+01  1.118832E-04 -1.567664E+01  1.065368E-04 -1.517346E+01  9.887332E-01 -3.077459E+01 
4.123263E+02  9.911076E-01 -3.222985E+01  1.068536E-04 -2.357717E+01  1.034037E-04 -2.457550E+01  9.886975E-01 -3.077777E+01 
4.123575E+02  9.910256E-01 -3.223258E+01  1.073626E-04 -2.667460E+01  9.660347E-05 -2.548971E+01  9.886763E-01 -3.077548E+01 
4.123888E+02  9.911842E-01 -3.222921E+01  8.675972E-05 -3.227326E+01  8.368251E-05 -3.227831E+01  9.887768E-01 -3.077701E+01 
4.124200E+02  9.910937E-01 -3.223667E+01  7.438882E-05 -3.773956E+01  8.390192E-05 -3.574108E+01  9.887200E-01 -3.078080E+01 
4.124513E+02  9.910200E-01 -3.224240E+01  7.513398E-05 -4.123779E+01  7.101172E-05 -3.644753E+01  9.886193E-01 -3.078622E+01 
4.124825E+02  9.910282E-01 -3.224393E+01  6.046578E-05 -5.178810E+01  5.938461E-05 -5.002480E+01  9.887068E-01 -3.078946E+01 
4.125138E+02  9.911702E-01 -3.224172E+01  6.270166E-05 -5.233355E+01  4.556229E-05 -5.589503E+01  9.886214E-01 -3.079051E+01 
4.125450E+02  9.912809E-01 -3.224022E+01  4.038112E-05 -6.139030E+01  4.188295E-05 -6.638832E+01  9.888057E-01 -3.078562E+01 
4.125763E+02  9.912029E-01 -3.224825E+01  2.474472E-05 -7.499519E+01  3.519431E-05 -7.090126E+01  9.887772E-01 -3.079530E+01 
4.126075E+02  9.911842E-01 -3.224862E+01  2.768041E-05 -8.156932E+01  2.377194E-05 -8.549198E+01  9.888407E-01 -3.079733E+01 
4.126388E+02  9.910285E-01 -3.225571E+01  2.525057E-05 -7.446386E+01  1.836340E-05 -7.032847E+01  9.886724E-01 -3.080553E+01 
4.126700E+02  9.911461E-01 -3.225873E+01  1.556691E-05 -1.193876E+02  1.633419E-05 -1.053438E+02  9.886935E-01 -3.080448E+01 
4.127013E+02  9.910205E-01 -3.225499E+01  1.120430E-05 1.699393E+02  1.573411E-05 -1.425948E+02  9.887037E-01 -3.080420E+01 
4.127325E+02  9.910910E-01 -3.226365E+01  1.576275E-05 1.675849E+02  1.384725E-05 -1.694647E+02  9.887056E-01 -3.080736E+01 
4.127638E+02  9.910486E-01 -3.226677E+01  2.061708E-05 1.582575E+02  2.511531E-05 1.633227E+02  9.887290E-01 -3.080665E+01 
4.127950E+02  9.910304E-01 -3.226846E+01  3.234310E-05 1.535469E+02  2.589233E-05 1.339421E+02  9.886059E-01 -3.081150E+01 
4.128263E+02  9.911743E-01 -3.227081E+01  2.963770E-05 1.407157E+02  3.502985E-05 1.322821E+02  9.885203E-01 -3.081236E+01 
4.128575E+02  9.910869E-01 -3.226796E+01  4.107626E-05 1.293703E+02  3.705279E-05 1.343205E+02  9.886563E-01 -3.081878E+01 
4.128888E+02  9.910912E-01 -3.227196E+01  4.419937E-05 1.303747E+02  4.952373E-05 1.290599E+02  9.887080E-01 -3.081693E+01 
4.129200E+02  9.910948E-01 -3.227429E+01  5.603860E-05 1.243037E+02  5.821072E-05 1.199164E+02  9.886663E-01 -3.082610E+01 
4.129513E+02  9.909755E-01 -3.227994E+01  7.044378E-05 1.210238E+02  5.953132E-05 1.152250E+02  9.885778E-01 -3.082584E+01 
4.129825E+02  9.910823E-01 -3.228780E+01  7.645822E-05 1.059494E+02  7.563904E-05 1.108626E+02  9.886414E-01 -3.082482E+01 
4.130138E+02  9.910655E-01 -3.228237E+01  8.045299E-05 1.042658E+02  9.027994E-05 1.021734E+02  9.886461E-01 -3.082885E+01 
4.130450E+02  9.910581E-01 -3.229048E+01  9.488067E-05 9.876748E+01  9.221959E-05 9.512124E+01  9.887087E-01 -3.082726E+01 
4.130763E+02  9.912029E-01 -3.228526E+01  9.850196E-05 9.082163E+01  1.041413E-04 8.795642E+01  9.886434E-01 -3.083313E+01 
4.131075E+02  9.910595E-01 -3.228897E+01  1.001966E-04 8.295468E+01  1.026717E-04 7.942511E+01  9.886369E-01 -3.082802E+01 
4.131388E+02  9.911537E-01 -3.229478E+01  1.129393E-04 7.837875E+01  1.067978E-04 8.098538E+01  9.886465E-01 -3.083704E+01 
4.131700E+02  9.911536E-01 -3.228995E+01  1.119546E-04 7.237089E+01  1.101524E-04 6.927083E+01  9.887399E-01 -3.083366E+01 
4.132013E+02  9.910704E-01 -3.229491E+01  1.076382E-04 6.627362E+01  1.107957E-04 6.686727E+01  9.886892E-01 -3.083965E+01 
4.132325E+02  9.911200E-01 -3.230511E+01  1.144555E-04 6.031971E+01  1.076559E-04 6.154635E+01  9.887204E-01 -3.083572E+01 
4.132638E+02  9.911704E-01 -3.230261E+01  1.145591E-04 6.112077E+01  1.097746E-04 5.929482E+01  9.887154E-01 -3.083972E+01 
