! S-parameter for B3734 in Touchstone format with magnitude (lin) and phase
! Normalised impedance: 50 Ohm. Measurement system: 50 Ohm Ta = 25°C
! B3734_WB.s2p not matched. Measurement full 2-port calibrated incl. Port ext.
! Start: 863.3MHz, Stop: 873.3MHz, Span: 10MHz, 1601 Pts., Step: 6.2kHz
! Date:7/11/05 Epcos SAW COM WT AE PD, AB
! Pinning according data sheet recommendation, In P2, Out P4, all others GND
!
# MHZ S MA R 50
! freq  magS11 angS11  magS21 angS21  magS12 angS12  magS22 angS22
8.633000E+02  9.712981E-01 -3.920129E+01  7.166172E-04 -1.346020E+02  7.076333E-04 -1.349294E+02  9.672404E-01 -4.139455E+01 
8.633062E+02  9.712811E-01 -3.920207E+01  7.020553E-04 -1.356335E+02  7.014108E-04 -1.349247E+02  9.672602E-01 -4.139120E+01 
8.633125E+02  9.712057E-01 -3.920758E+01  6.887226E-04 -1.356481E+02  6.834938E-04 -1.353250E+02  9.673293E-01 -4.140197E+01 
8.633187E+02  9.712890E-01 -3.920492E+01  6.716853E-04 -1.363709E+02  6.772580E-04 -1.365330E+02  9.672333E-01 -4.139894E+01 
8.633250E+02  9.711979E-01 -3.921040E+01  6.684163E-04 -1.365166E+02  6.677736E-04 -1.363399E+02  9.673561E-01 -4.140463E+01 
8.633312E+02  9.712124E-01 -3.921209E+01  6.637068E-04 -1.368642E+02  6.650292E-04 -1.365852E+02  9.672246E-01 -4.141525E+01 
8.633375E+02  9.711952E-01 -3.921690E+01  6.514584E-04 -1.373214E+02  6.473857E-04 -1.371093E+02  9.672542E-01 -4.141719E+01 
8.633438E+02  9.712284E-01 -3.921763E+01  6.377120E-04 -1.378080E+02  6.417111E-04 -1.369546E+02  9.672804E-01 -4.141963E+01 
8.633500E+02  9.713172E-01 -3.921748E+01  6.295176E-04 -1.381516E+02  6.289379E-04 -1.381007E+02  9.671509E-01 -4.143091E+01 
8.633562E+02  9.712409E-01 -3.923069E+01  6.220266E-04 -1.388023E+02  6.197475E-04 -1.390466E+02  9.672003E-01 -4.142940E+01 
8.633625E+02  9.712038E-01 -3.923023E+01  6.076222E-04 -1.401974E+02  6.137110E-04 -1.393878E+02  9.672213E-01 -4.143264E+01 
8.633687E+02  9.712704E-01 -3.923337E+01  6.069509E-04 -1.388027E+02  6.063259E-04 -1.399536E+02  9.672795E-01 -4.143130E+01 
8.633750E+02  9.711423E-01 -3.923347E+01  6.000476E-04 -1.393721E+02  6.007747E-04 -1.399768E+02  9.672119E-01 -4.144141E+01 
8.633812E+02  9.712848E-01 -3.924201E+01  5.893057E-04 -1.401441E+02  5.831311E-04 -1.405070E+02  9.671456E-01 -4.144165E+01 
8.633875E+02  9.712309E-01 -3.925051E+01  5.842795E-04 -1.410291E+02  5.795375E-04 -1.406508E+02  9.671556E-01 -4.144339E+01 
8.633937E+02  9.712403E-01 -3.924434E+01  5.751862E-04 -1.421088E+02  5.735927E-04 -1.418043E+02  9.672003E-01 -4.144915E+01 
8.634000E+02  9.711496E-01 -3.925540E+01  5.647479E-04 -1.414354E+02  5.684497E-04 -1.418937E+02  9.673243E-01 -4.144903E+01 
8.634062E+02  9.712129E-01 -3.925696E+01  5.623807E-04 -1.417990E+02  5.637298E-04 -1.419810E+02  9.671923E-01 -4.145640E+01 
8.634125E+02  9.712382E-01 -3.926213E+01  5.571430E-04 -1.434016E+02  5.545762E-04 -1.424785E+02  9.671958E-01 -4.146046E+01 
8.634187E+02  9.711783E-01 -3.926765E+01  5.487031E-04 -1.434133E+02  5.506117E-04 -1.429347E+02  9.671872E-01 -4.146851E+01 
8.634250E+02  9.711709E-01 -3.926683E+01  5.443204E-04 -1.434786E+02  5.456828E-04 -1.440178E+02  9.672381E-01 -4.146836E+01 
8.634312E+02  9.712086E-01 -3.927050E+01  5.406902E-04 -1.437359E+02  5.410103E-04 -1.445067E+02  9.671679E-01 -4.147050E+01 
8.634375E+02  9.712421E-01 -3.927522E+01  5.379993E-04 -1.443134E+02  5.391846E-04 -1.449128E+02  9.673314E-01 -4.147159E+01 
8.634437E+02  9.711817E-01 -3.928085E+01  5.317230E-04 -1.452990E+02  5.341975E-04 -1.449868E+02  9.672355E-01 -4.148081E+01 
8.634500E+02  9.711385E-01 -3.928232E+01  5.193462E-04 -1.463269E+02  5.260746E-04 -1.452015E+02  9.671902E-01 -4.148593E+01 
8.634562E+02  9.711175E-01 -3.928856E+01  5.115148E-04 -1.458157E+02  5.190544E-04 -1.455563E+02  9.670874E-01 -4.148777E+01 
8.634625E+02  9.712167E-01 -3.928849E+01  5.151043E-04 -1.464010E+02  5.140972E-04 -1.462467E+02  9.671653E-01 -4.149328E+01 
8.634688E+02  9.712476E-01 -3.928865E+01  5.117792E-04 -1.465383E+02  5.144981E-04 -1.467405E+02  9.671855E-01 -4.149041E+01 
8.634750E+02  9.711467E-01 -3.929322E+01  5.064452E-04 -1.468326E+02  5.013452E-04 -1.476799E+02  9.671921E-01 -4.149023E+01 
8.634812E+02  9.711287E-01 -3.929420E+01  5.095547E-04 -1.477331E+02  5.041226E-04 -1.476435E+02  9.672336E-01 -4.150270E+01 
8.634875E+02  9.711763E-01 -3.930373E+01  4.965635E-04 -1.478203E+02  4.948689E-04 -1.481166E+02  9.672344E-01 -4.150135E+01 
8.634937E+02  9.711164E-01 -3.930707E+01  4.925718E-04 -1.489757E+02  4.936886E-04 -1.483864E+02  9.671528E-01 -4.150759E+01 
8.635000E+02  9.711033E-01 -3.930874E+01  4.874646E-04 -1.497585E+02  4.874024E-04 -1.494425E+02  9.671454E-01 -4.150914E+01 
8.635062E+02  9.711084E-01 -3.931379E+01  4.906109E-04 -1.502847E+02  4.923668E-04 -1.497802E+02  9.671792E-01 -4.151240E+01 
8.635125E+02  9.711374E-01 -3.931558E+01  4.771119E-04 -1.505193E+02  4.848916E-04 -1.510187E+02  9.671300E-01 -4.151784E+01 
8.635187E+02  9.710477E-01 -3.931831E+01  4.792091E-04 -1.510691E+02  4.873647E-04 -1.512294E+02  9.671038E-01 -4.152354E+01 
8.635250E+02  9.711291E-01 -3.932949E+01  4.759591E-04 -1.520454E+02  4.773803E-04 -1.520439E+02  9.671513E-01 -4.152135E+01 
8.635312E+02  9.710063E-01 -3.933304E+01  4.737231E-04 -1.527539E+02  4.823931E-04 -1.517815E+02  9.671227E-01 -4.152810E+01 
8.635375E+02  9.710824E-01 -3.933193E+01  4.726848E-04 -1.530076E+02  4.695890E-04 -1.541963E+02  9.670978E-01 -4.153736E+01 
8.635437E+02  9.709448E-01 -3.933690E+01  4.710995E-04 -1.534405E+02  4.671890E-04 -1.542546E+02  9.670753E-01 -4.154422E+01 
8.635500E+02  9.709636E-01 -3.934853E+01  4.690871E-04 -1.537634E+02  4.739771E-04 -1.534772E+02  9.670414E-01 -4.154251E+01 
8.635562E+02  9.709698E-01 -3.934082E+01  4.639129E-04 -1.545234E+02  4.722588E-04 -1.548811E+02  9.670868E-01 -4.154785E+01 
8.635625E+02  9.709939E-01 -3.935113E+01  4.654992E-04 -1.556809E+02  4.649597E-04 -1.551980E+02  9.671145E-01 -4.155199E+01 
8.635687E+02  9.710067E-01 -3.935174E+01  4.636235E-04 -1.562974E+02  4.681485E-04 -1.554877E+02  9.671396E-01 -4.155649E+01 
8.635750E+02  9.710000E-01 -3.935861E+01  4.591229E-04 -1.575465E+02  4.652623E-04 -1.567801E+02  9.670016E-01 -4.155680E+01 
8.635812E+02  9.709510E-01 -3.936086E+01  4.612228E-04 -1.577019E+02  4.662456E-04 -1.570393E+02  9.670699E-01 -4.155785E+01 
8.635875E+02  9.709845E-01 -3.936224E+01  4.633570E-04 -1.588916E+02  4.668352E-04 -1.587255E+02  9.669613E-01 -4.156129E+01 
8.635938E+02  9.709175E-01 -3.935890E+01  4.570160E-04 -1.592175E+02  4.688909E-04 -1.587349E+02  9.669943E-01 -4.156799E+01 
8.636000E+02  9.708962E-01 -3.936744E+01  4.694504E-04 -1.593747E+02  4.654410E-04 -1.608634E+02  9.670514E-01 -4.156818E+01 
8.636062E+02  9.708753E-01 -3.937025E+01  4.623509E-04 -1.614107E+02  4.634264E-04 -1.605233E+02  9.670193E-01 -4.157359E+01 
8.636125E+02  9.708650E-01 -3.937835E+01  4.640919E-04 -1.615346E+02  4.645777E-04 -1.614631E+02  9.669822E-01 -4.157661E+01 
8.636187E+02  9.708815E-01 -3.937954E+01  4.649275E-04 -1.618592E+02  4.705633E-04 -1.628021E+02  9.669086E-01 -4.157772E+01 
8.636250E+02  9.709205E-01 -3.938572E+01  4.633074E-04 -1.635661E+02  4.641707E-04 -1.644624E+02  9.668562E-01 -4.159032E+01 
8.636312E+02  9.709404E-01 -3.938524E+01  4.681566E-04 -1.649335E+02  4.674081E-04 -1.642850E+02  9.669690E-01 -4.158565E+01 
8.636375E+02  9.708714E-01 -3.939443E+01  4.824103E-04 -1.655121E+02  4.611339E-04 -1.658259E+02  9.669182E-01 -4.158887E+01 
8.636437E+02  9.708781E-01 -3.939472E+01  4.699549E-04 -1.658480E+02  4.659495E-04 -1.663500E+02  9.669429E-01 -4.159003E+01 
8.636500E+02  9.709115E-01 -3.939194E+01  4.768083E-04 -1.680040E+02  4.774623E-04 -1.668295E+02  9.668797E-01 -4.159333E+01 
8.636562E+02  9.708248E-01 -3.940113E+01  4.753883E-04 -1.683377E+02  4.708415E-04 -1.678820E+02  9.668599E-01 -4.159558E+01 
8.636625E+02  9.708197E-01 -3.940663E+01  4.763164E-04 -1.701476E+02  4.794433E-04 -1.698758E+02  9.668216E-01 -4.160074E+01 
8.636687E+02  9.708656E-01 -3.940897E+01  4.799377E-04 -1.717944E+02  4.815344E-04 -1.709917E+02  9.667800E-01 -4.160833E+01 
8.636750E+02  9.709329E-01 -3.941822E+01  4.775094E-04 -1.731765E+02  4.791142E-04 -1.725397E+02  9.668566E-01 -4.160539E+01 
8.636812E+02  9.708663E-01 -3.941797E+01  4.888973E-04 -1.744180E+02  4.803099E-04 -1.737685E+02  9.667679E-01 -4.161216E+01 
8.636875E+02  9.707823E-01 -3.942365E+01  4.972661E-04 -1.760124E+02  4.906256E-04 -1.753549E+02  9.668381E-01 -4.162382E+01 
8.636937E+02  9.708395E-01 -3.942459E+01  4.970045E-04 -1.773771E+02  4.926315E-04 -1.772699E+02  9.667540E-01 -4.162292E+01 
8.637000E+02  9.707574E-01 -3.942638E+01  4.993721E-04 -1.794106E+02  4.977601E-04 -1.791227E+02  9.667503E-01 -4.162186E+01 
8.637062E+02  9.707835E-01 -3.943661E+01  4.941982E-04 1.790917E+02  5.048975E-04 1.799372E+02  9.667929E-01 -4.162624E+01 
8.637125E+02  9.707137E-01 -3.943529E+01  4.971508E-04 1.774690E+02  5.062141E-04 1.782046E+02  9.668134E-01 -4.163473E+01 
8.637188E+02  9.707581E-01 -3.943975E+01  5.075665E-04 1.759011E+02  5.136311E-04 1.758424E+02  9.667292E-01 -4.163994E+01 
8.637250E+02  9.707305E-01 -3.943989E+01  5.110544E-04 1.735895E+02  5.136896E-04 1.737463E+02  9.666077E-01 -4.164655E+01 
8.637312E+02  9.706402E-01 -3.943760E+01  5.184520E-04 1.720790E+02  5.181011E-04 1.716573E+02  9.667213E-01 -4.164206E+01 
8.637375E+02  9.706730E-01 -3.944090E+01  5.140470E-04 1.692493E+02  5.245456E-04 1.686218E+02  9.666793E-01 -4.165777E+01 
8.637437E+02  9.706036E-01 -3.945048E+01  5.268142E-04 1.657852E+02  5.213961E-04 1.658412E+02  9.665900E-01 -4.165693E+01 
8.637500E+02  9.705810E-01 -3.945088E+01  5.181086E-04 1.637318E+02  5.244089E-04 1.635731E+02  9.666244E-01 -4.165823E+01 
8.637562E+02  9.706312E-01 -3.945895E+01  5.310804E-04 1.612227E+02  5.337951E-04 1.611330E+02  9.665356E-01 -4.165945E+01 
8.637625E+02  9.705612E-01 -3.945701E+01  5.314380E-04 1.583174E+02  5.303484E-04 1.591186E+02  9.666027E-01 -4.165736E+01 
8.637687E+02  9.706064E-01 -3.945813E+01  5.301642E-04 1.552210E+02  5.344318E-04 1.554619E+02  9.665546E-01 -4.166111E+01 
8.637750E+02  9.705057E-01 -3.946157E+01  5.344648E-04 1.523448E+02  5.311410E-04 1.520617E+02  9.665363E-01 -4.166312E+01 
8.637812E+02  9.705053E-01 -3.947175E+01  5.305628E-04 1.484845E+02  5.317828E-04 1.487849E+02  9.665731E-01 -4.166053E+01 
8.637875E+02  9.705627E-01 -3.947078E+01  5.336051E-04 1.453248E+02  5.322971E-04 1.447742E+02  9.665470E-01 -4.167182E+01 
8.637937E+02  9.705771E-01 -3.947959E+01  5.199636E-04 1.416968E+02  5.238169E-04 1.419203E+02  9.665689E-01 -4.166587E+01 
8.638000E+02  9.704751E-01 -3.947327E+01  5.152899E-04 1.384303E+02  5.212565E-04 1.381983E+02  9.665637E-01 -4.167090E+01 
8.638062E+02  9.704838E-01 -3.947728E+01  4.975826E-04 1.352010E+02  5.123156E-04 1.351687E+02  9.666350E-01 -4.166842E+01 
8.638125E+02  9.705054E-01 -3.947487E+01  4.956977E-04 1.311436E+02  4.963941E-04 1.307510E+02  9.665736E-01 -4.167251E+01 
8.638187E+02  9.704672E-01 -3.948090E+01  4.800819E-04 1.276200E+02  4.900143E-04 1.282066E+02  9.665509E-01 -4.167601E+01 
8.638250E+02  9.704695E-01 -3.948161E+01  4.714533E-04 1.238269E+02  4.736801E-04 1.244151E+02  9.665465E-01 -4.168068E+01 
8.638312E+02  9.704669E-01 -3.949201E+01  4.553170E-04 1.203175E+02  4.511537E-04 1.200536E+02  9.664936E-01 -4.168145E+01 
8.638375E+02  9.704964E-01 -3.948705E+01  4.353643E-04 1.175601E+02  4.366193E-04 1.176875E+02  9.666098E-01 -4.168629E+01 
8.638438E+02  9.706304E-01 -3.948823E+01  4.264425E-04 1.135740E+02  4.271445E-04 1.151008E+02  9.666980E-01 -4.168495E+01 
8.638500E+02  9.705934E-01 -3.949202E+01  4.117867E-04 1.110446E+02  4.057682E-04 1.106666E+02  9.666816E-01 -4.169055E+01 
8.638562E+02  9.704804E-01 -3.949800E+01  3.799237E-04 1.074100E+02  3.935910E-04 1.081844E+02  9.666881E-01 -4.169266E+01 
8.638625E+02  9.706683E-01 -3.949637E+01  3.653244E-04 1.049702E+02  3.799419E-04 1.059108E+02  9.667081E-01 -4.170199E+01 
8.638687E+02  9.706367E-01 -3.950738E+01  3.509782E-04 1.021938E+02  3.548491E-04 1.029237E+02  9.667202E-01 -4.170117E+01 
8.638750E+02  9.706040E-01 -3.950852E+01  3.343815E-04 1.011277E+02  3.420934E-04 1.010363E+02  9.667212E-01 -4.170896E+01 
8.638812E+02  9.707044E-01 -3.951449E+01  3.258085E-04 9.922114E+01  3.224104E-04 9.786747E+01  9.668833E-01 -4.170815E+01 
8.638875E+02  9.706778E-01 -3.951445E+01  3.014649E-04 9.629425E+01  3.101020E-04 9.570309E+01  9.667091E-01 -4.171833E+01 
8.638937E+02  9.706826E-01 -3.952180E+01  2.897814E-04 9.412633E+01  2.969206E-04 9.412694E+01  9.667157E-01 -4.171784E+01 
8.639000E+02  9.706450E-01 -3.952208E+01  2.766778E-04 9.138954E+01  2.690622E-04 9.310332E+01  9.667302E-01 -4.172277E+01 
8.639062E+02  9.707047E-01 -3.953434E+01  2.644641E-04 9.068412E+01  2.684484E-04 9.010366E+01  9.667344E-01 -4.172237E+01 
8.639125E+02  9.706821E-01 -3.953735E+01  2.476578E-04 8.952395E+01  2.553706E-04 8.880265E+01  9.668479E-01 -4.172728E+01 
8.639187E+02  9.707481E-01 -3.953962E+01  2.430962E-04 8.765201E+01  2.409117E-04 8.816189E+01  9.667946E-01 -4.173258E+01 
8.639250E+02  9.707867E-01 -3.954605E+01  2.257888E-04 8.660604E+01  2.328271E-04 8.603162E+01  9.668300E-01 -4.173943E+01 
8.639312E+02  9.706800E-01 -3.954677E+01  2.172359E-04 8.511456E+01  2.191578E-04 8.649671E+01  9.667836E-01 -4.174599E+01 
8.639375E+02  9.707321E-01 -3.954858E+01  2.112497E-04 8.328542E+01  2.083153E-04 8.355934E+01  9.667863E-01 -4.175449E+01 
8.639437E+02  9.707638E-01 -3.955956E+01  1.985487E-04 8.296365E+01  2.006994E-04 8.282561E+01  9.666708E-01 -4.175678E+01 
8.639500E+02  9.707680E-01 -3.956395E+01  1.804128E-04 8.047921E+01  1.916563E-04 8.291555E+01  9.667871E-01 -4.176391E+01 
8.639562E+02  9.707749E-01 -3.956898E+01  1.790183E-04 8.300282E+01  1.764834E-04 8.083623E+01  9.669010E-01 -4.175914E+01 
8.639625E+02  9.707674E-01 -3.956934E+01  1.737155E-04 7.841613E+01  1.743482E-04 8.106630E+01  9.667859E-01 -4.176628E+01 
8.639688E+02  9.708654E-01 -3.957316E+01  1.706813E-04 7.847711E+01  1.651276E-04 8.009875E+01  9.668220E-01 -4.177953E+01 
8.639750E+02  9.708334E-01 -3.957945E+01  1.604909E-04 7.842746E+01  1.566001E-04 8.079862E+01  9.668518E-01 -4.177355E+01 
8.639812E+02  9.709398E-01 -3.958469E+01  1.530428E-04 7.832814E+01  1.459930E-04 7.913568E+01  9.667773E-01 -4.178248E+01 
8.639875E+02  9.708801E-01 -3.958224E+01  1.471269E-04 7.942698E+01  1.475943E-04 7.777529E+01  9.668599E-01 -4.178428E+01 
8.639937E+02  9.707941E-01 -3.959174E+01  1.393649E-04 7.964449E+01  1.409759E-04 7.961189E+01  9.667881E-01 -4.179190E+01 
8.640000E+02  9.708110E-01 -3.959888E+01  1.379283E-04 7.437990E+01  1.370283E-04 7.747459E+01  9.667889E-01 -4.179690E+01 
8.640062E+02  9.708448E-01 -3.959906E+01  1.235463E-04 7.712329E+01  1.245810E-04 7.760222E+01  9.667477E-01 -4.180342E+01 
8.640125E+02  9.707010E-01 -3.960652E+01  1.237938E-04 7.638046E+01  1.253458E-04 7.644022E+01  9.666933E-01 -4.180701E+01 
8.640187E+02  9.708182E-01 -3.960693E+01  1.188994E-04 8.126505E+01  1.128108E-04 7.956916E+01  9.667336E-01 -4.181001E+01 
8.640250E+02  9.706899E-01 -3.962071E+01  1.166607E-04 7.709385E+01  1.131945E-04 8.019750E+01  9.667741E-01 -4.181397E+01 
8.640312E+02  9.706648E-01 -3.962406E+01  1.131439E-04 7.850662E+01  1.136015E-04 8.101422E+01  9.668123E-01 -4.182093E+01 
8.640375E+02  9.706739E-01 -3.962481E+01  1.097848E-04 7.719094E+01  1.109867E-04 7.914828E+01  9.667619E-01 -4.181998E+01 
8.640437E+02  9.707982E-01 -3.963229E+01  1.099333E-04 7.640486E+01  1.051908E-04 7.660642E+01  9.667510E-01 -4.183486E+01 
8.640500E+02  9.705753E-01 -3.963707E+01  1.048020E-04 7.766963E+01  9.964076E-05 7.828843E+01  9.668436E-01 -4.183288E+01 
8.640562E+02  9.706353E-01 -3.963816E+01  9.906087E-05 7.641197E+01  1.082137E-04 7.961643E+01  9.667193E-01 -4.184538E+01 
8.640625E+02  9.706611E-01 -3.963862E+01  1.017288E-04 7.253635E+01  9.623441E-05 7.754717E+01  9.668113E-01 -4.184152E+01 
8.640687E+02  9.705580E-01 -3.965157E+01  9.658094E-05 7.269050E+01  9.629140E-05 7.668128E+01  9.667144E-01 -4.184691E+01 
8.640750E+02  9.706262E-01 -3.965041E+01  9.670649E-05 7.858779E+01  8.965205E-05 7.854686E+01  9.667103E-01 -4.185349E+01 
8.640812E+02  9.707061E-01 -3.966411E+01  9.276877E-05 8.202847E+01  9.073606E-05 7.973192E+01  9.666737E-01 -4.185542E+01 
8.640875E+02  9.706752E-01 -3.966048E+01  8.852242E-05 7.786305E+01  8.444985E-05 7.946682E+01  9.666004E-01 -4.185997E+01 
8.640938E+02  9.707075E-01 -3.966256E+01  8.481190E-05 8.381019E+01  8.526962E-05 8.038083E+01  9.668056E-01 -4.186318E+01 
8.641000E+02  9.706601E-01 -3.966757E+01  7.744557E-05 8.472917E+01  7.921130E-05 7.846402E+01  9.667133E-01 -4.186464E+01 
8.641062E+02  9.706173E-01 -3.968270E+01  7.258979E-05 7.627307E+01  8.247188E-05 8.231039E+01  9.666971E-01 -4.187214E+01 
8.641125E+02  9.705716E-01 -3.967927E+01  7.919563E-05 8.295294E+01  7.625152E-05 8.170932E+01  9.666658E-01 -4.187914E+01 
8.641187E+02  9.706686E-01 -3.969222E+01  7.727295E-05 8.477670E+01  7.663977E-05 8.373234E+01  9.666886E-01 -4.189128E+01 
8.641250E+02  9.705878E-01 -3.969229E+01  7.731049E-05 8.408825E+01  6.990223E-05 8.388388E+01  9.665738E-01 -4.189098E+01 
8.641312E+02  9.706438E-01 -3.969778E+01  6.643294E-05 8.678380E+01  7.279394E-05 8.196010E+01  9.665662E-01 -4.189363E+01 
8.641375E+02  9.706371E-01 -3.969317E+01  7.297110E-05 8.264235E+01  7.648309E-05 7.976636E+01  9.666745E-01 -4.189673E+01 
8.641437E+02  9.705489E-01 -3.970944E+01  6.805863E-05 8.613392E+01  7.191174E-05 8.442836E+01  9.665810E-01 -4.189354E+01 
8.641500E+02  9.705257E-01 -3.970775E+01  7.054628E-05 7.971391E+01  7.323336E-05 8.733825E+01  9.665786E-01 -4.190236E+01 
8.641562E+02  9.706293E-01 -3.971486E+01  6.231364E-05 8.192075E+01  6.773825E-05 8.670219E+01  9.665519E-01 -4.190561E+01 
8.641625E+02  9.705970E-01 -3.971509E+01  6.582298E-05 8.370987E+01  7.177234E-05 7.747112E+01  9.665673E-01 -4.191249E+01 
8.641687E+02  9.706291E-01 -3.971768E+01  6.957113E-05 8.313695E+01  5.964996E-05 8.484536E+01  9.664887E-01 -4.190991E+01 
8.641750E+02  9.706828E-01 -3.972288E+01  6.543147E-05 8.860819E+01  6.664551E-05 8.111095E+01  9.665206E-01 -4.192286E+01 
8.641812E+02  9.705091E-01 -3.973004E+01  5.889185E-05 7.878963E+01  6.260960E-05 9.030171E+01  9.666500E-01 -4.192432E+01 
8.641875E+02  9.705803E-01 -3.973140E+01  6.446455E-05 8.418730E+01  6.259161E-05 8.747039E+01  9.665894E-01 -4.193066E+01 
8.641937E+02  9.706289E-01 -3.974052E+01  5.512809E-05 8.978236E+01  6.059372E-05 8.353035E+01  9.666086E-01 -4.193779E+01 
8.642000E+02  9.705389E-01 -3.974474E+01  6.203287E-05 9.078877E+01  6.283093E-05 8.969165E+01  9.665351E-01 -4.193952E+01 
8.642062E+02  9.705473E-01 -3.975195E+01  5.646965E-05 8.627809E+01  5.717205E-05 8.703038E+01  9.665625E-01 -4.194700E+01 
8.642125E+02  9.706542E-01 -3.974887E+01  5.715539E-05 8.344370E+01  5.340828E-05 8.819143E+01  9.665249E-01 -4.194752E+01 
8.642188E+02  9.705104E-01 -3.976133E+01  5.718991E-05 8.747442E+01  6.175376E-05 8.918459E+01  9.665443E-01 -4.195645E+01 
8.642250E+02  9.705469E-01 -3.976011E+01  5.312573E-05 8.173062E+01  4.944619E-05 9.404168E+01  9.666434E-01 -4.196247E+01 
8.642312E+02  9.705451E-01 -3.977014E+01  5.882247E-05 8.782456E+01  5.002513E-05 9.359689E+01  9.665312E-01 -4.196611E+01 
8.642375E+02  9.705298E-01 -3.977055E+01  6.051167E-05 9.015172E+01  5.791557E-05 9.047418E+01  9.665502E-01 -4.197510E+01 
8.642437E+02  9.705726E-01 -3.977900E+01  4.923588E-05 8.724003E+01  5.961796E-05 9.218711E+01  9.665331E-01 -4.197433E+01 
8.642500E+02  9.705060E-01 -3.978355E+01  5.011252E-05 8.661107E+01  5.316741E-05 8.918931E+01  9.665708E-01 -4.198553E+01 
8.642562E+02  9.704350E-01 -3.978230E+01  4.873102E-05 8.762515E+01  5.505697E-05 8.804984E+01  9.665679E-01 -4.198718E+01 
