! Matrix data file written by TouchstoneData, EPCOS AG
! FILENAME: "B3735_NB.s2p"
! COMMENT: "PORTEX1 93PS;PORTEX2 179.5PS;  4 May 2007 S1"
! INFO: nport=2, nfreq=1601
! DATE: "Tue May 22 14:59:26 2007"
! USER: "Wilfried Schott"
!
! port | pin | signal
! -----|-----|--------
!   1  |  1  |  input
!   2  |  4  |  output
! --------------------
!
# MHZ S MA R 50
! freq  magS11 angS11  magS21 angS21  magS12 angS12  magS22 angS22
4.309200E+02  9.899228E-01 -3.503690E+01  4.614215E-04 -1.432541E+02  4.689413E-04 -1.431435E+02  9.871221E-01 -3.350682E+01 
4.309231E+02  9.899869E-01 -3.503624E+01  4.653583E-04 -1.436986E+02  4.666102E-04 -1.429256E+02  9.870451E-01 -3.350819E+01 
4.309263E+02  9.899510E-01 -3.504599E+01  4.679858E-04 -1.425464E+02  4.731190E-04 -1.434704E+02  9.870395E-01 -3.351037E+01 
4.309294E+02  9.899324E-01 -3.504407E+01  4.765428E-04 -1.426660E+02  4.669971E-04 -1.426463E+02  9.871956E-01 -3.351356E+01 
4.309325E+02  9.899283E-01 -3.504667E+01  4.744144E-04 -1.410315E+02  4.721324E-04 -1.413633E+02  9.871223E-01 -3.351541E+01 
4.309356E+02  9.899361E-01 -3.504882E+01  4.734981E-04 -1.407660E+02  4.774389E-04 -1.412830E+02  9.870375E-01 -3.352042E+01 
4.309388E+02  9.899227E-01 -3.505153E+01  4.759744E-04 -1.414548E+02  4.783669E-04 -1.417467E+02  9.871414E-01 -3.352234E+01 
4.309419E+02  9.898534E-01 -3.505682E+01  4.758125E-04 -1.416374E+02  4.786258E-04 -1.411624E+02  9.871410E-01 -3.352071E+01 
4.309450E+02  9.899659E-01 -3.505794E+01  4.793711E-04 -1.405627E+02  4.782166E-04 -1.414014E+02  9.871751E-01 -3.352340E+01 
4.309481E+02  9.899733E-01 -3.505609E+01  4.851340E-04 -1.406816E+02  4.805997E-04 -1.412738E+02  9.871650E-01 -3.352265E+01 
4.309513E+02  9.898166E-01 -3.506117E+01  4.802736E-04 -1.400965E+02  4.828130E-04 -1.403678E+02  9.871431E-01 -3.352945E+01 
4.309544E+02  9.898954E-01 -3.506639E+01  4.819761E-04 -1.405264E+02  4.905517E-04 -1.403403E+02  9.871255E-01 -3.353012E+01 
4.309575E+02  9.898999E-01 -3.506807E+01  4.884213E-04 -1.403403E+02  4.924306E-04 -1.399721E+02  9.870868E-01 -3.353241E+01 
4.309606E+02  9.899340E-01 -3.506398E+01  4.889280E-04 -1.407233E+02  4.816047E-04 -1.403775E+02  9.870848E-01 -3.354223E+01 
4.309638E+02  9.898803E-01 -3.506899E+01  4.899670E-04 -1.399869E+02  4.947192E-04 -1.393665E+02  9.870605E-01 -3.354248E+01 
4.309669E+02  9.900514E-01 -3.507122E+01  4.965393E-04 -1.403238E+02  5.002228E-04 -1.394348E+02  9.870645E-01 -3.354358E+01 
4.309700E+02  9.899096E-01 -3.507566E+01  4.945557E-04 -1.395798E+02  5.100293E-04 -1.397497E+02  9.871122E-01 -3.354620E+01 
4.309731E+02  9.899794E-01 -3.507769E+01  5.094387E-04 -1.396090E+02  5.059220E-04 -1.391934E+02  9.870621E-01 -3.354764E+01 
4.309762E+02  9.899586E-01 -3.508345E+01  5.100393E-04 -1.390591E+02  5.036595E-04 -1.385120E+02  9.871531E-01 -3.355150E+01 
4.309794E+02  9.899937E-01 -3.508039E+01  5.170199E-04 -1.394110E+02  5.088451E-04 -1.387526E+02  9.871707E-01 -3.355577E+01 
4.309825E+02  9.899093E-01 -3.509008E+01  5.121963E-04 -1.388131E+02  5.152761E-04 -1.391677E+02  9.871985E-01 -3.355640E+01 
4.309856E+02  9.899958E-01 -3.508968E+01  5.202138E-04 -1.384339E+02  5.168406E-04 -1.385068E+02  9.871364E-01 -3.356275E+01 
4.309888E+02  9.900049E-01 -3.508857E+01  5.255596E-04 -1.391356E+02  5.234027E-04 -1.383665E+02  9.871671E-01 -3.356347E+01 
4.309919E+02  9.900128E-01 -3.509314E+01  5.146056E-04 -1.381895E+02  5.265723E-04 -1.376189E+02  9.870239E-01 -3.356549E+01 
4.309950E+02  9.900269E-01 -3.509728E+01  5.316964E-04 -1.387209E+02  5.305035E-04 -1.385357E+02  9.871443E-01 -3.357215E+01 
4.309981E+02  9.899370E-01 -3.510269E+01  5.380233E-04 -1.381487E+02  5.277611E-04 -1.392542E+02  9.870929E-01 -3.357350E+01 
4.310013E+02  9.900486E-01 -3.510487E+01  5.384324E-04 -1.384017E+02  5.380300E-04 -1.381809E+02  9.870632E-01 -3.357513E+01 
4.310044E+02  9.898680E-01 -3.510807E+01  5.431472E-04 -1.383802E+02  5.442310E-04 -1.376175E+02  9.870795E-01 -3.358120E+01 
4.310075E+02  9.900271E-01 -3.511126E+01  5.426632E-04 -1.380881E+02  5.457218E-04 -1.378630E+02  9.870546E-01 -3.358427E+01 
4.310106E+02  9.899644E-01 -3.511924E+01  5.526072E-04 -1.373834E+02  5.559502E-04 -1.384572E+02  9.871050E-01 -3.358685E+01 
4.310138E+02  9.899718E-01 -3.511808E+01  5.554642E-04 -1.373326E+02  5.454534E-04 -1.377001E+02  9.870341E-01 -3.358992E+01 
4.310169E+02  9.900220E-01 -3.511904E+01  5.678597E-04 -1.372533E+02  5.581285E-04 -1.373451E+02  9.869705E-01 -3.359234E+01 
4.310200E+02  9.900824E-01 -3.512616E+01  5.623466E-04 -1.380922E+02  5.661374E-04 -1.370351E+02  9.870710E-01 -3.359398E+01 
4.310231E+02  9.900267E-01 -3.512525E+01  5.641979E-04 -1.367845E+02  5.656115E-04 -1.372974E+02  9.870523E-01 -3.359958E+01 
4.310263E+02  9.900008E-01 -3.512999E+01  5.734174E-04 -1.360033E+02  5.735515E-04 -1.369073E+02  9.870129E-01 -3.360396E+01 
4.310294E+02  9.899162E-01 -3.513597E+01  5.815608E-04 -1.374208E+02  5.768145E-04 -1.364519E+02  9.871036E-01 -3.359730E+01 
4.310325E+02  9.900745E-01 -3.513361E+01  5.783829E-04 -1.371402E+02  5.810554E-04 -1.372365E+02  9.870281E-01 -3.360537E+01 
4.310356E+02  9.900563E-01 -3.513962E+01  5.870404E-04 -1.368905E+02  5.859674E-04 -1.370551E+02  9.871226E-01 -3.360890E+01 
4.310387E+02  9.900044E-01 -3.514776E+01  5.929742E-04 -1.368661E+02  5.893108E-04 -1.361497E+02  9.871181E-01 -3.360895E+01 
4.310419E+02  9.900294E-01 -3.514767E+01  5.944447E-04 -1.367525E+02  5.968689E-04 -1.365244E+02  9.870277E-01 -3.361383E+01 
4.310450E+02  9.900542E-01 -3.515018E+01  5.992747E-04 -1.364172E+02  6.027469E-04 -1.366441E+02  9.871403E-01 -3.360986E+01 
4.310481E+02  9.900633E-01 -3.515130E+01  6.087168E-04 -1.365371E+02  6.022837E-04 -1.360933E+02  9.870423E-01 -3.362019E+01 
4.310513E+02  9.898940E-01 -3.515941E+01  6.058006E-04 -1.362791E+02  6.107142E-04 -1.361686E+02  9.871212E-01 -3.361834E+01 
4.310544E+02  9.899831E-01 -3.515745E+01  6.203916E-04 -1.366613E+02  6.173948E-04 -1.359001E+02  9.871688E-01 -3.362528E+01 
4.310575E+02  9.900682E-01 -3.516396E+01  6.236620E-04 -1.357321E+02  6.140856E-04 -1.360844E+02  9.870674E-01 -3.362890E+01 
4.310606E+02  9.900290E-01 -3.516756E+01  6.270835E-04 -1.360460E+02  6.315474E-04 -1.361523E+02  9.870611E-01 -3.363162E+01 
4.310638E+02  9.899830E-01 -3.516992E+01  6.352370E-04 -1.356426E+02  6.254978E-04 -1.361014E+02  9.871359E-01 -3.363746E+01 
4.310669E+02  9.897802E-01 -3.517641E+01  6.391727E-04 -1.362979E+02  6.349822E-04 -1.361337E+02  9.870583E-01 -3.363770E+01 
4.310700E+02  9.898823E-01 -3.517980E+01  6.416246E-04 -1.361448E+02  6.429291E-04 -1.355184E+02  9.871866E-01 -3.364660E+01 
4.310731E+02  9.898272E-01 -3.517516E+01  6.568644E-04 -1.357545E+02  6.499872E-04 -1.360634E+02  9.870675E-01 -3.364909E+01 
4.310763E+02  9.899831E-01 -3.518535E+01  6.522438E-04 -1.356946E+02  6.568312E-04 -1.356219E+02  9.870330E-01 -3.364925E+01 
4.310794E+02  9.898818E-01 -3.518585E+01  6.631457E-04 -1.352289E+02  6.635693E-04 -1.354320E+02  9.869969E-01 -3.365349E+01 
4.310825E+02  9.898541E-01 -3.519059E+01  6.647593E-04 -1.363177E+02  6.655826E-04 -1.353788E+02  9.871382E-01 -3.365906E+01 
4.310856E+02  9.899369E-01 -3.519249E+01  6.739090E-04 -1.358571E+02  6.773569E-04 -1.356808E+02  9.870634E-01 -3.365542E+01 
4.310888E+02  9.899382E-01 -3.519195E+01  6.892558E-04 -1.359916E+02  6.794083E-04 -1.350707E+02  9.870752E-01 -3.366366E+01 
4.310919E+02  9.899748E-01 -3.519722E+01  6.873625E-04 -1.351964E+02  6.916109E-04 -1.352187E+02  9.871599E-01 -3.367250E+01 
4.310950E+02  9.899236E-01 -3.519801E+01  6.953856E-04 -1.354244E+02  6.912298E-04 -1.354176E+02  9.871402E-01 -3.367551E+01 
4.310981E+02  9.898879E-01 -3.520512E+01  7.043727E-04 -1.357860E+02  7.044710E-04 -1.353570E+02  9.872180E-01 -3.367586E+01 
4.311012E+02  9.899442E-01 -3.521147E+01  7.086477E-04 -1.357029E+02  7.050585E-04 -1.355373E+02  9.871926E-01 -3.367957E+01 
4.311044E+02  9.899290E-01 -3.520941E+01  7.204471E-04 -1.365571E+02  7.198243E-04 -1.347989E+02  9.870710E-01 -3.368135E+01 
4.311075E+02  9.899495E-01 -3.521268E+01  7.264339E-04 -1.349411E+02  7.275154E-04 -1.349474E+02  9.871117E-01 -3.368880E+01 
4.311106E+02  9.899984E-01 -3.521532E+01  7.344047E-04 -1.354529E+02  7.239551E-04 -1.349640E+02  9.870610E-01 -3.368748E+01 
4.311138E+02  9.898620E-01 -3.522038E+01  7.373825E-04 -1.353203E+02  7.405203E-04 -1.350714E+02  9.871816E-01 -3.369434E+01 
4.311169E+02  9.898807E-01 -3.522703E+01  7.538113E-04 -1.350147E+02  7.424411E-04 -1.354455E+02  9.871683E-01 -3.369658E+01 
4.311200E+02  9.899389E-01 -3.522817E+01  7.532699E-04 -1.352556E+02  7.590358E-04 -1.352071E+02  9.870342E-01 -3.369172E+01 
4.311231E+02  9.898877E-01 -3.523167E+01  7.619927E-04 -1.354862E+02  7.629108E-04 -1.349447E+02  9.871419E-01 -3.370072E+01 
4.311263E+02  9.898629E-01 -3.523551E+01  7.721992E-04 -1.355414E+02  7.717946E-04 -1.349253E+02  9.870636E-01 -3.369996E+01 
4.311294E+02  9.899159E-01 -3.523669E+01  7.841576E-04 -1.350271E+02  7.719185E-04 -1.350413E+02  9.870931E-01 -3.370493E+01 
4.311325E+02  9.897954E-01 -3.524276E+01  7.896023E-04 -1.348552E+02  7.910531E-04 -1.349707E+02  9.871546E-01 -3.371106E+01 
4.311356E+02  9.898284E-01 -3.524850E+01  7.954889E-04 -1.354482E+02  7.997346E-04 -1.350032E+02  9.870302E-01 -3.371037E+01 
4.311388E+02  9.897395E-01 -3.524601E+01  8.070114E-04 -1.358437E+02  8.090905E-04 -1.352986E+02  9.871128E-01 -3.371615E+01 
4.311419E+02  9.897877E-01 -3.525197E+01  8.190563E-04 -1.355928E+02  8.177001E-04 -1.350534E+02  9.871669E-01 -3.371421E+01 
4.311450E+02  9.898534E-01 -3.525583E+01  8.301663E-04 -1.351842E+02  8.218230E-04 -1.354405E+02  9.871024E-01 -3.372304E+01 
4.311481E+02  9.897650E-01 -3.525723E+01  8.314024E-04 -1.352902E+02  8.325865E-04 -1.352330E+02  9.870945E-01 -3.373045E+01 
4.311513E+02  9.897965E-01 -3.526438E+01  8.455057E-04 -1.352159E+02  8.494896E-04 -1.353055E+02  9.870514E-01 -3.372983E+01 
4.311544E+02  9.897348E-01 -3.526551E+01  8.550325E-04 -1.355113E+02  8.501370E-04 -1.352837E+02  9.870826E-01 -3.373039E+01 
4.311575E+02  9.897464E-01 -3.527002E+01  8.606835E-04 -1.351064E+02  8.682874E-04 -1.351742E+02  9.871870E-01 -3.374056E+01 
4.311606E+02  9.897816E-01 -3.527328E+01  8.745132E-04 -1.355591E+02  8.695723E-04 -1.348234E+02  9.870646E-01 -3.373574E+01 
4.311637E+02  9.897933E-01 -3.526996E+01  8.851737E-04 -1.354549E+02  8.804986E-04 -1.353012E+02  9.871251E-01 -3.374217E+01 
4.311669E+02  9.898502E-01 -3.528297E+01  8.927349E-04 -1.358763E+02  8.869610E-04 -1.352681E+02  9.870620E-01 -3.375420E+01 
4.311700E+02  9.896434E-01 -3.528598E+01  9.044156E-04 -1.356356E+02  9.072842E-04 -1.352835E+02  9.870527E-01 -3.374887E+01 
4.311731E+02  9.897915E-01 -3.528896E+01  9.191091E-04 -1.351185E+02  9.173122E-04 -1.349973E+02  9.870443E-01 -3.375454E+01 
4.311763E+02  9.898362E-01 -3.529543E+01  9.230386E-04 -1.353091E+02  9.255793E-04 -1.353731E+02  9.869972E-01 -3.375663E+01 
4.311794E+02  9.898657E-01 -3.529482E+01  9.362899E-04 -1.354978E+02  9.383973E-04 -1.352470E+02  9.870790E-01 -3.376370E+01 
4.311825E+02  9.899189E-01 -3.530958E+01  9.429789E-04 -1.361687E+02  9.576604E-04 -1.352351E+02  9.870789E-01 -3.377424E+01 
4.311856E+02  9.896970E-01 -3.531305E+01  9.613912E-04 -1.358057E+02  9.626027E-04 -1.353586E+02  9.870457E-01 -3.377018E+01 
4.311888E+02  9.898073E-01 -3.530750E+01  9.752492E-04 -1.358306E+02  9.699568E-04 -1.361676E+02  9.870014E-01 -3.377512E+01 
4.311919E+02  9.898098E-01 -3.531835E+01  9.868888E-04 -1.360503E+02  9.843886E-04 -1.357094E+02  9.869995E-01 -3.377496E+01 
4.311950E+02  9.898981E-01 -3.531612E+01  9.916543E-04 -1.360644E+02  9.981398E-04 -1.358709E+02  9.870362E-01 -3.378561E+01 
4.311981E+02  9.898462E-01 -3.532790E+01  1.011098E-03 -1.360597E+02  1.008927E-03 -1.358013E+02  9.869401E-01 -3.379137E+01 
4.312013E+02  9.897121E-01 -3.533642E+01  1.021633E-03 -1.362288E+02  1.023204E-03 -1.359948E+02  9.869142E-01 -3.379624E+01 
4.312044E+02  9.896097E-01 -3.533089E+01  1.042029E-03 -1.362641E+02  1.036751E-03 -1.357588E+02  9.869303E-01 -3.379842E+01 
4.312075E+02  9.898480E-01 -3.533821E+01  1.047306E-03 -1.360025E+02  1.055554E-03 -1.358039E+02  9.869550E-01 -3.379380E+01 
4.312106E+02  9.898746E-01 -3.534134E+01  1.068731E-03 -1.363058E+02  1.068315E-03 -1.363434E+02  9.869593E-01 -3.380235E+01 
4.312138E+02  9.899081E-01 -3.534754E+01  1.080545E-03 -1.363525E+02  1.075955E-03 -1.361731E+02  9.869229E-01 -3.380714E+01 
4.312169E+02  9.896800E-01 -3.535273E+01  1.100801E-03 -1.368921E+02  1.088829E-03 -1.361239E+02  9.868312E-01 -3.380722E+01 
4.312200E+02  9.897141E-01 -3.534640E+01  1.108325E-03 -1.363885E+02  1.107185E-03 -1.364394E+02  9.869116E-01 -3.382028E+01 
4.312231E+02  9.898065E-01 -3.535865E+01  1.125523E-03 -1.365864E+02  1.123768E-03 -1.367534E+02  9.867645E-01 -3.381904E+01 
4.312262E+02  9.898506E-01 -3.535840E+01  1.139856E-03 -1.370099E+02  1.141241E-03 -1.370114E+02  9.868979E-01 -3.382700E+01 
4.312294E+02  9.897009E-01 -3.535729E+01  1.163298E-03 -1.366369E+02  1.163967E-03 -1.365868E+02  9.868955E-01 -3.382582E+01 
4.312325E+02  9.898084E-01 -3.536661E+01  1.174547E-03 -1.373133E+02  1.175100E-03 -1.369131E+02  9.869385E-01 -3.383123E+01 
4.312356E+02  9.897676E-01 -3.537294E+01  1.191198E-03 -1.371586E+02  1.190819E-03 -1.369997E+02  9.868275E-01 -3.383681E+01 
4.312388E+02  9.896399E-01 -3.537817E+01  1.209288E-03 -1.370993E+02  1.209713E-03 -1.373091E+02  9.868752E-01 -3.383717E+01 
4.312419E+02  9.897523E-01 -3.538496E+01  1.224604E-03 -1.374400E+02  1.225546E-03 -1.373449E+02  9.869434E-01 -3.385019E+01 
4.312450E+02  9.897143E-01 -3.538807E+01  1.254660E-03 -1.372130E+02  1.250130E-03 -1.370656E+02  9.867545E-01 -3.384325E+01 
4.312481E+02  9.896718E-01 -3.539457E+01  1.261578E-03 -1.376036E+02  1.259986E-03 -1.375316E+02  9.867670E-01 -3.385433E+01 
4.312513E+02  9.896141E-01 -3.539547E+01  1.285073E-03 -1.377914E+02  1.278053E-03 -1.375218E+02  9.868448E-01 -3.386055E+01 
4.312544E+02  9.895740E-01 -3.540322E+01  1.304221E-03 -1.379032E+02  1.301368E-03 -1.377367E+02  9.867538E-01 -3.385965E+01 
4.312575E+02  9.896294E-01 -3.540912E+01  1.325879E-03 -1.381184E+02  1.322099E-03 -1.381414E+02  9.868453E-01 -3.386461E+01 
4.312606E+02  9.896164E-01 -3.541173E+01  1.350642E-03 -1.383566E+02  1.350753E-03 -1.379938E+02  9.868066E-01 -3.387158E+01 
4.312638E+02  9.895660E-01 -3.541721E+01  1.367014E-03 -1.385496E+02  1.363689E-03 -1.382564E+02  9.868079E-01 -3.387351E+01 
4.312669E+02  9.895835E-01 -3.542124E+01  1.387163E-03 -1.383481E+02  1.386988E-03 -1.382181E+02  9.867547E-01 -3.388297E+01 
4.312700E+02  9.894717E-01 -3.542803E+01  1.402952E-03 -1.385384E+02  1.405167E-03 -1.386548E+02  9.866848E-01 -3.388767E+01 
4.312731E+02  9.894365E-01 -3.543049E+01  1.433039E-03 -1.388021E+02  1.425953E-03 -1.387232E+02  9.867608E-01 -3.388921E+01 
4.312763E+02  9.895376E-01 -3.543594E+01  1.458786E-03 -1.388481E+02  1.452176E-03 -1.390807E+02  9.867100E-01 -3.390030E+01 
4.312794E+02  9.895291E-01 -3.544113E+01  1.481127E-03 -1.390711E+02  1.473662E-03 -1.392179E+02  9.867618E-01 -3.389579E+01 
4.312825E+02  9.895216E-01 -3.544707E+01  1.503732E-03 -1.396820E+02  1.498085E-03 -1.390334E+02  9.867222E-01 -3.390365E+01 
4.312856E+02  9.894211E-01 -3.545574E+01  1.536393E-03 -1.396841E+02  1.531406E-03 -1.392814E+02  9.866623E-01 -3.390859E+01 
4.312887E+02  9.893567E-01 -3.546476E+01  1.558195E-03 -1.397029E+02  1.554723E-03 -1.397259E+02  9.867701E-01 -3.391048E+01 
4.312919E+02  9.894486E-01 -3.546646E+01  1.583665E-03 -1.398600E+02  1.586880E-03 -1.396885E+02  9.866056E-01 -3.391785E+01 
4.312950E+02  9.894479E-01 -3.547192E+01  1.611043E-03 -1.399915E+02  1.613220E-03 -1.400402E+02  9.865790E-01 -3.392401E+01 
4.312981E+02  9.894328E-01 -3.547480E+01  1.648902E-03 -1.402797E+02  1.634466E-03 -1.402392E+02  9.865592E-01 -3.393065E+01 
4.313013E+02  9.894069E-01 -3.548057E+01  1.667719E-03 -1.406811E+02  1.666990E-03 -1.405218E+02  9.865289E-01 -3.393228E+01 
4.313044E+02  9.892985E-01 -3.548728E+01  1.697914E-03 -1.410360E+02  1.693430E-03 -1.406539E+02  9.866265E-01 -3.394245E+01 
4.313075E+02  9.893738E-01 -3.549346E+01  1.736017E-03 -1.414068E+02  1.731962E-03 -1.410450E+02  9.865508E-01 -3.395236E+01 
4.313106E+02  9.892583E-01 -3.549998E+01  1.769003E-03 -1.414743E+02  1.759856E-03 -1.412971E+02  9.865092E-01 -3.395311E+01 
4.313138E+02  9.893089E-01 -3.550433E+01  1.792209E-03 -1.416413E+02  1.802783E-03 -1.416072E+02  9.865006E-01 -3.395574E+01 
4.313169E+02  9.892425E-01 -3.551054E+01  1.833196E-03 -1.419949E+02  1.831775E-03 -1.419680E+02  9.863739E-01 -3.396548E+01 
4.313200E+02  9.891674E-01 -3.551401E+01  1.861874E-03 -1.423251E+02  1.866655E-03 -1.420015E+02  9.865296E-01 -3.396515E+01 
4.313231E+02  9.891871E-01 -3.551111E+01  1.908294E-03 -1.423783E+02  1.905090E-03 -1.424637E+02  9.864623E-01 -3.397225E+01 
4.313263E+02  9.891751E-01 -3.552791E+01  1.945189E-03 -1.428625E+02  1.944168E-03 -1.425378E+02  9.864184E-01 -3.397858E+01 
4.313294E+02  9.892351E-01 -3.552307E+01  1.982647E-03 -1.432074E+02  1.972565E-03 -1.432095E+02  9.864081E-01 -3.398235E+01 
4.313325E+02  9.890784E-01 -3.553308E+01  2.017882E-03 -1.435015E+02  2.016403E-03 -1.432415E+02  9.862809E-01 -3.398619E+01 
4.313356E+02  9.891017E-01 -3.554558E+01  2.066936E-03 -1.438143E+02  2.061133E-03 -1.436740E+02  9.864111E-01 -3.399073E+01 
4.313388E+02  9.890634E-01 -3.554015E+01  2.109458E-03 -1.442165E+02  2.101659E-03 -1.439791E+02  9.863316E-01 -3.399584E+01 
4.313419E+02  9.891149E-01 -3.555371E+01  2.155356E-03 -1.445047E+02  2.146276E-03 -1.444201E+02  9.862827E-01 -3.400462E+01 
4.313450E+02  9.890500E-01 -3.555423E+01  2.210337E-03 -1.450261E+02  2.190878E-03 -1.447434E+02  9.863196E-01 -3.400813E+01 
4.313481E+02  9.889213E-01 -3.556966E+01  2.245934E-03 -1.453889E+02  2.244720E-03 -1.452508E+02  9.861780E-01 -3.402150E+01 
4.313512E+02  9.889280E-01 -3.557091E+01  2.297547E-03 -1.456779E+02  2.292221E-03 -1.455992E+02  9.862444E-01 -3.402139E+01 
4.313544E+02  9.888630E-01 -3.557874E+01  2.350583E-03 -1.461474E+02  2.338521E-03 -1.460209E+02  9.861797E-01 -3.402432E+01 
4.313575E+02  9.888965E-01 -3.558723E+01  2.396632E-03 -1.463262E+02  2.396726E-03 -1.461741E+02  9.861492E-01 -3.402801E+01 
4.313606E+02  9.888087E-01 -3.558880E+01  2.459027E-03 -1.469805E+02  2.454295E-03 -1.468745E+02  9.860315E-01 -3.403634E+01 
4.313638E+02  9.887578E-01 -3.559970E+01  2.509255E-03 -1.474541E+02  2.503635E-03 -1.473144E+02  9.860369E-01 -3.404826E+01 
4.313669E+02  9.886619E-01 -3.560785E+01  2.578324E-03 -1.479924E+02  2.565807E-03 -1.477017E+02  9.860527E-01 -3.405205E+01 
4.313700E+02  9.886088E-01 -3.560670E+01  2.633554E-03 -1.485125E+02  2.623059E-03 -1.483150E+02  9.858699E-01 -3.405838E+01 
4.313731E+02  9.886538E-01 -3.562166E+01  2.706278E-03 -1.491528E+02  2.691489E-03 -1.489016E+02  9.858341E-01 -3.407108E+01 
4.313763E+02  9.886196E-01 -3.562630E+01  2.771891E-03 -1.496130E+02  2.755139E-03 -1.492720E+02  9.857359E-01 -3.407819E+01 
4.313794E+02  9.884518E-01 -3.563083E+01  2.835418E-03 -1.501989E+02  2.824695E-03 -1.500070E+02  9.856915E-01 -3.408700E+01 
4.313825E+02  9.883740E-01 -3.564338E+01  2.907391E-03 -1.507137E+02  2.901076E-03 -1.505496E+02  9.857249E-01 -3.410030E+01 
4.313856E+02  9.882773E-01 -3.564700E+01  2.978594E-03 -1.511781E+02  2.978500E-03 -1.512095E+02  9.855666E-01 -3.410079E+01 
4.313888E+02  9.882167E-01 -3.565996E+01  3.064435E-03 -1.520227E+02  3.061013E-03 -1.517279E+02  9.855059E-01 -3.411336E+01 
4.313919E+02  9.882499E-01 -3.566209E+01  3.139379E-03 -1.525090E+02  3.133410E-03 -1.523677E+02  9.853887E-01 -3.411774E+01 
4.313950E+02  9.881080E-01 -3.567096E+01  3.228430E-03 -1.532621E+02  3.210397E-03 -1.530314E+02  9.853247E-01 -3.412325E+01 
