! Matrix data file written by TouchstoneData, EPCOS AG
! FILENAME: "B3738_WB.s2p"
! COMMENT: "PINNING 1/4; PORTEX1 93PS; PORTEX2 179.5PS;"
! INFO: nport=2, nfreq=1601
! DATE: "Wed Sep 19 14:43:11 2012"
! USER: "Wilfried Schott"
!
! port | pin | signal
! -----|-----|--------
!   1  |  1  |  IN
!   2  |  4  |  OUT
! --------------------
! 
# MHZ S MA R 50
! freq  magS11 angS11  magS21 angS21  magS12 angS12  magS22 angS22
2.888500E+02  9.955059E-01 -2.436776E+01  1.359862E-04 3.981746E+01  1.367476E-04 3.976785E+01  9.936054E-01 -2.253262E+01 
2.888813E+02  9.954543E-01 -2.436422E+01  1.241584E-04 3.987237E+01  1.214802E-04 3.847854E+01  9.935802E-01 -2.252951E+01 
2.889125E+02  9.954163E-01 -2.437377E+01  1.179586E-04 3.909484E+01  1.236113E-04 3.858049E+01  9.935055E-01 -2.253923E+01 
2.889438E+02  9.955022E-01 -2.437477E+01  1.091429E-04 4.021464E+01  1.143324E-04 4.215470E+01  9.935872E-01 -2.253749E+01 
2.889750E+02  9.953924E-01 -2.437893E+01  1.083569E-04 3.945788E+01  1.107324E-04 4.443099E+01  9.936492E-01 -2.253765E+01 
2.890063E+02  9.955857E-01 -2.437572E+01  1.052605E-04 4.376029E+01  9.949156E-05 4.347807E+01  9.935672E-01 -2.253302E+01 
2.890375E+02  9.955094E-01 -2.437199E+01  9.925547E-05 4.666015E+01  9.724646E-05 4.813786E+01  9.935439E-01 -2.254624E+01 
2.890688E+02  9.956142E-01 -2.438403E+01  9.738779E-05 4.738883E+01  1.004141E-04 4.654193E+01  9.935293E-01 -2.255425E+01 
2.891000E+02  9.954894E-01 -2.438324E+01  9.675353E-05 5.169392E+01  9.692999E-05 5.685650E+01  9.936190E-01 -2.255467E+01 
2.891313E+02  9.954385E-01 -2.438590E+01  9.911518E-05 5.061621E+01  8.734176E-05 5.446001E+01  9.937962E-01 -2.255018E+01 
2.891625E+02  9.955977E-01 -2.439034E+01  8.351765E-05 5.244520E+01  9.644386E-05 6.116545E+01  9.937503E-01 -2.255679E+01 
2.891938E+02  9.954902E-01 -2.439537E+01  8.791850E-05 6.333696E+01  8.651179E-05 6.231751E+01  9.937330E-01 -2.256217E+01 
2.892250E+02  9.955559E-01 -2.439834E+01  8.931609E-05 6.061651E+01  8.477353E-05 5.807361E+01  9.935877E-01 -2.255257E+01 
2.892563E+02  9.955349E-01 -2.440132E+01  7.936352E-05 6.597935E+01  8.193681E-05 6.860788E+01  9.936506E-01 -2.256453E+01 
2.892875E+02  9.955169E-01 -2.440431E+01  8.439271E-05 6.798569E+01  8.036397E-05 7.143413E+01  9.935950E-01 -2.256107E+01 
2.893188E+02  9.954067E-01 -2.439894E+01  8.129323E-05 7.053607E+01  7.900558E-05 7.402767E+01  9.936423E-01 -2.256492E+01 
2.893500E+02  9.955914E-01 -2.440983E+01  8.682962E-05 7.562894E+01  8.285260E-05 7.506309E+01  9.936420E-01 -2.257356E+01 
2.893813E+02  9.955591E-01 -2.441163E+01  8.342663E-05 8.599075E+01  8.831981E-05 8.031303E+01  9.936330E-01 -2.256476E+01 
2.894125E+02  9.953652E-01 -2.440398E+01  8.680497E-05 9.007721E+01  8.829709E-05 8.993515E+01  9.935662E-01 -2.257749E+01 
2.894438E+02  9.956461E-01 -2.440775E+01  9.259419E-05 9.199244E+01  9.208576E-05 9.145096E+01  9.935872E-01 -2.257535E+01 
2.894750E+02  9.955177E-01 -2.442336E+01  1.008759E-04 9.461379E+01  1.019894E-04 9.646281E+01  9.935210E-01 -2.258799E+01 
2.895063E+02  9.953447E-01 -2.442373E+01  1.015548E-04 9.686067E+01  1.092876E-04 9.587535E+01  9.935782E-01 -2.258148E+01 
2.895375E+02  9.954606E-01 -2.442142E+01  1.103518E-04 9.767514E+01  1.128579E-04 1.016669E+02  9.934861E-01 -2.257754E+01 
2.895688E+02  9.954947E-01 -2.442734E+01  1.263652E-04 1.012826E+02  1.255017E-04 1.001240E+02  9.934917E-01 -2.258559E+01 
2.896000E+02  9.953162E-01 -2.442602E+01  1.370406E-04 9.929339E+01  1.455463E-04 9.876465E+01  9.934825E-01 -2.259777E+01 
2.896313E+02  9.953490E-01 -2.442629E+01  1.498204E-04 9.902007E+01  1.499147E-04 1.027507E+02  9.934983E-01 -2.259417E+01 
2.896625E+02  9.954263E-01 -2.443118E+01  1.570522E-04 9.854538E+01  1.626606E-04 9.999359E+01  9.934185E-01 -2.260145E+01 
2.896938E+02  9.952954E-01 -2.443499E+01  1.707200E-04 9.565027E+01  1.689916E-04 9.631598E+01  9.934805E-01 -2.259840E+01 
2.897250E+02  9.955721E-01 -2.443589E+01  1.824071E-04 9.440013E+01  1.816177E-04 9.488905E+01  9.935599E-01 -2.260050E+01 
2.897563E+02  9.953679E-01 -2.444680E+01  1.928701E-04 9.140955E+01  1.913356E-04 9.200048E+01  9.934525E-01 -2.259898E+01 
2.897875E+02  9.952594E-01 -2.443660E+01  2.017093E-04 9.133319E+01  1.961872E-04 8.986043E+01  9.934657E-01 -2.259407E+01 
2.898188E+02  9.952922E-01 -2.444481E+01  2.052543E-04 8.721676E+01  1.966203E-04 8.847005E+01  9.935528E-01 -2.260495E+01 
2.898500E+02  9.954568E-01 -2.444168E+01  2.087240E-04 8.434759E+01  1.985699E-04 8.651750E+01  9.935216E-01 -2.259784E+01 
2.898813E+02  9.955486E-01 -2.445156E+01  2.105955E-04 8.304184E+01  2.025070E-04 8.201502E+01  9.935017E-01 -2.260378E+01 
2.899125E+02  9.955228E-01 -2.445056E+01  2.121153E-04 8.119742E+01  2.076930E-04 8.124185E+01  9.935615E-01 -2.261195E+01 
2.899438E+02  9.955035E-01 -2.444254E+01  2.127563E-04 7.729424E+01  2.129440E-04 7.897832E+01  9.935231E-01 -2.260815E+01 
2.899750E+02  9.954793E-01 -2.446037E+01  2.061619E-04 7.612885E+01  2.121387E-04 7.595278E+01  9.935704E-01 -2.261715E+01 
2.900063E+02  9.954807E-01 -2.445886E+01  2.128695E-04 7.318712E+01  2.137069E-04 7.469509E+01  9.935648E-01 -2.262072E+01 
2.900375E+02  9.953913E-01 -2.446706E+01  2.149194E-04 7.465086E+01  2.070849E-04 7.456204E+01  9.935126E-01 -2.261572E+01 
2.900688E+02  9.955361E-01 -2.446775E+01  2.138468E-04 7.229833E+01  2.126793E-04 7.135713E+01  9.935381E-01 -2.262256E+01 
2.901000E+02  9.955046E-01 -2.446170E+01  2.142204E-04 6.949003E+01  2.142930E-04 6.965347E+01  9.934632E-01 -2.263394E+01 
2.901313E+02  9.954265E-01 -2.447705E+01  2.114390E-04 6.780992E+01  2.177620E-04 6.615712E+01  9.935950E-01 -2.263028E+01 
2.901625E+02  9.954228E-01 -2.447124E+01  2.090293E-04 6.530029E+01  2.019364E-04 6.580706E+01  9.936109E-01 -2.262479E+01 
2.901938E+02  9.956141E-01 -2.448410E+01  2.034464E-04 6.496847E+01  2.106038E-04 6.724549E+01  9.935500E-01 -2.263402E+01 
2.902250E+02  9.956140E-01 -2.448112E+01  2.132258E-04 6.277156E+01  2.051060E-04 6.371595E+01  9.935741E-01 -2.263198E+01 
2.902563E+02  9.954550E-01 -2.448188E+01  2.053786E-04 6.039426E+01  2.003207E-04 6.392845E+01  9.935669E-01 -2.263282E+01 
2.902875E+02  9.955490E-01 -2.448312E+01  2.039431E-04 6.101389E+01  2.016881E-04 5.936532E+01  9.933965E-01 -2.264074E+01 
2.903188E+02  9.954420E-01 -2.447914E+01  1.982350E-04 5.908894E+01  1.979237E-04 5.954927E+01  9.934687E-01 -2.264403E+01 
2.903500E+02  9.955688E-01 -2.449451E+01  1.972802E-04 5.664341E+01  1.975537E-04 5.764343E+01  9.933906E-01 -2.264099E+01 
2.903813E+02  9.955004E-01 -2.449069E+01  1.892894E-04 5.433902E+01  1.946163E-04 5.700478E+01  9.934796E-01 -2.265111E+01 
2.904125E+02  9.955681E-01 -2.449724E+01  1.907749E-04 5.574316E+01  1.866843E-04 5.720285E+01  9.936382E-01 -2.265221E+01 
2.904438E+02  9.955447E-01 -2.449906E+01  1.867327E-04 5.360314E+01  1.890732E-04 5.450677E+01  9.933435E-01 -2.265310E+01 
2.904750E+02  9.954600E-01 -2.450462E+01  1.829752E-04 5.330423E+01  1.836111E-04 5.365366E+01  9.935837E-01 -2.266187E+01 
2.905063E+02  9.954061E-01 -2.450187E+01  1.788658E-04 5.001088E+01  1.831067E-04 5.240972E+01  9.935299E-01 -2.265603E+01 
2.905375E+02  9.954518E-01 -2.449662E+01  1.664370E-04 5.118057E+01  1.668505E-04 5.005554E+01  9.934785E-01 -2.265619E+01 
2.905688E+02  9.955443E-01 -2.450212E+01  1.665968E-04 4.970330E+01  1.714436E-04 4.792499E+01  9.935222E-01 -2.266230E+01 
2.906000E+02  9.954714E-01 -2.451571E+01  1.588068E-04 4.838805E+01  1.559862E-04 5.079495E+01  9.934501E-01 -2.266723E+01 
2.906313E+02  9.954753E-01 -2.451366E+01  1.510021E-04 4.825896E+01  1.510803E-04 4.892387E+01  9.934265E-01 -2.266320E+01 
2.906625E+02  9.954173E-01 -2.451532E+01  1.420568E-04 4.855950E+01  1.409391E-04 5.090855E+01  9.934486E-01 -2.266744E+01 
2.906938E+02  9.955602E-01 -2.451340E+01  1.334644E-04 5.128077E+01  1.451133E-04 5.011893E+01  9.934398E-01 -2.266926E+01 
2.907250E+02  9.955115E-01 -2.452482E+01  1.339469E-04 5.402263E+01  1.302114E-04 5.042131E+01  9.935713E-01 -2.266801E+01 
2.907563E+02  9.955055E-01 -2.451832E+01  1.317515E-04 5.429428E+01  1.232127E-04 5.291359E+01  9.935746E-01 -2.267408E+01 
2.907875E+02  9.955874E-01 -2.452336E+01  1.209840E-04 6.053275E+01  1.217205E-04 5.957782E+01  9.935421E-01 -2.268613E+01 
2.908188E+02  9.954811E-01 -2.452732E+01  1.272050E-04 6.188167E+01  1.294780E-04 6.069195E+01  9.935638E-01 -2.268015E+01 
2.908500E+02  9.955613E-01 -2.453022E+01  1.255225E-04 6.466418E+01  1.255530E-04 6.509827E+01  9.935016E-01 -2.268704E+01 
2.908813E+02  9.955822E-01 -2.453562E+01  1.289884E-04 6.185938E+01  1.293778E-04 6.237471E+01  9.935398E-01 -2.268313E+01 
2.909125E+02  9.956522E-01 -2.453772E+01  1.312526E-04 6.461849E+01  1.237674E-04 6.636552E+01  9.935304E-01 -2.267973E+01 
2.909438E+02  9.954141E-01 -2.453899E+01  1.233488E-04 6.811341E+01  1.267786E-04 6.768309E+01  9.935653E-01 -2.268763E+01 
2.909750E+02  9.955131E-01 -2.454102E+01  1.285775E-04 7.358559E+01  1.252615E-04 6.779888E+01  9.935839E-01 -2.268991E+01 
2.910063E+02  9.953360E-01 -2.453956E+01  1.323551E-04 7.460945E+01  1.262586E-04 7.251253E+01  9.936434E-01 -2.269500E+01 
2.910375E+02  9.956495E-01 -2.455021E+01  1.341898E-04 7.659512E+01  1.362697E-04 7.236496E+01  9.934644E-01 -2.269458E+01 
2.910688E+02  9.955114E-01 -2.456135E+01  1.308040E-04 7.476443E+01  1.313088E-04 7.372451E+01  9.935577E-01 -2.270160E+01 
2.911000E+02  9.954999E-01 -2.455324E+01  1.326287E-04 7.587635E+01  1.399274E-04 7.989848E+01  9.935657E-01 -2.270868E+01 
2.911313E+02  9.953989E-01 -2.455858E+01  1.458948E-04 7.666498E+01  1.358253E-04 7.464523E+01  9.934971E-01 -2.272024E+01 
2.911625E+02  9.955706E-01 -2.455452E+01  1.434294E-04 7.535899E+01  1.427739E-04 7.739423E+01  9.936767E-01 -2.270982E+01 
2.911938E+02  9.954560E-01 -2.456824E+01  1.480724E-04 7.753743E+01  1.498393E-04 7.792714E+01  9.936467E-01 -2.271234E+01 
2.912250E+02  9.955051E-01 -2.456498E+01  1.585864E-04 7.505544E+01  1.588504E-04 7.838762E+01  9.936168E-01 -2.271155E+01 
2.912563E+02  9.955467E-01 -2.456437E+01  1.615213E-04 8.010531E+01  1.541320E-04 7.611465E+01  9.936526E-01 -2.271991E+01 
2.912875E+02  9.954159E-01 -2.456309E+01  1.659492E-04 7.666837E+01  1.709292E-04 7.834716E+01  9.935673E-01 -2.271655E+01 
2.913188E+02  9.955185E-01 -2.456429E+01  1.690677E-04 7.591057E+01  1.719850E-04 7.831315E+01  9.934826E-01 -2.272142E+01 
2.913500E+02  9.953694E-01 -2.457746E+01  1.713789E-04 7.602518E+01  1.688249E-04 7.630046E+01  9.935158E-01 -2.271811E+01 
2.913813E+02  9.955894E-01 -2.457563E+01  1.825173E-04 7.649183E+01  1.791480E-04 7.534255E+01  9.934825E-01 -2.272898E+01 
2.914125E+02  9.954096E-01 -2.457576E+01  1.792349E-04 7.619186E+01  1.837899E-04 7.629478E+01  9.936626E-01 -2.273137E+01 
2.914438E+02  9.954984E-01 -2.458260E+01  1.866105E-04 7.414169E+01  1.832580E-04 7.338729E+01  9.937472E-01 -2.273565E+01 
2.914750E+02  9.956060E-01 -2.458305E+01  1.867465E-04 7.225344E+01  1.839804E-04 7.259284E+01  9.934612E-01 -2.274065E+01 
2.915063E+02  9.955189E-01 -2.458340E+01  1.931483E-04 7.215355E+01  1.905796E-04 7.172579E+01  9.935952E-01 -2.274233E+01 
2.915375E+02  9.955715E-01 -2.458828E+01  1.933699E-04 6.982915E+01  1.880815E-04 7.002230E+01  9.936478E-01 -2.274540E+01 
2.915688E+02  9.954926E-01 -2.460009E+01  1.879791E-04 6.693100E+01  1.917863E-04 6.810512E+01  9.935631E-01 -2.274176E+01 
2.916000E+02  9.956435E-01 -2.459002E+01  1.884857E-04 6.700053E+01  1.914715E-04 6.635000E+01  9.936393E-01 -2.274141E+01 
2.916313E+02  9.956343E-01 -2.460020E+01  1.888955E-04 6.620762E+01  1.867279E-04 6.617500E+01  9.935888E-01 -2.275163E+01 
2.916625E+02  9.954582E-01 -2.460295E+01  1.863634E-04 6.518560E+01  1.864854E-04 6.345789E+01  9.935416E-01 -2.274910E+01 
2.916938E+02  9.955183E-01 -2.459648E+01  1.893236E-04 6.398277E+01  1.854383E-04 6.489011E+01  9.936365E-01 -2.275215E+01 
2.917250E+02  9.955353E-01 -2.461419E+01  1.831572E-04 6.305302E+01  1.856655E-04 6.132920E+01  9.936390E-01 -2.274868E+01 
2.917563E+02  9.955471E-01 -2.460976E+01  1.834443E-04 6.323978E+01  1.864500E-04 6.181056E+01  9.936130E-01 -2.276275E+01 
2.917875E+02  9.956893E-01 -2.461520E+01  1.859605E-04 6.071796E+01  1.870955E-04 6.164014E+01  9.935397E-01 -2.276087E+01 
2.918188E+02  9.955523E-01 -2.462112E+01  1.792938E-04 6.153210E+01  1.785219E-04 5.794180E+01  9.935342E-01 -2.275430E+01 
2.918500E+02  9.953876E-01 -2.461876E+01  1.753277E-04 6.123480E+01  1.830765E-04 6.000927E+01  9.937132E-01 -2.276509E+01 
2.918813E+02  9.955141E-01 -2.462320E+01  1.756691E-04 5.913345E+01  1.777858E-04 5.773816E+01  9.935480E-01 -2.277491E+01 
2.919125E+02  9.954258E-01 -2.462104E+01  1.839118E-04 5.661452E+01  1.814512E-04 5.790134E+01  9.936507E-01 -2.276369E+01 
2.919438E+02  9.955372E-01 -2.462517E+01  1.818080E-04 5.676715E+01  1.846911E-04 5.781303E+01  9.936743E-01 -2.277048E+01 
2.919750E+02  9.955620E-01 -2.463286E+01  1.788570E-04 5.792873E+01  1.768800E-04 5.642294E+01  9.934800E-01 -2.277776E+01 
2.920063E+02  9.956262E-01 -2.463578E+01  1.738639E-04 5.586280E+01  1.775992E-04 5.414314E+01  9.934966E-01 -2.277291E+01 
2.920375E+02  9.955191E-01 -2.463865E+01  1.788455E-04 5.431289E+01  1.768349E-04 5.402367E+01  9.934687E-01 -2.278791E+01 
2.920688E+02  9.955638E-01 -2.463993E+01  1.803551E-04 5.296363E+01  1.644589E-04 5.340521E+01  9.936989E-01 -2.278589E+01 
2.921000E+02  9.954540E-01 -2.463422E+01  1.710135E-04 5.431151E+01  1.706708E-04 5.241900E+01  9.936175E-01 -2.278228E+01 
2.921313E+02  9.954989E-01 -2.464874E+01  1.661180E-04 5.271369E+01  1.654078E-04 5.110005E+01  9.936660E-01 -2.280118E+01 
2.921625E+02  9.955726E-01 -2.465177E+01  1.687670E-04 5.012178E+01  1.657815E-04 5.275931E+01  9.936303E-01 -2.279139E+01 
2.921938E+02  9.955745E-01 -2.464449E+01  1.479524E-04 5.233314E+01  1.564754E-04 5.075480E+01  9.935283E-01 -2.279373E+01 
2.922250E+02  9.955041E-01 -2.464716E+01  1.554822E-04 4.991177E+01  1.509020E-04 5.047618E+01  9.936274E-01 -2.280077E+01 
2.922563E+02  9.954770E-01 -2.465896E+01  1.536567E-04 5.013149E+01  1.526572E-04 5.037973E+01  9.935243E-01 -2.280372E+01 
2.922875E+02  9.954542E-01 -2.466156E+01  1.419535E-04 5.349807E+01  1.420085E-04 5.076941E+01  9.935540E-01 -2.279859E+01 
2.923188E+02  9.954365E-01 -2.466678E+01  1.438443E-04 4.887719E+01  1.415739E-04 5.150034E+01  9.935551E-01 -2.280317E+01 
2.923500E+02  9.955115E-01 -2.466363E+01  1.443733E-04 5.387978E+01  1.434039E-04 5.177746E+01  9.936405E-01 -2.281556E+01 
2.923813E+02  9.955269E-01 -2.466277E+01  1.318236E-04 5.612810E+01  1.353326E-04 5.249198E+01  9.934538E-01 -2.281701E+01 
2.924125E+02  9.955153E-01 -2.466872E+01  1.297164E-04 5.693243E+01  1.331478E-04 5.641317E+01  9.936151E-01 -2.281887E+01 
2.924438E+02  9.954856E-01 -2.467538E+01  1.384607E-04 5.542644E+01  1.303490E-04 5.431984E+01  9.934912E-01 -2.281274E+01 
2.924750E+02  9.956166E-01 -2.467945E+01  1.326428E-04 6.142562E+01  1.248109E-04 5.706782E+01  9.935218E-01 -2.281989E+01 
2.925063E+02  9.954979E-01 -2.468214E+01  1.277151E-04 5.971807E+01  1.312346E-04 5.527594E+01  9.935430E-01 -2.281367E+01 
2.925375E+02  9.954807E-01 -2.468443E+01  1.340303E-04 5.761226E+01  1.255864E-04 5.950242E+01  9.935905E-01 -2.282930E+01 
2.925688E+02  9.954397E-01 -2.467923E+01  1.344527E-04 5.851322E+01  1.307193E-04 6.318706E+01  9.935901E-01 -2.282985E+01 
2.926000E+02  9.954401E-01 -2.468658E+01  1.276899E-04 6.308750E+01  1.335425E-04 6.461613E+01  9.935930E-01 -2.282635E+01 
2.926313E+02  9.955902E-01 -2.469030E+01  1.348716E-04 6.307855E+01  1.363174E-04 6.436429E+01  9.935393E-01 -2.283527E+01 
2.926625E+02  9.955205E-01 -2.469197E+01  1.425140E-04 6.444848E+01  1.300698E-04 6.651592E+01  9.935050E-01 -2.283732E+01 
2.926938E+02  9.955619E-01 -2.469816E+01  1.411110E-04 6.485695E+01  1.359642E-04 6.394410E+01  9.935599E-01 -2.284810E+01 
2.927250E+02  9.954376E-01 -2.469392E+01  1.386468E-04 6.683645E+01  1.393843E-04 6.531700E+01  9.936085E-01 -2.284899E+01 
2.927563E+02  9.953676E-01 -2.470174E+01  1.434298E-04 6.587157E+01  1.450385E-04 6.667180E+01  9.935783E-01 -2.284148E+01 
2.927875E+02  9.955569E-01 -2.470600E+01  1.409945E-04 6.771738E+01  1.406540E-04 6.593173E+01  9.935142E-01 -2.284770E+01 
2.928188E+02  9.954452E-01 -2.469728E+01  1.464932E-04 6.634434E+01  1.426501E-04 6.617411E+01  9.935680E-01 -2.284909E+01 
2.928500E+02  9.956192E-01 -2.470628E+01  1.391105E-04 6.701263E+01  1.419304E-04 6.658224E+01  9.936320E-01 -2.285254E+01 
2.928813E+02  9.954416E-01 -2.470781E+01  1.441116E-04 6.816028E+01  1.466230E-04 6.739961E+01  9.937164E-01 -2.285449E+01 
2.929125E+02  9.955050E-01 -2.471663E+01  1.394479E-04 7.180597E+01  1.460234E-04 6.920482E+01  9.935590E-01 -2.285941E+01 
2.929438E+02  9.954214E-01 -2.471517E+01  1.467845E-04 6.846913E+01  1.458371E-04 6.945094E+01  9.937760E-01 -2.286554E+01 
2.929750E+02  9.954170E-01 -2.471546E+01  1.433883E-04 6.830183E+01  1.461529E-04 7.053303E+01  9.935001E-01 -2.285429E+01 
2.930063E+02  9.954705E-01 -2.472424E+01  1.493350E-04 6.562725E+01  1.493162E-04 6.927928E+01  9.934196E-01 -2.286335E+01 
2.930375E+02  9.955966E-01 -2.471861E+01  1.559821E-04 6.650518E+01  1.530199E-04 7.150926E+01  9.935478E-01 -2.286484E+01 
2.930688E+02  9.955656E-01 -2.472650E+01  1.510938E-04 6.772507E+01  1.426265E-04 6.955823E+01  9.936389E-01 -2.286931E+01 
2.931000E+02  9.955243E-01 -2.473465E+01  1.497025E-04 6.734969E+01  1.523013E-04 6.956080E+01  9.936378E-01 -2.287125E+01 
2.931313E+02  9.955801E-01 -2.473905E+01  1.472748E-04 6.830070E+01  1.548040E-04 6.842518E+01  9.935440E-01 -2.287844E+01 
2.931625E+02  9.954297E-01 -2.474270E+01  1.564460E-04 6.893304E+01  1.547447E-04 6.750554E+01  9.935722E-01 -2.287817E+01 
2.931938E+02  9.956055E-01 -2.474588E+01  1.627512E-04 6.794649E+01  1.506053E-04 6.712223E+01  9.935909E-01 -2.288150E+01 
2.932250E+02  9.954696E-01 -2.474411E+01  1.594423E-04 6.851615E+01  1.649390E-04 6.743863E+01  9.936798E-01 -2.288766E+01 
2.932563E+02  9.955183E-01 -2.474327E+01  1.562894E-04 6.359087E+01  1.552726E-04 6.697245E+01  9.935317E-01 -2.289105E+01 
2.932875E+02  9.954095E-01 -2.474560E+01  1.636020E-04 6.763712E+01  1.622429E-04 6.480551E+01  9.935363E-01 -2.289078E+01 
2.933188E+02  9.954986E-01 -2.475022E+01  1.636181E-04 6.452767E+01  1.628971E-04 6.596656E+01  9.935771E-01 -2.289103E+01 
2.933500E+02  9.955685E-01 -2.475826E+01  1.674385E-04 6.423015E+01  1.622615E-04 6.531023E+01  9.934163E-01 -2.290606E+01 
2.933813E+02  9.955804E-01 -2.475904E+01  1.729770E-04 6.576653E+01  1.697470E-04 6.717710E+01  9.936155E-01 -2.289973E+01 
2.934125E+02  9.956319E-01 -2.476146E+01  1.664645E-04 6.778794E+01  1.637465E-04 6.515570E+01  9.935109E-01 -2.290165E+01 
2.934438E+02  9.953678E-01 -2.476080E+01  1.694211E-04 6.424828E+01  1.659828E-04 6.379163E+01  9.937622E-01 -2.290359E+01 
2.934750E+02  9.955645E-01 -2.476886E+01  1.758380E-04 6.323474E+01  1.690615E-04 6.339056E+01  9.935234E-01 -2.291219E+01 
2.935063E+02  9.955013E-01 -2.477507E+01  1.769279E-04 6.462102E+01  1.629686E-04 6.583541E+01  9.936208E-01 -2.291338E+01 
2.935375E+02  9.955990E-01 -2.477348E+01  1.658687E-04 6.337259E+01  1.790906E-04 6.202352E+01  9.934653E-01 -2.291648E+01 
2.935688E+02  9.954235E-01 -2.477704E+01  1.635202E-04 6.248337E+01  1.711162E-04 6.183078E+01  9.934865E-01 -2.291797E+01 
2.936000E+02  9.954553E-01 -2.478828E+01  1.798984E-04 6.125396E+01  1.712620E-04 6.005095E+01  9.935274E-01 -2.292579E+01 
2.936313E+02  9.956344E-01 -2.477817E+01  1.776901E-04 5.975610E+01  1.752421E-04 6.238747E+01  9.934757E-01 -2.292580E+01 
2.936625E+02  9.955108E-01 -2.478845E+01  1.756706E-04 5.855938E+01  1.760287E-04 5.981737E+01  9.936489E-01 -2.292172E+01 
2.936938E+02  9.954175E-01 -2.478603E+01  1.773078E-04 5.830051E+01  1.765180E-04 5.865856E+01  9.934944E-01 -2.293195E+01 
2.937250E+02  9.952848E-01 -2.478594E+01  1.796587E-04 5.637037E+01  1.712371E-04 5.797137E+01  9.935940E-01 -2.293198E+01 
