! Matrix data file written by TouchstoneData, EPCOS AG
! FILENAME: "newformat_B3733_SB.s2p"
! COMMENT: "PINNING IN=1; OUT=4; UNMATCHED 14 Mar 2006 S1"
! INFO: nport=2, nfreq=1601
! DATE: "Wed Sep 19 14:23:24 2012"
! USER: "Wilfried Schott"
!
! port | pin | signal
! -----|-----|--------
!   1  |  1  |  IN
!   2  |  4  |  OUT
! --------------------
! 
# MHZ S MA R 50
! freq  magS11 angS11  magS21 angS21  magS12 angS12  magS22 angS22
4.319200E+02  9.897308E-01 -3.629746E+01  2.787056E-05 -1.117718E+02  3.291626E-05 -1.090848E+02  9.882256E-01 -3.315706E+01 
4.319231E+02  9.895744E-01 -3.629458E+01  2.958379E-05 -1.223657E+02  3.644392E-05 -1.275674E+02  9.882723E-01 -3.315353E+01 
4.319263E+02  9.896715E-01 -3.629083E+01  3.579990E-05 -1.176701E+02  2.881512E-05 -1.220699E+02  9.883563E-01 -3.315416E+01 
4.319294E+02  9.896690E-01 -3.630290E+01  2.837137E-05 -1.130092E+02  2.828871E-05 -1.210881E+02  9.882435E-01 -3.315487E+01 
4.319325E+02  9.895948E-01 -3.630907E+01  3.865393E-05 -1.187308E+02  3.173005E-05 -1.209141E+02  9.883187E-01 -3.317160E+01 
4.319356E+02  9.895914E-01 -3.631117E+01  3.097973E-05 -1.285606E+02  3.217038E-05 -1.176179E+02  9.883269E-01 -3.316788E+01 
4.319388E+02  9.896688E-01 -3.630381E+01  3.199358E-05 -1.282636E+02  3.669926E-05 -1.168963E+02  9.883623E-01 -3.316517E+01 
4.319419E+02  9.896330E-01 -3.631316E+01  4.319232E-05 -1.201704E+02  3.261344E-05 -1.069634E+02  9.883289E-01 -3.316915E+01 
4.319450E+02  9.896121E-01 -3.631999E+01  3.649952E-05 -1.152834E+02  3.555140E-05 -1.103366E+02  9.882946E-01 -3.318279E+01 
4.319481E+02  9.896451E-01 -3.631412E+01  3.420176E-05 -1.080281E+02  3.459865E-05 -1.132776E+02  9.882880E-01 -3.317791E+01 
4.319513E+02  9.896189E-01 -3.632037E+01  3.333486E-05 -1.096074E+02  4.473346E-05 -1.132793E+02  9.883214E-01 -3.317850E+01 
4.319544E+02  9.895879E-01 -3.632271E+01  3.791484E-05 -1.052682E+02  3.647001E-05 -1.145607E+02  9.883456E-01 -3.317981E+01 
4.319575E+02  9.896150E-01 -3.632572E+01  3.700876E-05 -1.047382E+02  4.038324E-05 -1.117714E+02  9.883232E-01 -3.318473E+01 
4.319606E+02  9.897238E-01 -3.632740E+01  3.637459E-05 -1.140150E+02  3.956194E-05 -1.189929E+02  9.883796E-01 -3.318717E+01 
4.319638E+02  9.896620E-01 -3.633400E+01  4.164064E-05 -1.090747E+02  4.384749E-05 -1.052557E+02  9.883511E-01 -3.319641E+01 
4.319669E+02  9.895670E-01 -3.633772E+01  4.024468E-05 -1.110244E+02  5.040757E-05 -1.108957E+02  9.883417E-01 -3.319288E+01 
4.319700E+02  9.895039E-01 -3.634405E+01  4.472574E-05 -1.103921E+02  4.741371E-05 -1.151742E+02  9.882902E-01 -3.319063E+01 
4.319731E+02  9.896857E-01 -3.634484E+01  5.170996E-05 -1.181073E+02  4.660455E-05 -1.178678E+02  9.881245E-01 -3.320057E+01 
4.319762E+02  9.896618E-01 -3.633779E+01  4.762662E-05 -1.085691E+02  4.370202E-05 -1.253280E+02  9.883017E-01 -3.320244E+01 
4.319794E+02  9.896848E-01 -3.634921E+01  4.501314E-05 -1.242530E+02  4.424190E-05 -1.126076E+02  9.883170E-01 -3.320509E+01 
4.319825E+02  9.896127E-01 -3.634988E+01  5.141416E-05 -1.123732E+02  4.975533E-05 -1.158312E+02  9.882677E-01 -3.320613E+01 
4.319856E+02  9.896825E-01 -3.634364E+01  5.218029E-05 -1.108821E+02  4.940225E-05 -1.186842E+02  9.882557E-01 -3.321117E+01 
4.319888E+02  9.896309E-01 -3.635247E+01  4.438048E-05 -1.167425E+02  4.945267E-05 -1.142139E+02  9.883566E-01 -3.321405E+01 
4.319919E+02  9.896292E-01 -3.635203E+01  5.351874E-05 -1.164450E+02  4.792955E-05 -1.199825E+02  9.883423E-01 -3.321963E+01 
4.319950E+02  9.895264E-01 -3.635671E+01  5.140343E-05 -1.112249E+02  4.985651E-05 -1.121415E+02  9.883021E-01 -3.321704E+01 
4.319981E+02  9.896015E-01 -3.636194E+01  4.963381E-05 -1.099919E+02  5.193819E-05 -1.134112E+02  9.882316E-01 -3.321616E+01 
4.320013E+02  9.896691E-01 -3.636413E+01  4.633367E-05 -1.102443E+02  4.844162E-05 -1.134722E+02  9.882011E-01 -3.321862E+01 
4.320044E+02  9.897115E-01 -3.636329E+01  5.195662E-05 -1.149484E+02  5.338600E-05 -1.196738E+02  9.883494E-01 -3.322574E+01 
4.320075E+02  9.896757E-01 -3.637049E+01  5.611369E-05 -1.155928E+02  6.041254E-05 -1.185629E+02  9.882755E-01 -3.323436E+01 
4.320106E+02  9.895628E-01 -3.636817E+01  5.861974E-05 -1.172463E+02  5.397632E-05 -1.147958E+02  9.883342E-01 -3.323288E+01 
4.320138E+02  9.895431E-01 -3.638093E+01  5.430933E-05 -1.171187E+02  5.764570E-05 -1.143806E+02  9.883047E-01 -3.323249E+01 
4.320169E+02  9.896318E-01 -3.638028E+01  4.953249E-05 -1.230744E+02  5.929295E-05 -1.164779E+02  9.884253E-01 -3.324139E+01 
4.320200E+02  9.894926E-01 -3.637815E+01  5.825158E-05 -1.170782E+02  5.576961E-05 -1.161392E+02  9.883521E-01 -3.324011E+01 
4.320231E+02  9.895562E-01 -3.638360E+01  5.978670E-05 -1.160301E+02  6.521059E-05 -1.174383E+02  9.881948E-01 -3.324802E+01 
4.320263E+02  9.895675E-01 -3.638593E+01  5.808528E-05 -1.081388E+02  5.626513E-05 -1.121543E+02  9.883548E-01 -3.324868E+01 
4.320294E+02  9.895357E-01 -3.639279E+01  5.534741E-05 -1.117498E+02  6.009804E-05 -1.167086E+02  9.882355E-01 -3.325020E+01 
4.320325E+02  9.895653E-01 -3.640091E+01  5.956866E-05 -1.190517E+02  6.533275E-05 -1.172366E+02  9.883047E-01 -3.325162E+01 
4.320356E+02  9.895824E-01 -3.639112E+01  5.480702E-05 -1.137819E+02  6.640786E-05 -1.149826E+02  9.882993E-01 -3.325236E+01 
4.320387E+02  9.896037E-01 -3.640509E+01  6.907773E-05 -1.141306E+02  7.498276E-05 -1.165763E+02  9.882400E-01 -3.325836E+01 
4.320419E+02  9.894964E-01 -3.640191E+01  5.498573E-05 -1.126962E+02  6.108135E-05 -1.141588E+02  9.883418E-01 -3.326125E+01 
4.320450E+02  9.895241E-01 -3.641425E+01  6.122869E-05 -1.181952E+02  5.996322E-05 -1.171535E+02  9.882533E-01 -3.326385E+01 
4.320481E+02  9.896246E-01 -3.640477E+01  7.176243E-05 -1.168029E+02  6.159365E-05 -1.156722E+02  9.882604E-01 -3.327342E+01 
4.320513E+02  9.895940E-01 -3.641192E+01  5.678763E-05 -1.160847E+02  6.513192E-05 -1.154577E+02  9.882040E-01 -3.326901E+01 
4.320544E+02  9.895236E-01 -3.641474E+01  7.125243E-05 -1.146636E+02  6.922610E-05 -1.147165E+02  9.881651E-01 -3.327334E+01 
4.320575E+02  9.896194E-01 -3.641315E+01  6.598979E-05 -1.167899E+02  7.342036E-05 -1.159822E+02  9.883533E-01 -3.327412E+01 
4.320606E+02  9.895219E-01 -3.642722E+01  6.790747E-05 -1.149758E+02  6.447231E-05 -1.171569E+02  9.883294E-01 -3.327765E+01 
4.320638E+02  9.895929E-01 -3.642037E+01  7.165820E-05 -1.200952E+02  6.698198E-05 -1.209952E+02  9.882974E-01 -3.328501E+01 
4.320669E+02  9.895504E-01 -3.642596E+01  6.924956E-05 -1.134553E+02  6.566598E-05 -1.172285E+02  9.882493E-01 -3.327842E+01 
4.320700E+02  9.896109E-01 -3.642798E+01  7.679230E-05 -1.118836E+02  7.718369E-05 -1.114778E+02  9.881440E-01 -3.328907E+01 
4.320731E+02  9.895179E-01 -3.642979E+01  6.591296E-05 -1.111237E+02  7.082755E-05 -1.149394E+02  9.882338E-01 -3.328849E+01 
4.320763E+02  9.894663E-01 -3.643774E+01  7.016161E-05 -1.127151E+02  7.232550E-05 -1.153543E+02  9.882762E-01 -3.329264E+01 
4.320794E+02  9.895083E-01 -3.643165E+01  7.433018E-05 -1.181121E+02  7.392343E-05 -1.160687E+02  9.883283E-01 -3.329791E+01 
4.320825E+02  9.895583E-01 -3.644115E+01  8.182858E-05 -1.146651E+02  7.584963E-05 -1.124814E+02  9.883136E-01 -3.330141E+01 
4.320856E+02  9.894932E-01 -3.644903E+01  7.717143E-05 -1.145339E+02  7.515229E-05 -1.133184E+02  9.881280E-01 -3.329713E+01 
4.320888E+02  9.895463E-01 -3.644474E+01  7.784344E-05 -1.151733E+02  7.545853E-05 -1.166734E+02  9.882861E-01 -3.330748E+01 
4.320919E+02  9.895041E-01 -3.645440E+01  7.915658E-05 -1.110678E+02  8.340688E-05 -1.139446E+02  9.882529E-01 -3.330556E+01 
4.320950E+02  9.895565E-01 -3.645518E+01  7.687350E-05 -1.150490E+02  8.499176E-05 -1.159880E+02  9.881423E-01 -3.331427E+01 
4.320981E+02  9.895457E-01 -3.645837E+01  8.059311E-05 -1.102979E+02  7.959906E-05 -1.165168E+02  9.881701E-01 -3.332000E+01 
4.321012E+02  9.895038E-01 -3.646559E+01  8.577611E-05 -1.136418E+02  7.677219E-05 -1.156202E+02  9.883113E-01 -3.332647E+01 
4.321044E+02  9.895034E-01 -3.646729E+01  8.557619E-05 -1.177470E+02  8.654254E-05 -1.142759E+02  9.882625E-01 -3.331869E+01 
4.321075E+02  9.894861E-01 -3.646632E+01  7.647561E-05 -1.150797E+02  8.469478E-05 -1.137111E+02  9.880665E-01 -3.332722E+01 
4.321106E+02  9.895835E-01 -3.647092E+01  8.765424E-05 -1.173443E+02  7.478752E-05 -1.146673E+02  9.881839E-01 -3.333567E+01 
4.321138E+02  9.895550E-01 -3.646665E+01  8.108796E-05 -1.181086E+02  8.474423E-05 -1.169952E+02  9.882363E-01 -3.333681E+01 
4.321169E+02  9.896006E-01 -3.648025E+01  9.103996E-05 -1.157186E+02  8.342070E-05 -1.142345E+02  9.881767E-01 -3.334179E+01 
4.321200E+02  9.894705E-01 -3.648075E+01  8.490524E-05 -1.177947E+02  8.626961E-05 -1.158748E+02  9.883007E-01 -3.334053E+01 
4.321231E+02  9.894457E-01 -3.648321E+01  8.881904E-05 -1.160726E+02  8.189564E-05 -1.152501E+02  9.882332E-01 -3.334304E+01 
4.321263E+02  9.893977E-01 -3.648721E+01  9.019564E-05 -1.110487E+02  8.278919E-05 -1.159232E+02  9.882972E-01 -3.335052E+01 
4.321294E+02  9.893763E-01 -3.648167E+01  8.628454E-05 -1.165833E+02  8.965086E-05 -1.143630E+02  9.882750E-01 -3.335194E+01 
4.321325E+02  9.895250E-01 -3.649853E+01  8.293991E-05 -1.178112E+02  8.913622E-05 -1.127728E+02  9.882051E-01 -3.334665E+01 
4.321356E+02  9.894737E-01 -3.649268E+01  8.255926E-05 -1.164959E+02  8.702083E-05 -1.158660E+02  9.883690E-01 -3.335341E+01 
4.321388E+02  9.895373E-01 -3.650437E+01  8.857074E-05 -1.116314E+02  8.908015E-05 -1.154124E+02  9.881541E-01 -3.336502E+01 
4.321419E+02  9.895204E-01 -3.649270E+01  8.698963E-05 -1.178232E+02  8.964961E-05 -1.146885E+02  9.881693E-01 -3.336501E+01 
4.321450E+02  9.895353E-01 -3.649783E+01  9.390854E-05 -1.114671E+02  9.530629E-05 -1.194783E+02  9.881288E-01 -3.336920E+01 
4.321481E+02  9.895009E-01 -3.651323E+01  9.173180E-05 -1.156097E+02  9.092963E-05 -1.133963E+02  9.881607E-01 -3.337310E+01 
4.321513E+02  9.893802E-01 -3.650423E+01  9.498706E-05 -1.152171E+02  8.894510E-05 -1.090094E+02  9.883176E-01 -3.337477E+01 
4.321544E+02  9.894210E-01 -3.651570E+01  1.011062E-04 -1.161874E+02  9.760257E-05 -1.113503E+02  9.880084E-01 -3.337789E+01 
4.321575E+02  9.895790E-01 -3.651997E+01  9.963686E-05 -1.138073E+02  9.928241E-05 -1.147658E+02  9.881697E-01 -3.337536E+01 
4.321606E+02  9.894658E-01 -3.651497E+01  1.010861E-04 -1.171122E+02  9.728294E-05 -1.138499E+02  9.881461E-01 -3.337674E+01 
4.321637E+02  9.895354E-01 -3.652436E+01  9.527896E-05 -1.136039E+02  1.034585E-04 -1.152414E+02  9.881844E-01 -3.338527E+01 
4.321669E+02  9.893349E-01 -3.652391E+01  1.016883E-04 -1.139207E+02  1.012209E-04 -1.132165E+02  9.881134E-01 -3.338097E+01 
4.321700E+02  9.894263E-01 -3.653168E+01  1.025030E-04 -1.178077E+02  1.067922E-04 -1.165123E+02  9.880873E-01 -3.339201E+01 
4.321731E+02  9.894711E-01 -3.653405E+01  1.025812E-04 -1.162250E+02  1.013663E-04 -1.140335E+02  9.882115E-01 -3.339202E+01 
4.321763E+02  9.893880E-01 -3.652971E+01  9.956950E-05 -1.150025E+02  1.091598E-04 -1.154786E+02  9.882200E-01 -3.339678E+01 
4.321794E+02  9.894512E-01 -3.653159E+01  1.003391E-04 -1.175701E+02  1.025855E-04 -1.144476E+02  9.880614E-01 -3.340251E+01 
4.321825E+02  9.893511E-01 -3.653515E+01  1.053679E-04 -1.135544E+02  1.041557E-04 -1.134952E+02  9.882304E-01 -3.340422E+01 
4.321856E+02  9.893706E-01 -3.654025E+01  1.018117E-04 -1.180020E+02  1.009171E-04 -1.110888E+02  9.881452E-01 -3.340599E+01 
4.321888E+02  9.894874E-01 -3.654072E+01  1.108012E-04 -1.150156E+02  1.140309E-04 -1.169233E+02  9.881511E-01 -3.341206E+01 
4.321919E+02  9.895013E-01 -3.655136E+01  1.161901E-04 -1.172341E+02  1.122350E-04 -1.180398E+02  9.881504E-01 -3.341402E+01 
4.321950E+02  9.893740E-01 -3.655922E+01  1.102758E-04 -1.178750E+02  1.108780E-04 -1.187990E+02  9.881123E-01 -3.341851E+01 
4.321981E+02  9.894067E-01 -3.656262E+01  1.098926E-04 -1.169508E+02  1.142410E-04 -1.144574E+02  9.881834E-01 -3.342009E+01 
4.322013E+02  9.894032E-01 -3.656182E+01  1.143181E-04 -1.168063E+02  1.210503E-04 -1.162239E+02  9.882182E-01 -3.341916E+01 
4.322044E+02  9.896045E-01 -3.655969E+01  1.168244E-04 -1.194266E+02  1.173027E-04 -1.181534E+02  9.882131E-01 -3.342696E+01 
4.322075E+02  9.895095E-01 -3.656676E+01  1.179677E-04 -1.176158E+02  1.127223E-04 -1.146977E+02  9.882049E-01 -3.342803E+01 
4.322106E+02  9.894681E-01 -3.657042E+01  1.200484E-04 -1.123913E+02  1.214916E-04 -1.147524E+02  9.881356E-01 -3.343570E+01 
4.322138E+02  9.895713E-01 -3.657165E+01  1.245190E-04 -1.141111E+02  1.185209E-04 -1.172557E+02  9.881366E-01 -3.343726E+01 
4.322169E+02  9.894146E-01 -3.658102E+01  1.198968E-04 -1.155663E+02  1.162735E-04 -1.195258E+02  9.882236E-01 -3.344294E+01 
4.322200E+02  9.896132E-01 -3.658182E+01  1.265867E-04 -1.174148E+02  1.242094E-04 -1.166314E+02  9.880611E-01 -3.344798E+01 
4.322231E+02  9.893004E-01 -3.658468E+01  1.179390E-04 -1.150830E+02  1.315461E-04 -1.169070E+02  9.880037E-01 -3.344974E+01 
4.322262E+02  9.893971E-01 -3.659391E+01  1.288367E-04 -1.163067E+02  1.243007E-04 -1.200974E+02  9.881890E-01 -3.345745E+01 
4.322294E+02  9.893506E-01 -3.659545E+01  1.311035E-04 -1.168638E+02  1.245127E-04 -1.188649E+02  9.881945E-01 -3.345986E+01 
4.322325E+02  9.894360E-01 -3.659449E+01  1.343425E-04 -1.204707E+02  1.266541E-04 -1.165748E+02  9.881075E-01 -3.346778E+01 
4.322356E+02  9.895846E-01 -3.660179E+01  1.297226E-04 -1.169132E+02  1.288937E-04 -1.194598E+02  9.881248E-01 -3.345891E+01 
4.322388E+02  9.894090E-01 -3.660355E+01  1.303461E-04 -1.175849E+02  1.298312E-04 -1.166668E+02  9.880021E-01 -3.347546E+01 
4.322419E+02  9.895184E-01 -3.660614E+01  1.328312E-04 -1.170046E+02  1.357467E-04 -1.202753E+02  9.880735E-01 -3.347157E+01 
4.322450E+02  9.894347E-01 -3.661862E+01  1.358044E-04 -1.205778E+02  1.345662E-04 -1.191054E+02  9.881124E-01 -3.347384E+01 
4.322481E+02  9.895070E-01 -3.661552E+01  1.490058E-04 -1.187840E+02  1.375437E-04 -1.188733E+02  9.881174E-01 -3.347345E+01 
4.322513E+02  9.895073E-01 -3.661764E+01  1.392630E-04 -1.220557E+02  1.448741E-04 -1.193098E+02  9.879857E-01 -3.347978E+01 
4.322544E+02  9.893647E-01 -3.661775E+01  1.405303E-04 -1.190139E+02  1.470624E-04 -1.204672E+02  9.881158E-01 -3.348601E+01 
4.322575E+02  9.894248E-01 -3.661637E+01  1.417906E-04 -1.228967E+02  1.467898E-04 -1.196550E+02  9.882584E-01 -3.348573E+01 
4.322606E+02  9.894560E-01 -3.662769E+01  1.480446E-04 -1.197087E+02  1.532394E-04 -1.197792E+02  9.881055E-01 -3.349182E+01 
4.322638E+02  9.893429E-01 -3.663032E+01  1.493090E-04 -1.214723E+02  1.474366E-04 -1.250147E+02  9.881204E-01 -3.349922E+01 
4.322669E+02  9.894547E-01 -3.663912E+01  1.512182E-04 -1.239158E+02  1.584558E-04 -1.254314E+02  9.881414E-01 -3.350511E+01 
4.322700E+02  9.894120E-01 -3.663542E+01  1.524977E-04 -1.265970E+02  1.574665E-04 -1.257381E+02  9.880614E-01 -3.350901E+01 
4.322731E+02  9.894603E-01 -3.664012E+01  1.564453E-04 -1.237315E+02  1.579578E-04 -1.243826E+02  9.880955E-01 -3.351530E+01 
4.322763E+02  9.893947E-01 -3.664748E+01  1.673347E-04 -1.258411E+02  1.646230E-04 -1.242227E+02  9.880028E-01 -3.351666E+01 
4.322794E+02  9.894537E-01 -3.665223E+01  1.686297E-04 -1.251694E+02  1.690508E-04 -1.245722E+02  9.881695E-01 -3.352330E+01 
4.322825E+02  9.893641E-01 -3.665942E+01  1.726334E-04 -1.273711E+02  1.654534E-04 -1.275153E+02  9.880458E-01 -3.352114E+01 
4.322856E+02  9.893966E-01 -3.665993E+01  1.649478E-04 -1.286490E+02  1.705968E-04 -1.271937E+02  9.880067E-01 -3.352399E+01 
4.322887E+02  9.893622E-01 -3.665868E+01  1.745287E-04 -1.295069E+02  1.802721E-04 -1.295597E+02  9.881268E-01 -3.353277E+01 
4.322919E+02  9.892930E-01 -3.665809E+01  1.809250E-04 -1.312318E+02  1.791979E-04 -1.306145E+02  9.880178E-01 -3.353212E+01 
4.322950E+02  9.891999E-01 -3.666471E+01  1.820312E-04 -1.324202E+02  1.796405E-04 -1.301116E+02  9.880872E-01 -3.354064E+01 
4.322981E+02  9.892481E-01 -3.666893E+01  1.800248E-04 -1.336205E+02  1.824598E-04 -1.318270E+02  9.879848E-01 -3.353603E+01 
4.323013E+02  9.892756E-01 -3.667602E+01  1.850619E-04 -1.315149E+02  1.809138E-04 -1.346902E+02  9.880000E-01 -3.353935E+01 
4.323044E+02  9.893888E-01 -3.667401E+01  1.936582E-04 -1.352264E+02  1.930498E-04 -1.355653E+02  9.881057E-01 -3.354057E+01 
4.323075E+02  9.893774E-01 -3.668232E+01  1.978559E-04 -1.351780E+02  1.933357E-04 -1.365671E+02  9.878912E-01 -3.355007E+01 
4.323106E+02  9.893444E-01 -3.668482E+01  2.002627E-04 -1.378336E+02  1.989941E-04 -1.390030E+02  9.879097E-01 -3.355089E+01 
4.323138E+02  9.892163E-01 -3.668039E+01  1.938251E-04 -1.396152E+02  1.991462E-04 -1.404734E+02  9.880622E-01 -3.356044E+01 
4.323169E+02  9.892559E-01 -3.669138E+01  2.012120E-04 -1.426552E+02  2.058533E-04 -1.426114E+02  9.878231E-01 -3.356345E+01 
4.323200E+02  9.893297E-01 -3.669467E+01  2.060999E-04 -1.470050E+02  2.029694E-04 -1.435768E+02  9.879572E-01 -3.356582E+01 
4.323231E+02  9.893542E-01 -3.670026E+01  2.069883E-04 -1.452048E+02  2.095408E-04 -1.465012E+02  9.877863E-01 -3.357083E+01 
4.323263E+02  9.892013E-01 -3.670840E+01  2.178653E-04 -1.490700E+02  2.151257E-04 -1.492390E+02  9.879264E-01 -3.356710E+01 
4.323294E+02  9.891894E-01 -3.670961E+01  2.136180E-04 -1.517165E+02  2.119515E-04 -1.506797E+02  9.879214E-01 -3.357128E+01 
4.323325E+02  9.892337E-01 -3.670442E+01  2.211879E-04 -1.542039E+02  2.113077E-04 -1.549090E+02  9.878270E-01 -3.358070E+01 
4.323356E+02  9.892355E-01 -3.671446E+01  2.154864E-04 -1.565537E+02  2.219584E-04 -1.564792E+02  9.879118E-01 -3.359185E+01 
4.323388E+02  9.892655E-01 -3.671615E+01  2.160444E-04 -1.585627E+02  2.194865E-04 -1.589477E+02  9.878877E-01 -3.358904E+01 
4.323419E+02  9.892212E-01 -3.672906E+01  2.189168E-04 -1.628659E+02  2.206800E-04 -1.621327E+02  9.876845E-01 -3.359635E+01 
4.323450E+02  9.892393E-01 -3.672483E+01  2.206285E-04 -1.675142E+02  2.201123E-04 -1.645755E+02  9.877095E-01 -3.359682E+01 
4.323481E+02  9.891466E-01 -3.672384E+01  2.171591E-04 -1.695332E+02  2.154273E-04 -1.696783E+02  9.877721E-01 -3.359973E+01 
4.323512E+02  9.891828E-01 -3.673362E+01  2.135152E-04 -1.711257E+02  2.100190E-04 -1.725061E+02  9.879676E-01 -3.360378E+01 
4.323544E+02  9.891784E-01 -3.673334E+01  2.069850E-04 -1.750468E+02  2.091087E-04 -1.767338E+02  9.878286E-01 -3.360545E+01 
4.323575E+02  9.891588E-01 -3.674237E+01  2.081733E-04 1.789345E+02  2.074026E-04 -1.792453E+02  9.877815E-01 -3.360453E+01 
4.323606E+02  9.892434E-01 -3.674015E+01  1.974732E-04 1.763054E+02  2.009189E-04 1.780624E+02  9.877482E-01 -3.360768E+01 
4.323638E+02  9.890810E-01 -3.674519E+01  1.993362E-04 1.745449E+02  1.996984E-04 1.748021E+02  9.876686E-01 -3.361634E+01 
4.323669E+02  9.891973E-01 -3.673660E+01  1.903062E-04 1.699205E+02  1.898661E-04 1.706545E+02  9.878430E-01 -3.361334E+01 
4.323700E+02  9.891101E-01 -3.674913E+01  1.839853E-04 1.687683E+02  1.799034E-04 1.667432E+02  9.878319E-01 -3.361376E+01 
4.323731E+02  9.890920E-01 -3.675580E+01  1.780157E-04 1.669955E+02  1.796807E-04 1.666540E+02  9.877759E-01 -3.361801E+01 
4.323763E+02  9.890673E-01 -3.675537E+01  1.721814E-04 1.608593E+02  1.694317E-04 1.615684E+02  9.878337E-01 -3.362178E+01 
4.323794E+02  9.890918E-01 -3.676169E+01  1.628120E-04 1.586997E+02  1.674561E-04 1.597761E+02  9.877926E-01 -3.363024E+01 
4.323825E+02  9.891897E-01 -3.675884E+01  1.563646E-04 1.545710E+02  1.581410E-04 1.563025E+02  9.877401E-01 -3.363956E+01 
4.323856E+02  9.890536E-01 -3.676632E+01  1.491226E-04 1.555492E+02  1.487454E-04 1.555191E+02  9.878519E-01 -3.362795E+01 
4.323888E+02  9.891110E-01 -3.677082E+01  1.392479E-04 1.503799E+02  1.428148E-04 1.540138E+02  9.877172E-01 -3.364297E+01 
4.323919E+02  9.890610E-01 -3.677666E+01  1.334200E-04 1.527584E+02  1.335560E-04 1.523510E+02  9.877530E-01 -3.364334E+01 
4.323950E+02  9.890861E-01 -3.678084E+01  1.331742E-04 1.496066E+02  1.288518E-04 1.490514E+02  9.878326E-01 -3.364092E+01 
4.323981E+02  9.891829E-01 -3.678208E+01  1.284071E-04 1.456790E+02  1.195893E-04 1.411969E+02  9.877836E-01 -3.364864E+01 
4.324013E+02  9.890470E-01 -3.678566E+01  1.175656E-04 1.428156E+02  1.151247E-04 1.420529E+02  9.878061E-01 -3.364631E+01 
