! Matrix data file written by TouchstoneData, EPCOS AG
! FILENAME: "B3738_SB.s2p"
! COMMENT: "PINNING 1/4; PORTEX1 93PS; PORTEX2 179.5PS;"
! INFO: nport=2, nfreq=1601
! DATE: "Wed Sep 19 14:47:34 2012"
! USER: "Wilfried Schott"
!
! port | pin | signal
! -----|-----|--------
!   1  |  1  |  IN
!   2  |  4  |  OUT
! --------------------
! 
# MHZ S MA R 50
! freq  magS11 angS11  magS21 angS21  magS12 angS12  magS22 angS22
3.113500E+02  9.948615E-01 -2.703979E+01  3.232222E-05 8.847678E+01  3.009507E-05 1.028255E+02  9.931820E-01 -2.510056E+01 
3.113531E+02  9.950026E-01 -2.704188E+01  3.081772E-05 9.581126E+01  3.811618E-05 8.503877E+01  9.931045E-01 -2.510227E+01 
3.113563E+02  9.948449E-01 -2.704033E+01  3.577681E-05 8.414919E+01  3.185116E-05 8.567933E+01  9.932530E-01 -2.509937E+01 
3.113594E+02  9.948334E-01 -2.705167E+01  2.308406E-05 9.743681E+01  3.558855E-05 8.868206E+01  9.932691E-01 -2.510370E+01 
3.113625E+02  9.948885E-01 -2.704359E+01  2.792912E-05 9.863298E+01  3.854768E-05 7.747628E+01  9.933115E-01 -2.510978E+01 
3.113656E+02  9.949599E-01 -2.705017E+01  3.257051E-05 1.000934E+02  2.553871E-05 7.882924E+01  9.932399E-01 -2.510887E+01 
3.113688E+02  9.949938E-01 -2.704976E+01  2.947288E-05 9.229338E+01  2.497658E-05 1.028502E+02  9.932294E-01 -2.510402E+01 
3.113719E+02  9.949433E-01 -2.705510E+01  2.155461E-05 9.574177E+01  2.949470E-05 9.054173E+01  9.932738E-01 -2.511131E+01 
3.113750E+02  9.950229E-01 -2.705417E+01  1.860782E-05 1.125524E+02  3.006671E-05 9.802078E+01  9.933070E-01 -2.510910E+01 
3.113781E+02  9.949454E-01 -2.704676E+01  2.217662E-05 1.185873E+02  3.321118E-05 1.120113E+02  9.932752E-01 -2.510568E+01 
3.113813E+02  9.948759E-01 -2.706283E+01  2.835473E-05 9.405170E+01  2.378840E-05 9.465855E+01  9.932833E-01 -2.511799E+01 
3.113844E+02  9.950755E-01 -2.706892E+01  1.887672E-05 1.039304E+02  2.681287E-05 9.384961E+01  9.931879E-01 -2.511538E+01 
3.113875E+02  9.949975E-01 -2.705857E+01  2.886998E-05 1.077936E+02  2.442133E-05 1.226136E+02  9.932093E-01 -2.511006E+01 
3.113906E+02  9.948331E-01 -2.706454E+01  2.780829E-05 1.098146E+02  2.558388E-05 1.257453E+02  9.932392E-01 -2.512582E+01 
3.113938E+02  9.950101E-01 -2.706297E+01  2.272620E-05 1.140511E+02  2.023672E-05 1.090985E+02  9.933425E-01 -2.512402E+01 
3.113969E+02  9.950088E-01 -2.706606E+01  2.061816E-05 1.459780E+02  1.794229E-05 1.246754E+02  9.932712E-01 -2.512079E+01 
3.114000E+02  9.949308E-01 -2.707736E+01  2.003209E-05 1.329791E+02  1.860878E-05 1.376132E+02  9.931929E-01 -2.512357E+01 
3.114031E+02  9.950536E-01 -2.707112E+01  2.496212E-05 1.469835E+02  2.707222E-05 1.473114E+02  9.932153E-01 -2.513779E+01 
3.114062E+02  9.949361E-01 -2.707143E+01  2.377973E-05 1.342371E+02  1.480667E-05 1.303221E+02  9.932610E-01 -2.512921E+01 
3.114094E+02  9.949877E-01 -2.708100E+01  1.811860E-05 1.146589E+02  2.013487E-05 1.355968E+02  9.933701E-01 -2.513256E+01 
3.114125E+02  9.949425E-01 -2.708753E+01  2.347419E-05 1.637790E+02  1.696793E-05 1.387716E+02  9.931625E-01 -2.513106E+01 
3.114156E+02  9.949609E-01 -2.708032E+01  1.670266E-05 1.401792E+02  2.092603E-05 1.369184E+02  9.932367E-01 -2.512993E+01 
3.114188E+02  9.949280E-01 -2.708502E+01  1.758501E-05 1.506137E+02  2.699217E-05 1.449336E+02  9.932368E-01 -2.513270E+01 
3.114219E+02  9.950328E-01 -2.707678E+01  2.492192E-05 1.533899E+02  1.956539E-05 1.773634E+02  9.932244E-01 -2.513812E+01 
3.114250E+02  9.949837E-01 -2.708453E+01  1.477513E-05 1.409320E+02  1.527369E-05 1.747065E+02  9.932534E-01 -2.513768E+01 
3.114281E+02  9.948015E-01 -2.708811E+01  2.070653E-05 1.644575E+02  1.766353E-05 -1.798313E+02  9.932546E-01 -2.513490E+01 
3.114313E+02  9.948299E-01 -2.708647E+01  2.594041E-05 1.639575E+02  3.000744E-05 1.717991E+02  9.931106E-01 -2.514015E+01 
3.114344E+02  9.949115E-01 -2.709403E+01  2.573694E-05 1.725419E+02  2.483556E-05 1.640279E+02  9.932966E-01 -2.514554E+01 
3.114375E+02  9.950326E-01 -2.709131E+01  1.592618E-05 1.778829E+02  1.803223E-05 1.768373E+02  9.932235E-01 -2.514511E+01 
3.114406E+02  9.949855E-01 -2.709636E+01  2.158730E-05 -1.788548E+02  1.953049E-05 -1.794883E+02  9.932953E-01 -2.514766E+01 
3.114438E+02  9.948871E-01 -2.709075E+01  3.391404E-05 -1.778356E+02  2.758242E-05 -1.687233E+02  9.931576E-01 -2.514308E+01 
3.114469E+02  9.949570E-01 -2.709724E+01  2.309368E-05 -1.679662E+02  2.866130E-05 -1.738763E+02  9.933614E-01 -2.515125E+01 
3.114500E+02  9.949222E-01 -2.709773E+01  3.208974E-05 -1.744052E+02  2.881682E-05 1.774347E+02  9.932181E-01 -2.515760E+01 
3.114531E+02  9.948988E-01 -2.710578E+01  3.198219E-05 -1.692298E+02  3.059252E-05 -1.754750E+02  9.933329E-01 -2.515499E+01 
3.114563E+02  9.948333E-01 -2.710595E+01  3.344442E-05 -1.699760E+02  2.797662E-05 -1.725880E+02  9.932907E-01 -2.515824E+01 
3.114594E+02  9.948692E-01 -2.710363E+01  3.940231E-05 -1.501680E+02  3.440233E-05 -1.647734E+02  9.931282E-01 -2.515544E+01 
3.114625E+02  9.949905E-01 -2.710417E+01  2.846819E-05 -1.653364E+02  3.558587E-05 -1.654117E+02  9.932024E-01 -2.515440E+01 
3.114656E+02  9.946919E-01 -2.710844E+01  3.390117E-05 -1.677102E+02  3.679706E-05 -1.647620E+02  9.932156E-01 -2.516350E+01 
3.114688E+02  9.947595E-01 -2.711084E+01  4.058878E-05 -1.584959E+02  3.496160E-05 -1.569086E+02  9.931925E-01 -2.516011E+01 
3.114719E+02  9.948918E-01 -2.710736E+01  3.970539E-05 -1.575526E+02  3.848576E-05 -1.621322E+02  9.931169E-01 -2.516421E+01 
3.114750E+02  9.947187E-01 -2.711342E+01  4.313246E-05 -1.607388E+02  4.433944E-05 -1.596144E+02  9.933009E-01 -2.516411E+01 
3.114781E+02  9.948548E-01 -2.711539E+01  4.390278E-05 -1.539285E+02  3.935977E-05 -1.582728E+02  9.932660E-01 -2.516562E+01 
3.114813E+02  9.948200E-01 -2.710993E+01  4.794949E-05 -1.580453E+02  4.381034E-05 -1.503498E+02  9.932348E-01 -2.517082E+01 
3.114844E+02  9.948074E-01 -2.711455E+01  4.844276E-05 -1.561139E+02  4.778207E-05 -1.519885E+02  9.932280E-01 -2.516924E+01 
3.114875E+02  9.947451E-01 -2.711666E+01  5.680861E-05 -1.540891E+02  4.860032E-05 -1.549164E+02  9.931185E-01 -2.517060E+01 
3.114906E+02  9.949260E-01 -2.711555E+01  5.451751E-05 -1.481734E+02  6.030885E-05 -1.465860E+02  9.930670E-01 -2.517764E+01 
3.114938E+02  9.947612E-01 -2.712733E+01  6.022268E-05 -1.525942E+02  5.623576E-05 -1.474683E+02  9.931551E-01 -2.517987E+01 
3.114969E+02  9.948678E-01 -2.712062E+01  5.970652E-05 -1.491889E+02  6.159925E-05 -1.435576E+02  9.931736E-01 -2.518090E+01 
3.115000E+02  9.948238E-01 -2.712920E+01  6.085194E-05 -1.525208E+02  5.935011E-05 -1.514686E+02  9.930804E-01 -2.517967E+01 
3.115031E+02  9.948178E-01 -2.712616E+01  6.709978E-05 -1.474190E+02  6.319250E-05 -1.502009E+02  9.929965E-01 -2.518549E+01 
3.115063E+02  9.949262E-01 -2.712769E+01  6.479570E-05 -1.464223E+02  7.340446E-05 -1.481094E+02  9.930557E-01 -2.518080E+01 
3.115094E+02  9.948418E-01 -2.713413E+01  7.718236E-05 -1.486804E+02  7.615803E-05 -1.427441E+02  9.929074E-01 -2.518674E+01 
3.115125E+02  9.947729E-01 -2.713424E+01  7.834489E-05 -1.441278E+02  7.075111E-05 -1.477522E+02  9.930549E-01 -2.519401E+01 
3.115156E+02  9.949278E-01 -2.713089E+01  7.746565E-05 -1.462056E+02  7.584019E-05 -1.431445E+02  9.931370E-01 -2.518862E+01 
3.115188E+02  9.948007E-01 -2.713838E+01  8.954619E-05 -1.468214E+02  8.266225E-05 -1.466986E+02  9.930675E-01 -2.519018E+01 
3.115219E+02  9.947488E-01 -2.713994E+01  9.340628E-05 -1.479356E+02  8.240855E-05 -1.493917E+02  9.930584E-01 -2.519931E+01 
3.115250E+02  9.948745E-01 -2.714123E+01  8.325578E-05 -1.485079E+02  8.500757E-05 -1.446803E+02  9.931546E-01 -2.519837E+01 
3.115281E+02  9.948545E-01 -2.714667E+01  9.159474E-05 -1.409060E+02  8.599317E-05 -1.480290E+02  9.930469E-01 -2.519258E+01 
3.115312E+02  9.947285E-01 -2.715118E+01  8.968756E-05 -1.417660E+02  9.562669E-05 -1.412865E+02  9.932531E-01 -2.519360E+01 
3.115344E+02  9.948836E-01 -2.714898E+01  1.021555E-04 -1.488146E+02  1.015361E-04 -1.444413E+02  9.931319E-01 -2.520508E+01 
3.115375E+02  9.948088E-01 -2.715277E+01  9.725885E-05 -1.452660E+02  1.013635E-04 -1.439306E+02  9.932044E-01 -2.519798E+01 
3.115406E+02  9.948717E-01 -2.715373E+01  1.086146E-04 -1.465749E+02  1.082099E-04 -1.418591E+02  9.931103E-01 -2.520156E+01 
3.115438E+02  9.948823E-01 -2.715449E+01  1.078789E-04 -1.429426E+02  1.131627E-04 -1.434152E+02  9.932272E-01 -2.520797E+01 
3.115469E+02  9.946672E-01 -2.715969E+01  1.155514E-04 -1.386823E+02  1.119932E-04 -1.410849E+02  9.930779E-01 -2.520162E+01 
3.115500E+02  9.947466E-01 -2.716361E+01  1.245760E-04 -1.416443E+02  1.161715E-04 -1.413115E+02  9.930718E-01 -2.520770E+01 
3.115531E+02  9.948579E-01 -2.716750E+01  1.159142E-04 -1.383645E+02  1.143696E-04 -1.456779E+02  9.932004E-01 -2.521016E+01 
3.115563E+02  9.947247E-01 -2.716989E+01  1.237370E-04 -1.464663E+02  1.297623E-04 -1.422373E+02  9.931516E-01 -2.521596E+01 
3.115594E+02  9.947305E-01 -2.717725E+01  1.263161E-04 -1.426426E+02  1.242490E-04 -1.420770E+02  9.930768E-01 -2.521416E+01 
3.115625E+02  9.949605E-01 -2.716827E+01  1.305134E-04 -1.406290E+02  1.368158E-04 -1.413674E+02  9.932033E-01 -2.521587E+01 
3.115656E+02  9.946988E-01 -2.717624E+01  1.434007E-04 -1.388596E+02  1.385646E-04 -1.407234E+02  9.930917E-01 -2.521864E+01 
3.115688E+02  9.947856E-01 -2.717671E+01  1.418522E-04 -1.423102E+02  1.506996E-04 -1.424345E+02  9.929813E-01 -2.521395E+01 
3.115719E+02  9.947299E-01 -2.717977E+01  1.482405E-04 -1.427457E+02  1.516684E-04 -1.397227E+02  9.931753E-01 -2.522310E+01 
3.115750E+02  9.947883E-01 -2.718466E+01  1.549775E-04 -1.394833E+02  1.511417E-04 -1.422039E+02  9.930354E-01 -2.523012E+01 
3.115781E+02  9.948645E-01 -2.719000E+01  1.601581E-04 -1.419219E+02  1.561441E-04 -1.397583E+02  9.930639E-01 -2.522144E+01 
3.115813E+02  9.948215E-01 -2.719020E+01  1.612806E-04 -1.367116E+02  1.633411E-04 -1.406431E+02  9.932249E-01 -2.522715E+01 
3.115844E+02  9.947456E-01 -2.718655E+01  1.712739E-04 -1.407488E+02  1.718916E-04 -1.407166E+02  9.930567E-01 -2.522458E+01 
3.115875E+02  9.949445E-01 -2.718248E+01  1.842652E-04 -1.414081E+02  1.801154E-04 -1.434122E+02  9.930694E-01 -2.523177E+01 
3.115906E+02  9.948810E-01 -2.719432E+01  1.835591E-04 -1.402889E+02  1.839309E-04 -1.375413E+02  9.931643E-01 -2.523236E+01 
3.115938E+02  9.948906E-01 -2.719344E+01  1.921219E-04 -1.392051E+02  1.907726E-04 -1.409199E+02  9.931686E-01 -2.523571E+01 
3.115969E+02  9.948019E-01 -2.719470E+01  2.015687E-04 -1.411973E+02  1.959227E-04 -1.384911E+02  9.931175E-01 -2.523944E+01 
3.116000E+02  9.949298E-01 -2.720145E+01  2.048585E-04 -1.411452E+02  2.122383E-04 -1.403578E+02  9.930884E-01 -2.523890E+01 
3.116031E+02  9.949017E-01 -2.719869E+01  2.218695E-04 -1.408092E+02  2.156613E-04 -1.379723E+02  9.930700E-01 -2.524584E+01 
3.116063E+02  9.949065E-01 -2.720432E+01  2.196339E-04 -1.413486E+02  2.213474E-04 -1.393115E+02  9.932401E-01 -2.524839E+01 
3.116094E+02  9.948837E-01 -2.720235E+01  2.299165E-04 -1.405628E+02  2.370900E-04 -1.409696E+02  9.930441E-01 -2.525039E+01 
3.116125E+02  9.948344E-01 -2.720815E+01  2.368291E-04 -1.402000E+02  2.294808E-04 -1.419943E+02  9.931012E-01 -2.525282E+01 
3.116156E+02  9.947501E-01 -2.720727E+01  2.536118E-04 -1.394349E+02  2.485603E-04 -1.405233E+02  9.931033E-01 -2.524862E+01 
3.116188E+02  9.948645E-01 -2.720866E+01  2.580955E-04 -1.412114E+02  2.548781E-04 -1.414296E+02  9.931382E-01 -2.525558E+01 
3.116219E+02  9.946525E-01 -2.720780E+01  2.676804E-04 -1.393265E+02  2.636397E-04 -1.410672E+02  9.930917E-01 -2.525647E+01 
3.116250E+02  9.947362E-01 -2.721445E+01  2.745628E-04 -1.403440E+02  2.739645E-04 -1.405732E+02  9.931286E-01 -2.525743E+01 
3.116281E+02  9.946102E-01 -2.721748E+01  2.802003E-04 -1.420315E+02  2.896084E-04 -1.399633E+02  9.931224E-01 -2.526356E+01 
3.116313E+02  9.945876E-01 -2.722423E+01  3.111707E-04 -1.416685E+02  2.923826E-04 -1.407771E+02  9.930540E-01 -2.526166E+01 
3.116344E+02  9.947178E-01 -2.722551E+01  3.144454E-04 -1.421928E+02  3.043159E-04 -1.408829E+02  9.929228E-01 -2.526749E+01 
3.116375E+02  9.947206E-01 -2.722512E+01  3.272198E-04 -1.404373E+02  3.230907E-04 -1.421302E+02  9.930896E-01 -2.527133E+01 
3.116406E+02  9.946314E-01 -2.722197E+01  3.342346E-04 -1.438063E+02  3.326791E-04 -1.418348E+02  9.931156E-01 -2.527607E+01 
3.116438E+02  9.946049E-01 -2.723943E+01  3.509889E-04 -1.423932E+02  3.404817E-04 -1.422732E+02  9.930683E-01 -2.527640E+01 
3.116469E+02  9.947375E-01 -2.722935E+01  3.596828E-04 -1.424192E+02  3.623693E-04 -1.414282E+02  9.929715E-01 -2.527523E+01 
3.116500E+02  9.946376E-01 -2.723393E+01  3.769914E-04 -1.426736E+02  3.777218E-04 -1.426391E+02  9.930209E-01 -2.528520E+01 
3.116531E+02  9.945936E-01 -2.724697E+01  3.931668E-04 -1.431635E+02  4.007976E-04 -1.424475E+02  9.929746E-01 -2.528754E+01 
3.116562E+02  9.946527E-01 -2.724437E+01  4.135301E-04 -1.435069E+02  4.050628E-04 -1.446000E+02  9.929694E-01 -2.529301E+01 
3.116594E+02  9.946449E-01 -2.725084E+01  4.273591E-04 -1.453786E+02  4.211461E-04 -1.430996E+02  9.930485E-01 -2.529142E+01 
3.116625E+02  9.946557E-01 -2.725389E+01  4.449383E-04 -1.439771E+02  4.451578E-04 -1.444291E+02  9.929404E-01 -2.529118E+01 
3.116656E+02  9.944905E-01 -2.725257E+01  4.657418E-04 -1.451276E+02  4.615254E-04 -1.446081E+02  9.930445E-01 -2.529876E+01 
3.116688E+02  9.945182E-01 -2.725665E+01  4.914236E-04 -1.456792E+02  4.867111E-04 -1.449142E+02  9.929549E-01 -2.529691E+01 
3.116719E+02  9.945108E-01 -2.726083E+01  5.051501E-04 -1.461360E+02  5.105065E-04 -1.464447E+02  9.929281E-01 -2.530644E+01 
3.116750E+02  9.944613E-01 -2.726567E+01  5.254689E-04 -1.471993E+02  5.264116E-04 -1.473051E+02  9.929101E-01 -2.531286E+01 
3.116781E+02  9.944863E-01 -2.726225E+01  5.597379E-04 -1.478405E+02  5.596836E-04 -1.476766E+02  9.928122E-01 -2.530991E+01 
3.116813E+02  9.943934E-01 -2.726672E+01  5.827742E-04 -1.483066E+02  5.797786E-04 -1.480006E+02  9.929927E-01 -2.531190E+01 
3.116844E+02  9.945236E-01 -2.727642E+01  6.122168E-04 -1.491497E+02  6.125535E-04 -1.493799E+02  9.928964E-01 -2.531368E+01 
3.116875E+02  9.942020E-01 -2.727715E+01  6.425556E-04 -1.505382E+02  6.403090E-04 -1.494234E+02  9.928886E-01 -2.531216E+01 
3.116906E+02  9.942902E-01 -2.727990E+01  6.737327E-04 -1.510704E+02  6.684502E-04 -1.511914E+02  9.927470E-01 -2.531977E+01 
3.116938E+02  9.941650E-01 -2.727712E+01  7.083011E-04 -1.525753E+02  7.024959E-04 -1.522344E+02  9.928019E-01 -2.532601E+01 
3.116969E+02  9.941400E-01 -2.728223E+01  7.371407E-04 -1.525466E+02  7.436828E-04 -1.535539E+02  9.927381E-01 -2.532740E+01 
3.117000E+02  9.941527E-01 -2.728601E+01  7.797834E-04 -1.544333E+02  7.783842E-04 -1.546785E+02  9.927848E-01 -2.532962E+01 
3.117031E+02  9.941232E-01 -2.728747E+01  8.205129E-04 -1.561291E+02  8.172810E-04 -1.560828E+02  9.926999E-01 -2.533001E+01 
3.117063E+02  9.942214E-01 -2.729426E+01  8.684990E-04 -1.577924E+02  8.608024E-04 -1.582544E+02  9.925751E-01 -2.532872E+01 
3.117094E+02  9.940794E-01 -2.729673E+01  9.071817E-04 -1.593789E+02  9.098932E-04 -1.591888E+02  9.927073E-01 -2.533905E+01 
3.117125E+02  9.941119E-01 -2.729749E+01  9.653747E-04 -1.608170E+02  9.610380E-04 -1.611167E+02  9.925039E-01 -2.533580E+01 
3.117156E+02  9.939646E-01 -2.729355E+01  1.009283E-03 -1.625831E+02  1.012989E-03 -1.626714E+02  9.924252E-01 -2.535424E+01 
3.117188E+02  9.938506E-01 -2.730380E+01  1.061966E-03 -1.647981E+02  1.062978E-03 -1.644687E+02  9.925289E-01 -2.534682E+01 
3.117219E+02  9.937857E-01 -2.729869E+01  1.110719E-03 -1.671857E+02  1.114860E-03 -1.666642E+02  9.923290E-01 -2.534351E+01 
3.117250E+02  9.936926E-01 -2.730798E+01  1.179795E-03 -1.694788E+02  1.182196E-03 -1.693145E+02  9.923726E-01 -2.534530E+01 
3.117281E+02  9.936513E-01 -2.731044E+01  1.240622E-03 -1.722485E+02  1.235330E-03 -1.719241E+02  9.923311E-01 -2.535219E+01 
3.117313E+02  9.935753E-01 -2.730916E+01  1.304184E-03 -1.746215E+02  1.303251E-03 -1.749068E+02  9.921764E-01 -2.535605E+01 
3.117344E+02  9.934464E-01 -2.731663E+01  1.369851E-03 -1.777784E+02  1.364217E-03 -1.777483E+02  9.922656E-01 -2.535792E+01 
3.117375E+02  9.933898E-01 -2.730842E+01  1.433068E-03 1.791233E+02  1.432745E-03 1.789810E+02  9.920804E-01 -2.535744E+01 
3.117406E+02  9.932501E-01 -2.731197E+01  1.502235E-03 1.757291E+02  1.487068E-03 1.755551E+02  9.919587E-01 -2.535716E+01 
3.117438E+02  9.932723E-01 -2.730861E+01  1.557487E-03 1.720958E+02  1.557642E-03 1.718109E+02  9.917274E-01 -2.535701E+01 
3.117469E+02  9.930218E-01 -2.730153E+01  1.623400E-03 1.681934E+02  1.620855E-03 1.682103E+02  9.916633E-01 -2.535747E+01 
3.117500E+02  9.930702E-01 -2.730975E+01  1.674874E-03 1.643011E+02  1.669382E-03 1.643000E+02  9.917164E-01 -2.534969E+01 
3.117531E+02  9.930213E-01 -2.729991E+01  1.722612E-03 1.600539E+02  1.716473E-03 1.601561E+02  9.916242E-01 -2.534795E+01 
3.117563E+02  9.929277E-01 -2.728663E+01  1.760365E-03 1.557232E+02  1.762314E-03 1.561542E+02  9.915675E-01 -2.534137E+01 
3.117594E+02  9.928573E-01 -2.727497E+01  1.791174E-03 1.516732E+02  1.790097E-03 1.517968E+02  9.915194E-01 -2.533903E+01 
3.117625E+02  9.929106E-01 -2.728236E+01  1.821765E-03 1.477826E+02  1.809838E-03 1.476719E+02  9.914328E-01 -2.533282E+01 
3.117656E+02  9.928394E-01 -2.726923E+01  1.831950E-03 1.434359E+02  1.824213E-03 1.435247E+02  9.913631E-01 -2.532540E+01 
3.117688E+02  9.928255E-01 -2.727125E+01  1.828633E-03 1.393723E+02  1.833013E-03 1.391099E+02  9.914834E-01 -2.532984E+01 
3.117719E+02  9.929229E-01 -2.726277E+01  1.834815E-03 1.353706E+02  1.828009E-03 1.355005E+02  9.915976E-01 -2.531796E+01 
3.117750E+02  9.930737E-01 -2.725066E+01  1.825876E-03 1.316390E+02  1.812992E-03 1.314046E+02  9.915750E-01 -2.531963E+01 
3.117781E+02  9.929988E-01 -2.725769E+01  1.802658E-03 1.278419E+02  1.792899E-03 1.279015E+02  9.917052E-01 -2.531848E+01 
3.117812E+02  9.931626E-01 -2.725194E+01  1.782480E-03 1.243598E+02  1.775507E-03 1.244172E+02  9.916542E-01 -2.530888E+01 
3.117844E+02  9.931595E-01 -2.723836E+01  1.763480E-03 1.211450E+02  1.752339E-03 1.212989E+02  9.917312E-01 -2.531546E+01 
3.117875E+02  9.933040E-01 -2.724522E+01  1.731144E-03 1.179887E+02  1.724797E-03 1.179559E+02  9.917535E-01 -2.530802E+01 
3.117906E+02  9.933877E-01 -2.724909E+01  1.705982E-03 1.152675E+02  1.694535E-03 1.147041E+02  9.918009E-01 -2.531153E+01 
3.117938E+02  9.934567E-01 -2.724296E+01  1.661719E-03 1.119974E+02  1.663671E-03 1.121741E+02  9.920878E-01 -2.531507E+01 
3.117969E+02  9.936238E-01 -2.724816E+01  1.635631E-03 1.094327E+02  1.629542E-03 1.096574E+02  9.918995E-01 -2.531604E+01 
3.118000E+02  9.936024E-01 -2.724828E+01  1.606728E-03 1.069683E+02  1.598437E-03 1.071377E+02  9.920917E-01 -2.531195E+01 
3.118031E+02  9.937561E-01 -2.725348E+01  1.577591E-03 1.048445E+02  1.568998E-03 1.050164E+02  9.920715E-01 -2.531700E+01 
3.118063E+02  9.937843E-01 -2.725045E+01  1.545463E-03 1.025486E+02  1.526080E-03 1.028103E+02  9.921232E-01 -2.531561E+01 
3.118094E+02  9.938270E-01 -2.725430E+01  1.508993E-03 1.004642E+02  1.508327E-03 1.005185E+02  9.921387E-01 -2.531347E+01 
3.118125E+02  9.939971E-01 -2.725093E+01  1.472297E-03 9.864545E+01  1.471110E-03 9.873758E+01  9.921662E-01 -2.531162E+01 
3.118156E+02  9.940810E-01 -2.725738E+01  1.449032E-03 9.675813E+01  1.445525E-03 9.696887E+01  9.922490E-01 -2.531501E+01 
3.118188E+02  9.940429E-01 -2.726174E+01  1.420406E-03 9.506015E+01  1.425664E-03 9.521692E+01  9.922489E-01 -2.532719E+01 
3.118219E+02  9.939232E-01 -2.726319E+01  1.396393E-03 9.331860E+01  1.392320E-03 9.349241E+01  9.922587E-01 -2.532209E+01 
3.118250E+02  9.941051E-01 -2.727030E+01  1.377413E-03 9.174014E+01  1.371703E-03 9.174519E+01  9.923472E-01 -2.532934E+01 
3.118281E+02  9.942060E-01 -2.727333E+01  1.348727E-03 9.063127E+01  1.348810E-03 9.058298E+01  9.922982E-01 -2.533116E+01 
3.118313E+02  9.942140E-01 -2.727365E+01  1.332343E-03 8.900837E+01  1.324446E-03 8.891179E+01  9.923522E-01 -2.533653E+01 
3.118344E+02  9.941421E-01 -2.726961E+01  1.311131E-03 8.777648E+01  1.306773E-03 8.778426E+01  9.924202E-01 -2.533605E+01 
