! S-parameter for B3737 in Touchstone format with magnitude (lin) and phase
! Normalised impedance: 50 Ohm. Measurement system: 50 Ohm Ta = 25°C
! B3737_NB.s2p not matched. Measurement full 2-port calibrated incl. Port ext.
! Start: 445.27MHz, Stop: 450.27MHz, Span: 5MHz, 1601 Pts., Step: 3.12kHz
! Date:23/03/07 Epcos SAW COM WT AE PD, AB
! Pinning according data sheet recommendation, In P1, Out P4, all others GND
!
# MHZ S MA R 50
! freq  magS11 angS11  magS21 angS21  magS12 angS12  magS22 angS22
4.452700E+02  9.866426E-01 -3.786663E+01  6.428917E-04 -1.338545E+02  6.410315E-04 -1.333146E+02  9.848135E-01 -3.701446E+01 
4.452731E+02  9.866333E-01 -3.787100E+01  6.469695E-04 -1.337951E+02  6.424612E-04 -1.333129E+02  9.848311E-01 -3.701685E+01 
4.452763E+02  9.865898E-01 -3.787138E+01  6.581220E-04 -1.331483E+02  6.512533E-04 -1.331232E+02  9.848831E-01 -3.701601E+01 
4.452794E+02  9.865142E-01 -3.787105E+01  6.612155E-04 -1.333780E+02  6.632889E-04 -1.339312E+02  9.848631E-01 -3.702082E+01 
4.452825E+02  9.865828E-01 -3.787164E+01  6.629789E-04 -1.341815E+02  6.648290E-04 -1.341679E+02  9.848541E-01 -3.702961E+01 
4.452856E+02  9.866366E-01 -3.787933E+01  6.736409E-04 -1.333237E+02  6.757821E-04 -1.333704E+02  9.847821E-01 -3.703382E+01 
4.452887E+02  9.865118E-01 -3.787952E+01  6.730256E-04 -1.332702E+02  6.761884E-04 -1.330135E+02  9.848943E-01 -3.702903E+01 
4.452919E+02  9.865057E-01 -3.788784E+01  6.862593E-04 -1.337286E+02  6.815424E-04 -1.336338E+02  9.848155E-01 -3.703410E+01 
4.452950E+02  9.866297E-01 -3.788961E+01  6.924122E-04 -1.334468E+02  6.955836E-04 -1.331226E+02  9.848647E-01 -3.703762E+01 
4.452981E+02  9.865246E-01 -3.789963E+01  7.003002E-04 -1.338774E+02  6.915698E-04 -1.338665E+02  9.847890E-01 -3.704289E+01 
4.453012E+02  9.864681E-01 -3.789707E+01  6.995077E-04 -1.337834E+02  7.014033E-04 -1.331495E+02  9.848449E-01 -3.704339E+01 
4.453044E+02  9.866236E-01 -3.790652E+01  7.135057E-04 -1.337788E+02  7.106439E-04 -1.338110E+02  9.848963E-01 -3.704739E+01 
4.453075E+02  9.866049E-01 -3.790531E+01  7.113204E-04 -1.333637E+02  7.197451E-04 -1.335700E+02  9.847679E-01 -3.705554E+01 
4.453106E+02  9.865272E-01 -3.791111E+01  7.188699E-04 -1.340293E+02  7.224180E-04 -1.337094E+02  9.847661E-01 -3.705026E+01 
4.453138E+02  9.866104E-01 -3.791181E+01  7.237129E-04 -1.335973E+02  7.294603E-04 -1.338888E+02  9.849418E-01 -3.706005E+01 
4.453169E+02  9.865122E-01 -3.791373E+01  7.337164E-04 -1.337468E+02  7.348851E-04 -1.336080E+02  9.848798E-01 -3.706298E+01 
4.453200E+02  9.864327E-01 -3.791669E+01  7.427013E-04 -1.334207E+02  7.470470E-04 -1.340779E+02  9.848798E-01 -3.706693E+01 
4.453231E+02  9.864885E-01 -3.792219E+01  7.493372E-04 -1.335353E+02  7.513030E-04 -1.335751E+02  9.848201E-01 -3.706684E+01 
4.453262E+02  9.865206E-01 -3.792482E+01  7.573600E-04 -1.339239E+02  7.640114E-04 -1.340426E+02  9.848365E-01 -3.707395E+01 
4.453294E+02  9.864627E-01 -3.792779E+01  7.630011E-04 -1.337936E+02  7.653778E-04 -1.331221E+02  9.848255E-01 -3.707575E+01 
4.453325E+02  9.864916E-01 -3.793392E+01  7.702739E-04 -1.341936E+02  7.674239E-04 -1.331835E+02  9.849057E-01 -3.707833E+01 
4.453356E+02  9.864985E-01 -3.793454E+01  7.828039E-04 -1.339187E+02  7.763774E-04 -1.339219E+02  9.848755E-01 -3.708633E+01 
4.453388E+02  9.865096E-01 -3.794344E+01  7.911531E-04 -1.340035E+02  7.823581E-04 -1.334466E+02  9.848304E-01 -3.708759E+01 
4.453419E+02  9.865445E-01 -3.794144E+01  7.958590E-04 -1.341976E+02  7.957250E-04 -1.341681E+02  9.847796E-01 -3.709466E+01 
4.453450E+02  9.864901E-01 -3.794989E+01  8.043855E-04 -1.341627E+02  7.943549E-04 -1.345098E+02  9.847619E-01 -3.709354E+01 
4.453481E+02  9.864853E-01 -3.795531E+01  8.082135E-04 -1.346238E+02  8.083489E-04 -1.336224E+02  9.847988E-01 -3.710287E+01 
4.453512E+02  9.865139E-01 -3.795523E+01  8.226368E-04 -1.341225E+02  8.209641E-04 -1.338618E+02  9.848013E-01 -3.710638E+01 
4.453544E+02  9.865325E-01 -3.795959E+01  8.257347E-04 -1.342941E+02  8.284006E-04 -1.343527E+02  9.847380E-01 -3.710601E+01 
4.453575E+02  9.865367E-01 -3.796332E+01  8.337047E-04 -1.340038E+02  8.388793E-04 -1.339587E+02  9.847947E-01 -3.710776E+01 
4.453606E+02  9.865059E-01 -3.796875E+01  8.423398E-04 -1.342061E+02  8.445289E-04 -1.338757E+02  9.847907E-01 -3.711703E+01 
4.453637E+02  9.863875E-01 -3.797175E+01  8.507819E-04 -1.342583E+02  8.526792E-04 -1.341015E+02  9.848024E-01 -3.711514E+01 
4.453669E+02  9.863979E-01 -3.797533E+01  8.668275E-04 -1.339430E+02  8.630925E-04 -1.338130E+02  9.847957E-01 -3.711972E+01 
4.453700E+02  9.863441E-01 -3.797959E+01  8.770079E-04 -1.345420E+02  8.692453E-04 -1.341928E+02  9.847159E-01 -3.712653E+01 
4.453731E+02  9.863599E-01 -3.798353E+01  8.814624E-04 -1.346348E+02  8.741255E-04 -1.343518E+02  9.847299E-01 -3.713361E+01 
4.453763E+02  9.865082E-01 -3.799413E+01  8.858316E-04 -1.342904E+02  9.022288E-04 -1.346885E+02  9.847334E-01 -3.712788E+01 
4.453794E+02  9.865907E-01 -3.799213E+01  9.005446E-04 -1.346424E+02  9.039331E-04 -1.342685E+02  9.847975E-01 -3.713705E+01 
4.453825E+02  9.863622E-01 -3.799405E+01  9.087157E-04 -1.347044E+02  9.095567E-04 -1.341624E+02  9.847497E-01 -3.714051E+01 
4.453856E+02  9.863812E-01 -3.800246E+01  9.296411E-04 -1.348646E+02  9.219092E-04 -1.346704E+02  9.846322E-01 -3.714920E+01 
4.453887E+02  9.863669E-01 -3.799681E+01  9.307371E-04 -1.351489E+02  9.279178E-04 -1.346262E+02  9.846075E-01 -3.715463E+01 
4.453919E+02  9.864285E-01 -3.800344E+01  9.390331E-04 -1.349119E+02  9.447120E-04 -1.348185E+02  9.847451E-01 -3.715459E+01 
4.453950E+02  9.864047E-01 -3.801646E+01  9.522540E-04 -1.352333E+02  9.496532E-04 -1.345411E+02  9.846140E-01 -3.716073E+01 
4.453981E+02  9.863672E-01 -3.801509E+01  9.559713E-04 -1.350864E+02  9.634980E-04 -1.347027E+02  9.847011E-01 -3.716308E+01 
4.454013E+02  9.863606E-01 -3.801880E+01  9.742039E-04 -1.348904E+02  9.703450E-04 -1.350617E+02  9.847402E-01 -3.716449E+01 
4.454044E+02  9.863363E-01 -3.802995E+01  9.843611E-04 -1.353290E+02  9.855434E-04 -1.349222E+02  9.846340E-01 -3.716984E+01 
4.454075E+02  9.863876E-01 -3.803271E+01  9.932643E-04 -1.355511E+02  9.962098E-04 -1.350688E+02  9.845936E-01 -3.717050E+01 
4.454106E+02  9.862724E-01 -3.803319E+01  1.011204E-03 -1.350378E+02  1.004074E-03 -1.350350E+02  9.846210E-01 -3.717704E+01 
4.454137E+02  9.862540E-01 -3.803865E+01  1.018889E-03 -1.353778E+02  1.022899E-03 -1.351875E+02  9.847990E-01 -3.718603E+01 
4.454169E+02  9.861741E-01 -3.804183E+01  1.035324E-03 -1.352424E+02  1.031406E-03 -1.352915E+02  9.846737E-01 -3.718818E+01 
4.454200E+02  9.863647E-01 -3.804663E+01  1.039826E-03 -1.356707E+02  1.045863E-03 -1.352938E+02  9.845816E-01 -3.719061E+01 
4.454231E+02  9.862447E-01 -3.805360E+01  1.057133E-03 -1.355896E+02  1.057404E-03 -1.352289E+02  9.847553E-01 -3.719755E+01 
4.454262E+02  9.862295E-01 -3.805707E+01  1.070828E-03 -1.357645E+02  1.069281E-03 -1.355119E+02  9.847180E-01 -3.720530E+01 
4.454294E+02  9.862804E-01 -3.806221E+01  1.078772E-03 -1.358812E+02  1.080697E-03 -1.353581E+02  9.847478E-01 -3.721062E+01 
4.454325E+02  9.862473E-01 -3.806436E+01  1.100132E-03 -1.362335E+02  1.097014E-03 -1.355587E+02  9.846626E-01 -3.721143E+01 
4.454356E+02  9.862852E-01 -3.807272E+01  1.113653E-03 -1.362065E+02  1.113021E-03 -1.358520E+02  9.845819E-01 -3.721367E+01 
4.454388E+02  9.863375E-01 -3.807712E+01  1.117798E-03 -1.364914E+02  1.121117E-03 -1.358608E+02  9.847218E-01 -3.721272E+01 
4.454419E+02  9.862309E-01 -3.808041E+01  1.141044E-03 -1.361648E+02  1.143684E-03 -1.356528E+02  9.845821E-01 -3.722066E+01 
4.454450E+02  9.862892E-01 -3.808452E+01  1.153234E-03 -1.366908E+02  1.160477E-03 -1.362825E+02  9.845839E-01 -3.722700E+01 
4.454481E+02  9.862239E-01 -3.808815E+01  1.165652E-03 -1.365696E+02  1.170092E-03 -1.361281E+02  9.845898E-01 -3.722334E+01 
4.454512E+02  9.861825E-01 -3.808928E+01  1.182843E-03 -1.366004E+02  1.181161E-03 -1.364607E+02  9.845482E-01 -3.722978E+01 
4.454544E+02  9.863541E-01 -3.809213E+01  1.196300E-03 -1.367220E+02  1.198728E-03 -1.365645E+02  9.845368E-01 -3.723381E+01 
4.454575E+02  9.861956E-01 -3.809829E+01  1.215063E-03 -1.369970E+02  1.212092E-03 -1.365702E+02  9.844751E-01 -3.724291E+01 
4.454606E+02  9.862747E-01 -3.810007E+01  1.233959E-03 -1.370389E+02  1.231127E-03 -1.365390E+02  9.845162E-01 -3.724715E+01 
4.454638E+02  9.862247E-01 -3.810605E+01  1.250794E-03 -1.368737E+02  1.249906E-03 -1.368941E+02  9.844767E-01 -3.725145E+01 
4.454669E+02  9.862708E-01 -3.811638E+01  1.270549E-03 -1.374064E+02  1.263798E-03 -1.369315E+02  9.845085E-01 -3.725202E+01 
4.454700E+02  9.862482E-01 -3.811975E+01  1.283167E-03 -1.374903E+02  1.284601E-03 -1.371779E+02  9.845415E-01 -3.726026E+01 
4.454731E+02  9.863862E-01 -3.811926E+01  1.304668E-03 -1.376075E+02  1.297042E-03 -1.373046E+02  9.844889E-01 -3.726476E+01 
4.454762E+02  9.862474E-01 -3.812239E+01  1.321892E-03 -1.376159E+02  1.314719E-03 -1.375226E+02  9.844356E-01 -3.728156E+01 
4.454794E+02  9.862725E-01 -3.812809E+01  1.334103E-03 -1.377368E+02  1.337295E-03 -1.376746E+02  9.844952E-01 -3.728097E+01 
4.454825E+02  9.861819E-01 -3.813181E+01  1.352128E-03 -1.382550E+02  1.359115E-03 -1.377992E+02  9.844419E-01 -3.728210E+01 
4.454856E+02  9.861957E-01 -3.813568E+01  1.375000E-03 -1.381949E+02  1.380004E-03 -1.381024E+02  9.843904E-01 -3.728474E+01 
4.454887E+02  9.861671E-01 -3.813620E+01  1.399709E-03 -1.381943E+02  1.402576E-03 -1.380190E+02  9.844455E-01 -3.729298E+01 
4.454919E+02  9.861410E-01 -3.814840E+01  1.419232E-03 -1.386814E+02  1.420474E-03 -1.383381E+02  9.844080E-01 -3.730363E+01 
4.454950E+02  9.861232E-01 -3.814928E+01  1.434692E-03 -1.386685E+02  1.437967E-03 -1.384669E+02  9.843650E-01 -3.730231E+01 
4.454981E+02  9.861410E-01 -3.815500E+01  1.463183E-03 -1.388892E+02  1.467174E-03 -1.386995E+02  9.842872E-01 -3.730993E+01 
4.455013E+02  9.860945E-01 -3.816276E+01  1.486142E-03 -1.390796E+02  1.477991E-03 -1.387677E+02  9.842513E-01 -3.731512E+01 
4.455044E+02  9.860692E-01 -3.816765E+01  1.506517E-03 -1.393741E+02  1.506245E-03 -1.390423E+02  9.843412E-01 -3.731890E+01 
4.455075E+02  9.860468E-01 -3.816621E+01  1.531941E-03 -1.397290E+02  1.532821E-03 -1.391558E+02  9.843902E-01 -3.733103E+01 
4.455106E+02  9.860962E-01 -3.817808E+01  1.557621E-03 -1.396693E+02  1.558724E-03 -1.392663E+02  9.842755E-01 -3.732764E+01 
4.455137E+02  9.861482E-01 -3.818157E+01  1.577806E-03 -1.396313E+02  1.582784E-03 -1.396976E+02  9.843530E-01 -3.733146E+01 
4.455169E+02  9.859600E-01 -3.818925E+01  1.599228E-03 -1.402001E+02  1.611381E-03 -1.399435E+02  9.842293E-01 -3.733661E+01 
4.455200E+02  9.860399E-01 -3.819438E+01  1.629597E-03 -1.403312E+02  1.636714E-03 -1.400541E+02  9.844020E-01 -3.734480E+01 
4.455231E+02  9.860465E-01 -3.819755E+01  1.665790E-03 -1.404911E+02  1.659444E-03 -1.403968E+02  9.843236E-01 -3.735361E+01 
4.455263E+02  9.860106E-01 -3.820567E+01  1.687464E-03 -1.408751E+02  1.690170E-03 -1.403875E+02  9.842729E-01 -3.735631E+01 
4.455294E+02  9.861130E-01 -3.820629E+01  1.712336E-03 -1.410039E+02  1.723206E-03 -1.407566E+02  9.842699E-01 -3.736375E+01 
4.455325E+02  9.859382E-01 -3.821630E+01  1.747635E-03 -1.411738E+02  1.745585E-03 -1.409210E+02  9.841821E-01 -3.736602E+01 
4.455356E+02  9.859729E-01 -3.822828E+01  1.772458E-03 -1.415776E+02  1.775782E-03 -1.413731E+02  9.841302E-01 -3.738067E+01 
4.455387E+02  9.858221E-01 -3.823101E+01  1.802297E-03 -1.419880E+02  1.807479E-03 -1.416217E+02  9.842322E-01 -3.738141E+01 
4.455419E+02  9.858955E-01 -3.823483E+01  1.844065E-03 -1.422310E+02  1.839796E-03 -1.418373E+02  9.841043E-01 -3.738424E+01 
4.455450E+02  9.859155E-01 -3.824704E+01  1.875393E-03 -1.422979E+02  1.867244E-03 -1.420285E+02  9.842349E-01 -3.739400E+01 
4.455481E+02  9.858671E-01 -3.825007E+01  1.905929E-03 -1.427161E+02  1.909815E-03 -1.422431E+02  9.840820E-01 -3.739549E+01 
4.455512E+02  9.858613E-01 -3.826108E+01  1.948554E-03 -1.428220E+02  1.944679E-03 -1.425171E+02  9.840264E-01 -3.740101E+01 
4.455544E+02  9.858467E-01 -3.826929E+01  1.980381E-03 -1.432726E+02  1.984917E-03 -1.428316E+02  9.840363E-01 -3.740930E+01 
4.455575E+02  9.857946E-01 -3.826608E+01  2.013933E-03 -1.436315E+02  2.007506E-03 -1.431448E+02  9.839919E-01 -3.741353E+01 
4.455606E+02  9.857302E-01 -3.827978E+01  2.049377E-03 -1.436902E+02  2.050295E-03 -1.436574E+02  9.840020E-01 -3.741566E+01 
4.455638E+02  9.856742E-01 -3.828108E+01  2.094687E-03 -1.442348E+02  2.093487E-03 -1.438179E+02  9.840238E-01 -3.742849E+01 
4.455669E+02  9.856641E-01 -3.828425E+01  2.135787E-03 -1.444967E+02  2.139992E-03 -1.441646E+02  9.839216E-01 -3.743387E+01 
4.455700E+02  9.856165E-01 -3.829758E+01  2.175668E-03 -1.447125E+02  2.177745E-03 -1.445889E+02  9.839254E-01 -3.744135E+01 
4.455731E+02  9.856631E-01 -3.829918E+01  2.218978E-03 -1.452895E+02  2.225176E-03 -1.450499E+02  9.838309E-01 -3.744865E+01 
4.455762E+02  9.856045E-01 -3.830314E+01  2.269056E-03 -1.455566E+02  2.268854E-03 -1.453410E+02  9.838331E-01 -3.745269E+01 
4.455794E+02  9.855037E-01 -3.831441E+01  2.321150E-03 -1.461132E+02  2.316612E-03 -1.456479E+02  9.837616E-01 -3.745821E+01 
4.455825E+02  9.853890E-01 -3.831998E+01  2.367254E-03 -1.461997E+02  2.364350E-03 -1.462142E+02  9.837782E-01 -3.746095E+01 
4.455856E+02  9.855338E-01 -3.833011E+01  2.417323E-03 -1.469153E+02  2.419916E-03 -1.465388E+02  9.837971E-01 -3.747162E+01 
4.455888E+02  9.855023E-01 -3.833704E+01  2.467637E-03 -1.472398E+02  2.464534E-03 -1.469905E+02  9.837412E-01 -3.747590E+01 
4.455919E+02  9.854168E-01 -3.833975E+01  2.523205E-03 -1.476998E+02  2.520730E-03 -1.475015E+02  9.837560E-01 -3.748458E+01 
4.455950E+02  9.854207E-01 -3.834886E+01  2.577991E-03 -1.480879E+02  2.579791E-03 -1.478947E+02  9.835922E-01 -3.749499E+01 
4.455981E+02  9.852620E-01 -3.835745E+01  2.630024E-03 -1.488440E+02  2.636743E-03 -1.482754E+02  9.835601E-01 -3.749960E+01 
4.456012E+02  9.852690E-01 -3.835821E+01  2.697470E-03 -1.490682E+02  2.696882E-03 -1.488906E+02  9.834235E-01 -3.751188E+01 
4.456044E+02  9.851832E-01 -3.837431E+01  2.759976E-03 -1.496858E+02  2.766075E-03 -1.493915E+02  9.834476E-01 -3.751864E+01 
4.456075E+02  9.852299E-01 -3.838181E+01  2.823254E-03 -1.501526E+02  2.820997E-03 -1.499725E+02  9.833768E-01 -3.752397E+01 
4.456106E+02  9.850449E-01 -3.838949E+01  2.888518E-03 -1.507283E+02  2.892018E-03 -1.504672E+02  9.833461E-01 -3.753810E+01 
4.456137E+02  9.849981E-01 -3.838790E+01  2.967426E-03 -1.515292E+02  2.963247E-03 -1.511651E+02  9.832924E-01 -3.754261E+01 
4.456169E+02  9.849652E-01 -3.839902E+01  3.037690E-03 -1.520677E+02  3.038217E-03 -1.517789E+02  9.832259E-01 -3.755447E+01 
4.456200E+02  9.848972E-01 -3.840941E+01  3.113505E-03 -1.526675E+02  3.110270E-03 -1.524593E+02  9.831818E-01 -3.755789E+01 
4.456231E+02  9.847359E-01 -3.841125E+01  3.190029E-03 -1.532808E+02  3.193960E-03 -1.530144E+02  9.831319E-01 -3.756538E+01 
4.456263E+02  9.847804E-01 -3.842135E+01  3.275723E-03 -1.538545E+02  3.286244E-03 -1.537278E+02  9.830689E-01 -3.756999E+01 
4.456294E+02  9.847677E-01 -3.843783E+01  3.359642E-03 -1.547049E+02  3.359658E-03 -1.543395E+02  9.829678E-01 -3.757692E+01 
4.456325E+02  9.845674E-01 -3.844457E+01  3.454356E-03 -1.554363E+02  3.448566E-03 -1.551368E+02  9.828838E-01 -3.758413E+01 
4.456356E+02  9.845197E-01 -3.845135E+01  3.541580E-03 -1.562530E+02  3.545993E-03 -1.559723E+02  9.828713E-01 -3.759678E+01 
4.456387E+02  9.843428E-01 -3.846167E+01  3.646192E-03 -1.570156E+02  3.646697E-03 -1.567718E+02  9.826326E-01 -3.760450E+01 
4.456419E+02  9.843386E-01 -3.846475E+01  3.745136E-03 -1.579998E+02  3.742223E-03 -1.575214E+02  9.826556E-01 -3.761284E+01 
4.456450E+02  9.842325E-01 -3.847248E+01  3.848184E-03 -1.586819E+02  3.853695E-03 -1.584495E+02  9.824941E-01 -3.762104E+01 
4.456481E+02  9.839137E-01 -3.848613E+01  3.957094E-03 -1.596298E+02  3.960939E-03 -1.593558E+02  9.823572E-01 -3.762898E+01 
4.456513E+02  9.838305E-01 -3.848675E+01  4.075311E-03 -1.606007E+02  4.078116E-03 -1.602802E+02  9.823357E-01 -3.763299E+01 
4.456544E+02  9.838199E-01 -3.849548E+01  4.193698E-03 -1.616755E+02  4.197086E-03 -1.613108E+02  9.821944E-01 -3.764393E+01 
4.456575E+02  9.835950E-01 -3.850489E+01  4.321370E-03 -1.626234E+02  4.324293E-03 -1.624586E+02  9.819518E-01 -3.765155E+01 
4.456606E+02  9.834398E-01 -3.851595E+01  4.439790E-03 -1.637934E+02  4.450931E-03 -1.634981E+02  9.818808E-01 -3.765574E+01 
4.456637E+02  9.832349E-01 -3.852136E+01  4.588976E-03 -1.649447E+02  4.585271E-03 -1.646159E+02  9.816820E-01 -3.767090E+01 
4.456669E+02  9.831756E-01 -3.852905E+01  4.731377E-03 -1.662020E+02  4.732817E-03 -1.659038E+02  9.815429E-01 -3.767808E+01 
4.456700E+02  9.828845E-01 -3.853773E+01  4.877467E-03 -1.675231E+02  4.878117E-03 -1.672281E+02  9.813244E-01 -3.768534E+01 
4.456731E+02  9.827743E-01 -3.854696E+01  5.032332E-03 -1.688408E+02  5.035569E-03 -1.684835E+02  9.811343E-01 -3.768376E+01 
4.456762E+02  9.824378E-01 -3.855051E+01  5.194234E-03 -1.702458E+02  5.192275E-03 -1.699627E+02  9.809245E-01 -3.769450E+01 
4.456794E+02  9.823715E-01 -3.856016E+01  5.355864E-03 -1.717420E+02  5.361109E-03 -1.714820E+02  9.807009E-01 -3.770129E+01 
4.456825E+02  9.819138E-01 -3.856673E+01  5.524114E-03 -1.732607E+02  5.521824E-03 -1.729653E+02  9.804686E-01 -3.770831E+01 
4.456856E+02  9.817792E-01 -3.857441E+01  5.703965E-03 -1.749138E+02  5.707041E-03 -1.746796E+02  9.801578E-01 -3.771460E+01 
4.456888E+02  9.815354E-01 -3.857389E+01  5.886682E-03 -1.765986E+02  5.893198E-03 -1.763103E+02  9.799855E-01 -3.771961E+01 
4.456919E+02  9.813396E-01 -3.858291E+01  6.079833E-03 -1.784409E+02  6.077543E-03 -1.781603E+02  9.797938E-01 -3.772902E+01 
4.456950E+02  9.810141E-01 -3.858803E+01  6.263903E-03 1.796169E+02  6.262814E-03 1.799099E+02  9.794626E-01 -3.772671E+01 
4.456981E+02  9.807061E-01 -3.858599E+01  6.460265E-03 1.776615E+02  6.471993E-03 1.779385E+02  9.792018E-01 -3.773039E+01 
4.457012E+02  9.803746E-01 -3.858435E+01  6.663595E-03 1.754877E+02  6.666501E-03 1.758063E+02  9.787899E-01 -3.773259E+01 
4.457044E+02  9.800280E-01 -3.858713E+01  6.869089E-03 1.733550E+02  6.865295E-03 1.736566E+02  9.785894E-01 -3.772828E+01 
4.457075E+02  9.797169E-01 -3.858742E+01  7.065942E-03 1.710458E+02  7.073988E-03 1.713376E+02  9.782713E-01 -3.772368E+01 
4.457106E+02  9.793187E-01 -3.857447E+01  7.261055E-03 1.686270E+02  7.266197E-03 1.690108E+02  9.780122E-01 -3.772323E+01 
4.457138E+02  9.790669E-01 -3.857417E+01  7.464451E-03 1.661279E+02  7.465800E-03 1.664422E+02  9.776888E-01 -3.772086E+01 
4.457169E+02  9.788108E-01 -3.856657E+01  7.662518E-03 1.635274E+02  7.663179E-03 1.638377E+02  9.773300E-01 -3.770455E+01 
4.457200E+02  9.784707E-01 -3.855784E+01  7.850044E-03 1.607902E+02  7.851484E-03 1.611479E+02  9.770597E-01 -3.769875E+01 
4.457231E+02  9.781419E-01 -3.853939E+01  8.029863E-03 1.581098E+02  8.032747E-03 1.584110E+02  9.767944E-01 -3.768643E+01 
4.457262E+02  9.778256E-01 -3.852846E+01  8.194471E-03 1.552376E+02  8.200187E-03 1.554865E+02  9.764819E-01 -3.766847E+01 
4.457294E+02  9.775878E-01 -3.851422E+01  8.353394E-03 1.523038E+02  8.354207E-03 1.525498E+02  9.762545E-01 -3.765604E+01 
4.457325E+02  9.773059E-01 -3.848980E+01  8.482238E-03 1.492582E+02  8.488206E-03 1.495608E+02  9.761196E-01 -3.763545E+01 
4.457356E+02  9.771773E-01 -3.847821E+01  8.612385E-03 1.462051E+02  8.617440E-03 1.465104E+02  9.759515E-01 -3.761906E+01 
4.457387E+02  9.769720E-01 -3.845306E+01  8.715871E-03 1.431402E+02  8.721225E-03 1.434190E+02  9.758212E-01 -3.759472E+01 
4.457419E+02  9.769111E-01 -3.842777E+01  8.788161E-03 1.400320E+02  8.796539E-03 1.403362E+02  9.757992E-01 -3.757592E+01 
4.457450E+02  9.768986E-01 -3.840932E+01  8.844043E-03 1.369382E+02  8.852805E-03 1.372004E+02  9.757475E-01 -3.755676E+01 
