! S-parameter for B3737 in Touchstone format with magnitude (lin) and phase
! Normalised impedance: 50 Ohm. Measurement system: 50 Ohm Ta = 25°C
! B3737_WB.s2p not matched. Measurement full 2-port calibrated incl. Port ext.
! Start: 422.77MHz, Stop: 472.77MHz, Span: 50MHz, 1601 Pts., Step: 31.2kHz
! Date:23/03/07 Epcos SAW COM WT AE PD, AB
! Pinning according data sheet recommendation, In P1, Out P4, all others GND
!
# MHZ S MA R 50
! freq  magS11 angS11  magS21 angS21  magS12 angS12  magS22 angS22
4.227700E+02  9.891994E-01 -3.437410E+01  1.587696E-05 -8.903369E+01  1.819992E-05 -8.739727E+01  9.877900E-01 -3.341717E+01 
4.228012E+02  9.892037E-01 -3.437986E+01  2.000948E-05 -1.019597E+02  1.765429E-05 -7.704362E+01  9.877782E-01 -3.342190E+01 
4.228325E+02  9.891657E-01 -3.437937E+01  1.663688E-05 -8.108860E+01  1.491364E-05 -9.343638E+01  9.877697E-01 -3.342629E+01 
4.228637E+02  9.889571E-01 -3.438012E+01  1.380530E-05 -1.208984E+02  2.507136E-05 -8.442536E+01  9.879095E-01 -3.342628E+01 
4.228950E+02  9.890733E-01 -3.438196E+01  1.885288E-05 -8.914933E+01  2.061714E-05 -1.238601E+02  9.877895E-01 -3.343484E+01 
4.229262E+02  9.891083E-01 -3.439250E+01  1.792449E-05 -1.416183E+02  1.919502E-05 -1.100001E+02  9.878332E-01 -3.343457E+01 
4.229575E+02  9.891560E-01 -3.438845E+01  1.861958E-05 -1.362162E+02  1.710171E-05 -1.456781E+02  9.878360E-01 -3.343185E+01 
4.229887E+02  9.891253E-01 -3.439783E+01  1.664641E-05 -1.574721E+02  1.934276E-05 -1.432980E+02  9.877213E-01 -3.343294E+01 
4.230200E+02  9.890776E-01 -3.439599E+01  1.598204E-05 -1.433466E+02  2.582821E-05 -1.671410E+02  9.879338E-01 -3.343156E+01 
4.230512E+02  9.891094E-01 -3.440644E+01  2.290965E-05 -1.778187E+02  1.219859E-05 -1.740893E+02  9.877970E-01 -3.344406E+01 
4.230825E+02  9.892267E-01 -3.440210E+01  1.366545E-05 1.786343E+02  1.698500E-05 -1.669986E+02  9.879037E-01 -3.344468E+01 
4.231137E+02  9.891403E-01 -3.440916E+01  2.185079E-05 -1.776434E+02  1.456381E-05 -1.747579E+02  9.878893E-01 -3.344615E+01 
4.231450E+02  9.891209E-01 -3.440992E+01  1.814860E-05 1.547794E+02  1.825769E-05 1.645435E+02  9.877464E-01 -3.345346E+01 
4.231762E+02  9.890331E-01 -3.440251E+01  1.917816E-05 1.529375E+02  2.935293E-05 1.510513E+02  9.878832E-01 -3.345659E+01 
4.232075E+02  9.890732E-01 -3.440804E+01  2.219542E-05 1.487473E+02  2.605387E-05 1.687775E+02  9.877295E-01 -3.345253E+01 
4.232387E+02  9.892216E-01 -3.441862E+01  2.223007E-05 1.305099E+02  2.471772E-05 1.414890E+02  9.878928E-01 -3.346225E+01 
4.232700E+02  9.891464E-01 -3.441362E+01  2.473577E-05 1.466748E+02  1.773103E-05 1.702759E+02  9.878339E-01 -3.346221E+01 
4.233012E+02  9.890019E-01 -3.441948E+01  2.598441E-05 1.466108E+02  1.711750E-05 1.666355E+02  9.878594E-01 -3.345909E+01 
4.233325E+02  9.889483E-01 -3.442319E+01  2.255273E-05 1.495508E+02  1.906814E-05 1.510343E+02  9.878086E-01 -3.347184E+01 
4.233637E+02  9.891575E-01 -3.442820E+01  1.503056E-05 1.376233E+02  2.719366E-05 1.505668E+02  9.877067E-01 -3.347255E+01 
4.233950E+02  9.890311E-01 -3.442435E+01  2.437284E-05 1.507643E+02  2.565906E-05 1.594464E+02  9.879584E-01 -3.347134E+01 
4.234262E+02  9.890553E-01 -3.442934E+01  2.433884E-05 1.511301E+02  3.500912E-05 1.549680E+02  9.877650E-01 -3.347402E+01 
4.234575E+02  9.891086E-01 -3.442932E+01  2.922177E-05 1.511849E+02  3.163687E-05 1.382177E+02  9.878016E-01 -3.348514E+01 
4.234887E+02  9.890770E-01 -3.443961E+01  3.463581E-05 1.372579E+02  3.784521E-05 1.298817E+02  9.877992E-01 -3.348231E+01 
4.235200E+02  9.889910E-01 -3.443847E+01  3.927760E-05 1.378737E+02  3.141883E-05 1.401403E+02  9.878493E-01 -3.347829E+01 
4.235512E+02  9.890527E-01 -3.444570E+01  3.556796E-05 1.173913E+02  2.960878E-05 1.210726E+02  9.877563E-01 -3.348013E+01 
4.235825E+02  9.889405E-01 -3.445581E+01  3.694642E-05 1.207506E+02  4.376517E-05 1.351441E+02  9.878326E-01 -3.348844E+01 
4.236137E+02  9.890262E-01 -3.445442E+01  4.141404E-05 1.271312E+02  3.791513E-05 1.281764E+02  9.877020E-01 -3.349034E+01 
4.236450E+02  9.890455E-01 -3.444547E+01  4.097482E-05 1.275304E+02  4.370453E-05 1.331939E+02  9.877672E-01 -3.349981E+01 
4.236762E+02  9.892358E-01 -3.445407E+01  4.669234E-05 1.222015E+02  3.964113E-05 1.168666E+02  9.878798E-01 -3.350090E+01 
4.237075E+02  9.890253E-01 -3.445301E+01  4.970632E-05 1.182282E+02  5.006373E-05 1.188942E+02  9.878250E-01 -3.350353E+01 
4.237387E+02  9.890649E-01 -3.445639E+01  5.282159E-05 1.146401E+02  5.452197E-05 1.199463E+02  9.879138E-01 -3.350364E+01 
4.237700E+02  9.890001E-01 -3.446385E+01  5.738551E-05 1.114425E+02  5.680552E-05 1.117218E+02  9.877366E-01 -3.350568E+01 
4.238012E+02  9.889937E-01 -3.446872E+01  6.171482E-05 1.068385E+02  6.051369E-05 1.060354E+02  9.878212E-01 -3.350270E+01 
4.238325E+02  9.889984E-01 -3.447186E+01  6.154004E-05 9.739452E+01  5.762377E-05 9.544949E+01  9.877617E-01 -3.350924E+01 
4.238637E+02  9.890746E-01 -3.447301E+01  5.378893E-05 9.658172E+01  5.558996E-05 9.391394E+01  9.878745E-01 -3.351195E+01 
4.238950E+02  9.889554E-01 -3.446907E+01  6.322558E-05 8.903670E+01  4.856788E-05 9.042872E+01  9.877201E-01 -3.352142E+01 
4.239262E+02  9.891077E-01 -3.448805E+01  5.252278E-05 8.497934E+01  5.970725E-05 8.298921E+01  9.878779E-01 -3.352262E+01 
4.239575E+02  9.890186E-01 -3.447817E+01  6.429471E-05 8.758389E+01  5.457218E-05 7.887588E+01  9.877128E-01 -3.352679E+01 
4.239887E+02  9.889927E-01 -3.449327E+01  4.621652E-05 8.106118E+01  4.449318E-05 8.376108E+01  9.877977E-01 -3.352322E+01 
4.240200E+02  9.890828E-01 -3.448907E+01  4.865871E-05 8.591612E+01  4.100799E-05 8.403064E+01  9.878511E-01 -3.352530E+01 
4.240512E+02  9.890666E-01 -3.449037E+01  5.737637E-05 8.504402E+01  4.775785E-05 7.421884E+01  9.877135E-01 -3.353662E+01 
4.240825E+02  9.891252E-01 -3.449111E+01  5.198857E-05 8.395610E+01  4.854358E-05 8.425425E+01  9.879116E-01 -3.353323E+01 
4.241137E+02  9.889997E-01 -3.449994E+01  4.852343E-05 8.062620E+01  5.398801E-05 7.725958E+01  9.878321E-01 -3.354039E+01 
4.241450E+02  9.889100E-01 -3.450386E+01  5.800949E-05 8.188296E+01  5.331524E-05 7.781095E+01  9.877862E-01 -3.353282E+01 
4.241762E+02  9.890448E-01 -3.450084E+01  5.903604E-05 8.071388E+01  6.123202E-05 7.750074E+01  9.877848E-01 -3.354341E+01 
4.242075E+02  9.890356E-01 -3.450010E+01  6.318031E-05 7.342384E+01  5.912425E-05 7.257201E+01  9.878714E-01 -3.354557E+01 
4.242387E+02  9.889925E-01 -3.450327E+01  6.442350E-05 7.105796E+01  5.918952E-05 6.692296E+01  9.876762E-01 -3.355020E+01 
4.242700E+02  9.890506E-01 -3.451956E+01  6.604550E-05 6.445776E+01  6.527015E-05 6.502395E+01  9.877579E-01 -3.354945E+01 
4.243012E+02  9.890666E-01 -3.451724E+01  6.119637E-05 6.393622E+01  6.405537E-05 5.863884E+01  9.878846E-01 -3.355535E+01 
4.243325E+02  9.890457E-01 -3.451652E+01  6.677707E-05 5.446488E+01  6.419817E-05 5.874793E+01  9.876943E-01 -3.355814E+01 
4.243637E+02  9.890888E-01 -3.452120E+01  5.229788E-05 5.399746E+01  5.599561E-05 5.703934E+01  9.877664E-01 -3.355522E+01 
4.243950E+02  9.890201E-01 -3.452771E+01  5.788847E-05 5.451515E+01  6.022182E-05 4.894982E+01  9.877634E-01 -3.356988E+01 
4.244262E+02  9.889143E-01 -3.452443E+01  5.975424E-05 4.552641E+01  5.931412E-05 4.251625E+01  9.877872E-01 -3.356092E+01 
4.244575E+02  9.889182E-01 -3.453334E+01  5.096493E-05 4.133421E+01  4.391035E-05 5.044924E+01  9.878043E-01 -3.356698E+01 
4.244887E+02  9.890144E-01 -3.453246E+01  4.957132E-05 4.672950E+01  5.305327E-05 5.008565E+01  9.876130E-01 -3.357434E+01 
4.245200E+02  9.890908E-01 -3.453096E+01  4.838047E-05 4.919167E+01  4.852239E-05 4.331844E+01  9.877927E-01 -3.357642E+01 
4.245512E+02  9.891525E-01 -3.453369E+01  4.809046E-05 5.071784E+01  5.308732E-05 4.454854E+01  9.878377E-01 -3.358252E+01 
4.245825E+02  9.890549E-01 -3.454176E+01  4.413130E-05 5.677501E+01  4.288624E-05 4.037704E+01  9.876656E-01 -3.358154E+01 
4.246137E+02  9.890013E-01 -3.454040E+01  4.108822E-05 4.803114E+01  4.058899E-05 4.228094E+01  9.876407E-01 -3.358585E+01 
4.246450E+02  9.888680E-01 -3.453762E+01  4.590396E-05 5.659492E+01  4.908359E-05 4.705562E+01  9.877515E-01 -3.358698E+01 
4.246762E+02  9.891151E-01 -3.454452E+01  5.499105E-05 5.670589E+01  4.964002E-05 5.027798E+01  9.875753E-01 -3.358640E+01 
4.247075E+02  9.889640E-01 -3.454420E+01  5.659889E-05 5.255136E+01  5.503664E-05 5.115183E+01  9.878212E-01 -3.358232E+01 
4.247387E+02  9.889813E-01 -3.456077E+01  5.080436E-05 4.996981E+01  6.059813E-05 4.312843E+01  9.877245E-01 -3.358845E+01 
4.247700E+02  9.889591E-01 -3.455802E+01  5.731422E-05 4.029027E+01  6.110319E-05 3.818097E+01  9.876660E-01 -3.359720E+01 
4.248012E+02  9.890005E-01 -3.455986E+01  5.709254E-05 3.524971E+01  5.270552E-05 3.890920E+01  9.876092E-01 -3.359866E+01 
4.248325E+02  9.889244E-01 -3.455888E+01  5.118162E-05 4.133794E+01  4.919299E-05 4.544066E+01  9.876063E-01 -3.360423E+01 
4.248637E+02  9.889307E-01 -3.456939E+01  5.663239E-05 3.940870E+01  5.883072E-05 4.182361E+01  9.875671E-01 -3.360774E+01 
4.248950E+02  9.888927E-01 -3.456663E+01  5.903105E-05 4.082747E+01  5.328902E-05 3.325087E+01  9.876472E-01 -3.361084E+01 
4.249262E+02  9.888593E-01 -3.457378E+01  5.380507E-05 3.802743E+01  5.185604E-05 4.309738E+01  9.877344E-01 -3.361578E+01 
4.249575E+02  9.888849E-01 -3.457673E+01  5.745766E-05 3.945389E+01  5.390550E-05 4.255724E+01  9.876543E-01 -3.361556E+01 
4.249887E+02  9.888245E-01 -3.458441E+01  5.520812E-05 3.136286E+01  5.465119E-05 4.731753E+01  9.875671E-01 -3.361969E+01 
4.250200E+02  9.888424E-01 -3.458271E+01  5.613848E-05 4.176337E+01  5.961147E-05 4.294717E+01  9.875233E-01 -3.362792E+01 
4.250512E+02  9.889603E-01 -3.459168E+01  5.256023E-05 3.985730E+01  5.786698E-05 3.653191E+01  9.876672E-01 -3.362427E+01 
4.250825E+02  9.889574E-01 -3.458306E+01  6.107640E-05 3.855834E+01  6.059332E-05 3.704832E+01  9.875764E-01 -3.362689E+01 
4.251137E+02  9.888226E-01 -3.459119E+01  6.063334E-05 4.315810E+01  5.714046E-05 3.647653E+01  9.875913E-01 -3.362947E+01 
4.251450E+02  9.888718E-01 -3.459225E+01  5.702577E-05 3.881099E+01  5.073726E-05 3.875444E+01  9.874972E-01 -3.363238E+01 
4.251762E+02  9.888977E-01 -3.459760E+01  6.214131E-05 3.463897E+01  5.930278E-05 3.699114E+01  9.875430E-01 -3.363464E+01 
4.252075E+02  9.887911E-01 -3.459292E+01  6.591848E-05 3.040684E+01  5.253912E-05 3.759026E+01  9.876513E-01 -3.363476E+01 
4.252387E+02  9.886812E-01 -3.459948E+01  6.226457E-05 4.175620E+01  5.795135E-05 3.996451E+01  9.874829E-01 -3.364275E+01 
4.252700E+02  9.887766E-01 -3.460342E+01  5.763682E-05 3.677996E+01  6.292320E-05 3.589216E+01  9.875320E-01 -3.363970E+01 
4.253012E+02  9.888226E-01 -3.460734E+01  6.708522E-05 2.870757E+01  7.566756E-05 3.343424E+01  9.874778E-01 -3.364251E+01 
4.253325E+02  9.888742E-01 -3.460599E+01  8.261014E-05 2.816772E+01  7.215740E-05 2.599944E+01  9.874602E-01 -3.364509E+01 
4.253637E+02  9.886806E-01 -3.461720E+01  8.020459E-05 2.516585E+01  7.556462E-05 2.545971E+01  9.874528E-01 -3.364564E+01 
4.253950E+02  9.887738E-01 -3.461463E+01  7.606473E-05 2.086974E+01  8.419509E-05 2.334894E+01  9.873927E-01 -3.363961E+01 
4.254262E+02  9.888100E-01 -3.461819E+01  8.245689E-05 1.685677E+01  7.712138E-05 1.924088E+01  9.874851E-01 -3.365796E+01 
4.254575E+02  9.887114E-01 -3.461766E+01  7.675073E-05 1.387606E+01  7.616434E-05 1.117960E+01  9.875211E-01 -3.365449E+01 
4.254887E+02  9.886989E-01 -3.462368E+01  7.380086E-05 1.128753E+01  7.882781E-05 1.375046E+01  9.875428E-01 -3.365816E+01 
4.255200E+02  9.886880E-01 -3.462720E+01  7.322788E-05 1.368434E+01  7.415261E-05 1.048872E+01  9.873074E-01 -3.365868E+01 
4.255512E+02  9.886315E-01 -3.462922E+01  7.108817E-05 1.125836E+01  7.235210E-05 1.672856E+01  9.874119E-01 -3.366973E+01 
4.255825E+02  9.887827E-01 -3.462476E+01  7.289615E-05 1.469570E+01  7.634802E-05 7.632364E+00  9.874986E-01 -3.365599E+01 
4.256137E+02  9.887349E-01 -3.462870E+01  7.885858E-05 8.165169E+00  8.075671E-05 1.238951E+01  9.874977E-01 -3.366345E+01 
4.256450E+02  9.887043E-01 -3.463502E+01  9.664934E-05 1.213605E+01  8.727825E-05 9.240655E+00  9.875179E-01 -3.367339E+01 
4.256762E+02  9.886870E-01 -3.462854E+01  9.548070E-05 2.801453E+00  9.096959E-05 4.253747E+00  9.874825E-01 -3.366732E+01 
4.257075E+02  9.887741E-01 -3.463667E+01  9.282933E-05 -1.532219E+00  9.394574E-05 -2.778594E+00  9.874148E-01 -3.367777E+01 
4.257387E+02  9.888277E-01 -3.464075E+01  1.001736E-04 -4.637557E+00  9.929319E-05 -6.089987E+00  9.874420E-01 -3.367155E+01 
4.257700E+02  9.887793E-01 -3.464047E+01  1.063768E-04 -1.062431E+01  1.033009E-04 -8.689012E+00  9.874426E-01 -3.367682E+01 
4.258012E+02  9.888523E-01 -3.464386E+01  9.969521E-05 -1.468566E+01  1.028471E-04 -1.638604E+01  9.874247E-01 -3.368400E+01 
4.258325E+02  9.886961E-01 -3.464586E+01  9.631712E-05 -2.001598E+01  1.054026E-04 -2.431701E+01  9.874891E-01 -3.368271E+01 
4.258637E+02  9.887142E-01 -3.464600E+01  9.677910E-05 -2.620487E+01  9.870959E-05 -2.943643E+01  9.874379E-01 -3.368133E+01 
4.258950E+02  9.886188E-01 -3.465078E+01  9.367457E-05 -3.583880E+01  9.190655E-05 -3.285318E+01  9.875111E-01 -3.368324E+01 
4.259262E+02  9.887317E-01 -3.465436E+01  9.183938E-05 -3.496651E+01  8.627327E-05 -3.207548E+01  9.876040E-01 -3.368929E+01 
4.259575E+02  9.887788E-01 -3.464846E+01  8.388109E-05 -4.494258E+01  9.069592E-05 -3.500209E+01  9.873821E-01 -3.369449E+01 
4.259887E+02  9.886114E-01 -3.466327E+01  8.473868E-05 -4.451448E+01  8.760407E-05 -4.212660E+01  9.874497E-01 -3.369888E+01 
4.260200E+02  9.885726E-01 -3.466326E+01  8.046808E-05 -4.320536E+01  7.849068E-05 -4.326211E+01  9.875001E-01 -3.370379E+01 
4.260512E+02  9.886699E-01 -3.466585E+01  7.684090E-05 -4.747575E+01  7.888526E-05 -4.786813E+01  9.875885E-01 -3.369819E+01 
4.260825E+02  9.887777E-01 -3.466827E+01  7.598348E-05 -4.908076E+01  7.562588E-05 -4.607996E+01  9.874097E-01 -3.371071E+01 
4.261137E+02  9.886583E-01 -3.467655E+01  6.848582E-05 -5.335594E+01  8.128795E-05 -5.666468E+01  9.876555E-01 -3.371507E+01 
4.261450E+02  9.889178E-01 -3.467578E+01  7.700411E-05 -5.493937E+01  8.113147E-05 -5.708544E+01  9.874559E-01 -3.371519E+01 
4.261762E+02  9.887173E-01 -3.467668E+01  7.310375E-05 -5.292941E+01  7.361082E-05 -5.738129E+01  9.874623E-01 -3.371557E+01 
4.262075E+02  9.885951E-01 -3.468468E+01  7.340629E-05 -5.955562E+01  8.365531E-05 -6.075812E+01  9.874702E-01 -3.372138E+01 
4.262387E+02  9.887153E-01 -3.468244E+01  8.032852E-05 -6.025679E+01  7.167751E-05 -6.216390E+01  9.874833E-01 -3.371921E+01 
4.262700E+02  9.887127E-01 -3.468597E+01  8.227772E-05 -6.634252E+01  7.999631E-05 -7.003766E+01  9.875014E-01 -3.372501E+01 
4.263012E+02  9.885666E-01 -3.468404E+01  7.827785E-05 -7.760759E+01  7.868040E-05 -7.309876E+01  9.875158E-01 -3.372180E+01 
4.263325E+02  9.887188E-01 -3.468882E+01  7.282224E-05 -7.989239E+01  7.898091E-05 -8.335430E+01  9.874642E-01 -3.373118E+01 
4.263637E+02  9.887594E-01 -3.469319E+01  7.916140E-05 -8.569438E+01  7.556163E-05 -8.734939E+01  9.873897E-01 -3.373017E+01 
4.263950E+02  9.886639E-01 -3.469052E+01  7.224953E-05 -8.757329E+01  6.856943E-05 -9.383177E+01  9.874738E-01 -3.372817E+01 
4.264262E+02  9.887126E-01 -3.469902E+01  7.389280E-05 -9.942192E+01  6.728142E-05 -1.046969E+02  9.872880E-01 -3.373591E+01 
4.264575E+02  9.886111E-01 -3.469726E+01  5.820548E-05 -1.030454E+02  6.233708E-05 -1.141964E+02  9.874716E-01 -3.373572E+01 
4.264887E+02  9.886901E-01 -3.470032E+01  5.396433E-05 -1.159363E+02  6.233919E-05 -1.147149E+02  9.873832E-01 -3.374169E+01 
4.265200E+02  9.887943E-01 -3.469870E+01  4.995179E-05 -1.197789E+02  5.348515E-05 -1.141159E+02  9.874537E-01 -3.374521E+01 
4.265512E+02  9.885752E-01 -3.470923E+01  4.287106E-05 -1.140302E+02  4.464383E-05 -1.271925E+02  9.874372E-01 -3.374155E+01 
4.265825E+02  9.885986E-01 -3.471031E+01  4.792371E-05 -1.402205E+02  3.987573E-05 -1.333504E+02  9.873498E-01 -3.375020E+01 
4.266137E+02  9.886968E-01 -3.470716E+01  3.646224E-05 -1.356946E+02  4.211381E-05 -1.296087E+02  9.874345E-01 -3.375098E+01 
4.266450E+02  9.885638E-01 -3.472234E+01  3.250386E-05 -1.452915E+02  3.547325E-05 -1.471530E+02  9.873391E-01 -3.375508E+01 
4.266762E+02  9.885450E-01 -3.470538E+01  2.887517E-05 -1.487731E+02  3.302318E-05 -1.630115E+02  9.874185E-01 -3.375645E+01 
4.267075E+02  9.886549E-01 -3.471532E+01  2.407640E-05 -1.613058E+02  3.222518E-05 -1.585745E+02  9.872260E-01 -3.375657E+01 
4.267387E+02  9.885969E-01 -3.472827E+01  2.040244E-05 -1.658448E+02  2.614730E-05 -1.764050E+02  9.874205E-01 -3.375223E+01 
4.267700E+02  9.885936E-01 -3.472026E+01  2.466746E-05 1.563866E+02  2.374516E-05 1.638469E+02  9.874580E-01 -3.376211E+01 
4.268012E+02  9.886775E-01 -3.472255E+01  1.419521E-05 1.590787E+02  2.329621E-05 1.652231E+02  9.874481E-01 -3.376207E+01 
4.268325E+02  9.885987E-01 -3.472502E+01  2.496347E-05 1.575662E+02  1.762898E-05 1.295101E+02  9.873701E-01 -3.376780E+01 
4.268637E+02  9.886835E-01 -3.473255E+01  1.912566E-05 1.112962E+02  9.605913E-06 1.183780E+02  9.874291E-01 -3.376242E+01 
4.268950E+02  9.886722E-01 -3.473300E+01  2.187213E-05 1.106184E+02  2.056672E-05 1.046248E+02  9.873467E-01 -3.377391E+01 
4.269262E+02  9.886205E-01 -3.474210E+01  2.180351E-05 9.691316E+01  1.968213E-05 9.237732E+01  9.874085E-01 -3.376784E+01 
4.269575E+02  9.886311E-01 -3.473275E+01  1.962665E-05 4.505602E+01  2.453337E-05 6.928146E+01  9.874064E-01 -3.377665E+01 
4.269887E+02  9.888511E-01 -3.473840E+01  1.960062E-05 3.303816E+01  2.473562E-05 6.590458E+01  9.873373E-01 -3.377561E+01 
4.270200E+02  9.887643E-01 -3.473622E+01  2.351825E-05 3.429655E+01  2.591126E-05 4.677338E+01  9.874259E-01 -3.378053E+01 
4.270512E+02  9.887558E-01 -3.474357E+01  3.305758E-05 3.621633E+01  3.040804E-05 2.615548E+01  9.874743E-01 -3.378960E+01 
4.270825E+02  9.886824E-01 -3.474405E+01  3.276607E-05 2.745266E+01  2.685609E-05 8.101982E+00  9.875568E-01 -3.378676E+01 
4.271137E+02  9.887517E-01 -3.475137E+01  3.240060E-05 1.027283E+01  3.007126E-05 2.260793E+01  9.874000E-01 -3.379113E+01 
4.271450E+02  9.887119E-01 -3.474852E+01  3.525649E-05 8.918694E+00  3.024833E-05 1.857320E+01  9.874217E-01 -3.378622E+01 
4.271762E+02  9.886196E-01 -3.475822E+01  3.147635E-05 9.306791E+00  2.734521E-05 9.604711E+00  9.875261E-01 -3.379173E+01 
4.272075E+02  9.888399E-01 -3.475687E+01  4.422528E-05 5.292832E+00  3.846044E-05 5.331442E+00  9.874273E-01 -3.379746E+01 
4.272387E+02  9.887590E-01 -3.475902E+01  3.652818E-05 2.580712E+00  3.268240E-05 -2.548795E+00  9.874367E-01 -3.380332E+01 
4.272700E+02  9.886950E-01 -3.476043E+01  4.100289E-05 -9.233680E+00  4.667717E-05 -4.429985E+00  9.874285E-01 -3.381219E+01 
4.273012E+02  9.888560E-01 -3.476932E+01  3.692591E-05 1.174203E+00  4.598924E-05 -1.074711E+01  9.875046E-01 -3.380468E+01 
4.273325E+02  9.887018E-01 -3.477638E+01  4.351473E-05 -1.055879E+01  4.040873E-05 -8.628304E+00  9.873434E-01 -3.381599E+01 
4.273637E+02  9.887422E-01 -3.477173E+01  4.258037E-05 -2.183133E+01  4.827231E-05 -1.112222E+01  9.873266E-01 -3.381097E+01 
4.273950E+02  9.886279E-01 -3.477507E+01  4.244275E-05 -2.235354E+01  4.660900E-05 -1.588237E+01  9.875267E-01 -3.382356E+01 
4.274262E+02  9.886958E-01 -3.477726E+01  4.655569E-05 -1.623921E+01  4.591087E-05 -2.695759E+01  9.875666E-01 -3.381843E+01 
4.274575E+02  9.886996E-01 -3.478096E+01  5.351466E-05 -2.878634E+01  4.976265E-05 -2.437103E+01  9.874421E-01 -3.382754E+01 
4.274887E+02  9.886737E-01 -3.478067E+01  5.783674E-05 -1.860380E+01  5.123374E-05 -3.594919E+01  9.873935E-01 -3.382496E+01 
4.275200E+02  9.887241E-01 -3.478976E+01  5.965524E-05 -3.067368E+01  5.643595E-05 -3.244012E+01  9.874428E-01 -3.382512E+01 
4.275512E+02  9.887445E-01 -3.479079E+01  5.581967E-05 -4.491095E+01  5.600414E-05 -4.023892E+01  9.874154E-01 -3.383090E+01 
