! Matrix data file written by TouchstoneData, EPCOS AG
! FILENAME: "newformat_B3732_WB.s2p"
! COMMENT: "AUF PALTINE UNANGEPASST MIT PROT EXTENSION 2"
! INFO: nport=2, nfreq=1601
! DATE: "Wed Sep 19 14:20:01 2012"
! USER: "Wilfried Schott"
!
! port | pin | signal
! -----|-----|--------
!   1  |  1  |  IN
!   2  |  4  |  OUT
! --------------------
! 
# MHZ S MA R 50
! freq  magS11 angS11  magS21 angS21  magS12 angS12  magS22 angS22
3.839200E+02  9.867778E-01 -4.293627E+01  2.344066E-04 3.847975E+01  2.235000E-04 3.629445E+01  9.854732E-01 -4.044277E+01 
3.839825E+02  9.867932E-01 -4.293795E+01  2.184506E-04 3.358777E+01  2.205524E-04 3.992413E+01  9.853511E-01 -4.044857E+01 
3.840450E+02  9.866744E-01 -4.294897E+01  2.300915E-04 4.001968E+01  2.174460E-04 3.666907E+01  9.855137E-01 -4.044400E+01 
3.841075E+02  9.867072E-01 -4.296350E+01  2.046280E-04 3.929372E+01  2.499303E-04 3.646177E+01  9.854478E-01 -4.046998E+01 
3.841700E+02  9.866483E-01 -4.295702E+01  2.099722E-04 3.718919E+01  2.224511E-04 3.738425E+01  9.854574E-01 -4.047195E+01 
3.842325E+02  9.867347E-01 -4.296299E+01  1.838213E-04 3.649009E+01  2.113054E-04 3.600796E+01  9.855039E-01 -4.047561E+01 
3.842950E+02  9.868239E-01 -4.297836E+01  1.843922E-04 3.342369E+01  2.231084E-04 4.239664E+01  9.854054E-01 -4.048101E+01 
3.843575E+02  9.867043E-01 -4.297999E+01  1.984321E-04 3.482087E+01  2.024754E-04 3.518297E+01  9.854041E-01 -4.048453E+01 
3.844200E+02  9.867025E-01 -4.298578E+01  1.933213E-04 3.481868E+01  2.153715E-04 3.699691E+01  9.854421E-01 -4.049252E+01 
3.844825E+02  9.863558E-01 -4.298934E+01  1.976422E-04 3.964715E+01  2.045779E-04 4.063346E+01  9.855551E-01 -4.049852E+01 
3.845450E+02  9.865047E-01 -4.300497E+01  1.650649E-04 4.491361E+01  1.883933E-04 3.708668E+01  9.854379E-01 -4.051786E+01 
3.846075E+02  9.866183E-01 -4.302258E+01  1.806037E-04 3.307442E+01  1.752350E-04 4.041839E+01  9.857561E-01 -4.051585E+01 
3.846700E+02  9.866615E-01 -4.301835E+01  1.992237E-04 3.946570E+01  1.866704E-04 3.885848E+01  9.855855E-01 -4.053305E+01 
3.847325E+02  9.866351E-01 -4.303397E+01  1.976839E-04 4.160103E+01  1.892517E-04 3.637427E+01  9.855907E-01 -4.053993E+01 
3.847950E+02  9.868681E-01 -4.304501E+01  1.924177E-04 4.672057E+01  1.782457E-04 4.572943E+01  9.856671E-01 -4.053356E+01 
3.848575E+02  9.867980E-01 -4.305619E+01  1.847156E-04 4.154043E+01  1.789632E-04 4.080044E+01  9.854281E-01 -4.055475E+01 
3.849200E+02  9.866598E-01 -4.305646E+01  1.878726E-04 4.703545E+01  1.899805E-04 4.133794E+01  9.853573E-01 -4.055077E+01 
3.849825E+02  9.865791E-01 -4.306067E+01  1.870657E-04 4.218969E+01  1.860168E-04 4.360676E+01  9.856219E-01 -4.055904E+01 
3.850450E+02  9.868347E-01 -4.307030E+01  1.932937E-04 5.401177E+01  1.889063E-04 4.085939E+01  9.855042E-01 -4.057210E+01 
3.851075E+02  9.865682E-01 -4.306623E+01  2.038953E-04 4.944293E+01  1.726486E-04 4.556322E+01  9.855123E-01 -4.058326E+01 
3.851700E+02  9.865107E-01 -4.308985E+01  1.912370E-04 4.229057E+01  1.937125E-04 4.435899E+01  9.853918E-01 -4.060181E+01 
3.852325E+02  9.863266E-01 -4.309112E+01  1.890092E-04 4.384853E+01  1.977057E-04 4.460972E+01  9.854389E-01 -4.058912E+01 
3.852950E+02  9.867798E-01 -4.309474E+01  2.120401E-04 4.864193E+01  1.913826E-04 4.507946E+01  9.853910E-01 -4.059222E+01 
3.853575E+02  9.866406E-01 -4.310701E+01  1.796700E-04 4.466566E+01  1.838569E-04 4.497959E+01  9.855170E-01 -4.061686E+01 
3.854200E+02  9.865311E-01 -4.312960E+01  1.823171E-04 4.475659E+01  2.002688E-04 3.962615E+01  9.854619E-01 -4.061147E+01 
3.854825E+02  9.865906E-01 -4.312204E+01  2.032590E-04 4.728140E+01  1.818860E-04 4.658063E+01  9.853324E-01 -4.061811E+01 
3.855450E+02  9.866668E-01 -4.312696E+01  2.038601E-04 4.257157E+01  1.830705E-04 5.011324E+01  9.853295E-01 -4.062599E+01 
3.856075E+02  9.864860E-01 -4.313015E+01  1.858909E-04 4.727062E+01  1.945302E-04 4.392707E+01  9.854443E-01 -4.064447E+01 
3.856700E+02  9.866123E-01 -4.315402E+01  2.101581E-04 4.493238E+01  1.908900E-04 4.248715E+01  9.855027E-01 -4.065653E+01 
3.857325E+02  9.864201E-01 -4.313906E+01  2.186239E-04 4.039328E+01  1.964859E-04 5.010161E+01  9.853914E-01 -4.064751E+01 
3.857950E+02  9.865224E-01 -4.315195E+01  1.994104E-04 4.194889E+01  2.029163E-04 4.509675E+01  9.853730E-01 -4.066171E+01 
3.858575E+02  9.866806E-01 -4.315466E+01  1.981911E-04 4.520831E+01  1.943723E-04 4.191859E+01  9.854013E-01 -4.066767E+01 
3.859200E+02  9.867024E-01 -4.316426E+01  2.002952E-04 4.237695E+01  2.297290E-04 3.758835E+01  9.855080E-01 -4.067329E+01 
3.859825E+02  9.865379E-01 -4.318189E+01  2.010380E-04 4.216226E+01  2.157726E-04 4.516353E+01  9.855610E-01 -4.068336E+01 
3.860450E+02  9.866067E-01 -4.319357E+01  1.800699E-04 3.703277E+01  2.052912E-04 3.911941E+01  9.854100E-01 -4.068573E+01 
3.861075E+02  9.866659E-01 -4.319321E+01  1.985013E-04 4.254364E+01  2.069538E-04 3.921808E+01  9.854970E-01 -4.069003E+01 
3.861700E+02  9.866145E-01 -4.319720E+01  2.019199E-04 3.918847E+01  1.811715E-04 4.684493E+01  9.854880E-01 -4.069648E+01 
3.862325E+02  9.866767E-01 -4.319986E+01  2.049580E-04 4.874757E+01  1.963108E-04 3.946175E+01  9.852995E-01 -4.070093E+01 
3.862950E+02  9.866807E-01 -4.322208E+01  2.128712E-04 4.292640E+01  1.922085E-04 4.703289E+01  9.855433E-01 -4.071008E+01 
3.863575E+02  9.864965E-01 -4.321241E+01  1.965703E-04 4.288891E+01  2.045992E-04 4.484974E+01  9.853935E-01 -4.072229E+01 
3.864200E+02  9.865366E-01 -4.323433E+01  2.025298E-04 3.199461E+01  2.050492E-04 3.868049E+01  9.854173E-01 -4.072998E+01 
3.864825E+02  9.863377E-01 -4.324328E+01  1.925223E-04 3.493863E+01  1.820477E-04 4.298230E+01  9.854396E-01 -4.074381E+01 
3.865450E+02  9.865385E-01 -4.324138E+01  2.017271E-04 4.735210E+01  1.973991E-04 4.233046E+01  9.853738E-01 -4.074186E+01 
3.866075E+02  9.863734E-01 -4.325538E+01  1.820424E-04 4.477156E+01  2.010462E-04 4.604842E+01  9.853209E-01 -4.074786E+01 
3.866700E+02  9.864478E-01 -4.325017E+01  1.928582E-04 4.492683E+01  1.827212E-04 3.873436E+01  9.855213E-01 -4.075850E+01 
3.867325E+02  9.865063E-01 -4.327551E+01  1.952153E-04 4.398493E+01  1.944626E-04 4.670333E+01  9.854508E-01 -4.076901E+01 
3.867950E+02  9.864988E-01 -4.327703E+01  1.821165E-04 4.735422E+01  1.873201E-04 4.161051E+01  9.853175E-01 -4.077495E+01 
3.868575E+02  9.866953E-01 -4.326603E+01  1.924029E-04 4.549482E+01  1.678272E-04 4.266003E+01  9.855352E-01 -4.078478E+01 
3.869200E+02  9.862929E-01 -4.328141E+01  1.859391E-04 4.175262E+01  1.773667E-04 4.123088E+01  9.852711E-01 -4.078177E+01 
3.869825E+02  9.863105E-01 -4.329378E+01  1.992112E-04 4.193609E+01  1.768589E-04 4.136468E+01  9.855072E-01 -4.079600E+01 
3.870450E+02  9.864753E-01 -4.330054E+01  1.856614E-04 4.836309E+01  1.744369E-04 4.366880E+01  9.853907E-01 -4.079831E+01 
3.871075E+02  9.863460E-01 -4.330942E+01  1.788280E-04 4.496035E+01  1.971596E-04 4.529493E+01  9.854149E-01 -4.080137E+01 
3.871700E+02  9.865888E-01 -4.332895E+01  1.887053E-04 3.930792E+01  1.771521E-04 4.517017E+01  9.855382E-01 -4.080508E+01 
3.872325E+02  9.864498E-01 -4.333442E+01  1.892738E-04 4.332368E+01  1.715446E-04 3.945872E+01  9.852430E-01 -4.082672E+01 
3.872950E+02  9.863306E-01 -4.332558E+01  1.874929E-04 4.204993E+01  1.770120E-04 4.577079E+01  9.851294E-01 -4.082847E+01 
3.873575E+02  9.866141E-01 -4.334832E+01  1.780281E-04 4.356909E+01  1.685235E-04 4.045302E+01  9.854591E-01 -4.083980E+01 
3.874200E+02  9.862424E-01 -4.334201E+01  1.765736E-04 4.499031E+01  1.651155E-04 4.298555E+01  9.851196E-01 -4.084582E+01 
3.874825E+02  9.864188E-01 -4.335425E+01  1.574406E-04 3.963481E+01  1.764594E-04 4.360285E+01  9.853372E-01 -4.084573E+01 
3.875450E+02  9.862277E-01 -4.336679E+01  1.627445E-04 4.753568E+01  1.744613E-04 4.752452E+01  9.852730E-01 -4.085815E+01 
3.876075E+02  9.862039E-01 -4.337303E+01  1.662149E-04 4.679060E+01  1.778754E-04 4.638407E+01  9.852727E-01 -4.086898E+01 
3.876700E+02  9.861888E-01 -4.337261E+01  1.977726E-04 4.044102E+01  1.564198E-04 4.542380E+01  9.853573E-01 -4.088239E+01 
3.877325E+02  9.863941E-01 -4.338029E+01  1.519867E-04 4.081380E+01  1.673702E-04 4.714605E+01  9.851765E-01 -4.087129E+01 
3.877950E+02  9.862111E-01 -4.338055E+01  1.585982E-04 5.171109E+01  1.628960E-04 5.481551E+01  9.853533E-01 -4.088468E+01 
3.878575E+02  9.861261E-01 -4.339316E+01  1.668500E-04 5.638703E+01  1.687583E-04 5.555107E+01  9.851845E-01 -4.089632E+01 
3.879200E+02  9.861465E-01 -4.340330E+01  1.722425E-04 5.407643E+01  1.696475E-04 5.303859E+01  9.851819E-01 -4.089861E+01 
3.879825E+02  9.863784E-01 -4.341533E+01  1.547224E-04 5.208355E+01  1.558825E-04 5.065448E+01  9.851578E-01 -4.090954E+01 
3.880450E+02  9.863341E-01 -4.342707E+01  1.725895E-04 5.631143E+01  1.647074E-04 5.569046E+01  9.851978E-01 -4.090891E+01 
3.881075E+02  9.862284E-01 -4.343632E+01  1.887754E-04 5.502801E+01  1.671300E-04 5.453644E+01  9.852395E-01 -4.092313E+01 
3.881700E+02  9.864109E-01 -4.342750E+01  1.859192E-04 5.772586E+01  1.812707E-04 5.957953E+01  9.852032E-01 -4.093997E+01 
3.882325E+02  9.862169E-01 -4.344518E+01  1.832954E-04 5.919662E+01  1.879809E-04 5.956583E+01  9.854237E-01 -4.093598E+01 
3.882950E+02  9.860616E-01 -4.345347E+01  1.781723E-04 6.453755E+01  1.855461E-04 5.926676E+01  9.852377E-01 -4.094753E+01 
3.883575E+02  9.863512E-01 -4.345106E+01  2.335180E-04 6.197067E+01  1.930576E-04 6.168004E+01  9.851487E-01 -4.094019E+01 
3.884200E+02  9.862791E-01 -4.345507E+01  2.098419E-04 5.631040E+01  2.346493E-04 6.149609E+01  9.851600E-01 -4.094692E+01 
3.884825E+02  9.862230E-01 -4.347559E+01  2.314333E-04 5.828256E+01  2.362055E-04 5.673445E+01  9.852294E-01 -4.095193E+01 
3.885450E+02  9.860438E-01 -4.347465E+01  2.655987E-04 5.966850E+01  2.354627E-04 5.821494E+01  9.850493E-01 -4.096420E+01 
3.886075E+02  9.861745E-01 -4.347878E+01  2.269522E-04 5.270813E+01  2.477770E-04 5.449256E+01  9.850507E-01 -4.097763E+01 
3.886700E+02  9.863801E-01 -4.348509E+01  2.513767E-04 5.073294E+01  2.520808E-04 4.782883E+01  9.853063E-01 -4.098243E+01 
3.887325E+02  9.862792E-01 -4.348628E+01  2.519714E-04 5.102673E+01  2.811756E-04 5.185400E+01  9.853144E-01 -4.099256E+01 
3.887950E+02  9.861419E-01 -4.349838E+01  2.635664E-04 4.596951E+01  2.659253E-04 4.767865E+01  9.850681E-01 -4.099183E+01 
3.888575E+02  9.861943E-01 -4.351105E+01  2.724857E-04 4.121897E+01  2.673291E-04 4.181859E+01  9.852914E-01 -4.100059E+01 
3.889200E+02  9.859351E-01 -4.350768E+01  2.583196E-04 4.209912E+01  2.558756E-04 4.449038E+01  9.852452E-01 -4.099991E+01 
3.889825E+02  9.862113E-01 -4.351712E+01  2.871682E-04 3.898876E+01  2.641363E-04 3.986619E+01  9.853393E-01 -4.102000E+01 
3.890450E+02  9.861980E-01 -4.352045E+01  2.559004E-04 3.535649E+01  2.382087E-04 3.353135E+01  9.853734E-01 -4.101822E+01 
3.891075E+02  9.862428E-01 -4.353728E+01  2.411754E-04 3.388638E+01  2.459226E-04 3.342454E+01  9.850216E-01 -4.103203E+01 
3.891700E+02  9.860224E-01 -4.354685E+01  2.312159E-04 3.265938E+01  2.519134E-04 3.429199E+01  9.852214E-01 -4.103592E+01 
3.892325E+02  9.861816E-01 -4.355024E+01  2.458907E-04 3.078279E+01  2.358629E-04 2.962053E+01  9.849892E-01 -4.104138E+01 
3.892950E+02  9.862412E-01 -4.356481E+01  2.182378E-04 2.363649E+01  2.138214E-04 2.996086E+01  9.852021E-01 -4.105022E+01 
3.893575E+02  9.859748E-01 -4.357013E+01  2.038939E-04 3.059328E+01  2.105075E-04 2.764439E+01  9.853617E-01 -4.104600E+01 
3.894200E+02  9.862995E-01 -4.355930E+01  2.192117E-04 2.737351E+01  1.997644E-04 2.343702E+01  9.852002E-01 -4.105972E+01 
3.894825E+02  9.861008E-01 -4.357449E+01  1.880907E-04 2.498365E+01  1.856976E-04 2.285549E+01  9.850945E-01 -4.107495E+01 
3.895450E+02  9.863132E-01 -4.358243E+01  1.825040E-04 3.455019E+01  1.793492E-04 3.183419E+01  9.850274E-01 -4.107094E+01 
3.896075E+02  9.862532E-01 -4.358904E+01  1.609663E-04 2.356407E+01  1.833651E-04 3.470342E+01  9.849247E-01 -4.109169E+01 
3.896700E+02  9.863294E-01 -4.359451E+01  1.968954E-04 3.193162E+01  1.755031E-04 3.373200E+01  9.850747E-01 -4.109246E+01 
3.897325E+02  9.863140E-01 -4.360909E+01  1.762154E-04 3.632756E+01  1.573821E-04 3.571432E+01  9.850266E-01 -4.109294E+01 
3.897950E+02  9.860643E-01 -4.362375E+01  1.517153E-04 3.996931E+01  1.565167E-04 3.547188E+01  9.851708E-01 -4.110754E+01 
3.898575E+02  9.862410E-01 -4.361947E+01  1.613203E-04 4.455924E+01  1.523509E-04 3.598360E+01  9.851860E-01 -4.111426E+01 
3.899200E+02  9.861591E-01 -4.362978E+01  1.517344E-04 4.526559E+01  1.472212E-04 3.817186E+01  9.851493E-01 -4.111319E+01 
3.899825E+02  9.861083E-01 -4.363498E+01  1.555675E-04 4.324770E+01  1.430885E-04 3.931931E+01  9.853326E-01 -4.112201E+01 
3.900450E+02  9.861334E-01 -4.364410E+01  1.548762E-04 4.222246E+01  1.678018E-04 3.707679E+01  9.850325E-01 -4.112819E+01 
3.901075E+02  9.862067E-01 -4.365329E+01  1.736794E-04 4.050630E+01  1.579967E-04 4.774324E+01  9.849348E-01 -4.114331E+01 
3.901700E+02  9.862834E-01 -4.365951E+01  1.585987E-04 4.543218E+01  1.796596E-04 4.562225E+01  9.851230E-01 -4.114093E+01 
3.902325E+02  9.861460E-01 -4.367151E+01  1.610665E-04 4.562832E+01  1.642233E-04 4.236102E+01  9.852087E-01 -4.114423E+01 
3.902950E+02  9.863325E-01 -4.367000E+01  1.770996E-04 4.227124E+01  1.767857E-04 4.549077E+01  9.850898E-01 -4.116890E+01 
3.903575E+02  9.861191E-01 -4.367184E+01  1.798227E-04 5.182549E+01  1.586806E-04 4.716546E+01  9.850117E-01 -4.116566E+01 
3.904200E+02  9.862619E-01 -4.369465E+01  1.903928E-04 4.908126E+01  1.654720E-04 4.928437E+01  9.852448E-01 -4.117556E+01 
3.904825E+02  9.859940E-01 -4.369046E+01  1.788801E-04 4.664926E+01  1.866377E-04 4.659012E+01  9.850774E-01 -4.118192E+01 
3.905450E+02  9.862040E-01 -4.369501E+01  1.643130E-04 4.733695E+01  1.891156E-04 5.355382E+01  9.850847E-01 -4.118211E+01 
3.906075E+02  9.861275E-01 -4.371680E+01  1.542287E-04 5.513792E+01  1.896373E-04 4.299658E+01  9.852884E-01 -4.118788E+01 
3.906700E+02  9.860719E-01 -4.371679E+01  1.773811E-04 4.856713E+01  1.710118E-04 4.943490E+01  9.850753E-01 -4.120143E+01 
3.907325E+02  9.862901E-01 -4.371649E+01  1.811761E-04 4.443743E+01  1.995032E-04 4.382929E+01  9.850742E-01 -4.120625E+01 
3.907950E+02  9.860607E-01 -4.373687E+01  1.681287E-04 4.590199E+01  1.869834E-04 5.087677E+01  9.850854E-01 -4.121973E+01 
3.908575E+02  9.859723E-01 -4.373305E+01  1.821827E-04 4.711645E+01  1.866272E-04 4.548182E+01  9.851080E-01 -4.121741E+01 
3.909200E+02  9.859301E-01 -4.374336E+01  1.956130E-04 4.479286E+01  1.677757E-04 5.327562E+01  9.851987E-01 -4.123887E+01 
3.909825E+02  9.863607E-01 -4.375197E+01  1.786733E-04 4.301546E+01  1.660250E-04 5.051967E+01  9.850388E-01 -4.123986E+01 
3.910450E+02  9.860070E-01 -4.376158E+01  2.013177E-04 5.261691E+01  1.763464E-04 4.102164E+01  9.851212E-01 -4.124166E+01 
3.911075E+02  9.862270E-01 -4.376968E+01  1.843009E-04 4.177675E+01  1.712844E-04 5.547831E+01  9.850024E-01 -4.124208E+01 
3.911700E+02  9.861806E-01 -4.376327E+01  1.814660E-04 4.630303E+01  1.959228E-04 4.669732E+01  9.851569E-01 -4.126205E+01 
3.912325E+02  9.860464E-01 -4.377323E+01  1.849433E-04 5.112480E+01  1.912042E-04 5.002328E+01  9.849665E-01 -4.126287E+01 
3.912950E+02  9.858739E-01 -4.379912E+01  1.901789E-04 5.284290E+01  2.009087E-04 4.708702E+01  9.852122E-01 -4.127727E+01 
3.913575E+02  9.859493E-01 -4.379799E+01  1.935489E-04 4.342789E+01  1.817511E-04 3.821563E+01  9.852352E-01 -4.128552E+01 
3.914200E+02  9.859993E-01 -4.380135E+01  1.859933E-04 4.776800E+01  2.037223E-04 4.494997E+01  9.849133E-01 -4.129305E+01 
3.914825E+02  9.861977E-01 -4.381091E+01  1.995188E-04 4.117542E+01  1.993346E-04 4.647453E+01  9.852030E-01 -4.129607E+01 
3.915450E+02  9.861217E-01 -4.382306E+01  2.120013E-04 4.299270E+01  2.047608E-04 4.840167E+01  9.848992E-01 -4.130358E+01 
3.916075E+02  9.859836E-01 -4.383683E+01  1.683403E-04 4.103862E+01  1.834430E-04 4.315948E+01  9.850619E-01 -4.131741E+01 
3.916700E+02  9.861952E-01 -4.383224E+01  1.864126E-04 4.706434E+01  1.811511E-04 4.150177E+01  9.852367E-01 -4.131457E+01 
3.917325E+02  9.860736E-01 -4.382422E+01  1.832466E-04 4.558013E+01  2.102564E-04 4.266711E+01  9.850803E-01 -4.131762E+01 
3.917950E+02  9.859446E-01 -4.386162E+01  1.879630E-04 3.911757E+01  1.816689E-04 4.564518E+01  9.851324E-01 -4.132937E+01 
3.918575E+02  9.860426E-01 -4.386008E+01  1.620774E-04 4.473257E+01  1.951412E-04 5.151365E+01  9.849792E-01 -4.133152E+01 
3.919200E+02  9.860798E-01 -4.387069E+01  1.760506E-04 4.425474E+01  1.565390E-04 4.333162E+01  9.850335E-01 -4.134430E+01 
3.919825E+02  9.858901E-01 -4.387881E+01  1.694099E-04 4.510218E+01  1.931278E-04 3.868394E+01  9.850733E-01 -4.135518E+01 
3.920450E+02  9.861191E-01 -4.387711E+01  2.012038E-04 4.709579E+01  1.968003E-04 4.065516E+01  9.851892E-01 -4.136227E+01 
3.921075E+02  9.861780E-01 -4.387900E+01  1.981537E-04 4.455995E+01  1.673010E-04 4.470568E+01  9.848206E-01 -4.136573E+01 
3.921700E+02  9.860502E-01 -4.389317E+01  1.770099E-04 4.838082E+01  1.584634E-04 4.431878E+01  9.850787E-01 -4.137452E+01 
3.922325E+02  9.858873E-01 -4.389815E+01  1.646062E-04 5.261427E+01  1.794226E-04 4.265781E+01  9.849019E-01 -4.137102E+01 
3.922950E+02  9.861368E-01 -4.390878E+01  1.818850E-04 4.960436E+01  1.601639E-04 4.795609E+01  9.849257E-01 -4.138709E+01 
3.923575E+02  9.859239E-01 -4.391042E+01  1.698899E-04 4.515141E+01  1.744318E-04 4.437392E+01  9.850388E-01 -4.138990E+01 
3.924200E+02  9.860386E-01 -4.392349E+01  1.773669E-04 4.759709E+01  1.694811E-04 4.742242E+01  9.849017E-01 -4.140424E+01 
3.924825E+02  9.860199E-01 -4.393298E+01  1.942532E-04 4.012386E+01  1.712748E-04 5.075563E+01  9.850438E-01 -4.140809E+01 
3.925450E+02  9.859214E-01 -4.393196E+01  1.796736E-04 4.826652E+01  1.906084E-04 4.491683E+01  9.848059E-01 -4.141521E+01 
3.926075E+02  9.858901E-01 -4.394328E+01  1.704723E-04 4.710727E+01  1.739068E-04 4.703206E+01  9.850161E-01 -4.142021E+01 
3.926700E+02  9.858317E-01 -4.394443E+01  1.549662E-04 4.311585E+01  1.799389E-04 5.051500E+01  9.846773E-01 -4.143196E+01 
3.927325E+02  9.860506E-01 -4.397285E+01  1.927483E-04 4.713159E+01  1.595488E-04 4.478763E+01  9.849151E-01 -4.143321E+01 
3.927950E+02  9.859086E-01 -4.396725E+01  1.660274E-04 5.089554E+01  1.929125E-04 4.806974E+01  9.849952E-01 -4.144519E+01 
3.928575E+02  9.859639E-01 -4.396607E+01  1.631541E-04 4.693498E+01  1.658459E-04 4.986852E+01  9.850326E-01 -4.144708E+01 
3.929200E+02  9.858324E-01 -4.397815E+01  1.771871E-04 5.918631E+01  1.875552E-04 4.490973E+01  9.850432E-01 -4.146344E+01 
3.929825E+02  9.859390E-01 -4.398632E+01  1.671393E-04 5.595538E+01  1.737500E-04 4.255313E+01  9.849115E-01 -4.146369E+01 
3.930450E+02  9.861277E-01 -4.399327E+01  1.714480E-04 5.172706E+01  1.610763E-04 5.429248E+01  9.850356E-01 -4.146493E+01 
3.931075E+02  9.858490E-01 -4.400834E+01  1.609941E-04 5.489722E+01  1.648622E-04 5.062458E+01  9.850383E-01 -4.148604E+01 
3.931700E+02  9.862396E-01 -4.400087E+01  1.519886E-04 5.480096E+01  1.596275E-04 5.711444E+01  9.849141E-01 -4.149893E+01 
3.932325E+02  9.862587E-01 -4.401879E+01  1.667889E-04 5.533713E+01  1.769930E-04 6.042197E+01  9.849764E-01 -4.148681E+01 
3.932950E+02  9.859345E-01 -4.402839E+01  1.951429E-04 6.219613E+01  1.792030E-04 6.592769E+01  9.847279E-01 -4.150634E+01 
3.933575E+02  9.861557E-01 -4.402530E+01  1.747110E-04 5.861957E+01  1.676282E-04 6.222729E+01  9.848686E-01 -4.150952E+01 
3.934200E+02  9.860133E-01 -4.404674E+01  1.767688E-04 6.129613E+01  1.789651E-04 6.703724E+01  9.848218E-01 -4.151246E+01 
3.934825E+02  9.858746E-01 -4.404658E+01  1.852475E-04 6.169471E+01  2.108230E-04 5.922991E+01  9.847675E-01 -4.152240E+01 
3.935450E+02  9.859231E-01 -4.403975E+01  2.180751E-04 6.052189E+01  2.066470E-04 5.915725E+01  9.848877E-01 -4.151983E+01 
3.936075E+02  9.857438E-01 -4.405576E+01  1.955283E-04 5.919666E+01  2.143377E-04 6.009695E+01  9.847234E-01 -4.153489E+01 
3.936700E+02  9.858601E-01 -4.405975E+01  2.228856E-04 6.073181E+01  2.370204E-04 5.975735E+01  9.848933E-01 -4.152852E+01 
