! Matrix data file written by TouchstoneData, EPCOS AG
! FILENAME: "newformat_B3732_SB.s2p"
! COMMENT: "AUF PALTINE UNANGEPASST MIT PROT EXTENSION 2"
! INFO: nport=2, nfreq=801
! DATE: "Wed Sep 19 14:19:54 2012"
! USER: "Wilfried Schott"
!
! port | pin | signal
! -----|-----|--------
!   1  |  1  |  IN
!   2  |  4  |  OUT
! --------------------
! 
# MHZ S MA R 50
! freq  magS11 angS11  magS21 angS21  magS12 angS12  magS22 angS22
4.314200E+02  9.813344E-01 -5.043708E+01  5.254989E-05 -9.068239E+00  7.316484E-05 -1.042374E+01  9.801557E-01 -4.773339E+01 
4.314263E+02  9.814909E-01 -5.043967E+01  5.051386E-05 -2.252969E+01  7.086312E-05 -1.937883E+01  9.803103E-01 -4.773749E+01 
4.314325E+02  9.812976E-01 -5.045222E+01  3.529219E-05 1.277366E+01  3.225834E-05 -4.028526E+00  9.802336E-01 -4.774614E+01 
4.314388E+02  9.814473E-01 -5.045331E+01  5.311842E-05 -2.785881E+01  3.563558E-05 -3.981599E+01  9.801899E-01 -4.775329E+01 
4.314450E+02  9.817188E-01 -5.046106E+01  5.130217E-05 -1.058556E+01  3.871053E-05 -1.727576E+01  9.802819E-01 -4.775934E+01 
4.314513E+02  9.814126E-01 -5.047180E+01  4.785949E-05 -6.955557E+00  4.865475E-05 -1.926684E+01  9.801581E-01 -4.777455E+01 
4.314575E+02  9.814880E-01 -5.047007E+01  4.276625E-05 -5.674873E+01  1.563072E-05 6.364314E+01  9.802676E-01 -4.776947E+01 
4.314638E+02  9.813746E-01 -5.049679E+01  3.327710E-05 -2.877493E+01  3.577755E-05 -2.593149E+01  9.802207E-01 -4.778476E+01 
4.314700E+02  9.814483E-01 -5.050014E+01  2.480933E-05 -4.945125E+01  4.776314E-05 -5.349267E+01  9.802357E-01 -4.778179E+01 
4.314762E+02  9.812791E-01 -5.050621E+01  1.655015E-05 -1.800718E+01  4.498032E-05 -2.259019E+01  9.801478E-01 -4.780964E+01 
4.314825E+02  9.813581E-01 -5.051809E+01  5.104019E-05 -3.294184E+01  1.687597E-05 -2.675090E+01  9.802421E-01 -4.780502E+01 
4.314888E+02  9.812717E-01 -5.053538E+01  3.796146E-05 -1.803965E+01  3.041465E-05 -5.289002E+01  9.800629E-01 -4.781674E+01 
4.314950E+02  9.814853E-01 -5.053852E+01  2.243845E-05 -8.583069E+01  5.834732E-05 -2.437589E+01  9.802227E-01 -4.782305E+01 
4.315013E+02  9.814232E-01 -5.054364E+01  1.743774E-05 -9.845844E+00  3.541427E-05 -4.176405E+01  9.803025E-01 -4.783477E+01 
4.315075E+02  9.810993E-01 -5.056250E+01  5.160747E-05 -5.179301E+01  2.578494E-05 -1.743878E+01  9.801978E-01 -4.783942E+01 
4.315138E+02  9.814327E-01 -5.056188E+01  2.780923E-05 -5.469320E+01  3.228311E-05 -4.678314E+00  9.802891E-01 -4.787060E+01 
4.315200E+02  9.812089E-01 -5.057514E+01  4.208530E-05 -5.121665E+01  3.682833E-05 -3.589041E+01  9.802149E-01 -4.786234E+01 
4.315263E+02  9.810226E-01 -5.058071E+01  4.963147E-05 -3.209432E+01  3.225157E-05 -4.226516E+01  9.801625E-01 -4.786761E+01 
4.315325E+02  9.812928E-01 -5.058314E+01  5.549044E-05 -6.847700E+01  2.962067E-05 -3.771990E+01  9.802525E-01 -4.788636E+01 
4.315387E+02  9.814799E-01 -5.058513E+01  4.780369E-05 -5.145606E+01  3.848814E-05 -5.855026E+01  9.800947E-01 -4.789113E+01 
4.315450E+02  9.813240E-01 -5.060875E+01  2.062688E-05 -4.850375E+01  3.923681E-05 -7.278211E+01  9.801599E-01 -4.790818E+01 
4.315513E+02  9.811508E-01 -5.061556E+01  3.883499E-05 -5.324074E+01  1.454542E-05 -1.981977E+01  9.800832E-01 -4.790917E+01 
4.315575E+02  9.812274E-01 -5.061759E+01  4.610973E-05 -8.304795E+01  5.493190E-05 -6.105366E+01  9.800348E-01 -4.791226E+01 
4.315638E+02  9.814679E-01 -5.062597E+01  5.143882E-05 -5.091649E+01  3.529530E-05 -7.674007E+01  9.802133E-01 -4.792779E+01 
4.315700E+02  9.812695E-01 -5.063796E+01  3.830981E-05 -8.007503E+01  4.199497E-05 -8.312668E+01  9.799956E-01 -4.794091E+01 
4.315763E+02  9.813650E-01 -5.064502E+01  3.850219E-05 -1.017397E+02  3.843871E-05 -8.137137E+01  9.800238E-01 -4.794521E+01 
4.315825E+02  9.813177E-01 -5.066491E+01  5.042944E-05 -1.044768E+02  4.234977E-05 -8.560437E+01  9.802009E-01 -4.794939E+01 
4.315888E+02  9.810798E-01 -5.066640E+01  3.189194E-05 -8.166356E+01  4.744659E-05 -7.773874E+01  9.800293E-01 -4.796635E+01 
4.315950E+02  9.812197E-01 -5.067022E+01  3.819842E-05 -1.128863E+02  6.325328E-05 -8.005476E+01  9.799595E-01 -4.796758E+01 
4.316012E+02  9.812852E-01 -5.068468E+01  6.383763E-05 -7.528493E+01  5.213725E-05 -9.075150E+01  9.801364E-01 -4.797416E+01 
4.316075E+02  9.814121E-01 -5.068994E+01  4.231094E-05 -7.831823E+01  6.064848E-05 -8.379537E+01  9.800157E-01 -4.798811E+01 
4.316138E+02  9.814327E-01 -5.069612E+01  3.737583E-05 -1.058918E+02  6.003785E-05 -9.775166E+01  9.799037E-01 -4.800162E+01 
4.316200E+02  9.813642E-01 -5.070238E+01  7.841205E-05 -1.145749E+02  6.951932E-05 -8.591883E+01  9.799225E-01 -4.801401E+01 
4.316263E+02  9.812579E-01 -5.072315E+01  4.516771E-05 -7.217103E+01  5.800793E-05 -1.070191E+02  9.800890E-01 -4.801521E+01 
4.316325E+02  9.812331E-01 -5.072857E+01  5.176400E-05 -1.255801E+02  6.916061E-05 -1.030005E+02  9.799564E-01 -4.802686E+01 
4.316388E+02  9.812614E-01 -5.073600E+01  8.140155E-05 -1.021379E+02  3.959711E-05 -1.341920E+02  9.800044E-01 -4.803848E+01 
4.316450E+02  9.812076E-01 -5.074958E+01  7.639050E-05 -1.291932E+02  7.879248E-05 -1.001679E+02  9.800308E-01 -4.804658E+01 
4.316513E+02  9.811185E-01 -5.076461E+01  6.203694E-05 -1.065821E+02  6.182431E-05 -1.184966E+02  9.798380E-01 -4.805560E+01 
4.316575E+02  9.811738E-01 -5.077048E+01  7.793353E-05 -1.219135E+02  7.637822E-05 -1.158116E+02  9.800752E-01 -4.805902E+01 
4.316637E+02  9.811381E-01 -5.077916E+01  7.216099E-05 -1.203059E+02  7.089848E-05 -1.327636E+02  9.799607E-01 -4.807988E+01 
4.316700E+02  9.810107E-01 -5.079620E+01  1.039346E-04 -1.254575E+02  5.558056E-05 -1.395922E+02  9.799493E-01 -4.809027E+01 
4.316763E+02  9.808974E-01 -5.081049E+01  7.291994E-05 -1.359096E+02  7.991779E-05 -1.329220E+02  9.797953E-01 -4.810068E+01 
4.316825E+02  9.810060E-01 -5.082207E+01  8.337640E-05 -1.373392E+02  9.988001E-05 -1.381559E+02  9.797649E-01 -4.811022E+01 
4.316888E+02  9.809349E-01 -5.083266E+01  1.085645E-04 -1.354253E+02  1.104862E-04 -1.365119E+02  9.798529E-01 -4.812819E+01 
4.316950E+02  9.809197E-01 -5.083784E+01  1.110968E-04 -1.527861E+02  9.023696E-05 -1.404789E+02  9.798957E-01 -4.813876E+01 
4.317013E+02  9.810583E-01 -5.085051E+01  1.039712E-04 -1.349651E+02  9.190174E-05 -1.476442E+02  9.797198E-01 -4.814538E+01 
4.317075E+02  9.810703E-01 -5.085579E+01  9.869578E-05 -1.594685E+02  1.144873E-04 -1.469674E+02  9.796367E-01 -4.815970E+01 
4.317138E+02  9.810290E-01 -5.087115E+01  1.122506E-04 -1.581868E+02  1.124544E-04 -1.698497E+02  9.798126E-01 -4.817965E+01 
4.317200E+02  9.809746E-01 -5.088857E+01  1.337109E-04 -1.735168E+02  1.180221E-04 -1.626888E+02  9.797820E-01 -4.817639E+01 
4.317262E+02  9.810231E-01 -5.089208E+01  1.534173E-04 -1.657880E+02  1.611236E-04 -1.732986E+02  9.796104E-01 -4.818975E+01 
4.317325E+02  9.810317E-01 -5.090233E+01  1.638710E-04 1.799634E+02  1.263492E-04 -1.752323E+02  9.797354E-01 -4.819387E+01 
4.317388E+02  9.808818E-01 -5.090948E+01  1.604874E-04 1.631212E+02  1.553245E-04 1.784279E+02  9.796625E-01 -4.821357E+01 
4.317450E+02  9.808142E-01 -5.091476E+01  1.608756E-04 1.634524E+02  1.637672E-04 1.692846E+02  9.794094E-01 -4.821840E+01 
4.317513E+02  9.808017E-01 -5.092604E+01  1.742793E-04 1.583562E+02  1.548773E-04 1.526144E+02  9.795495E-01 -4.822911E+01 
4.317575E+02  9.808323E-01 -5.093388E+01  1.638679E-04 1.389727E+02  1.621331E-04 1.460036E+02  9.794916E-01 -4.822503E+01 
4.317638E+02  9.809926E-01 -5.094818E+01  1.622926E-04 1.309151E+02  1.797658E-04 1.308736E+02  9.796283E-01 -4.823974E+01 
4.317700E+02  9.808147E-01 -5.095510E+01  1.876000E-04 1.274721E+02  1.803606E-04 1.250127E+02  9.795540E-01 -4.824423E+01 
4.317763E+02  9.807658E-01 -5.095876E+01  1.888143E-04 1.204113E+02  1.723014E-04 1.220337E+02  9.796564E-01 -4.824825E+01 
4.317825E+02  9.806020E-01 -5.096798E+01  1.684826E-04 1.083751E+02  1.671255E-04 1.096391E+02  9.795188E-01 -4.826084E+01 
4.317887E+02  9.805914E-01 -5.098353E+01  1.684513E-04 1.007952E+02  1.825803E-04 1.038984E+02  9.796230E-01 -4.827209E+01 
4.317950E+02  9.805587E-01 -5.098201E+01  1.698275E-04 9.451067E+01  1.666394E-04 1.003000E+02  9.795207E-01 -4.829329E+01 
4.318013E+02  9.803956E-01 -5.099966E+01  1.700116E-04 9.027480E+01  1.859678E-04 9.135579E+01  9.795144E-01 -4.829573E+01 
4.318075E+02  9.805057E-01 -5.100536E+01  1.702705E-04 9.075340E+01  1.764658E-04 8.405464E+01  9.794902E-01 -4.830857E+01 
4.318138E+02  9.806024E-01 -5.101963E+01  1.679285E-04 7.864386E+01  1.717334E-04 7.503227E+01  9.796107E-01 -4.831521E+01 
4.318200E+02  9.804775E-01 -5.103743E+01  1.601578E-04 7.198717E+01  1.499419E-04 6.900687E+01  9.795518E-01 -4.832791E+01 
4.318263E+02  9.805615E-01 -5.104387E+01  1.548881E-04 7.651652E+01  1.672769E-04 7.557237E+01  9.794601E-01 -4.833838E+01 
4.318325E+02  9.807072E-01 -5.106345E+01  1.868487E-04 6.620203E+01  1.630728E-04 6.571138E+01  9.795167E-01 -4.835077E+01 
4.318388E+02  9.806273E-01 -5.106750E+01  1.502337E-04 6.264931E+01  1.636419E-04 6.021961E+01  9.794435E-01 -4.836592E+01 
4.318450E+02  9.804826E-01 -5.108695E+01  1.817221E-04 5.199935E+01  1.863174E-04 5.948163E+01  9.794839E-01 -4.837617E+01 
4.318512E+02  9.806016E-01 -5.108827E+01  1.565530E-04 5.982073E+01  1.672681E-04 5.466446E+01  9.794086E-01 -4.838183E+01 
4.318575E+02  9.805535E-01 -5.110487E+01  1.693255E-04 5.832195E+01  1.781717E-04 5.209036E+01  9.796427E-01 -4.839889E+01 
4.318638E+02  9.805978E-01 -5.110855E+01  1.711100E-04 4.526966E+01  1.731910E-04 5.186900E+01  9.794953E-01 -4.841087E+01 
4.318700E+02  9.806859E-01 -5.113069E+01  1.502570E-04 4.712919E+01  1.635728E-04 4.799534E+01  9.796239E-01 -4.842129E+01 
4.318763E+02  9.807093E-01 -5.114572E+01  1.840214E-04 4.373298E+01  1.735809E-04 4.323194E+01  9.795380E-01 -4.843721E+01 
4.318825E+02  9.804088E-01 -5.115340E+01  1.873216E-04 3.420733E+01  1.690225E-04 4.919880E+01  9.793514E-01 -4.844488E+01 
4.318888E+02  9.805408E-01 -5.116549E+01  1.857841E-04 3.891693E+01  1.822927E-04 4.462515E+01  9.795160E-01 -4.845693E+01 
4.318950E+02  9.804138E-01 -5.117837E+01  1.901217E-04 4.352134E+01  1.999032E-04 3.807422E+01  9.795027E-01 -4.847369E+01 
4.319013E+02  9.805809E-01 -5.118930E+01  2.010398E-04 3.927190E+01  1.728824E-04 3.719152E+01  9.793196E-01 -4.848942E+01 
4.319075E+02  9.803412E-01 -5.119837E+01  1.939582E-04 4.206941E+01  2.036756E-04 3.559756E+01  9.794196E-01 -4.850365E+01 
4.319137E+02  9.806151E-01 -5.120884E+01  2.290724E-04 3.411786E+01  2.004568E-04 3.648920E+01  9.794771E-01 -4.851154E+01 
4.319200E+02  9.803630E-01 -5.122155E+01  2.129013E-04 3.278745E+01  2.126638E-04 3.472081E+01  9.794003E-01 -4.851350E+01 
4.319263E+02  9.804237E-01 -5.124527E+01  2.411354E-04 3.552082E+01  2.303998E-04 3.882838E+01  9.793060E-01 -4.853275E+01 
4.319325E+02  9.801928E-01 -5.125158E+01  2.363919E-04 3.114679E+01  2.625882E-04 2.939252E+01  9.793708E-01 -4.854983E+01 
4.319388E+02  9.804112E-01 -5.126968E+01  2.255085E-04 3.156571E+01  2.254662E-04 3.165826E+01  9.792491E-01 -4.855003E+01 
4.319450E+02  9.804805E-01 -5.127915E+01  2.617894E-04 2.781463E+01  2.581346E-04 3.242885E+01  9.793058E-01 -4.856614E+01 
4.319513E+02  9.806093E-01 -5.129181E+01  2.606767E-04 2.602938E+01  2.684815E-04 2.533165E+01  9.790734E-01 -4.857875E+01 
4.319575E+02  9.802813E-01 -5.131121E+01  2.687404E-04 2.656102E+01  2.958579E-04 2.547327E+01  9.791413E-01 -4.859723E+01 
4.319638E+02  9.803008E-01 -5.133296E+01  2.868824E-04 2.236825E+01  2.863559E-04 2.724225E+01  9.791232E-01 -4.861970E+01 
4.319700E+02  9.802249E-01 -5.134055E+01  3.172274E-04 2.551909E+01  3.045974E-04 2.509113E+01  9.790959E-01 -4.863729E+01 
4.319762E+02  9.802746E-01 -5.136235E+01  3.488380E-04 2.346926E+01  3.346074E-04 2.211814E+01  9.789183E-01 -4.863614E+01 
4.319825E+02  9.804690E-01 -5.138025E+01  3.586633E-04 2.159848E+01  3.337572E-04 1.996516E+01  9.789475E-01 -4.865916E+01 
4.319888E+02  9.804501E-01 -5.139129E+01  3.565190E-04 2.442113E+01  3.570022E-04 1.881651E+01  9.789183E-01 -4.866699E+01 
4.319950E+02  9.802763E-01 -5.140639E+01  3.954519E-04 1.782358E+01  3.822128E-04 2.022329E+01  9.788945E-01 -4.867675E+01 
4.320013E+02  9.803291E-01 -5.141067E+01  3.987291E-04 1.813721E+01  3.914610E-04 1.667708E+01  9.790704E-01 -4.869067E+01 
4.320075E+02  9.804440E-01 -5.142240E+01  4.190768E-04 1.271345E+01  4.065765E-04 1.519342E+01  9.789233E-01 -4.870862E+01 
4.320138E+02  9.799931E-01 -5.144120E+01  4.451211E-04 1.292204E+01  4.283140E-04 1.380996E+01  9.789602E-01 -4.872208E+01 
4.320200E+02  9.799679E-01 -5.145367E+01  4.560437E-04 9.085329E+00  4.531796E-04 9.471005E+00  9.788520E-01 -4.874571E+01 
4.320263E+02  9.799457E-01 -5.146626E+01  4.636217E-04 8.543038E+00  4.739826E-04 7.419259E+00  9.788837E-01 -4.874757E+01 
4.320325E+02  9.799705E-01 -5.147952E+01  4.709866E-04 9.016418E+00  4.520019E-04 6.427714E+00  9.787683E-01 -4.877309E+01 
4.320387E+02  9.798073E-01 -5.149309E+01  4.675598E-04 4.734116E+00  4.886902E-04 4.652405E+00  9.786087E-01 -4.878725E+01 
4.320450E+02  9.799703E-01 -5.150463E+01  4.773756E-04 5.447251E+00  4.851808E-04 5.597408E+00  9.788357E-01 -4.879318E+01 
4.320513E+02  9.799400E-01 -5.152145E+01  4.664933E-04 3.232740E+00  4.769623E-04 7.579399E+00  9.787690E-01 -4.880426E+01 
4.320575E+02  9.799953E-01 -5.152863E+01  4.784702E-04 5.450364E+00  4.833625E-04 6.358549E+00  9.786669E-01 -4.882417E+01 
4.320638E+02  9.800384E-01 -5.154626E+01  4.949534E-04 3.263638E+00  5.052224E-04 6.080818E+00  9.788146E-01 -4.884036E+01 
4.320700E+02  9.798212E-01 -5.156636E+01  4.980882E-04 7.363053E+00  5.141838E-04 6.555383E+00  9.787558E-01 -4.885263E+01 
4.320763E+02  9.796205E-01 -5.157498E+01  5.238161E-04 8.264929E+00  5.174749E-04 6.666181E+00  9.786937E-01 -4.887108E+01 
4.320825E+02  9.797016E-01 -5.159597E+01  5.486350E-04 9.134150E+00  5.330726E-04 6.799527E+00  9.785236E-01 -4.888674E+01 
4.320888E+02  9.795964E-01 -5.160937E+01  5.629528E-04 7.976972E+00  5.348857E-04 8.277657E+00  9.786476E-01 -4.889519E+01 
4.320950E+02  9.798512E-01 -5.162904E+01  5.781139E-04 1.030888E+01  5.804066E-04 7.858581E+00  9.785979E-01 -4.891269E+01 
4.321012E+02  9.797655E-01 -5.164547E+01  5.998072E-04 9.347009E+00  6.152204E-04 9.922717E+00  9.786164E-01 -4.893740E+01 
4.321075E+02  9.796943E-01 -5.166199E+01  6.361736E-04 1.005740E+01  6.498760E-04 1.150514E+01  9.785478E-01 -4.895627E+01 
4.321138E+02  9.796481E-01 -5.167368E+01  6.476623E-04 1.091308E+01  6.600861E-04 1.057558E+01  9.784728E-01 -4.897459E+01 
4.321200E+02  9.796034E-01 -5.169503E+01  6.871017E-04 1.139272E+01  7.105360E-04 1.212867E+01  9.785463E-01 -4.899146E+01 
4.321263E+02  9.797252E-01 -5.171088E+01  7.648544E-04 1.169770E+01  7.417461E-04 1.324154E+01  9.784744E-01 -4.901414E+01 
4.321325E+02  9.798123E-01 -5.171949E+01  7.954103E-04 1.050027E+01  7.853679E-04 1.139976E+01  9.782104E-01 -4.902408E+01 
4.321388E+02  9.795733E-01 -5.175844E+01  8.274984E-04 1.345056E+01  8.183910E-04 1.011657E+01  9.782405E-01 -4.903633E+01 
4.321450E+02  9.792787E-01 -5.176663E+01  8.751910E-04 1.176205E+01  8.886435E-04 1.283295E+01  9.781871E-01 -4.905864E+01 
4.321513E+02  9.793292E-01 -5.178447E+01  9.289533E-04 1.281372E+01  9.392679E-04 1.089061E+01  9.782597E-01 -4.908772E+01 
4.321575E+02  9.792256E-01 -5.180809E+01  9.656037E-04 1.154652E+01  9.689586E-04 1.212413E+01  9.782791E-01 -4.909455E+01 
4.321637E+02  9.793496E-01 -5.183298E+01  1.036949E-03 1.189252E+01  1.011470E-03 1.275515E+01  9.782259E-01 -4.912252E+01 
4.321700E+02  9.794572E-01 -5.184992E+01  1.100151E-03 1.388338E+01  1.102554E-03 1.218249E+01  9.782065E-01 -4.913854E+01 
4.321763E+02  9.792659E-01 -5.187217E+01  1.163738E-03 1.291307E+01  1.170237E-03 1.114907E+01  9.781027E-01 -4.916526E+01 
4.321825E+02  9.791179E-01 -5.189138E+01  1.229605E-03 1.100870E+01  1.209845E-03 1.203475E+01  9.780868E-01 -4.918721E+01 
4.321888E+02  9.792486E-01 -5.191350E+01  1.289908E-03 1.248984E+01  1.316937E-03 1.178662E+01  9.778465E-01 -4.920381E+01 
4.321950E+02  9.791033E-01 -5.192295E+01  1.383731E-03 1.115050E+01  1.369850E-03 1.169914E+01  9.779282E-01 -4.921753E+01 
4.322013E+02  9.789327E-01 -5.195566E+01  1.475821E-03 1.031723E+01  1.476950E-03 1.106409E+01  9.777773E-01 -4.924151E+01 
4.322075E+02  9.789635E-01 -5.197789E+01  1.544986E-03 1.071212E+01  1.568614E-03 1.109112E+01  9.778053E-01 -4.925710E+01 
4.322138E+02  9.787119E-01 -5.200429E+01  1.646817E-03 1.061343E+01  1.678257E-03 1.137513E+01  9.776287E-01 -4.927989E+01 
4.322200E+02  9.784501E-01 -5.202885E+01  1.782705E-03 1.038194E+01  1.773076E-03 1.053143E+01  9.776531E-01 -4.930720E+01 
4.322262E+02  9.783859E-01 -5.204754E+01  1.875140E-03 1.052237E+01  1.884699E-03 1.036564E+01  9.775870E-01 -4.933806E+01 
4.322325E+02  9.783822E-01 -5.208250E+01  1.996991E-03 9.657288E+00  2.004867E-03 9.550628E+00  9.772883E-01 -4.935682E+01 
4.322388E+02  9.782318E-01 -5.210216E+01  2.137294E-03 9.059552E+00  2.132425E-03 9.403625E+00  9.771727E-01 -4.937988E+01 
4.322450E+02  9.783228E-01 -5.212550E+01  2.290777E-03 8.303458E+00  2.285878E-03 8.424412E+00  9.772202E-01 -4.942044E+01 
4.322513E+02  9.780851E-01 -5.215304E+01  2.446747E-03 8.108540E+00  2.460264E-03 8.675626E+00  9.771618E-01 -4.942513E+01 
4.322575E+02  9.777766E-01 -5.218503E+01  2.615475E-03 7.514585E+00  2.611099E-03 7.555217E+00  9.768931E-01 -4.945847E+01 
4.322638E+02  9.776371E-01 -5.222053E+01  2.817422E-03 6.608243E+00  2.834237E-03 6.987227E+00  9.768132E-01 -4.948191E+01 
4.322700E+02  9.774586E-01 -5.223881E+01  3.033051E-03 6.566187E+00  3.006408E-03 6.288562E+00  9.765983E-01 -4.951566E+01 
4.322763E+02  9.773506E-01 -5.227740E+01  3.258194E-03 5.463715E+00  3.235221E-03 5.569484E+00  9.763032E-01 -4.955994E+01 
4.322825E+02  9.771471E-01 -5.230850E+01  3.497289E-03 4.821201E+00  3.507099E-03 4.748412E+00  9.761274E-01 -4.957463E+01 
4.322887E+02  9.771109E-01 -5.234072E+01  3.826417E-03 3.901761E+00  3.801838E-03 3.870575E+00  9.760091E-01 -4.960834E+01 
4.322950E+02  9.769213E-01 -5.236645E+01  4.072293E-03 2.594346E+00  4.083843E-03 2.866631E+00  9.755914E-01 -4.963953E+01 
4.323013E+02  9.764187E-01 -5.241031E+01  4.434478E-03 1.760920E+00  4.434497E-03 1.890563E+00  9.752996E-01 -4.967726E+01 
4.323075E+02  9.758334E-01 -5.244577E+01  4.828017E-03 4.775409E-01  4.823992E-03 4.795406E-01  9.750344E-01 -4.971401E+01 
4.323138E+02  9.753869E-01 -5.248515E+01  5.255948E-03 -9.830737E-01  5.245993E-03 -8.272579E-01  9.746818E-01 -4.974428E+01 
4.323200E+02  9.749633E-01 -5.251750E+01  5.744717E-03 -2.387211E+00  5.737500E-03 -2.180525E+00  9.742498E-01 -4.977716E+01 
4.323263E+02  9.745230E-01 -5.256222E+01  6.280398E-03 -4.271133E+00  6.288337E-03 -4.304337E+00  9.736311E-01 -4.982605E+01 
4.323325E+02  9.739923E-01 -5.260247E+01  6.880539E-03 -6.211116E+00  6.889921E-03 -6.119282E+00  9.730602E-01 -4.986658E+01 
4.323388E+02  9.730527E-01 -5.263613E+01  7.585800E-03 -8.416306E+00  7.573028E-03 -8.320655E+00  9.723805E-01 -4.989799E+01 
4.323450E+02  9.721690E-01 -5.267783E+01  8.379474E-03 -1.098245E+01  8.369456E-03 -1.082673E+01  9.714081E-01 -4.993545E+01 
4.323512E+02  9.712605E-01 -5.270691E+01  9.248450E-03 -1.384943E+01  9.260583E-03 -1.373467E+01  9.708518E-01 -4.997154E+01 
4.323575E+02  9.698761E-01 -5.274234E+01  1.027612E-02 -1.717894E+01  1.025967E-02 -1.707320E+01  9.695269E-01 -5.000253E+01 
4.323638E+02  9.683835E-01 -5.276885E+01  1.140196E-02 -2.110865E+01  1.140492E-02 -2.101955E+01  9.681454E-01 -5.001322E+01 
4.323700E+02  9.666117E-01 -5.277468E+01  1.266540E-02 -2.563902E+01  1.267933E-02 -2.559515E+01  9.667149E-01 -5.003031E+01 
4.323763E+02  9.647712E-01 -5.275560E+01  1.400093E-02 -3.082808E+01  1.399531E-02 -3.078465E+01  9.649835E-01 -5.003040E+01 
4.323825E+02  9.629005E-01 -5.273011E+01  1.543121E-02 -3.669925E+01  1.543386E-02 -3.660563E+01  9.631612E-01 -4.998618E+01 
4.323888E+02  9.609708E-01 -5.265574E+01  1.689610E-02 -4.331565E+01  1.689816E-02 -4.318800E+01  9.612806E-01 -4.994454E+01 
