! Matrix data file written by TouchstoneData, EPCOS AG
! FILENAME: "newformat_B3739_SB.s2p"
! COMMENT: "PORTEX1 93PS; PORTEX2 179.5PS; 13 Mar 2008 S"
! INFO: nport=2, nfreq=1601
! DATE: "Wed Sep 19 14:54:27 2012"
! USER: "Wilfried Schott"
!
! port | pin | signal
! -----|-----|--------
!   1  |  1  |  IN
!   2  |  4  |  OUT
! --------------------
! 
# MHZ S MA R 50
! freq  magS11 angS11  magS21 angS21  magS12 angS12  magS22 angS22
3.125000E+02  9.945735E-01 -2.779169E+01  2.527433E-05 -2.243188E+01  1.796011E-05 -2.775934E+01  9.932279E-01 -2.545331E+01 
3.125031E+02  9.947089E-01 -2.779768E+01  2.509368E-05 -1.225332E+01  2.545494E-05 -2.437253E+01  9.931257E-01 -2.547206E+01 
3.125063E+02  9.945516E-01 -2.779481E+01  1.789706E-05 -1.723547E+01  1.935387E-05 -2.556302E+01  9.931247E-01 -2.546936E+01 
3.125094E+02  9.947005E-01 -2.780112E+01  1.938853E-05 -4.141377E+01  2.952321E-05 -2.496049E+01  9.930792E-01 -2.547192E+01 
3.125125E+02  9.947361E-01 -2.779929E+01  2.113623E-05 -4.189853E+01  2.492727E-05 -4.222147E+01  9.930493E-01 -2.547852E+01 
3.125156E+02  9.946625E-01 -2.779872E+01  2.284143E-05 -2.723112E+01  2.113647E-05 -5.282442E+01  9.931222E-01 -2.547187E+01 
3.125188E+02  9.947933E-01 -2.781017E+01  2.080310E-05 -5.514575E+01  3.149600E-05 -4.200009E+01  9.931042E-01 -2.547197E+01 
3.125219E+02  9.945101E-01 -2.780588E+01  2.125607E-05 -5.424991E+01  2.473113E-05 -5.531470E+01  9.932109E-01 -2.547639E+01 
3.125250E+02  9.946283E-01 -2.781048E+01  2.327358E-05 -8.437806E+01  2.500326E-05 -6.262857E+01  9.930472E-01 -2.547344E+01 
3.125281E+02  9.945876E-01 -2.781044E+01  2.804493E-05 -7.702933E+01  3.203938E-05 -7.652044E+01  9.930389E-01 -2.548704E+01 
3.125312E+02  9.945151E-01 -2.781092E+01  2.816881E-05 -7.609342E+01  1.822200E-05 -8.374064E+01  9.930761E-01 -2.547875E+01 
3.125344E+02  9.946631E-01 -2.781181E+01  3.547429E-05 -6.411386E+01  2.585073E-05 -8.383859E+01  9.930120E-01 -2.548972E+01 
3.125375E+02  9.946761E-01 -2.781755E+01  3.317379E-05 -7.663865E+01  2.526698E-05 -7.151567E+01  9.931768E-01 -2.548571E+01 
3.125406E+02  9.945819E-01 -2.781888E+01  3.540472E-05 -8.263684E+01  3.472273E-05 -8.148085E+01  9.929408E-01 -2.548675E+01 
3.125437E+02  9.944773E-01 -2.782752E+01  3.702280E-05 -8.623140E+01  3.206031E-05 -9.658745E+01  9.929819E-01 -2.549701E+01 
3.125469E+02  9.945898E-01 -2.783126E+01  4.014250E-05 -9.306783E+01  3.519294E-05 -9.421535E+01  9.930567E-01 -2.548752E+01 
3.125500E+02  9.945413E-01 -2.782472E+01  4.171764E-05 -9.006033E+01  4.176317E-05 -1.049039E+02  9.930421E-01 -2.549777E+01 
3.125531E+02  9.945505E-01 -2.783244E+01  4.366532E-05 -1.068603E+02  3.908801E-05 -9.328405E+01  9.930685E-01 -2.549730E+01 
3.125562E+02  9.945910E-01 -2.783003E+01  4.712018E-05 -1.142891E+02  4.770736E-05 -9.905809E+01  9.928398E-01 -2.550814E+01 
3.125594E+02  9.944200E-01 -2.783677E+01  4.491767E-05 -1.004340E+02  5.451586E-05 -9.874051E+01  9.929831E-01 -2.550755E+01 
3.125625E+02  9.944642E-01 -2.783751E+01  5.404166E-05 -1.063704E+02  5.468104E-05 -9.444333E+01  9.930915E-01 -2.550067E+01 
3.125656E+02  9.944725E-01 -2.783823E+01  5.211944E-05 -1.036975E+02  6.197321E-05 -1.056105E+02  9.929446E-01 -2.550859E+01 
3.125688E+02  9.944966E-01 -2.783454E+01  6.036892E-05 -1.117026E+02  6.348487E-05 -1.069873E+02  9.930712E-01 -2.551607E+01 
3.125719E+02  9.944998E-01 -2.783759E+01  6.334954E-05 -1.069905E+02  6.953108E-05 -1.030700E+02  9.930211E-01 -2.551642E+01 
3.125750E+02  9.944897E-01 -2.784634E+01  6.812924E-05 -1.068062E+02  6.706259E-05 -1.102888E+02  9.928479E-01 -2.551284E+01 
3.125781E+02  9.944382E-01 -2.784630E+01  7.156110E-05 -1.140240E+02  6.913480E-05 -1.103277E+02  9.930296E-01 -2.550918E+01 
3.125813E+02  9.945501E-01 -2.785550E+01  7.229457E-05 -1.105488E+02  7.345158E-05 -1.190491E+02  9.929494E-01 -2.551525E+01 
3.125844E+02  9.945782E-01 -2.784651E+01  7.721221E-05 -1.160464E+02  7.004730E-05 -1.194661E+02  9.930040E-01 -2.551413E+01 
3.125875E+02  9.944686E-01 -2.785544E+01  8.099067E-05 -1.105789E+02  7.059307E-05 -1.144804E+02  9.928914E-01 -2.552032E+01 
3.125906E+02  9.944536E-01 -2.785427E+01  8.234757E-05 -1.134441E+02  8.771712E-05 -1.211997E+02  9.928982E-01 -2.551749E+01 
3.125938E+02  9.944583E-01 -2.785630E+01  9.015998E-05 -1.180368E+02  8.954249E-05 -1.174791E+02  9.930482E-01 -2.552440E+01 
3.125969E+02  9.944898E-01 -2.786330E+01  9.472178E-05 -1.178675E+02  9.562916E-05 -1.190914E+02  9.929723E-01 -2.552218E+01 
3.126000E+02  9.944967E-01 -2.785686E+01  9.986788E-05 -1.220494E+02  9.164027E-05 -1.199199E+02  9.930568E-01 -2.552798E+01 
3.126031E+02  9.944844E-01 -2.785920E+01  1.022267E-04 -1.200751E+02  9.930857E-05 -1.206823E+02  9.929355E-01 -2.553619E+01 
3.126062E+02  9.944699E-01 -2.786905E+01  1.048351E-04 -1.272712E+02  1.093086E-04 -1.211769E+02  9.929405E-01 -2.553035E+01 
3.126094E+02  9.944147E-01 -2.786144E+01  1.146209E-04 -1.238065E+02  1.173839E-04 -1.254500E+02  9.929834E-01 -2.553305E+01 
3.126125E+02  9.944201E-01 -2.787192E+01  1.225217E-04 -1.233729E+02  1.195636E-04 -1.229935E+02  9.929813E-01 -2.553165E+01 
3.126156E+02  9.944864E-01 -2.787410E+01  1.254444E-04 -1.270380E+02  1.233682E-04 -1.262943E+02  9.929105E-01 -2.552865E+01 
3.126187E+02  9.944950E-01 -2.786219E+01  1.294624E-04 -1.251138E+02  1.311402E-04 -1.271856E+02  9.928857E-01 -2.553228E+01 
3.126219E+02  9.945236E-01 -2.787265E+01  1.382669E-04 -1.264310E+02  1.348740E-04 -1.280996E+02  9.929409E-01 -2.553280E+01 
3.126250E+02  9.945056E-01 -2.787879E+01  1.439350E-04 -1.302710E+02  1.392168E-04 -1.294991E+02  9.929533E-01 -2.553757E+01 
3.126281E+02  9.943857E-01 -2.788450E+01  1.467778E-04 -1.293758E+02  1.514985E-04 -1.290588E+02  9.928283E-01 -2.554251E+01 
3.126313E+02  9.943872E-01 -2.787790E+01  1.486200E-04 -1.306642E+02  1.496073E-04 -1.313402E+02  9.929462E-01 -2.554373E+01 
3.126344E+02  9.945339E-01 -2.788221E+01  1.540836E-04 -1.310289E+02  1.639575E-04 -1.314560E+02  9.929163E-01 -2.555256E+01 
3.126375E+02  9.943677E-01 -2.788966E+01  1.686485E-04 -1.333452E+02  1.687724E-04 -1.323173E+02  9.929066E-01 -2.554649E+01 
3.126406E+02  9.944727E-01 -2.788649E+01  1.697157E-04 -1.352805E+02  1.737558E-04 -1.352484E+02  9.929555E-01 -2.555515E+01 
3.126438E+02  9.942655E-01 -2.789377E+01  1.845620E-04 -1.331864E+02  1.838965E-04 -1.359146E+02  9.929367E-01 -2.555848E+01 
3.126469E+02  9.943739E-01 -2.789415E+01  1.925605E-04 -1.358469E+02  1.897832E-04 -1.351774E+02  9.929692E-01 -2.555705E+01 
3.126500E+02  9.944618E-01 -2.789044E+01  2.006964E-04 -1.358644E+02  1.994957E-04 -1.356049E+02  9.927728E-01 -2.555966E+01 
3.126531E+02  9.943734E-01 -2.790134E+01  2.075980E-04 -1.374260E+02  2.057042E-04 -1.381685E+02  9.929649E-01 -2.556820E+01 
3.126562E+02  9.944046E-01 -2.790189E+01  2.132310E-04 -1.379805E+02  2.070136E-04 -1.393450E+02  9.929696E-01 -2.557133E+01 
3.126594E+02  9.943254E-01 -2.789654E+01  2.173101E-04 -1.387315E+02  2.269709E-04 -1.394628E+02  9.929092E-01 -2.556511E+01 
3.126625E+02  9.942793E-01 -2.789857E+01  2.250029E-04 -1.395487E+02  2.344484E-04 -1.411232E+02  9.928843E-01 -2.557410E+01 
3.126656E+02  9.944373E-01 -2.790580E+01  2.379281E-04 -1.407157E+02  2.405149E-04 -1.415234E+02  9.927252E-01 -2.557882E+01 
3.126687E+02  9.943533E-01 -2.790562E+01  2.556758E-04 -1.438725E+02  2.519697E-04 -1.430220E+02  9.928703E-01 -2.557827E+01 
3.126719E+02  9.943349E-01 -2.790795E+01  2.589879E-04 -1.437819E+02  2.573916E-04 -1.446184E+02  9.928094E-01 -2.559315E+01 
3.126750E+02  9.942345E-01 -2.791619E+01  2.780650E-04 -1.441135E+02  2.739242E-04 -1.455702E+02  9.928276E-01 -2.558319E+01 
3.126781E+02  9.944147E-01 -2.791426E+01  2.762836E-04 -1.464024E+02  2.782804E-04 -1.461679E+02  9.928223E-01 -2.558480E+01 
3.126812E+02  9.943682E-01 -2.791538E+01  2.957963E-04 -1.491669E+02  2.942145E-04 -1.463129E+02  9.925777E-01 -2.559165E+01 
3.126844E+02  9.942026E-01 -2.792003E+01  3.015604E-04 -1.489636E+02  3.066076E-04 -1.493372E+02  9.926308E-01 -2.559219E+01 
3.126875E+02  9.942733E-01 -2.792215E+01  3.133645E-04 -1.501157E+02  3.172001E-04 -1.505220E+02  9.926397E-01 -2.559157E+01 
3.126906E+02  9.942731E-01 -2.792645E+01  3.271686E-04 -1.512537E+02  3.234131E-04 -1.507680E+02  9.926299E-01 -2.559925E+01 
3.126938E+02  9.942479E-01 -2.792909E+01  3.399519E-04 -1.541138E+02  3.426762E-04 -1.529241E+02  9.926966E-01 -2.560098E+01 
3.126969E+02  9.941636E-01 -2.793050E+01  3.548830E-04 -1.538720E+02  3.497045E-04 -1.547009E+02  9.926462E-01 -2.560473E+01 
3.127000E+02  9.942083E-01 -2.793120E+01  3.667295E-04 -1.545487E+02  3.654826E-04 -1.560992E+02  9.925326E-01 -2.560743E+01 
3.127031E+02  9.941412E-01 -2.793711E+01  3.835430E-04 -1.575587E+02  3.766642E-04 -1.571585E+02  9.925915E-01 -2.561038E+01 
3.127063E+02  9.941889E-01 -2.794391E+01  3.924275E-04 -1.577983E+02  3.922067E-04 -1.575239E+02  9.925509E-01 -2.560092E+01 
3.127094E+02  9.941163E-01 -2.793643E+01  4.097554E-04 -1.597023E+02  4.090293E-04 -1.606311E+02  9.925777E-01 -2.560600E+01 
3.127125E+02  9.941693E-01 -2.793725E+01  4.240262E-04 -1.626118E+02  4.184524E-04 -1.622419E+02  9.925421E-01 -2.562081E+01 
3.127156E+02  9.941996E-01 -2.793742E+01  4.411073E-04 -1.635486E+02  4.395520E-04 -1.633453E+02  9.923969E-01 -2.561535E+01 
3.127188E+02  9.941482E-01 -2.794141E+01  4.578975E-04 -1.647575E+02  4.519466E-04 -1.648837E+02  9.924495E-01 -2.560659E+01 
3.127219E+02  9.940500E-01 -2.794785E+01  4.707501E-04 -1.661267E+02  4.733874E-04 -1.667049E+02  9.924289E-01 -2.561091E+01 
3.127250E+02  9.939584E-01 -2.794407E+01  4.951917E-04 -1.690501E+02  4.918946E-04 -1.677145E+02  9.924672E-01 -2.562084E+01 
3.127281E+02  9.941998E-01 -2.795580E+01  5.003852E-04 -1.701741E+02  5.017474E-04 -1.701813E+02  9.922734E-01 -2.562300E+01 
3.127312E+02  9.940254E-01 -2.795027E+01  5.219472E-04 -1.723731E+02  5.251094E-04 -1.718901E+02  9.923103E-01 -2.562620E+01 
3.127344E+02  9.940643E-01 -2.794857E+01  5.423788E-04 -1.738037E+02  5.424408E-04 -1.737534E+02  9.923571E-01 -2.562952E+01 
3.127375E+02  9.940384E-01 -2.795994E+01  5.592978E-04 -1.749670E+02  5.585379E-04 -1.757572E+02  9.922128E-01 -2.563562E+01 
3.127406E+02  9.939934E-01 -2.795842E+01  5.766951E-04 -1.787603E+02  5.781576E-04 -1.772764E+02  9.921231E-01 -2.562521E+01 
3.127437E+02  9.939234E-01 -2.795462E+01  5.913485E-04 -1.796636E+02  5.933047E-04 -1.797316E+02  9.920152E-01 -2.563616E+01 
3.127469E+02  9.939029E-01 -2.796448E+01  6.195300E-04 1.778077E+02  6.189776E-04 1.777584E+02  9.921853E-01 -2.563250E+01 
3.127500E+02  9.939215E-01 -2.795734E+01  6.372120E-04 1.755923E+02  6.321595E-04 1.764034E+02  9.921068E-01 -2.562928E+01 
3.127531E+02  9.937873E-01 -2.796239E+01  6.530892E-04 1.740761E+02  6.512520E-04 1.736151E+02  9.921153E-01 -2.563030E+01 
3.127563E+02  9.937951E-01 -2.796142E+01  6.803388E-04 1.706913E+02  6.731876E-04 1.708357E+02  9.920327E-01 -2.563313E+01 
3.127594E+02  9.938128E-01 -2.795985E+01  6.897965E-04 1.688244E+02  6.995082E-04 1.688952E+02  9.920288E-01 -2.563348E+01 
3.127625E+02  9.938548E-01 -2.796581E+01  7.084780E-04 1.663950E+02  7.134718E-04 1.667929E+02  9.919180E-01 -2.563847E+01 
3.127656E+02  9.938366E-01 -2.796874E+01  7.330973E-04 1.641091E+02  7.283731E-04 1.641530E+02  9.917537E-01 -2.562650E+01 
3.127688E+02  9.936790E-01 -2.797062E+01  7.482610E-04 1.612731E+02  7.370249E-04 1.615002E+02  9.917512E-01 -2.563073E+01 
3.127719E+02  9.936690E-01 -2.796888E+01  7.654428E-04 1.597379E+02  7.584762E-04 1.590744E+02  9.917943E-01 -2.563844E+01 
3.127750E+02  9.936614E-01 -2.796535E+01  7.736530E-04 1.568399E+02  7.757591E-04 1.570318E+02  9.917647E-01 -2.563963E+01 
3.127781E+02  9.935942E-01 -2.797132E+01  7.901134E-04 1.538544E+02  7.863226E-04 1.538005E+02  9.918012E-01 -2.564191E+01 
3.127812E+02  9.936051E-01 -2.797132E+01  8.082212E-04 1.511852E+02  8.076836E-04 1.516398E+02  9.917896E-01 -2.563404E+01 
3.127844E+02  9.937293E-01 -2.797685E+01  8.195558E-04 1.489431E+02  8.175863E-04 1.489722E+02  9.917045E-01 -2.563335E+01 
3.127875E+02  9.936624E-01 -2.797757E+01  8.247291E-04 1.468952E+02  8.264019E-04 1.467112E+02  9.917707E-01 -2.563699E+01 
3.127906E+02  9.937641E-01 -2.797771E+01  8.427413E-04 1.439780E+02  8.388975E-04 1.440205E+02  9.916321E-01 -2.563762E+01 
3.127937E+02  9.936688E-01 -2.798086E+01  8.512511E-04 1.411289E+02  8.527381E-04 1.412334E+02  9.917526E-01 -2.563569E+01 
3.127969E+02  9.936307E-01 -2.798280E+01  8.659323E-04 1.390375E+02  8.511002E-04 1.385511E+02  9.916870E-01 -2.563085E+01 
3.128000E+02  9.936278E-01 -2.798290E+01  8.654102E-04 1.367805E+02  8.703964E-04 1.363506E+02  9.916895E-01 -2.563438E+01 
3.128031E+02  9.935740E-01 -2.798186E+01  8.725958E-04 1.340112E+02  8.744409E-04 1.336777E+02  9.917481E-01 -2.563000E+01 
3.128062E+02  9.937179E-01 -2.798237E+01  8.852910E-04 1.310202E+02  8.756810E-04 1.313228E+02  9.916742E-01 -2.563277E+01 
3.128094E+02  9.936919E-01 -2.798180E+01  8.915867E-04 1.287229E+02  8.874419E-04 1.287668E+02  9.917054E-01 -2.562320E+01 
3.128125E+02  9.937262E-01 -2.799180E+01  8.979639E-04 1.262484E+02  8.916095E-04 1.264438E+02  9.917317E-01 -2.562973E+01 
3.128156E+02  9.936264E-01 -2.798880E+01  8.949120E-04 1.240882E+02  8.966005E-04 1.239911E+02  9.917995E-01 -2.563107E+01 
3.128188E+02  9.936631E-01 -2.798338E+01  8.939894E-04 1.210817E+02  8.926021E-04 1.215646E+02  9.917119E-01 -2.562450E+01 
3.128219E+02  9.935739E-01 -2.798957E+01  9.037500E-04 1.193495E+02  8.965619E-04 1.192948E+02  9.917353E-01 -2.563874E+01 
3.128250E+02  9.936941E-01 -2.798595E+01  9.012197E-04 1.172054E+02  8.981241E-04 1.170858E+02  9.918045E-01 -2.563612E+01 
3.128281E+02  9.937444E-01 -2.798724E+01  9.120031E-04 1.147167E+02  9.040774E-04 1.151463E+02  9.918254E-01 -2.563276E+01 
3.128313E+02  9.935953E-01 -2.799368E+01  8.979507E-04 1.127053E+02  9.061740E-04 1.130111E+02  9.917585E-01 -2.563542E+01 
3.128344E+02  9.937020E-01 -2.799218E+01  9.071610E-04 1.103856E+02  8.996670E-04 1.103668E+02  9.918302E-01 -2.562891E+01 
3.128375E+02  9.937937E-01 -2.799458E+01  8.969011E-04 1.082456E+02  9.037270E-04 1.083935E+02  9.918075E-01 -2.563477E+01 
3.128406E+02  9.937588E-01 -2.799514E+01  9.030954E-04 1.062010E+02  8.983993E-04 1.061815E+02  9.918313E-01 -2.562747E+01 
3.128438E+02  9.938010E-01 -2.799216E+01  9.025048E-04 1.039896E+02  9.016126E-04 1.038032E+02  9.919432E-01 -2.564127E+01 
3.128469E+02  9.935535E-01 -2.800409E+01  9.053737E-04 1.025401E+02  9.021402E-04 1.022188E+02  9.919018E-01 -2.563485E+01 
3.128500E+02  9.935940E-01 -2.799282E+01  9.049470E-04 9.977714E+01  9.025235E-04 1.000046E+02  9.918792E-01 -2.563737E+01 
3.128531E+02  9.937692E-01 -2.799938E+01  8.965286E-04 9.831506E+01  9.015809E-04 9.836923E+01  9.918869E-01 -2.563899E+01 
3.128562E+02  9.937098E-01 -2.800057E+01  8.996993E-04 9.655818E+01  9.002792E-04 9.622789E+01  9.918800E-01 -2.564356E+01 
3.128594E+02  9.937076E-01 -2.800518E+01  9.072214E-04 9.417402E+01  9.037697E-04 9.441050E+01  9.919439E-01 -2.564650E+01 
3.128625E+02  9.936922E-01 -2.801010E+01  8.997554E-04 9.286829E+01  9.016065E-04 9.244590E+01  9.920790E-01 -2.564749E+01 
3.128656E+02  9.936938E-01 -2.801169E+01  9.004532E-04 9.061582E+01  8.973507E-04 9.046669E+01  9.921058E-01 -2.565099E+01 
3.128687E+02  9.937115E-01 -2.801584E+01  8.988849E-04 8.890840E+01  8.995810E-04 8.864491E+01  9.919627E-01 -2.565558E+01 
3.128719E+02  9.936078E-01 -2.800990E+01  9.022911E-04 8.674376E+01  9.044237E-04 8.670142E+01  9.918471E-01 -2.564929E+01 
3.128750E+02  9.935706E-01 -2.800591E+01  8.968852E-04 8.500613E+01  9.070857E-04 8.509023E+01  9.920364E-01 -2.565866E+01 
3.128781E+02  9.936734E-01 -2.801769E+01  9.005169E-04 8.328450E+01  9.022358E-04 8.338716E+01  9.920344E-01 -2.566135E+01 
3.128813E+02  9.936648E-01 -2.801990E+01  9.064270E-04 8.141729E+01  9.006191E-04 8.157380E+01  9.920714E-01 -2.566181E+01 
3.128844E+02  9.937912E-01 -2.802465E+01  9.041132E-04 7.941742E+01  9.006790E-04 7.935651E+01  9.919233E-01 -2.566542E+01 
3.128875E+02  9.935828E-01 -2.802804E+01  8.941200E-04 7.803030E+01  8.978648E-04 7.783246E+01  9.920265E-01 -2.566132E+01 
3.128906E+02  9.935684E-01 -2.802505E+01  9.048507E-04 7.594119E+01  9.018660E-04 7.582860E+01  9.920317E-01 -2.566811E+01 
3.128938E+02  9.935340E-01 -2.803459E+01  9.090013E-04 7.460191E+01  9.088338E-04 7.388922E+01  9.920479E-01 -2.567671E+01 
3.128969E+02  9.935008E-01 -2.802981E+01  9.095568E-04 7.262181E+01  9.084119E-04 7.251480E+01  9.920412E-01 -2.566939E+01 
3.129000E+02  9.935561E-01 -2.803914E+01  9.121269E-04 7.051957E+01  9.133694E-04 7.030299E+01  9.920480E-01 -2.568390E+01 
3.129031E+02  9.934746E-01 -2.804046E+01  9.091036E-04 6.881933E+01  9.165728E-04 6.874926E+01  9.921596E-01 -2.567391E+01 
3.129062E+02  9.935445E-01 -2.804500E+01  9.189308E-04 6.740484E+01  9.262087E-04 6.697062E+01  9.922244E-01 -2.568413E+01 
3.129094E+02  9.934896E-01 -2.804637E+01  9.262757E-04 6.494303E+01  9.260081E-04 6.526659E+01  9.920820E-01 -2.568623E+01 
3.129125E+02  9.935052E-01 -2.804862E+01  9.278131E-04 6.227996E+01  9.243675E-04 6.291326E+01  9.920384E-01 -2.568299E+01 
3.129156E+02  9.935901E-01 -2.805043E+01  9.344226E-04 6.104950E+01  9.420378E-04 6.120151E+01  9.921172E-01 -2.569099E+01 
3.129187E+02  9.933713E-01 -2.805397E+01  9.371026E-04 5.883680E+01  9.363133E-04 5.900701E+01  9.920601E-01 -2.569109E+01 
3.129219E+02  9.933070E-01 -2.805759E+01  9.458157E-04 5.674250E+01  9.392875E-04 5.686339E+01  9.920700E-01 -2.570411E+01 
3.129250E+02  9.933352E-01 -2.806031E+01  9.499713E-04 5.525416E+01  9.534420E-04 5.493605E+01  9.918980E-01 -2.569083E+01 
3.129281E+02  9.933228E-01 -2.805281E+01  9.575870E-04 5.302974E+01  9.567830E-04 5.262561E+01  9.920064E-01 -2.571351E+01 
3.129312E+02  9.934461E-01 -2.805818E+01  9.603702E-04 5.022433E+01  9.685530E-04 5.082816E+01  9.919423E-01 -2.570453E+01 
3.129344E+02  9.933622E-01 -2.806381E+01  9.713930E-04 4.851026E+01  9.839313E-04 4.809095E+01  9.919447E-01 -2.570255E+01 
3.129375E+02  9.934101E-01 -2.806463E+01  9.728029E-04 4.597617E+01  9.780264E-04 4.585790E+01  9.918902E-01 -2.571029E+01 
3.129406E+02  9.932897E-01 -2.807128E+01  9.838817E-04 4.344927E+01  9.931267E-04 4.305894E+01  9.919276E-01 -2.571109E+01 
3.129438E+02  9.932167E-01 -2.806806E+01  9.936015E-04 4.080201E+01  9.984659E-04 4.119421E+01  9.919397E-01 -2.571151E+01 
3.129469E+02  9.933020E-01 -2.806691E+01  1.003346E-03 3.835714E+01  1.007958E-03 3.826580E+01  9.918354E-01 -2.571560E+01 
3.129500E+02  9.931150E-01 -2.807826E+01  1.020737E-03 3.535398E+01  1.015170E-03 3.508869E+01  9.919333E-01 -2.571056E+01 
3.129531E+02  9.931202E-01 -2.807553E+01  1.024879E-03 3.256783E+01  1.028873E-03 3.251419E+01  9.917900E-01 -2.572006E+01 
3.129563E+02  9.930772E-01 -2.807716E+01  1.027081E-03 2.944089E+01  1.035030E-03 2.893683E+01  9.917158E-01 -2.571493E+01 
3.129594E+02  9.931152E-01 -2.807902E+01  1.043723E-03 2.631560E+01  1.040758E-03 2.608470E+01  9.916988E-01 -2.571722E+01 
3.129625E+02  9.929867E-01 -2.807407E+01  1.047383E-03 2.239333E+01  1.045539E-03 2.311785E+01  9.917897E-01 -2.571720E+01 
3.129656E+02  9.929399E-01 -2.807635E+01  1.053686E-03 1.934345E+01  1.050916E-03 1.939602E+01  9.917181E-01 -2.571080E+01 
3.129688E+02  9.929648E-01 -2.807223E+01  1.056457E-03 1.563762E+01  1.044014E-03 1.531654E+01  9.915568E-01 -2.571538E+01 
3.129719E+02  9.929259E-01 -2.807666E+01  1.049714E-03 1.187425E+01  1.051810E-03 1.182438E+01  9.915449E-01 -2.572237E+01 
3.129750E+02  9.929183E-01 -2.807657E+01  1.043643E-03 7.738678E+00  1.045558E-03 7.871592E+00  9.915067E-01 -2.571382E+01 
3.129781E+02  9.930004E-01 -2.807511E+01  1.033145E-03 4.074931E+00  1.035974E-03 4.034765E+00  9.914238E-01 -2.571720E+01 
3.129812E+02  9.930010E-01 -2.806999E+01  1.021913E-03 -3.391163E-01  1.023448E-03 -1.290148E-01  9.916125E-01 -2.571413E+01 
3.129844E+02  9.929057E-01 -2.805493E+01  9.993368E-04 -4.739352E+00  1.000970E-03 -4.445275E+00  9.915088E-01 -2.571798E+01 
