! S-parameter for B3734 in Touchstone format with magnitude (lin) and phase
! Normalised impedance: 50 Ohm. Measurement system: 50 Ohm Ta = 25°C
! B3734_WB.s2p not matched. Measurement full 2-port calibrated incl. Port ext.
! Start: 818.3MHz, Stop: 918.3MHz, Span: 100MHz, 1601 Pts., Step: 62.5kHz
! Date:7/11/05 Epcos SAW COM WT AE PD, AB
! Pinning according data sheet recommendation, In P2, Out P4, all others GND
!
# MHZ S MA R 50
! freq  magS11 angS11  magS21 angS21  magS12 angS12  magS22 angS22
8.183000E+02  9.748824E-01 -3.546297E+01  2.828560E-04 5.147340E+01  2.817988E-04 5.085214E+01  9.708433E-01 -3.766174E+01 
8.183625E+02  9.749570E-01 -3.546131E+01  2.800546E-04 5.130957E+01  2.794426E-04 5.167518E+01  9.708810E-01 -3.767059E+01 
8.184250E+02  9.748266E-01 -3.545332E+01  2.798676E-04 5.005526E+01  2.857491E-04 5.153362E+01  9.708784E-01 -3.767147E+01 
8.184875E+02  9.748384E-01 -3.546325E+01  2.867922E-04 4.980532E+01  2.804604E-04 5.056475E+01  9.708862E-01 -3.767511E+01 
8.185500E+02  9.749155E-01 -3.547070E+01  2.755769E-04 4.897564E+01  2.844335E-04 4.994567E+01  9.708656E-01 -3.768003E+01 
8.186125E+02  9.747635E-01 -3.547373E+01  2.859692E-04 5.040554E+01  2.836597E-04 5.014887E+01  9.707774E-01 -3.767680E+01 
8.186750E+02  9.748249E-01 -3.547774E+01  2.845270E-04 5.037752E+01  2.852036E-04 4.939874E+01  9.708482E-01 -3.768183E+01 
8.187375E+02  9.748998E-01 -3.547911E+01  2.800570E-04 4.927211E+01  2.856298E-04 5.105433E+01  9.707942E-01 -3.768363E+01 
8.188000E+02  9.748072E-01 -3.548354E+01  2.829055E-04 4.913558E+01  2.788194E-04 4.883972E+01  9.709066E-01 -3.768621E+01 
8.188625E+02  9.747107E-01 -3.548367E+01  2.748167E-04 4.899564E+01  2.798916E-04 4.948560E+01  9.709459E-01 -3.768507E+01 
8.189250E+02  9.749153E-01 -3.548282E+01  2.810224E-04 4.986379E+01  2.784772E-04 4.982955E+01  9.708342E-01 -3.769452E+01 
8.189875E+02  9.747048E-01 -3.548494E+01  2.837844E-04 4.938385E+01  2.846083E-04 4.997617E+01  9.709047E-01 -3.769902E+01 
8.190500E+02  9.748828E-01 -3.549873E+01  2.822041E-04 4.934202E+01  2.793437E-04 4.894562E+01  9.708229E-01 -3.769218E+01 
8.191125E+02  9.748642E-01 -3.549959E+01  2.798390E-04 4.957677E+01  2.798496E-04 4.917386E+01  9.707830E-01 -3.770239E+01 
8.191750E+02  9.748255E-01 -3.549143E+01  2.781815E-04 4.967358E+01  2.814526E-04 4.841274E+01  9.708371E-01 -3.770393E+01 
8.192375E+02  9.748735E-01 -3.550224E+01  2.858635E-04 4.942428E+01  2.820236E-04 4.825391E+01  9.708115E-01 -3.771091E+01 
8.193000E+02  9.748706E-01 -3.551341E+01  2.900044E-04 4.837070E+01  2.872215E-04 4.819039E+01  9.708305E-01 -3.770982E+01 
8.193625E+02  9.747312E-01 -3.551080E+01  2.909886E-04 4.807312E+01  2.887172E-04 4.750101E+01  9.707954E-01 -3.771618E+01 
8.194250E+02  9.748327E-01 -3.551760E+01  2.854174E-04 4.898207E+01  2.851616E-04 4.812092E+01  9.707635E-01 -3.772540E+01 
8.194875E+02  9.749628E-01 -3.551768E+01  2.808427E-04 4.715154E+01  2.807933E-04 4.722341E+01  9.708861E-01 -3.771940E+01 
8.195500E+02  9.747382E-01 -3.552310E+01  2.827791E-04 4.535139E+01  2.840507E-04 4.732734E+01  9.708358E-01 -3.772159E+01 
8.196125E+02  9.747447E-01 -3.553589E+01  2.838448E-04 4.683914E+01  2.785538E-04 4.756360E+01  9.707146E-01 -3.773261E+01 
8.196750E+02  9.747453E-01 -3.552549E+01  2.890612E-04 4.803976E+01  2.786379E-04 4.670430E+01  9.709266E-01 -3.773147E+01 
8.197375E+02  9.747187E-01 -3.553584E+01  2.836621E-04 4.818958E+01  2.850501E-04 4.699402E+01  9.708314E-01 -3.773826E+01 
8.198000E+02  9.748064E-01 -3.553199E+01  2.880451E-04 4.591842E+01  2.907109E-04 4.655337E+01  9.708024E-01 -3.773781E+01 
8.198625E+02  9.747953E-01 -3.553910E+01  2.865089E-04 4.486977E+01  2.841883E-04 4.512135E+01  9.707597E-01 -3.773979E+01 
8.199250E+02  9.746979E-01 -3.553898E+01  2.854522E-04 4.367211E+01  2.842351E-04 4.420353E+01  9.708903E-01 -3.774797E+01 
8.199875E+02  9.746357E-01 -3.554256E+01  2.860953E-04 4.357279E+01  2.787154E-04 4.430830E+01  9.706905E-01 -3.774852E+01 
8.200500E+02  9.746047E-01 -3.554608E+01  2.778047E-04 4.316705E+01  2.775951E-04 4.239594E+01  9.707686E-01 -3.774939E+01 
8.201125E+02  9.745953E-01 -3.555401E+01  2.825044E-04 4.117404E+01  2.736602E-04 4.229860E+01  9.708767E-01 -3.775167E+01 
8.201750E+02  9.747863E-01 -3.555102E+01  2.711143E-04 4.162115E+01  2.735100E-04 4.090408E+01  9.707677E-01 -3.775867E+01 
8.202375E+02  9.747646E-01 -3.554760E+01  2.616675E-04 4.213801E+01  2.673911E-04 3.979735E+01  9.708907E-01 -3.776086E+01 
8.203000E+02  9.746487E-01 -3.556206E+01  2.542576E-04 4.016360E+01  2.588976E-04 3.963777E+01  9.707506E-01 -3.776161E+01 
8.203625E+02  9.746911E-01 -3.556289E+01  2.570044E-04 4.047409E+01  2.468860E-04 4.043355E+01  9.707383E-01 -3.777023E+01 
8.204250E+02  9.747481E-01 -3.556726E+01  2.535487E-04 3.926754E+01  2.408933E-04 3.997752E+01  9.709202E-01 -3.777228E+01 
8.204875E+02  9.746769E-01 -3.556984E+01  2.432222E-04 4.077999E+01  2.354770E-04 3.908038E+01  9.707689E-01 -3.776909E+01 
8.205500E+02  9.747280E-01 -3.557006E+01  2.433489E-04 4.041504E+01  2.315229E-04 3.922378E+01  9.707344E-01 -3.777063E+01 
8.206125E+02  9.747094E-01 -3.557503E+01  2.326289E-04 4.048369E+01  2.327314E-04 3.987368E+01  9.706153E-01 -3.778338E+01 
8.206750E+02  9.747005E-01 -3.557248E+01  2.249681E-04 4.087905E+01  2.239412E-04 4.047287E+01  9.707833E-01 -3.778124E+01 
8.207375E+02  9.746696E-01 -3.558219E+01  2.116164E-04 4.139612E+01  2.132416E-04 4.049236E+01  9.708050E-01 -3.777885E+01 
8.208000E+02  9.747227E-01 -3.557861E+01  2.060552E-04 4.443772E+01  2.111061E-04 4.222600E+01  9.707778E-01 -3.778333E+01 
8.208625E+02  9.746100E-01 -3.558691E+01  2.060792E-04 4.723667E+01  2.024000E-04 4.605581E+01  9.707650E-01 -3.779033E+01 
8.209250E+02  9.746622E-01 -3.559833E+01  2.107226E-04 4.666952E+01  1.985922E-04 4.578355E+01  9.707073E-01 -3.779565E+01 
8.209875E+02  9.746565E-01 -3.558807E+01  2.032315E-04 4.905505E+01  2.036494E-04 4.943076E+01  9.707638E-01 -3.779595E+01 
8.210500E+02  9.746750E-01 -3.559295E+01  1.966832E-04 5.120460E+01  2.009471E-04 5.123985E+01  9.708372E-01 -3.780238E+01 
8.211125E+02  9.747180E-01 -3.559884E+01  1.991051E-04 5.256060E+01  1.993226E-04 5.092188E+01  9.707882E-01 -3.780150E+01 
8.211750E+02  9.746738E-01 -3.559313E+01  1.981835E-04 5.406697E+01  2.011459E-04 5.263198E+01  9.707966E-01 -3.780124E+01 
8.212375E+02  9.746845E-01 -3.560185E+01  2.016474E-04 5.529115E+01  2.091008E-04 5.772125E+01  9.707909E-01 -3.781099E+01 
8.213000E+02  9.748703E-01 -3.560967E+01  2.085523E-04 5.863164E+01  2.083816E-04 5.652258E+01  9.707832E-01 -3.781482E+01 
8.213625E+02  9.748112E-01 -3.560515E+01  2.150659E-04 5.773549E+01  2.101548E-04 5.715438E+01  9.707036E-01 -3.782033E+01 
8.214250E+02  9.747201E-01 -3.561376E+01  2.202939E-04 6.010042E+01  2.204250E-04 5.836265E+01  9.706886E-01 -3.781739E+01 
8.214875E+02  9.749088E-01 -3.561824E+01  2.231459E-04 5.960438E+01  2.155009E-04 5.900071E+01  9.707386E-01 -3.782379E+01 
8.215500E+02  9.748425E-01 -3.561076E+01  2.214904E-04 6.081302E+01  2.356414E-04 5.961940E+01  9.706905E-01 -3.783177E+01 
8.216125E+02  9.747197E-01 -3.561725E+01  2.294818E-04 6.035645E+01  2.318139E-04 5.959242E+01  9.707765E-01 -3.782364E+01 
8.216750E+02  9.746590E-01 -3.562125E+01  2.290343E-04 5.883106E+01  2.310110E-04 6.099225E+01  9.708620E-01 -3.782989E+01 
8.217375E+02  9.746693E-01 -3.563255E+01  2.392719E-04 6.175116E+01  2.309252E-04 6.006402E+01  9.708276E-01 -3.783676E+01 
8.218000E+02  9.748693E-01 -3.562698E+01  2.514897E-04 6.045713E+01  2.419026E-04 5.874820E+01  9.707464E-01 -3.783408E+01 
8.218625E+02  9.747407E-01 -3.563800E+01  2.504488E-04 6.014122E+01  2.498764E-04 6.173928E+01  9.707534E-01 -3.784714E+01 
8.219250E+02  9.746341E-01 -3.564525E+01  2.527686E-04 6.014560E+01  2.564361E-04 6.120800E+01  9.708079E-01 -3.784624E+01 
8.219875E+02  9.747619E-01 -3.563819E+01  2.581181E-04 5.768321E+01  2.595743E-04 5.824245E+01  9.706897E-01 -3.785220E+01 
8.220500E+02  9.746878E-01 -3.564180E+01  2.632785E-04 5.824897E+01  2.605943E-04 5.844582E+01  9.708467E-01 -3.785249E+01 
8.221125E+02  9.748279E-01 -3.564849E+01  2.587787E-04 5.901826E+01  2.658680E-04 5.840895E+01  9.706751E-01 -3.785297E+01 
8.221750E+02  9.747218E-01 -3.565026E+01  2.626079E-04 5.643029E+01  2.618377E-04 5.753451E+01  9.707486E-01 -3.785860E+01 
8.222375E+02  9.747813E-01 -3.564809E+01  2.681192E-04 5.763063E+01  2.678357E-04 5.851791E+01  9.708153E-01 -3.786058E+01 
8.223000E+02  9.747030E-01 -3.565440E+01  2.592093E-04 5.663893E+01  2.710889E-04 5.707573E+01  9.708351E-01 -3.786217E+01 
8.223625E+02  9.748686E-01 -3.565857E+01  2.689708E-04 5.610371E+01  2.600370E-04 5.603714E+01  9.707982E-01 -3.786837E+01 
8.224250E+02  9.748065E-01 -3.565487E+01  2.682763E-04 5.464547E+01  2.677728E-04 5.531742E+01  9.708303E-01 -3.787163E+01 
8.224875E+02  9.748066E-01 -3.566092E+01  2.665882E-04 5.544425E+01  2.641159E-04 5.194512E+01  9.707796E-01 -3.787555E+01 
8.225500E+02  9.747111E-01 -3.566630E+01  2.552501E-04 5.392682E+01  2.683248E-04 5.525006E+01  9.708516E-01 -3.787363E+01 
8.226125E+02  9.747734E-01 -3.567418E+01  2.672036E-04 5.523819E+01  2.616478E-04 5.436029E+01  9.708746E-01 -3.788119E+01 
8.226750E+02  9.747874E-01 -3.567912E+01  2.679481E-04 5.341493E+01  2.644514E-04 5.303211E+01  9.707997E-01 -3.788240E+01 
8.227375E+02  9.748083E-01 -3.567955E+01  2.639044E-04 5.344572E+01  2.606481E-04 5.254521E+01  9.707382E-01 -3.788937E+01 
8.228000E+02  9.748554E-01 -3.567982E+01  2.622050E-04 5.215130E+01  2.637965E-04 5.382427E+01  9.707095E-01 -3.789458E+01 
8.228625E+02  9.748109E-01 -3.568454E+01  2.672258E-04 5.178587E+01  2.624115E-04 5.322027E+01  9.707009E-01 -3.789937E+01 
8.229250E+02  9.748332E-01 -3.569496E+01  2.604069E-04 5.405399E+01  2.653546E-04 5.407662E+01  9.706953E-01 -3.789771E+01 
8.229875E+02  9.747304E-01 -3.569158E+01  2.572739E-04 5.236182E+01  2.578798E-04 5.264157E+01  9.707205E-01 -3.790371E+01 
8.230500E+02  9.747197E-01 -3.569362E+01  2.624420E-04 5.183972E+01  2.574094E-04 5.234878E+01  9.707318E-01 -3.790848E+01 
8.231125E+02  9.748357E-01 -3.570423E+01  2.585501E-04 5.206002E+01  2.598069E-04 5.371915E+01  9.707754E-01 -3.790829E+01 
8.231750E+02  9.748408E-01 -3.570940E+01  2.510123E-04 5.232651E+01  2.548312E-04 5.272493E+01  9.707291E-01 -3.790894E+01 
8.232375E+02  9.747868E-01 -3.570497E+01  2.613544E-04 5.382555E+01  2.575811E-04 5.183208E+01  9.707104E-01 -3.791481E+01 
8.233000E+02  9.747400E-01 -3.571943E+01  2.634979E-04 5.282115E+01  2.560040E-04 5.447105E+01  9.707867E-01 -3.791440E+01 
8.233625E+02  9.747885E-01 -3.571393E+01  2.574911E-04 5.455420E+01  2.594710E-04 5.209682E+01  9.707826E-01 -3.791730E+01 
8.234250E+02  9.746700E-01 -3.571060E+01  2.637433E-04 5.158189E+01  2.557455E-04 5.136033E+01  9.707092E-01 -3.792805E+01 
8.234875E+02  9.747677E-01 -3.571104E+01  2.557297E-04 5.258047E+01  2.615001E-04 5.214778E+01  9.706958E-01 -3.792465E+01 
8.235500E+02  9.747152E-01 -3.571794E+01  2.564602E-04 5.292317E+01  2.608700E-04 5.133570E+01  9.707600E-01 -3.793410E+01 
8.236125E+02  9.746900E-01 -3.572499E+01  2.603503E-04 5.315686E+01  2.572617E-04 5.203389E+01  9.707933E-01 -3.793023E+01 
8.236750E+02  9.746810E-01 -3.573405E+01  2.647745E-04 5.363335E+01  2.598611E-04 5.299255E+01  9.707911E-01 -3.794170E+01 
8.237375E+02  9.747263E-01 -3.573282E+01  2.642775E-04 5.361423E+01  2.631574E-04 5.192495E+01  9.706581E-01 -3.794235E+01 
8.238000E+02  9.747066E-01 -3.573734E+01  2.666048E-04 5.260360E+01  2.638078E-04 5.221053E+01  9.706780E-01 -3.794849E+01 
8.238625E+02  9.747418E-01 -3.573235E+01  2.678679E-04 5.194051E+01  2.616217E-04 5.314443E+01  9.708056E-01 -3.794549E+01 
8.239250E+02  9.747969E-01 -3.574208E+01  2.672074E-04 5.039003E+01  2.681994E-04 5.226999E+01  9.707391E-01 -3.795746E+01 
8.239875E+02  9.748053E-01 -3.575114E+01  2.701365E-04 5.102659E+01  2.676182E-04 5.119059E+01  9.707087E-01 -3.795374E+01 
8.240500E+02  9.746022E-01 -3.575015E+01  2.705780E-04 5.181617E+01  2.711946E-04 5.023198E+01  9.707575E-01 -3.795871E+01 
8.241125E+02  9.745897E-01 -3.575823E+01  2.739491E-04 5.050995E+01  2.617743E-04 5.123709E+01  9.707038E-01 -3.796129E+01 
8.241750E+02  9.746660E-01 -3.576012E+01  2.717369E-04 4.928501E+01  2.699914E-04 5.019829E+01  9.705662E-01 -3.796709E+01 
8.242375E+02  9.746972E-01 -3.576383E+01  2.648050E-04 5.028754E+01  2.653177E-04 4.868044E+01  9.706302E-01 -3.797060E+01 
8.243000E+02  9.747069E-01 -3.577192E+01  2.692470E-04 5.020906E+01  2.601884E-04 4.809396E+01  9.708145E-01 -3.797309E+01 
8.243625E+02  9.747377E-01 -3.575992E+01  2.782825E-04 4.832026E+01  2.683223E-04 4.833582E+01  9.706785E-01 -3.797917E+01 
8.244250E+02  9.745949E-01 -3.577633E+01  2.653257E-04 4.801832E+01  2.648981E-04 4.952043E+01  9.706576E-01 -3.798615E+01 
8.244875E+02  9.746325E-01 -3.578011E+01  2.672784E-04 4.874067E+01  2.670642E-04 4.766537E+01  9.706239E-01 -3.798590E+01 
8.245500E+02  9.746066E-01 -3.577421E+01  2.694474E-04 4.808072E+01  2.625047E-04 4.676252E+01  9.706342E-01 -3.798585E+01 
8.246125E+02  9.746196E-01 -3.578565E+01  2.756623E-04 4.699847E+01  2.664978E-04 4.751967E+01  9.706832E-01 -3.798650E+01 
8.246750E+02  9.746040E-01 -3.578439E+01  2.599188E-04 4.688788E+01  2.665805E-04 4.809396E+01  9.706497E-01 -3.799346E+01 
8.247375E+02  9.746533E-01 -3.578996E+01  2.588140E-04 4.770956E+01  2.624312E-04 4.620289E+01  9.706593E-01 -3.799433E+01 
8.248000E+02  9.745450E-01 -3.579484E+01  2.605920E-04 4.674767E+01  2.578276E-04 4.671272E+01  9.705811E-01 -3.799740E+01 
8.248625E+02  9.747668E-01 -3.579344E+01  2.620889E-04 4.644995E+01  2.512343E-04 4.636253E+01  9.705756E-01 -3.799993E+01 
8.249250E+02  9.745683E-01 -3.580249E+01  2.647454E-04 4.570106E+01  2.572612E-04 4.636785E+01  9.705702E-01 -3.801452E+01 
8.249875E+02  9.745555E-01 -3.579983E+01  2.632447E-04 4.623772E+01  2.601012E-04 4.730052E+01  9.706258E-01 -3.801040E+01 
8.250500E+02  9.746800E-01 -3.579898E+01  2.583102E-04 4.814136E+01  2.548545E-04 4.416253E+01  9.705286E-01 -3.800723E+01 
8.251125E+02  9.746337E-01 -3.580275E+01  2.564735E-04 4.641744E+01  2.549021E-04 4.691459E+01  9.705846E-01 -3.801627E+01 
8.251750E+02  9.746591E-01 -3.580929E+01  2.517700E-04 4.644958E+01  2.607763E-04 4.701813E+01  9.706587E-01 -3.801744E+01 
8.252375E+02  9.746811E-01 -3.581867E+01  2.718471E-04 4.712726E+01  2.636977E-04 4.589491E+01  9.705506E-01 -3.802258E+01 
8.253000E+02  9.746611E-01 -3.581187E+01  2.662260E-04 4.770034E+01  2.615931E-04 4.746044E+01  9.704408E-01 -3.803257E+01 
8.253625E+02  9.747003E-01 -3.582710E+01  2.711862E-04 4.536875E+01  2.696543E-04 4.711264E+01  9.706911E-01 -3.803987E+01 
8.254250E+02  9.745357E-01 -3.582505E+01  2.694289E-04 4.598003E+01  2.695062E-04 4.522621E+01  9.706019E-01 -3.803572E+01 
8.254875E+02  9.746297E-01 -3.582203E+01  2.700253E-04 4.499814E+01  2.747313E-04 4.370885E+01  9.706506E-01 -3.803754E+01 
8.255500E+02  9.747452E-01 -3.583571E+01  2.686649E-04 4.305218E+01  2.682998E-04 4.506807E+01  9.705826E-01 -3.803634E+01 
8.256125E+02  9.746007E-01 -3.583410E+01  2.737177E-04 4.318671E+01  2.646353E-04 4.402274E+01  9.705168E-01 -3.804831E+01 
8.256750E+02  9.746410E-01 -3.583559E+01  2.703292E-04 4.034091E+01  2.677628E-04 4.198013E+01  9.705610E-01 -3.805097E+01 
8.257375E+02  9.747369E-01 -3.584433E+01  2.701204E-04 4.234354E+01  2.755620E-04 4.181513E+01  9.706633E-01 -3.805263E+01 
8.258000E+02  9.746813E-01 -3.584231E+01  2.690919E-04 3.994194E+01  2.700612E-04 4.219031E+01  9.705412E-01 -3.805461E+01 
8.258625E+02  9.745815E-01 -3.584511E+01  2.718662E-04 3.882785E+01  2.754758E-04 3.987173E+01  9.704138E-01 -3.805830E+01 
8.259250E+02  9.746220E-01 -3.584976E+01  2.692948E-04 3.941724E+01  2.747889E-04 3.878353E+01  9.706001E-01 -3.805621E+01 
8.259875E+02  9.744890E-01 -3.585228E+01  2.699477E-04 3.802728E+01  2.674450E-04 3.827894E+01  9.704300E-01 -3.806318E+01 
8.260500E+02  9.745983E-01 -3.585982E+01  2.765767E-04 3.764706E+01  2.699704E-04 3.714477E+01  9.704729E-01 -3.807223E+01 
8.261125E+02  9.746712E-01 -3.586302E+01  2.743548E-04 3.585441E+01  2.669557E-04 3.625497E+01  9.705202E-01 -3.807021E+01 
8.261750E+02  9.744882E-01 -3.586816E+01  2.793987E-04 3.473499E+01  2.683874E-04 3.445517E+01  9.704211E-01 -3.807471E+01 
8.262375E+02  9.746430E-01 -3.587514E+01  2.701067E-04 3.242688E+01  2.676385E-04 3.400447E+01  9.704729E-01 -3.807410E+01 
8.263000E+02  9.745487E-01 -3.586669E+01  2.642365E-04 3.065609E+01  2.698521E-04 3.056794E+01  9.705337E-01 -3.807658E+01 
8.263625E+02  9.745487E-01 -3.587729E+01  2.720995E-04 3.013418E+01  2.713506E-04 2.944542E+01  9.703997E-01 -3.808634E+01 
8.264250E+02  9.745374E-01 -3.588072E+01  2.625452E-04 2.800610E+01  2.625171E-04 2.837991E+01  9.705167E-01 -3.808530E+01 
8.264875E+02  9.745725E-01 -3.588576E+01  2.662969E-04 2.660708E+01  2.512481E-04 2.658984E+01  9.705051E-01 -3.809695E+01 
8.265500E+02  9.746113E-01 -3.588222E+01  2.562677E-04 2.444686E+01  2.605868E-04 2.498017E+01  9.704346E-01 -3.809095E+01 
8.266125E+02  9.745799E-01 -3.588850E+01  2.471084E-04 2.317276E+01  2.431575E-04 2.394204E+01  9.705030E-01 -3.809465E+01 
8.266750E+02  9.745982E-01 -3.589183E+01  2.378724E-04 2.144824E+01  2.485393E-04 2.240623E+01  9.704153E-01 -3.810143E+01 
8.267375E+02  9.744376E-01 -3.589622E+01  2.332901E-04 2.036019E+01  2.329138E-04 1.992237E+01  9.704760E-01 -3.810157E+01 
8.268000E+02  9.743795E-01 -3.590564E+01  2.218408E-04 2.002542E+01  2.227436E-04 1.814373E+01  9.704401E-01 -3.810609E+01 
8.268625E+02  9.745963E-01 -3.589530E+01  2.194794E-04 1.508557E+01  2.186891E-04 1.442022E+01  9.703627E-01 -3.811211E+01 
8.269250E+02  9.744100E-01 -3.590606E+01  2.048118E-04 1.726218E+01  2.034666E-04 1.391675E+01  9.704845E-01 -3.811001E+01 
8.269875E+02  9.744315E-01 -3.590632E+01  1.973578E-04 1.455310E+01  1.993422E-04 1.574844E+01  9.703142E-01 -3.811090E+01 
8.270500E+02  9.745825E-01 -3.591216E+01  1.951215E-04 1.080688E+01  1.939870E-04 1.424353E+01  9.704101E-01 -3.811856E+01 
8.271125E+02  9.742915E-01 -3.591672E+01  1.821342E-04 1.067597E+01  1.789796E-04 1.168083E+01  9.703568E-01 -3.811757E+01 
8.271750E+02  9.744330E-01 -3.591818E+01  1.750548E-04 1.103923E+01  1.774074E-04 1.025067E+01  9.704397E-01 -3.812292E+01 
8.272375E+02  9.744933E-01 -3.592148E+01  1.623739E-04 7.963884E+00  1.545828E-04 7.982540E+00  9.703980E-01 -3.812807E+01 
8.273000E+02  9.743984E-01 -3.592138E+01  1.441449E-04 7.229734E+00  1.424669E-04 5.714273E+00  9.704667E-01 -3.813102E+01 
8.273625E+02  9.745063E-01 -3.592452E+01  1.378473E-04 2.359698E+00  1.357363E-04 5.418352E+00  9.703602E-01 -3.813368E+01 
8.274250E+02  9.744605E-01 -3.592722E+01  1.102362E-04 2.208878E+00  1.172054E-04 1.503924E-02  9.703207E-01 -3.813578E+01 
8.274875E+02  9.744413E-01 -3.593422E+01  1.018103E-04 2.942846E+00  1.043495E-04 7.566217E+00  9.703809E-01 -3.813253E+01 
8.275500E+02  9.745425E-01 -3.593526E+01  8.235303E-05 7.773061E+00  9.034984E-05 7.125247E+00  9.704110E-01 -3.813585E+01 
8.276125E+02  9.744399E-01 -3.593621E+01  7.479339E-05 1.265381E+01  6.982232E-05 9.372811E+00  9.702831E-01 -3.814790E+01 
8.276750E+02  9.744242E-01 -3.593804E+01  4.923924E-05 1.956256E+01  5.924231E-05 2.226202E+01  9.703370E-01 -3.815160E+01 
8.277375E+02  9.744732E-01 -3.594859E+01  5.287668E-05 2.998956E+01  4.981098E-05 3.956785E+01  9.703341E-01 -3.815597E+01 
8.278000E+02  9.743279E-01 -3.594286E+01  4.459146E-05 5.931714E+01  4.685941E-05 5.961413E+01  9.704428E-01 -3.815321E+01 
8.278625E+02  9.744663E-01 -3.594872E+01  5.178648E-05 6.926997E+01  5.138680E-05 7.437735E+01  9.704002E-01 -3.815691E+01 
8.279250E+02  9.743829E-01 -3.596104E+01  6.812594E-05 8.706890E+01  6.725647E-05 9.054428E+01  9.703882E-01 -3.815899E+01 
