! Matrix data file written by TouchstoneData, EPCOS AG
! FILENAME: "newformat_B3739_WB.s2p"
! COMMENT: "PORTEX1 93PS; PORTEX2 179.5PS; 13 Mar 2008 S"
! INFO: nport=2, nfreq=1601
! DATE: "Wed Sep 19 14:54:40 2012"
! USER: "Wilfried Schott"
!
! port | pin | signal
! -----|-----|--------
!   1  |  1  |  IN
!   2  |  4  |  OUT
! --------------------
! 
# MHZ S MA R 50
! freq  magS11 angS11  magS21 angS21  magS12 angS12  magS22 angS22
2.900000E+02  9.962440E-01 -2.499889E+01  1.526110E-04 6.453897E+01  1.521852E-04 6.485199E+01  9.943495E-01 -2.281074E+01 
2.900312E+02  9.959642E-01 -2.499299E+01  1.499050E-04 6.450604E+01  1.471753E-04 6.608996E+01  9.942602E-01 -2.281658E+01 
2.900625E+02  9.960628E-01 -2.499186E+01  1.576545E-04 6.600983E+01  1.609834E-04 6.676811E+01  9.942883E-01 -2.281224E+01 
2.900938E+02  9.960764E-01 -2.500001E+01  1.570754E-04 6.387756E+01  1.579592E-04 6.435378E+01  9.942170E-01 -2.281837E+01 
2.901250E+02  9.960192E-01 -2.499775E+01  1.600946E-04 6.492494E+01  1.604137E-04 6.422655E+01  9.942213E-01 -2.282680E+01 
2.901562E+02  9.960036E-01 -2.500751E+01  1.534793E-04 6.455110E+01  1.604769E-04 6.632389E+01  9.942410E-01 -2.282290E+01 
2.901875E+02  9.957541E-01 -2.500462E+01  1.589197E-04 6.299394E+01  1.625434E-04 6.523237E+01  9.941647E-01 -2.282773E+01 
2.902188E+02  9.958522E-01 -2.501204E+01  1.607405E-04 6.374410E+01  1.652003E-04 6.308381E+01  9.943135E-01 -2.282887E+01 
2.902500E+02  9.959526E-01 -2.501543E+01  1.640538E-04 6.096012E+01  1.628590E-04 6.149948E+01  9.942435E-01 -2.283329E+01 
2.902812E+02  9.960123E-01 -2.501690E+01  1.600968E-04 6.231049E+01  1.622582E-04 6.124290E+01  9.942578E-01 -2.283194E+01 
2.903125E+02  9.961037E-01 -2.501415E+01  1.660827E-04 6.006071E+01  1.561341E-04 6.052873E+01  9.942978E-01 -2.283128E+01 
2.903438E+02  9.959187E-01 -2.502123E+01  1.600274E-04 6.058249E+01  1.517685E-04 6.048130E+01  9.942225E-01 -2.283304E+01 
2.903750E+02  9.959336E-01 -2.501423E+01  1.520565E-04 6.068526E+01  1.631497E-04 6.282560E+01  9.941601E-01 -2.283316E+01 
2.904062E+02  9.959696E-01 -2.502461E+01  1.598591E-04 6.090468E+01  1.561087E-04 5.923716E+01  9.942813E-01 -2.284353E+01 
2.904375E+02  9.960478E-01 -2.503000E+01  1.485609E-04 5.913890E+01  1.558649E-04 6.022544E+01  9.941794E-01 -2.283987E+01 
2.904688E+02  9.957683E-01 -2.502762E+01  1.540833E-04 6.174357E+01  1.457972E-04 6.336202E+01  9.941850E-01 -2.285113E+01 
2.905000E+02  9.958482E-01 -2.503127E+01  1.436061E-04 6.446176E+01  1.482464E-04 6.239628E+01  9.943076E-01 -2.284665E+01 
2.905312E+02  9.959360E-01 -2.502749E+01  1.506831E-04 6.258994E+01  1.511487E-04 6.039319E+01  9.941919E-01 -2.285069E+01 
2.905625E+02  9.959513E-01 -2.503598E+01  1.445430E-04 6.164501E+01  1.443728E-04 6.258064E+01  9.942181E-01 -2.285343E+01 
2.905938E+02  9.959095E-01 -2.504403E+01  1.433217E-04 6.629628E+01  1.392993E-04 6.487125E+01  9.941325E-01 -2.285462E+01 
2.906250E+02  9.960118E-01 -2.504070E+01  1.381773E-04 6.429152E+01  1.430508E-04 6.330663E+01  9.942716E-01 -2.285852E+01 
2.906562E+02  9.958537E-01 -2.503825E+01  1.411240E-04 6.118738E+01  1.408842E-04 6.636782E+01  9.941861E-01 -2.286094E+01 
2.906875E+02  9.959272E-01 -2.504557E+01  1.432434E-04 6.322245E+01  1.386733E-04 6.605502E+01  9.942164E-01 -2.285911E+01 
2.907188E+02  9.959918E-01 -2.505295E+01  1.358152E-04 6.603819E+01  1.332535E-04 6.520997E+01  9.941252E-01 -2.286084E+01 
2.907500E+02  9.959782E-01 -2.504698E+01  1.451893E-04 6.587045E+01  1.358507E-04 6.523540E+01  9.942011E-01 -2.286344E+01 
2.907812E+02  9.959366E-01 -2.504788E+01  1.413602E-04 6.690845E+01  1.354607E-04 6.567095E+01  9.941692E-01 -2.286861E+01 
2.908125E+02  9.958371E-01 -2.505761E+01  1.335186E-04 6.548447E+01  1.343539E-04 6.832657E+01  9.941441E-01 -2.288289E+01 
2.908438E+02  9.958516E-01 -2.505967E+01  1.372351E-04 6.927027E+01  1.326608E-04 6.620905E+01  9.942495E-01 -2.287680E+01 
2.908750E+02  9.958653E-01 -2.506035E+01  1.338454E-04 6.600670E+01  1.265325E-04 6.629280E+01  9.941662E-01 -2.287354E+01 
2.909062E+02  9.958894E-01 -2.506958E+01  1.311716E-04 7.095470E+01  1.241042E-04 7.157689E+01  9.940855E-01 -2.287161E+01 
2.909375E+02  9.959359E-01 -2.506702E+01  1.331759E-04 7.217031E+01  1.311308E-04 7.023667E+01  9.942146E-01 -2.288110E+01 
2.909688E+02  9.958965E-01 -2.506968E+01  1.349968E-04 7.236119E+01  1.302309E-04 7.253942E+01  9.941517E-01 -2.288788E+01 
2.910000E+02  9.958124E-01 -2.507336E+01  1.249278E-04 7.540270E+01  1.298649E-04 7.575366E+01  9.941760E-01 -2.288855E+01 
2.910312E+02  9.958976E-01 -2.507500E+01  1.369212E-04 7.727961E+01  1.348558E-04 7.980363E+01  9.942848E-01 -2.288357E+01 
2.910625E+02  9.958612E-01 -2.507583E+01  1.397947E-04 8.155191E+01  1.401733E-04 8.027789E+01  9.941156E-01 -2.289097E+01 
2.910938E+02  9.959402E-01 -2.508357E+01  1.446367E-04 8.016630E+01  1.437738E-04 7.990026E+01  9.941465E-01 -2.289303E+01 
2.911250E+02  9.958593E-01 -2.508587E+01  1.443657E-04 8.354308E+01  1.480511E-04 8.197326E+01  9.942081E-01 -2.289666E+01 
2.911562E+02  9.958130E-01 -2.508515E+01  1.525743E-04 8.137118E+01  1.560930E-04 8.080503E+01  9.941345E-01 -2.290097E+01 
2.911875E+02  9.959271E-01 -2.508963E+01  1.582578E-04 8.334799E+01  1.555395E-04 8.028518E+01  9.941472E-01 -2.290235E+01 
2.912188E+02  9.959418E-01 -2.508740E+01  1.645264E-04 8.470380E+01  1.616815E-04 7.984284E+01  9.942117E-01 -2.289878E+01 
2.912500E+02  9.958314E-01 -2.509634E+01  1.626123E-04 8.103720E+01  1.698207E-04 8.009131E+01  9.942338E-01 -2.290586E+01 
2.912812E+02  9.959413E-01 -2.509164E+01  1.776307E-04 8.037305E+01  1.663415E-04 8.019559E+01  9.940818E-01 -2.291032E+01 
2.913125E+02  9.959357E-01 -2.509413E+01  1.732099E-04 7.878949E+01  1.720889E-04 8.021507E+01  9.941921E-01 -2.291197E+01 
2.913438E+02  9.960068E-01 -2.509877E+01  1.748351E-04 7.474471E+01  1.778028E-04 7.919176E+01  9.940297E-01 -2.292067E+01 
2.913750E+02  9.960847E-01 -2.509479E+01  1.838510E-04 7.802876E+01  1.731548E-04 7.560122E+01  9.941473E-01 -2.290886E+01 
2.914062E+02  9.959968E-01 -2.511147E+01  1.805458E-04 7.772776E+01  1.827149E-04 7.622707E+01  9.941939E-01 -2.291897E+01 
2.914375E+02  9.959722E-01 -2.510008E+01  1.821687E-04 7.859235E+01  1.839208E-04 7.615220E+01  9.942069E-01 -2.292262E+01 
2.914688E+02  9.958964E-01 -2.511516E+01  1.828526E-04 7.867804E+01  1.813574E-04 7.573635E+01  9.942886E-01 -2.291781E+01 
2.915000E+02  9.960225E-01 -2.511611E+01  1.821802E-04 7.561087E+01  1.776336E-04 7.596208E+01  9.941945E-01 -2.292849E+01 
2.915312E+02  9.959308E-01 -2.512496E+01  1.840675E-04 7.533821E+01  1.886005E-04 7.859733E+01  9.941297E-01 -2.293024E+01 
2.915625E+02  9.959588E-01 -2.512523E+01  1.898872E-04 7.525277E+01  1.894899E-04 7.348902E+01  9.942283E-01 -2.293341E+01 
2.915938E+02  9.959298E-01 -2.513105E+01  1.936553E-04 7.574194E+01  1.864781E-04 7.482782E+01  9.943060E-01 -2.293274E+01 
2.916250E+02  9.960786E-01 -2.511721E+01  1.933463E-04 7.407193E+01  1.856661E-04 7.521376E+01  9.942506E-01 -2.294121E+01 
2.916562E+02  9.960785E-01 -2.512967E+01  1.889209E-04 7.491090E+01  1.833019E-04 7.540525E+01  9.941627E-01 -2.294262E+01 
2.916875E+02  9.959020E-01 -2.512972E+01  1.946122E-04 7.330288E+01  1.961468E-04 7.224496E+01  9.942167E-01 -2.294506E+01 
2.917188E+02  9.958716E-01 -2.513217E+01  1.935915E-04 7.546815E+01  1.985426E-04 7.315261E+01  9.941372E-01 -2.293851E+01 
2.917500E+02  9.958225E-01 -2.513904E+01  1.974523E-04 7.218120E+01  1.932663E-04 7.441282E+01  9.942299E-01 -2.294270E+01 
2.917812E+02  9.957851E-01 -2.513844E+01  1.983439E-04 7.207627E+01  1.989251E-04 7.313539E+01  9.941455E-01 -2.294308E+01 
2.918125E+02  9.959064E-01 -2.513801E+01  2.037039E-04 7.355247E+01  2.075777E-04 7.308467E+01  9.941428E-01 -2.294731E+01 
2.918438E+02  9.959264E-01 -2.514895E+01  2.163512E-04 7.107590E+01  2.085495E-04 6.974133E+01  9.942276E-01 -2.295571E+01 
2.918750E+02  9.958195E-01 -2.514858E+01  2.133232E-04 6.733768E+01  2.123041E-04 6.728177E+01  9.940099E-01 -2.294992E+01 
2.919062E+02  9.958749E-01 -2.515167E+01  2.102103E-04 6.605081E+01  2.086102E-04 6.659811E+01  9.940128E-01 -2.295667E+01 
2.919375E+02  9.958131E-01 -2.516501E+01  2.088443E-04 6.423863E+01  2.082116E-04 6.446086E+01  9.941188E-01 -2.296226E+01 
2.919688E+02  9.959061E-01 -2.516158E+01  2.066498E-04 6.576636E+01  2.048528E-04 6.361705E+01  9.941158E-01 -2.295940E+01 
2.920000E+02  9.959728E-01 -2.516968E+01  2.102318E-04 6.407167E+01  1.976677E-04 6.457437E+01  9.941278E-01 -2.296205E+01 
2.920312E+02  9.960006E-01 -2.515603E+01  2.035945E-04 6.219362E+01  2.052673E-04 6.400299E+01  9.941403E-01 -2.296819E+01 
2.920625E+02  9.958890E-01 -2.516607E+01  2.052079E-04 6.157731E+01  2.037668E-04 6.145575E+01  9.942054E-01 -2.296817E+01 
2.920938E+02  9.958136E-01 -2.516883E+01  2.020324E-04 6.324357E+01  2.107026E-04 6.118484E+01  9.942642E-01 -2.297328E+01 
2.921250E+02  9.959419E-01 -2.516708E+01  1.946615E-04 5.941299E+01  1.939785E-04 6.028532E+01  9.943347E-01 -2.297667E+01 
2.921562E+02  9.958800E-01 -2.517507E+01  2.007675E-04 6.146066E+01  1.900252E-04 6.274311E+01  9.941612E-01 -2.297411E+01 
2.921875E+02  9.958102E-01 -2.517962E+01  1.977952E-04 6.007486E+01  1.864863E-04 6.102663E+01  9.942371E-01 -2.297298E+01 
2.922188E+02  9.957524E-01 -2.518085E+01  1.950601E-04 5.908354E+01  1.931589E-04 6.068132E+01  9.941983E-01 -2.298461E+01 
2.922500E+02  9.958745E-01 -2.517838E+01  1.934247E-04 6.200666E+01  1.956409E-04 6.224643E+01  9.941937E-01 -2.298215E+01 
2.922812E+02  9.958761E-01 -2.518507E+01  1.899357E-04 5.961425E+01  1.981000E-04 6.039775E+01  9.943384E-01 -2.299073E+01 
2.923125E+02  9.959244E-01 -2.518952E+01  1.942928E-04 5.855770E+01  1.927811E-04 6.078928E+01  9.942233E-01 -2.298936E+01 
2.923438E+02  9.959032E-01 -2.519104E+01  1.930698E-04 6.048524E+01  1.899666E-04 5.897947E+01  9.940236E-01 -2.298512E+01 
2.923750E+02  9.959071E-01 -2.519825E+01  1.872993E-04 5.689756E+01  1.895925E-04 5.786117E+01  9.940929E-01 -2.299200E+01 
2.924062E+02  9.958385E-01 -2.519699E+01  1.949694E-04 5.709545E+01  1.893922E-04 5.649357E+01  9.942182E-01 -2.299862E+01 
2.924375E+02  9.960009E-01 -2.519647E+01  1.888056E-04 5.842494E+01  1.832031E-04 5.680543E+01  9.941190E-01 -2.300306E+01 
2.924688E+02  9.959874E-01 -2.520646E+01  1.819539E-04 5.413695E+01  1.862727E-04 5.752960E+01  9.941049E-01 -2.300195E+01 
2.925000E+02  9.959216E-01 -2.520299E+01  1.842626E-04 5.641730E+01  1.860447E-04 5.609741E+01  9.941738E-01 -2.300798E+01 
2.925312E+02  9.957201E-01 -2.521008E+01  1.814924E-04 5.437230E+01  1.792244E-04 5.602003E+01  9.940859E-01 -2.300571E+01 
2.925625E+02  9.959282E-01 -2.520867E+01  1.822943E-04 5.343504E+01  1.776644E-04 5.223163E+01  9.941483E-01 -2.300648E+01 
2.925938E+02  9.959997E-01 -2.521232E+01  1.908713E-04 5.339646E+01  1.889779E-04 5.240152E+01  9.941945E-01 -2.301417E+01 
2.926250E+02  9.960390E-01 -2.521840E+01  1.739741E-04 5.302216E+01  1.754136E-04 5.194629E+01  9.941822E-01 -2.301524E+01 
2.926562E+02  9.960349E-01 -2.521471E+01  1.719073E-04 5.124907E+01  1.725734E-04 5.491532E+01  9.943489E-01 -2.301039E+01 
2.926875E+02  9.960329E-01 -2.522208E+01  1.703968E-04 5.294050E+01  1.705296E-04 5.297908E+01  9.942230E-01 -2.301186E+01 
2.927188E+02  9.958893E-01 -2.522973E+01  1.672180E-04 5.315993E+01  1.707388E-04 5.208532E+01  9.940809E-01 -2.301946E+01 
2.927500E+02  9.958206E-01 -2.522892E+01  1.652887E-04 5.091813E+01  1.600790E-04 5.313749E+01  9.941290E-01 -2.303038E+01 
2.927812E+02  9.959625E-01 -2.522869E+01  1.611148E-04 5.222138E+01  1.616694E-04 5.382903E+01  9.942838E-01 -2.302648E+01 
2.928125E+02  9.959449E-01 -2.523622E+01  1.603629E-04 5.331645E+01  1.588050E-04 5.128852E+01  9.942210E-01 -2.302703E+01 
2.928438E+02  9.960292E-01 -2.523886E+01  1.495665E-04 5.340175E+01  1.530404E-04 5.421238E+01  9.943020E-01 -2.303337E+01 
2.928750E+02  9.959266E-01 -2.523887E+01  1.502339E-04 5.391899E+01  1.521525E-04 5.308860E+01  9.942634E-01 -2.303592E+01 
2.929062E+02  9.959147E-01 -2.524085E+01  1.535280E-04 5.706705E+01  1.461424E-04 5.584201E+01  9.943013E-01 -2.303781E+01 
2.929375E+02  9.958875E-01 -2.524339E+01  1.476119E-04 5.793551E+01  1.450921E-04 5.542955E+01  9.942298E-01 -2.303784E+01 
2.929688E+02  9.958211E-01 -2.525165E+01  1.480966E-04 5.946916E+01  1.529875E-04 5.709753E+01  9.942420E-01 -2.304824E+01 
2.930000E+02  9.959089E-01 -2.525614E+01  1.475195E-04 5.793653E+01  1.460017E-04 5.802940E+01  9.942936E-01 -2.304863E+01 
2.930312E+02  9.958699E-01 -2.525911E+01  1.482056E-04 5.963272E+01  1.460172E-04 5.847925E+01  9.941343E-01 -2.304762E+01 
2.930625E+02  9.960637E-01 -2.525306E+01  1.530018E-04 5.703713E+01  1.479348E-04 5.634514E+01  9.943224E-01 -2.305325E+01 
2.930938E+02  9.960592E-01 -2.527218E+01  1.497044E-04 5.918357E+01  1.438383E-04 5.890862E+01  9.942317E-01 -2.305220E+01 
2.931250E+02  9.959540E-01 -2.526332E+01  1.464580E-04 6.218688E+01  1.493652E-04 6.082497E+01  9.942110E-01 -2.306034E+01 
2.931562E+02  9.958527E-01 -2.526857E+01  1.516195E-04 6.143734E+01  1.477287E-04 6.122762E+01  9.943523E-01 -2.306111E+01 
2.931875E+02  9.958644E-01 -2.526824E+01  1.531845E-04 6.357017E+01  1.539486E-04 6.251585E+01  9.942108E-01 -2.306014E+01 
2.932188E+02  9.961130E-01 -2.527753E+01  1.536554E-04 6.273221E+01  1.534759E-04 6.454384E+01  9.941518E-01 -2.306834E+01 
2.932500E+02  9.960302E-01 -2.528394E+01  1.491121E-04 6.244981E+01  1.510218E-04 6.532000E+01  9.942420E-01 -2.306746E+01 
2.932812E+02  9.958007E-01 -2.527556E+01  1.634051E-04 6.109869E+01  1.563958E-04 6.218418E+01  9.940593E-01 -2.307508E+01 
2.933125E+02  9.958593E-01 -2.528263E+01  1.595183E-04 6.178425E+01  1.538628E-04 6.213024E+01  9.943302E-01 -2.307653E+01 
2.933438E+02  9.959837E-01 -2.528110E+01  1.641359E-04 6.214366E+01  1.532976E-04 6.484978E+01  9.942396E-01 -2.307363E+01 
2.933750E+02  9.961912E-01 -2.528629E+01  1.574144E-04 6.296394E+01  1.528362E-04 6.309252E+01  9.942137E-01 -2.308078E+01 
2.934062E+02  9.958227E-01 -2.528675E+01  1.571264E-04 6.331699E+01  1.581595E-04 6.190920E+01  9.942815E-01 -2.308273E+01 
2.934375E+02  9.958666E-01 -2.528434E+01  1.620677E-04 6.363273E+01  1.551382E-04 6.352478E+01  9.941465E-01 -2.308624E+01 
2.934688E+02  9.959118E-01 -2.529881E+01  1.552631E-04 6.574561E+01  1.589099E-04 6.539765E+01  9.942746E-01 -2.308455E+01 
2.935000E+02  9.958707E-01 -2.529045E+01  1.580099E-04 6.443023E+01  1.585205E-04 6.479189E+01  9.942275E-01 -2.308949E+01 
2.935312E+02  9.960123E-01 -2.530271E+01  1.632890E-04 6.250288E+01  1.575513E-04 6.332079E+01  9.943767E-01 -2.309498E+01 
2.935625E+02  9.959840E-01 -2.530239E+01  1.573571E-04 6.375320E+01  1.562300E-04 6.561757E+01  9.942852E-01 -2.310181E+01 
2.935938E+02  9.959045E-01 -2.531121E+01  1.577257E-04 6.452171E+01  1.603094E-04 6.460322E+01  9.942179E-01 -2.308787E+01 
2.936250E+02  9.959830E-01 -2.530308E+01  1.587711E-04 6.323291E+01  1.594143E-04 6.222580E+01  9.942414E-01 -2.309810E+01 
2.936562E+02  9.959394E-01 -2.530596E+01  1.612027E-04 6.639545E+01  1.571667E-04 6.393763E+01  9.942758E-01 -2.310944E+01 
2.936875E+02  9.960006E-01 -2.531308E+01  1.582779E-04 6.606902E+01  1.562243E-04 6.350489E+01  9.941481E-01 -2.310313E+01 
2.937188E+02  9.959139E-01 -2.531167E+01  1.560291E-04 6.105873E+01  1.584772E-04 6.434012E+01  9.941610E-01 -2.311200E+01 
2.937500E+02  9.959151E-01 -2.531873E+01  1.592625E-04 6.522180E+01  1.553712E-04 6.480969E+01  9.942627E-01 -2.311008E+01 
2.937812E+02  9.960537E-01 -2.531613E+01  1.499131E-04 6.514887E+01  1.549004E-04 6.556231E+01  9.942632E-01 -2.311557E+01 
2.938125E+02  9.959629E-01 -2.531839E+01  1.566278E-04 6.634008E+01  1.536073E-04 6.633901E+01  9.942422E-01 -2.311640E+01 
2.938438E+02  9.959409E-01 -2.533542E+01  1.589404E-04 6.584840E+01  1.572263E-04 6.583425E+01  9.942042E-01 -2.312830E+01 
2.938750E+02  9.958468E-01 -2.533305E+01  1.633754E-04 6.393966E+01  1.517207E-04 6.621001E+01  9.941473E-01 -2.312563E+01 
2.939062E+02  9.958425E-01 -2.533406E+01  1.562961E-04 6.254109E+01  1.586474E-04 6.473789E+01  9.942918E-01 -2.312731E+01 
2.939375E+02  9.959487E-01 -2.533655E+01  1.609370E-04 6.573660E+01  1.614089E-04 6.542437E+01  9.941365E-01 -2.312608E+01 
2.939688E+02  9.959712E-01 -2.534571E+01  1.674498E-04 6.639421E+01  1.665462E-04 6.501811E+01  9.942116E-01 -2.312437E+01 
2.940000E+02  9.959564E-01 -2.534434E+01  1.642912E-04 6.524753E+01  1.690281E-04 6.551465E+01  9.941093E-01 -2.313507E+01 
2.940312E+02  9.960779E-01 -2.534851E+01  1.726539E-04 6.612014E+01  1.697465E-04 6.545509E+01  9.940491E-01 -2.313622E+01 
2.940625E+02  9.960574E-01 -2.534582E+01  1.669610E-04 6.425753E+01  1.683993E-04 6.375748E+01  9.940909E-01 -2.313886E+01 
2.940938E+02  9.960227E-01 -2.535955E+01  1.675240E-04 6.526436E+01  1.687500E-04 6.345747E+01  9.940968E-01 -2.313536E+01 
2.941250E+02  9.959698E-01 -2.535572E+01  1.627417E-04 6.590726E+01  1.712592E-04 6.528537E+01  9.941102E-01 -2.314037E+01 
2.941562E+02  9.958639E-01 -2.536321E+01  1.709282E-04 6.456053E+01  1.626506E-04 6.422069E+01  9.942525E-01 -2.314193E+01 
2.941875E+02  9.960016E-01 -2.535232E+01  1.682966E-04 6.600928E+01  1.716826E-04 6.321964E+01  9.942923E-01 -2.315248E+01 
2.942188E+02  9.959191E-01 -2.535980E+01  1.729917E-04 6.400834E+01  1.675474E-04 6.314672E+01  9.940958E-01 -2.314315E+01 
2.942500E+02  9.959627E-01 -2.536376E+01  1.677974E-04 6.053761E+01  1.697949E-04 6.225012E+01  9.940854E-01 -2.315022E+01 
2.942812E+02  9.960516E-01 -2.536498E+01  1.649209E-04 6.312643E+01  1.652888E-04 6.380852E+01  9.942718E-01 -2.316010E+01 
2.943125E+02  9.959905E-01 -2.537111E+01  1.653341E-04 6.268617E+01  1.681751E-04 6.262221E+01  9.941664E-01 -2.315991E+01 
2.943438E+02  9.958041E-01 -2.538129E+01  1.702080E-04 6.136085E+01  1.708741E-04 5.921134E+01  9.941283E-01 -2.316086E+01 
2.943750E+02  9.958429E-01 -2.537897E+01  1.668349E-04 6.106792E+01  1.637154E-04 6.117907E+01  9.941029E-01 -2.316645E+01 
2.944062E+02  9.959545E-01 -2.538429E+01  1.695802E-04 6.317087E+01  1.601246E-04 6.252064E+01  9.940260E-01 -2.316361E+01 
2.944375E+02  9.958423E-01 -2.538759E+01  1.702790E-04 6.015820E+01  1.605801E-04 6.338781E+01  9.941999E-01 -2.317239E+01 
2.944688E+02  9.958320E-01 -2.538885E+01  1.662657E-04 6.092641E+01  1.629660E-04 6.109657E+01  9.940232E-01 -2.317918E+01 
2.945000E+02  9.958641E-01 -2.538987E+01  1.664643E-04 6.350196E+01  1.612258E-04 6.169298E+01  9.941422E-01 -2.317991E+01 
2.945312E+02  9.958788E-01 -2.539241E+01  1.620900E-04 6.270817E+01  1.669637E-04 6.141067E+01  9.939789E-01 -2.317885E+01 
2.945625E+02  9.959758E-01 -2.539645E+01  1.637443E-04 5.908301E+01  1.598873E-04 6.023750E+01  9.942668E-01 -2.317866E+01 
2.945938E+02  9.957714E-01 -2.539565E+01  1.744294E-04 5.964830E+01  1.675797E-04 6.111127E+01  9.943168E-01 -2.318084E+01 
2.946250E+02  9.958475E-01 -2.540813E+01  1.665629E-04 6.082207E+01  1.608788E-04 6.147371E+01  9.941971E-01 -2.319209E+01 
2.946562E+02  9.957988E-01 -2.540724E+01  1.614668E-04 6.134815E+01  1.645991E-04 5.978319E+01  9.940235E-01 -2.320157E+01 
2.946875E+02  9.958106E-01 -2.540851E+01  1.634875E-04 6.010625E+01  1.579728E-04 5.940190E+01  9.941824E-01 -2.320004E+01 
2.947188E+02  9.959179E-01 -2.541180E+01  1.615189E-04 5.902505E+01  1.617080E-04 6.139577E+01  9.940835E-01 -2.319561E+01 
2.947500E+02  9.958543E-01 -2.540200E+01  1.573035E-04 5.967597E+01  1.620741E-04 5.864696E+01  9.941026E-01 -2.319806E+01 
2.947812E+02  9.958260E-01 -2.541643E+01  1.603499E-04 6.045928E+01  1.628319E-04 6.096345E+01  9.941766E-01 -2.319671E+01 
2.948125E+02  9.959025E-01 -2.542399E+01  1.574692E-04 6.048984E+01  1.689623E-04 6.002421E+01  9.941294E-01 -2.319937E+01 
2.948438E+02  9.957830E-01 -2.542572E+01  1.589117E-04 6.277060E+01  1.609274E-04 6.010651E+01  9.940208E-01 -2.320460E+01 
2.948750E+02  9.959273E-01 -2.542645E+01  1.626789E-04 5.756029E+01  1.615903E-04 5.786704E+01  9.941589E-01 -2.321241E+01 
