! Matrix data file written by TouchstoneData, EPCOS AG
! FILENAME: "newformat_B3733_WB.s2p"
! COMMENT: "PINNING IN=1; OUT=4; UNMACHED 14 Mar 2006 S1"
! INFO: nport=2, nfreq=1601
! DATE: "Wed Sep 19 14:23:29 2012"
! USER: "Wilfried Schott"
!
! port | pin | signal
! -----|-----|--------
!   1  |  1  |  IN
!   2  |  4  |  OUT
! --------------------
! 
# MHZ S MA R 50
! freq  magS11 angS11  magS21 angS21  magS12 angS12  magS22 angS22
4.094200E+02  9.914494E-01 -3.302583E+01  3.856445E-05 5.914188E+01  4.091973E-05 4.744102E+01  9.895935E-01 -2.997943E+01 
4.094513E+02  9.913962E-01 -3.303323E+01  3.712971E-05 4.659493E+01  3.392886E-05 4.346353E+01  9.894894E-01 -2.998176E+01 
4.094825E+02  9.914617E-01 -3.303183E+01  3.669076E-05 4.783073E+01  3.882042E-05 4.321595E+01  9.895596E-01 -2.998600E+01 
4.095138E+02  9.915017E-01 -3.302717E+01  3.491539E-05 5.699103E+01  3.703973E-05 5.308261E+01  9.895979E-01 -2.998759E+01 
4.095450E+02  9.913890E-01 -3.303089E+01  3.841625E-05 5.376036E+01  3.904816E-05 5.443802E+01  9.895776E-01 -2.998092E+01 
4.095763E+02  9.914127E-01 -3.304265E+01  4.134288E-05 5.028285E+01  4.113991E-05 5.843423E+01  9.896743E-01 -2.997672E+01 
4.096075E+02  9.915115E-01 -3.303926E+01  4.371148E-05 5.407358E+01  3.215334E-05 5.136300E+01  9.897448E-01 -2.998901E+01 
4.096388E+02  9.914178E-01 -3.304222E+01  4.242724E-05 5.823038E+01  4.277324E-05 5.625257E+01  9.895608E-01 -2.999881E+01 
4.096700E+02  9.913138E-01 -3.304728E+01  4.289357E-05 5.153790E+01  3.899277E-05 6.228940E+01  9.894700E-01 -3.000353E+01 
4.097013E+02  9.914571E-01 -3.304511E+01  3.974597E-05 5.940436E+01  4.242275E-05 5.001771E+01  9.896715E-01 -3.000506E+01 
4.097325E+02  9.914543E-01 -3.304814E+01  4.741013E-05 5.591979E+01  3.905224E-05 5.460297E+01  9.897489E-01 -3.000246E+01 
4.097638E+02  9.914560E-01 -3.305055E+01  4.442872E-05 5.630976E+01  4.002478E-05 5.228611E+01  9.896384E-01 -3.000265E+01 
4.097950E+02  9.914825E-01 -3.305740E+01  4.077502E-05 5.456029E+01  4.724882E-05 5.268665E+01  9.895644E-01 -3.001021E+01 
4.098263E+02  9.915249E-01 -3.305450E+01  4.334691E-05 6.002576E+01  4.958975E-05 4.861979E+01  9.895216E-01 -3.001069E+01 
4.098575E+02  9.913811E-01 -3.306638E+01  4.667630E-05 5.560628E+01  4.703356E-05 5.212640E+01  9.895584E-01 -3.001379E+01 
4.098888E+02  9.914706E-01 -3.306712E+01  4.447939E-05 5.863607E+01  4.759762E-05 6.158106E+01  9.896671E-01 -3.001725E+01 
4.099200E+02  9.914880E-01 -3.307310E+01  4.057615E-05 5.598487E+01  5.228245E-05 5.456618E+01  9.896589E-01 -3.001628E+01 
4.099513E+02  9.915852E-01 -3.307076E+01  4.558357E-05 5.657097E+01  4.424896E-05 5.626274E+01  9.895631E-01 -3.001743E+01 
4.099825E+02  9.915525E-01 -3.307609E+01  4.053990E-05 5.097801E+01  4.607780E-05 5.776083E+01  9.896455E-01 -3.002726E+01 
4.100138E+02  9.913782E-01 -3.308601E+01  4.885452E-05 5.363519E+01  4.435563E-05 5.448946E+01  9.896224E-01 -3.003293E+01 
4.100450E+02  9.914683E-01 -3.307679E+01  4.728137E-05 5.494372E+01  4.857060E-05 5.778617E+01  9.897009E-01 -3.003050E+01 
4.100763E+02  9.914104E-01 -3.308294E+01  5.247592E-05 5.881155E+01  4.270005E-05 4.758572E+01  9.896375E-01 -3.002577E+01 
4.101075E+02  9.914993E-01 -3.307993E+01  4.808960E-05 5.271806E+01  4.842975E-05 5.531965E+01  9.895218E-01 -3.003251E+01 
4.101388E+02  9.914810E-01 -3.308151E+01  5.031706E-05 5.759948E+01  5.145214E-05 5.191956E+01  9.896080E-01 -3.003389E+01 
4.101700E+02  9.913386E-01 -3.309464E+01  5.203758E-05 5.337181E+01  5.657770E-05 5.401572E+01  9.896880E-01 -3.003557E+01 
4.102013E+02  9.914120E-01 -3.308919E+01  4.484793E-05 6.139211E+01  4.788027E-05 5.503266E+01  9.896423E-01 -3.003913E+01 
4.102325E+02  9.914372E-01 -3.310272E+01  6.012773E-05 6.133099E+01  4.960957E-05 5.272805E+01  9.896290E-01 -3.004348E+01 
4.102638E+02  9.913568E-01 -3.310019E+01  4.637332E-05 5.926250E+01  5.231034E-05 5.605286E+01  9.896141E-01 -3.003974E+01 
4.102950E+02  9.914937E-01 -3.309954E+01  5.303131E-05 5.413051E+01  5.426918E-05 5.651525E+01  9.896050E-01 -3.004722E+01 
4.103263E+02  9.914237E-01 -3.311010E+01  6.140560E-05 5.176413E+01  6.146254E-05 5.077953E+01  9.895956E-01 -3.005030E+01 
4.103575E+02  9.914872E-01 -3.311196E+01  6.213851E-05 5.805941E+01  6.176322E-05 4.938363E+01  9.897205E-01 -3.005587E+01 
4.103888E+02  9.914770E-01 -3.311105E+01  6.536308E-05 5.150568E+01  5.799684E-05 4.581070E+01  9.895785E-01 -3.006270E+01 
4.104200E+02  9.913699E-01 -3.311085E+01  5.731695E-05 5.034471E+01  6.237093E-05 5.372396E+01  9.896804E-01 -3.005992E+01 
4.104513E+02  9.914315E-01 -3.312316E+01  5.609147E-05 5.047481E+01  6.356888E-05 5.356837E+01  9.896102E-01 -3.006167E+01 
4.104825E+02  9.913873E-01 -3.312442E+01  6.655632E-05 4.671329E+01  6.642798E-05 5.104136E+01  9.895717E-01 -3.006648E+01 
4.105138E+02  9.913452E-01 -3.312153E+01  7.443163E-05 5.086111E+01  6.650870E-05 4.777917E+01  9.896465E-01 -3.006450E+01 
4.105450E+02  9.913101E-01 -3.312272E+01  7.297211E-05 4.442247E+01  7.365170E-05 4.850846E+01  9.895577E-01 -3.006795E+01 
4.105763E+02  9.913116E-01 -3.312405E+01  7.268624E-05 4.284717E+01  7.518832E-05 3.729043E+01  9.895250E-01 -3.006991E+01 
4.106075E+02  9.913058E-01 -3.312568E+01  7.497307E-05 4.126917E+01  7.571263E-05 4.242606E+01  9.895314E-01 -3.007672E+01 
4.106388E+02  9.913276E-01 -3.314605E+01  7.230785E-05 4.092114E+01  7.432146E-05 3.467923E+01  9.895201E-01 -3.007847E+01 
4.106700E+02  9.913742E-01 -3.313348E+01  7.370373E-05 2.816658E+01  7.306071E-05 3.880656E+01  9.896008E-01 -3.007273E+01 
4.107013E+02  9.913989E-01 -3.314313E+01  6.811932E-05 3.562609E+01  7.642792E-05 3.565506E+01  9.895690E-01 -3.008837E+01 
4.107325E+02  9.912970E-01 -3.314435E+01  7.315225E-05 3.170830E+01  7.152394E-05 2.922285E+01  9.895079E-01 -3.008504E+01 
4.107638E+02  9.914528E-01 -3.314711E+01  8.177718E-05 2.735505E+01  7.458308E-05 3.179926E+01  9.895492E-01 -3.009471E+01 
4.107950E+02  9.912505E-01 -3.315910E+01  8.137308E-05 2.475761E+01  7.407463E-05 2.578721E+01  9.894650E-01 -3.008783E+01 
4.108263E+02  9.913210E-01 -3.314995E+01  7.551696E-05 2.852333E+01  7.426479E-05 1.883568E+01  9.894685E-01 -3.008774E+01 
4.108575E+02  9.911649E-01 -3.316329E+01  7.924971E-05 2.082667E+01  7.029363E-05 2.137014E+01  9.895416E-01 -3.009873E+01 
4.108888E+02  9.914345E-01 -3.315738E+01  6.934509E-05 1.210569E+01  7.377660E-05 1.220239E+01  9.895734E-01 -3.009754E+01 
4.109200E+02  9.913894E-01 -3.315928E+01  7.385960E-05 1.406265E+01  6.751001E-05 9.901912E+00  9.894824E-01 -3.010076E+01 
4.109513E+02  9.914323E-01 -3.316707E+01  7.657449E-05 8.673692E+00  7.248076E-05 1.293100E+01  9.895322E-01 -3.010324E+01 
4.109825E+02  9.912979E-01 -3.316703E+01  7.092206E-05 1.715582E+00  6.734034E-05 2.909939E+00  9.896302E-01 -3.010484E+01 
4.110138E+02  9.913102E-01 -3.316746E+01  6.278444E-05 -3.583122E+00  6.526868E-05 4.323511E-01  9.895625E-01 -3.010719E+01 
4.110450E+02  9.913879E-01 -3.317205E+01  5.739639E-05 -4.401888E+00  6.972404E-05 -6.966409E+00  9.896349E-01 -3.010499E+01 
4.110763E+02  9.913234E-01 -3.317088E+01  5.865467E-05 -5.459675E+00  5.988437E-05 -1.969810E+00  9.895122E-01 -3.011506E+01 
4.111075E+02  9.912741E-01 -3.317584E+01  6.126264E-05 -1.239891E+01  6.868040E-05 -1.401157E+01  9.895858E-01 -3.011716E+01 
4.111388E+02  9.913351E-01 -3.317255E+01  5.084908E-05 -1.587180E+01  5.873427E-05 -1.878695E+01  9.895623E-01 -3.012136E+01 
4.111700E+02  9.913186E-01 -3.317999E+01  5.232382E-05 -1.525917E+01  5.801093E-05 -2.769194E+01  9.894851E-01 -3.012127E+01 
4.112013E+02  9.914605E-01 -3.318487E+01  4.921200E-05 -2.429847E+01  5.273006E-05 -1.722751E+01  9.894782E-01 -3.012597E+01 
4.112325E+02  9.912763E-01 -3.318431E+01  5.240401E-05 -3.453388E+01  4.693059E-05 -3.296564E+01  9.895085E-01 -3.012972E+01 
4.112638E+02  9.913395E-01 -3.319219E+01  4.783925E-05 -4.037303E+01  5.111722E-05 -2.716157E+01  9.894890E-01 -3.012639E+01 
4.112950E+02  9.912428E-01 -3.319306E+01  4.766115E-05 -3.777213E+01  4.547571E-05 -3.477270E+01  9.895761E-01 -3.013303E+01 
4.113263E+02  9.914353E-01 -3.319339E+01  3.265045E-05 -4.057116E+01  4.553939E-05 -4.453377E+01  9.894044E-01 -3.013622E+01 
4.113575E+02  9.913736E-01 -3.319233E+01  3.567998E-05 -6.081957E+01  3.965550E-05 -5.093817E+01  9.893815E-01 -3.013829E+01 
4.113888E+02  9.912737E-01 -3.319861E+01  3.486997E-05 -6.559347E+01  3.888978E-05 -6.685445E+01  9.894363E-01 -3.013798E+01 
4.114200E+02  9.912229E-01 -3.320551E+01  3.244805E-05 -7.139733E+01  3.433417E-05 -6.989735E+01  9.894738E-01 -3.013554E+01 
4.114513E+02  9.913158E-01 -3.320349E+01  3.127345E-05 -7.071769E+01  2.533641E-05 -7.551072E+01  9.894795E-01 -3.014688E+01 
4.114825E+02  9.912522E-01 -3.320998E+01  2.977810E-05 -8.611428E+01  2.715373E-05 -9.457591E+01  9.894462E-01 -3.014856E+01 
4.115138E+02  9.914227E-01 -3.320591E+01  2.242192E-05 -8.349287E+01  2.885600E-05 -9.342898E+01  9.895036E-01 -3.014909E+01 
4.115450E+02  9.911685E-01 -3.321223E+01  2.792867E-05 -1.120926E+02  2.423463E-05 -1.086332E+02  9.895356E-01 -3.015213E+01 
4.115763E+02  9.912522E-01 -3.321425E+01  3.125101E-05 -1.094989E+02  2.667925E-05 -1.112644E+02  9.894527E-01 -3.015343E+01 
4.116075E+02  9.912758E-01 -3.321452E+01  2.785069E-05 -1.347313E+02  2.458692E-05 -1.389594E+02  9.895647E-01 -3.015593E+01 
4.116388E+02  9.912538E-01 -3.321906E+01  3.020063E-05 -1.549040E+02  3.097300E-05 -1.693254E+02  9.895466E-01 -3.015992E+01 
4.116700E+02  9.912677E-01 -3.323066E+01  3.404573E-05 -1.623610E+02  3.425120E-05 -1.692571E+02  9.894553E-01 -3.017080E+01 
4.117013E+02  9.912466E-01 -3.322601E+01  3.268569E-05 -1.788220E+02  3.139527E-05 -1.651916E+02  9.894684E-01 -3.016910E+01 
4.117325E+02  9.911506E-01 -3.323089E+01  3.964819E-05 -1.782702E+02  3.900039E-05 1.729618E+02  9.894593E-01 -3.016472E+01 
4.117638E+02  9.911180E-01 -3.323958E+01  3.751327E-05 1.667399E+02  4.167888E-05 1.787854E+02  9.894668E-01 -3.017169E+01 
4.117950E+02  9.912776E-01 -3.323630E+01  3.330646E-05 1.655569E+02  4.524264E-05 1.586118E+02  9.892540E-01 -3.017242E+01 
4.118263E+02  9.912721E-01 -3.323605E+01  4.896951E-05 1.473486E+02  4.702982E-05 1.581144E+02  9.894511E-01 -3.017363E+01 
4.118575E+02  9.913406E-01 -3.323950E+01  5.006635E-05 1.375013E+02  5.545387E-05 1.522646E+02  9.894501E-01 -3.018042E+01 
4.118888E+02  9.911844E-01 -3.324681E+01  5.218040E-05 1.369328E+02  5.505029E-05 1.397030E+02  9.895354E-01 -3.017005E+01 
4.119200E+02  9.911079E-01 -3.325438E+01  6.221352E-05 1.356957E+02  6.342571E-05 1.365977E+02  9.894536E-01 -3.017610E+01 
4.119513E+02  9.912221E-01 -3.324843E+01  6.146987E-05 1.254427E+02  6.662842E-05 1.332532E+02  9.893451E-01 -3.018604E+01 
4.119825E+02  9.911738E-01 -3.325789E+01  6.755385E-05 1.167778E+02  7.274135E-05 1.253737E+02  9.894495E-01 -3.018522E+01 
4.120138E+02  9.911913E-01 -3.325532E+01  7.059260E-05 1.137722E+02  7.487550E-05 1.219096E+02  9.893025E-01 -3.018591E+01 
4.120450E+02  9.911927E-01 -3.325574E+01  7.608236E-05 1.152563E+02  7.976251E-05 1.160511E+02  9.893199E-01 -3.018941E+01 
4.120763E+02  9.911401E-01 -3.326601E+01  8.360906E-05 1.094755E+02  8.493920E-05 1.106729E+02  9.892850E-01 -3.019492E+01 
4.121075E+02  9.912187E-01 -3.325814E+01  8.940069E-05 1.066266E+02  8.600556E-05 1.119189E+02  9.893713E-01 -3.020095E+01 
4.121388E+02  9.912684E-01 -3.326684E+01  9.147089E-05 1.019104E+02  8.869002E-05 1.008937E+02  9.893530E-01 -3.019637E+01 
4.121700E+02  9.911204E-01 -3.326752E+01  9.509863E-05 9.776464E+01  9.075120E-05 9.891287E+01  9.893373E-01 -3.019007E+01 
4.122013E+02  9.911715E-01 -3.327257E+01  9.052525E-05 9.093852E+01  1.004441E-04 9.359524E+01  9.895098E-01 -3.020547E+01 
4.122325E+02  9.912759E-01 -3.326676E+01  1.006768E-04 8.665452E+01  1.029978E-04 8.706060E+01  9.892975E-01 -3.019884E+01 
4.122638E+02  9.912196E-01 -3.327329E+01  1.023694E-04 7.808594E+01  1.075167E-04 7.981123E+01  9.894285E-01 -3.020255E+01 
4.122950E+02  9.912553E-01 -3.327300E+01  9.817572E-05 7.752092E+01  1.032620E-04 7.650207E+01  9.892403E-01 -3.020403E+01 
4.123263E+02  9.911519E-01 -3.328239E+01  1.025974E-04 7.467885E+01  1.040160E-04 7.156669E+01  9.893681E-01 -3.020644E+01 
4.123575E+02  9.912294E-01 -3.327671E+01  1.029121E-04 6.876599E+01  1.051921E-04 6.828105E+01  9.893887E-01 -3.022059E+01 
4.123888E+02  9.911759E-01 -3.328449E+01  1.069218E-04 6.449829E+01  1.086569E-04 6.448803E+01  9.893832E-01 -3.021617E+01 
4.124200E+02  9.911843E-01 -3.328352E+01  1.137424E-04 6.326569E+01  1.117769E-04 6.125224E+01  9.894075E-01 -3.022025E+01 
4.124513E+02  9.912958E-01 -3.329134E+01  1.072092E-04 5.704788E+01  1.070079E-04 5.531717E+01  9.893842E-01 -3.022090E+01 
4.124825E+02  9.912063E-01 -3.329691E+01  1.025657E-04 5.133307E+01  1.053616E-04 5.477093E+01  9.893608E-01 -3.022331E+01 
4.125138E+02  9.912088E-01 -3.329588E+01  1.178279E-04 4.923813E+01  1.068793E-04 5.145268E+01  9.892918E-01 -3.022041E+01 
4.125450E+02  9.911523E-01 -3.329632E+01  1.043264E-04 4.586573E+01  1.027220E-04 4.714075E+01  9.894034E-01 -3.022886E+01 
4.125763E+02  9.911917E-01 -3.329366E+01  1.054181E-04 4.029476E+01  9.879481E-05 4.157183E+01  9.894578E-01 -3.023719E+01 
4.126075E+02  9.910826E-01 -3.329966E+01  1.073155E-04 3.559868E+01  1.055013E-04 3.798093E+01  9.893694E-01 -3.023557E+01 
4.126388E+02  9.912064E-01 -3.330165E+01  1.014168E-04 2.962211E+01  1.022630E-04 3.462422E+01  9.893460E-01 -3.023736E+01 
4.126700E+02  9.911525E-01 -3.331582E+01  1.045450E-04 2.890908E+01  9.658012E-05 3.212434E+01  9.892112E-01 -3.024587E+01 
4.127013E+02  9.910847E-01 -3.330930E+01  9.929469E-05 2.625294E+01  9.499393E-05 2.931280E+01  9.894276E-01 -3.023740E+01 
4.127325E+02  9.911539E-01 -3.332121E+01  9.175084E-05 2.671878E+01  9.667729E-05 2.296572E+01  9.893674E-01 -3.024475E+01 
4.127638E+02  9.911375E-01 -3.331287E+01  9.923121E-05 2.078541E+01  9.340290E-05 1.725290E+01  9.892733E-01 -3.024484E+01 
4.127950E+02  9.911871E-01 -3.332242E+01  9.053430E-05 1.583505E+01  9.106139E-05 1.721539E+01  9.892853E-01 -3.024375E+01 
4.128263E+02  9.911674E-01 -3.332288E+01  8.938044E-05 1.284312E+01  8.765432E-05 1.607682E+01  9.893864E-01 -3.024788E+01 
4.128575E+02  9.912396E-01 -3.332608E+01  9.057832E-05 6.852187E+00  8.041192E-05 1.134312E+01  9.892603E-01 -3.024909E+01 
4.128888E+02  9.910676E-01 -3.333043E+01  8.594744E-05 8.526288E+00  8.198009E-05 8.311342E+00  9.894461E-01 -3.025444E+01 
4.129200E+02  9.912228E-01 -3.332531E+01  8.829626E-05 4.697228E-01  8.224334E-05 7.400949E-01  9.892981E-01 -3.025640E+01 
4.129513E+02  9.910619E-01 -3.332767E+01  7.917419E-05 -6.772094E+00  7.589594E-05 -2.633552E+00  9.893646E-01 -3.025798E+01 
4.129825E+02  9.911884E-01 -3.333967E+01  7.718873E-05 -8.151592E+00  7.165598E-05 -8.589199E+00  9.893341E-01 -3.026228E+01 
4.130138E+02  9.912115E-01 -3.333641E+01  7.788442E-05 -1.225219E+01  7.175816E-05 -1.271729E+01  9.893110E-01 -3.026507E+01 
4.130450E+02  9.911581E-01 -3.334198E+01  7.389778E-05 -1.259849E+01  6.468808E-05 -1.828154E+01  9.893871E-01 -3.027100E+01 
4.130763E+02  9.910669E-01 -3.334372E+01  6.903525E-05 -2.293748E+01  6.923592E-05 -1.912175E+01  9.892996E-01 -3.026737E+01 
4.131075E+02  9.911391E-01 -3.334660E+01  6.152314E-05 -2.695684E+01  6.344426E-05 -2.469393E+01  9.892124E-01 -3.027660E+01 
4.131388E+02  9.911824E-01 -3.334611E+01  4.978349E-05 -3.454389E+01  5.451645E-05 -3.547087E+01  9.893643E-01 -3.027300E+01 
4.131700E+02  9.911691E-01 -3.335340E+01  4.786230E-05 -2.691262E+01  5.081990E-05 -2.743576E+01  9.893641E-01 -3.027977E+01 
4.132013E+02  9.911913E-01 -3.335058E+01  4.977466E-05 -3.892819E+01  4.083282E-05 -3.957867E+01  9.892334E-01 -3.027920E+01 
4.132325E+02  9.911452E-01 -3.335913E+01  4.103498E-05 -5.061832E+01  3.433881E-05 -4.587992E+01  9.893040E-01 -3.028243E+01 
4.132638E+02  9.912503E-01 -3.336096E+01  3.056472E-05 -5.362186E+01  2.930801E-05 -5.190299E+01  9.893427E-01 -3.028560E+01 
4.132950E+02  9.911602E-01 -3.335149E+01  2.089978E-05 -6.132189E+01  2.170355E-05 -6.318869E+01  9.894666E-01 -3.028103E+01 
4.133263E+02  9.911320E-01 -3.336282E+01  1.749912E-05 -7.080812E+01  2.359736E-05 -6.253707E+01  9.892787E-01 -3.028687E+01 
4.133575E+02  9.912383E-01 -3.336676E+01  1.731836E-05 -6.909857E+01  1.308044E-05 -8.034069E+01  9.894005E-01 -3.028248E+01 
4.133888E+02  9.911496E-01 -3.337028E+01  9.261289E-06 -1.002245E+02  8.095159E-06 -1.087335E+02  9.893385E-01 -3.029251E+01 
4.134200E+02  9.912083E-01 -3.337559E+01  8.503603E-06 -1.366515E+02  6.406156E-06 1.741913E+02  9.894097E-01 -3.030237E+01 
4.134513E+02  9.913200E-01 -3.336765E+01  5.931086E-06 1.422114E+02  7.886953E-06 1.347926E+02  9.892638E-01 -3.029771E+01 
4.134825E+02  9.912711E-01 -3.337360E+01  1.630840E-05 1.447804E+02  7.793486E-06 1.263166E+02  9.893501E-01 -3.029745E+01 
4.135138E+02  9.912692E-01 -3.337101E+01  1.726928E-05 1.401683E+02  1.732396E-05 1.187051E+02  9.893587E-01 -3.029786E+01 
4.135450E+02  9.912417E-01 -3.337246E+01  2.255111E-05 1.063681E+02  1.764224E-05 1.254841E+02  9.893623E-01 -3.030911E+01 
4.135763E+02  9.911397E-01 -3.338565E+01  2.586651E-05 1.052334E+02  2.976486E-05 1.144012E+02  9.893099E-01 -3.030404E+01 
4.136075E+02  9.911882E-01 -3.338020E+01  3.171206E-05 1.009601E+02  2.837535E-05 9.885691E+01  9.894097E-01 -3.030851E+01 
4.136388E+02  9.912387E-01 -3.338991E+01  3.425326E-05 9.705569E+01  3.827918E-05 9.004737E+01  9.893752E-01 -3.030906E+01 
4.136700E+02  9.911280E-01 -3.338822E+01  4.422387E-05 8.515873E+01  3.470851E-05 8.287256E+01  9.894256E-01 -3.030864E+01 
4.137013E+02  9.911952E-01 -3.339717E+01  3.832682E-05 7.630517E+01  3.956935E-05 8.491777E+01  9.893058E-01 -3.031686E+01 
4.137325E+02  9.912269E-01 -3.339424E+01  4.660301E-05 7.311184E+01  4.162514E-05 7.410108E+01  9.894161E-01 -3.031278E+01 
4.137638E+02  9.913857E-01 -3.338891E+01  4.530942E-05 6.769925E+01  4.371692E-05 6.548288E+01  9.893696E-01 -3.032128E+01 
4.137950E+02  9.914396E-01 -3.338645E+01  4.457988E-05 7.229556E+01  4.717067E-05 7.502202E+01  9.894353E-01 -3.032586E+01 
4.138263E+02  9.912983E-01 -3.339866E+01  4.669768E-05 5.609341E+01  5.064778E-05 6.361756E+01  9.894524E-01 -3.032343E+01 
4.138575E+02  9.913038E-01 -3.340422E+01  4.460708E-05 5.810493E+01  4.544872E-05 6.155862E+01  9.894372E-01 -3.033195E+01 
4.138888E+02  9.912861E-01 -3.341208E+01  5.318798E-05 5.522630E+01  4.648343E-05 5.943599E+01  9.893407E-01 -3.033062E+01 
4.139200E+02  9.911564E-01 -3.341283E+01  4.763287E-05 5.311873E+01  5.199265E-05 4.897881E+01  9.894268E-01 -3.033148E+01 
4.139513E+02  9.913151E-01 -3.341065E+01  4.486124E-05 3.871430E+01  4.453691E-05 4.433446E+01  9.893904E-01 -3.033606E+01 
4.139825E+02  9.911568E-01 -3.342508E+01  5.101917E-05 4.479509E+01  5.306839E-05 4.369648E+01  9.894053E-01 -3.033758E+01 
4.140138E+02  9.912413E-01 -3.342257E+01  5.071491E-05 2.916577E+01  5.296192E-05 3.926548E+01  9.895516E-01 -3.033983E+01 
4.140450E+02  9.914480E-01 -3.342383E+01  5.197555E-05 2.669144E+01  5.346642E-05 3.797033E+01  9.894665E-01 -3.034890E+01 
4.140763E+02  9.914565E-01 -3.342369E+01  4.848106E-05 2.625966E+01  5.008070E-05 3.219401E+01  9.894643E-01 -3.035119E+01 
4.141075E+02  9.912224E-01 -3.342273E+01  5.156123E-05 3.282327E+01  5.263338E-05 2.999793E+01  9.895659E-01 -3.034648E+01 
4.141388E+02  9.912929E-01 -3.343282E+01  5.191800E-05 2.136210E+01  4.825305E-05 2.592268E+01  9.895192E-01 -3.034762E+01 
4.141700E+02  9.912188E-01 -3.342763E+01  4.835862E-05 2.819014E+01  4.566169E-05 1.740899E+01  9.894342E-01 -3.035405E+01 
4.142013E+02  9.912309E-01 -3.343792E+01  4.172399E-05 8.567228E+00  4.443082E-05 1.531229E+01  9.895696E-01 -3.035143E+01 
4.142325E+02  9.913044E-01 -3.343614E+01  3.868888E-05 2.186867E+01  4.290072E-05 1.761847E+01  9.895981E-01 -3.035948E+01 
4.142638E+02  9.913065E-01 -3.344261E+01  4.539798E-05 2.371381E+01  4.546661E-05 1.061637E+01  9.894271E-01 -3.035835E+01 
4.142950E+02  9.914038E-01 -3.345037E+01  4.486303E-05 3.249836E+00  4.190004E-05 7.764187E+00  9.894972E-01 -3.036399E+01 
