! Matrix data file written by TouchstoneData, EPCOS AG
! FILENAME: "B3744_NB.s2p"
! COMMENT: "S-Parameter B3744 narrowband (unmatched)"
! INFO: nport=2, nfreq=1601
! DATE: "Thu Jul 24 09:32:05 2008"
! USER: "Thomas Telgmann"
!
! port | pin | signal
! -----|-----|--------
!   1  |  2  |  in
!   2  |  4  |  out
! --------------------
! 
# MHZ S MA R 50
! freq  magS11 angS11  magS21 angS21  magS12 angS12  magS22 angS22
8.633000E+02  9.544229E-01 -5.938072E+01  5.808202E-03 6.404579E+01  5.805023E-03 6.425695E+01  9.507361E-01 -6.139918E+01 
8.633062E+02  9.544132E-01 -5.939406E+01  5.680038E-03 6.332166E+01  5.675358E-03 6.370183E+01  9.509209E-01 -6.140559E+01 
8.633125E+02  9.546430E-01 -5.940406E+01  5.561852E-03 6.276907E+01  5.556412E-03 6.312888E+01  9.509107E-01 -6.142061E+01 
8.633187E+02  9.546084E-01 -5.941682E+01  5.432376E-03 6.221826E+01  5.437494E-03 6.254301E+01  9.510464E-01 -6.143228E+01 
8.633250E+02  9.547656E-01 -5.942483E+01  5.335059E-03 6.161320E+01  5.327494E-03 6.193325E+01  9.511790E-01 -6.144466E+01 
8.633312E+02  9.548002E-01 -5.942998E+01  5.226930E-03 6.106920E+01  5.210270E-03 6.138766E+01  9.512087E-01 -6.145502E+01 
8.633375E+02  9.549098E-01 -5.944492E+01  5.124505E-03 6.055283E+01  5.115416E-03 6.095587E+01  9.512475E-01 -6.146378E+01 
8.633438E+02  9.549761E-01 -5.945308E+01  5.024011E-03 6.015593E+01  5.019053E-03 6.029209E+01  9.513354E-01 -6.147388E+01 
8.633500E+02  9.550176E-01 -5.946430E+01  4.922485E-03 5.961119E+01  4.917952E-03 5.995078E+01  9.515615E-01 -6.147892E+01 
8.633562E+02  9.552167E-01 -5.947327E+01  4.834653E-03 5.924639E+01  4.822801E-03 5.948419E+01  9.515330E-01 -6.148990E+01 
8.633625E+02  9.551950E-01 -5.948826E+01  4.744610E-03 5.870361E+01  4.737589E-03 5.903086E+01  9.516971E-01 -6.150251E+01 
8.633687E+02  9.551779E-01 -5.949462E+01  4.656640E-03 5.834610E+01  4.644658E-03 5.858755E+01  9.516785E-01 -6.151163E+01 
8.633750E+02  9.552460E-01 -5.950210E+01  4.571076E-03 5.786855E+01  4.562377E-03 5.810182E+01  9.517338E-01 -6.152235E+01 
8.633812E+02  9.553356E-01 -5.950812E+01  4.490070E-03 5.760640E+01  4.482421E-03 5.782734E+01  9.518504E-01 -6.152957E+01 
8.633875E+02  9.554440E-01 -5.952161E+01  4.417393E-03 5.713038E+01  4.406075E-03 5.741020E+01  9.519499E-01 -6.153942E+01 
8.633937E+02  9.553276E-01 -5.952883E+01  4.334191E-03 5.686941E+01  4.329115E-03 5.696709E+01  9.519204E-01 -6.155077E+01 
8.634000E+02  9.555353E-01 -5.953703E+01  4.263768E-03 5.638802E+01  4.252677E-03 5.668482E+01  9.519163E-01 -6.155990E+01 
8.634062E+02  9.555477E-01 -5.954484E+01  4.187501E-03 5.612369E+01  4.186311E-03 5.640199E+01  9.519445E-01 -6.156503E+01 
8.634125E+02  9.555729E-01 -5.956396E+01  4.133347E-03 5.570244E+01  4.118926E-03 5.602492E+01  9.520550E-01 -6.157457E+01 
8.634187E+02  9.556454E-01 -5.956260E+01  4.065933E-03 5.537891E+01  4.054450E-03 5.568752E+01  9.520483E-01 -6.158476E+01 
8.634250E+02  9.556378E-01 -5.957696E+01  4.004038E-03 5.521193E+01  3.993329E-03 5.539286E+01  9.520655E-01 -6.159665E+01 
8.634312E+02  9.556923E-01 -5.958273E+01  3.941366E-03 5.490727E+01  3.936361E-03 5.511319E+01  9.521804E-01 -6.160658E+01 
8.634375E+02  9.557389E-01 -5.959027E+01  3.881098E-03 5.455544E+01  3.874800E-03 5.468980E+01  9.522165E-01 -6.161549E+01 
8.634437E+02  9.557939E-01 -5.960322E+01  3.818188E-03 5.422468E+01  3.817510E-03 5.452593E+01  9.522012E-01 -6.162075E+01 
8.634500E+02  9.557991E-01 -5.961170E+01  3.765341E-03 5.399586E+01  3.767135E-03 5.428302E+01  9.522882E-01 -6.163116E+01 
8.634562E+02  9.557936E-01 -5.962200E+01  3.718969E-03 5.366004E+01  3.711073E-03 5.402766E+01  9.522766E-01 -6.163768E+01 
8.634625E+02  9.558739E-01 -5.963059E+01  3.662113E-03 5.341205E+01  3.660319E-03 5.367287E+01  9.523127E-01 -6.164589E+01 
8.634688E+02  9.558260E-01 -5.964070E+01  3.611879E-03 5.328647E+01  3.612529E-03 5.344704E+01  9.523213E-01 -6.165939E+01 
8.634750E+02  9.558972E-01 -5.965234E+01  3.563082E-03 5.276698E+01  3.558170E-03 5.332893E+01  9.523601E-01 -6.167399E+01 
8.634812E+02  9.558773E-01 -5.966262E+01  3.520311E-03 5.267350E+01  3.516645E-03 5.296604E+01  9.524105E-01 -6.167731E+01 
8.634875E+02  9.558749E-01 -5.967294E+01  3.475431E-03 5.248153E+01  3.468840E-03 5.260496E+01  9.524118E-01 -6.168187E+01 
8.634937E+02  9.559253E-01 -5.967180E+01  3.429257E-03 5.224203E+01  3.422536E-03 5.246385E+01  9.523882E-01 -6.169223E+01 
8.635000E+02  9.558942E-01 -5.969090E+01  3.392607E-03 5.198611E+01  3.383365E-03 5.219462E+01  9.523717E-01 -6.170450E+01 
8.635062E+02  9.559830E-01 -5.969155E+01  3.342122E-03 5.177244E+01  3.339088E-03 5.204293E+01  9.524140E-01 -6.170833E+01 
8.635125E+02  9.559845E-01 -5.970183E+01  3.312973E-03 5.148596E+01  3.298336E-03 5.177139E+01  9.523906E-01 -6.172329E+01 
8.635187E+02  9.558943E-01 -5.970653E+01  3.268460E-03 5.149859E+01  3.268006E-03 5.152686E+01  9.524189E-01 -6.172619E+01 
8.635250E+02  9.560228E-01 -5.971817E+01  3.234634E-03 5.114779E+01  3.234474E-03 5.141607E+01  9.524100E-01 -6.173863E+01 
8.635312E+02  9.559951E-01 -5.972685E+01  3.190438E-03 5.091204E+01  3.190549E-03 5.122106E+01  9.524450E-01 -6.174341E+01 
8.635375E+02  9.560350E-01 -5.973323E+01  3.164122E-03 5.064071E+01  3.162709E-03 5.102838E+01  9.523542E-01 -6.175921E+01 
8.635437E+02  9.559069E-01 -5.973879E+01  3.129054E-03 5.061329E+01  3.124943E-03 5.075891E+01  9.523784E-01 -6.176058E+01 
8.635500E+02  9.560294E-01 -5.975062E+01  3.095079E-03 5.028377E+01  3.097430E-03 5.051928E+01  9.524326E-01 -6.177807E+01 
8.635562E+02  9.559710E-01 -5.976019E+01  3.064590E-03 5.012188E+01  3.060367E-03 5.023671E+01  9.524218E-01 -6.178052E+01 
8.635625E+02  9.560645E-01 -5.976396E+01  3.039458E-03 4.978799E+01  3.032715E-03 5.015233E+01  9.524484E-01 -6.179062E+01 
8.635687E+02  9.559923E-01 -5.977084E+01  3.006991E-03 4.968017E+01  3.001977E-03 4.986150E+01  9.524634E-01 -6.179076E+01 
8.635750E+02  9.559757E-01 -5.979013E+01  2.975093E-03 4.928857E+01  2.979780E-03 4.965748E+01  9.524243E-01 -6.180780E+01 
8.635812E+02  9.560914E-01 -5.979268E+01  2.955549E-03 4.919380E+01  2.948563E-03 4.939408E+01  9.524627E-01 -6.181144E+01 
8.635875E+02  9.561075E-01 -5.979711E+01  2.927398E-03 4.894977E+01  2.920625E-03 4.921615E+01  9.523903E-01 -6.181637E+01 
8.635938E+02  9.560520E-01 -5.980974E+01  2.903228E-03 4.888363E+01  2.895022E-03 4.896168E+01  9.523580E-01 -6.182238E+01 
8.636000E+02  9.561795E-01 -5.981926E+01  2.875671E-03 4.852381E+01  2.872863E-03 4.869654E+01  9.525002E-01 -6.183379E+01 
8.636062E+02  9.560737E-01 -5.982551E+01  2.862366E-03 4.834303E+01  2.854717E-03 4.851771E+01  9.524779E-01 -6.184495E+01 
8.636125E+02  9.561408E-01 -5.983493E+01  2.839014E-03 4.816387E+01  2.829625E-03 4.824955E+01  9.524303E-01 -6.184951E+01 
8.636187E+02  9.560801E-01 -5.984730E+01  2.822837E-03 4.778094E+01  2.809681E-03 4.800416E+01  9.524783E-01 -6.186683E+01 
8.636250E+02  9.561168E-01 -5.984944E+01  2.796770E-03 4.761436E+01  2.791093E-03 4.788461E+01  9.524580E-01 -6.187114E+01 
8.636312E+02  9.561201E-01 -5.986135E+01  2.776825E-03 4.732496E+01  2.768567E-03 4.766268E+01  9.524582E-01 -6.188356E+01 
8.636375E+02  9.560804E-01 -5.987558E+01  2.761035E-03 4.721095E+01  2.748290E-03 4.755392E+01  9.524541E-01 -6.188473E+01 
8.636437E+02  9.561407E-01 -5.988536E+01  2.739395E-03 4.691032E+01  2.739745E-03 4.711230E+01  9.525505E-01 -6.189747E+01 
8.636500E+02  9.561016E-01 -5.988965E+01  2.723526E-03 4.663877E+01  2.716643E-03 4.683280E+01  9.524169E-01 -6.190140E+01 
8.636562E+02  9.561885E-01 -5.990307E+01  2.705891E-03 4.624335E+01  2.712905E-03 4.669913E+01  9.524405E-01 -6.191459E+01 
8.636625E+02  9.560045E-01 -5.991018E+01  2.693485E-03 4.617498E+01  2.695368E-03 4.638440E+01  9.524963E-01 -6.192344E+01 
8.636687E+02  9.560948E-01 -5.992337E+01  2.680583E-03 4.595306E+01  2.678826E-03 4.614404E+01  9.524652E-01 -6.193284E+01 
8.636750E+02  9.561058E-01 -5.992786E+01  2.672026E-03 4.560699E+01  2.668427E-03 4.581150E+01  9.524859E-01 -6.194427E+01 
8.636812E+02  9.559714E-01 -5.993420E+01  2.660191E-03 4.529289E+01  2.657779E-03 4.551771E+01  9.524523E-01 -6.195174E+01 
8.636875E+02  9.561810E-01 -5.994710E+01  2.646349E-03 4.490227E+01  2.641278E-03 4.519056E+01  9.523993E-01 -6.196126E+01 
8.636937E+02  9.561248E-01 -5.995386E+01  2.640507E-03 4.465253E+01  2.631005E-03 4.494163E+01  9.524807E-01 -6.196762E+01 
8.637000E+02  9.561331E-01 -5.996569E+01  2.641835E-03 4.446768E+01  2.623984E-03 4.454405E+01  9.523871E-01 -6.197974E+01 
8.637062E+02  9.559560E-01 -5.997187E+01  2.623824E-03 4.403425E+01  2.616029E-03 4.427498E+01  9.523477E-01 -6.198544E+01 
8.637125E+02  9.560927E-01 -5.998208E+01  2.617096E-03 4.353164E+01  2.617025E-03 4.383536E+01  9.523895E-01 -6.199488E+01 
8.637188E+02  9.559919E-01 -5.999106E+01  2.610447E-03 4.321438E+01  2.600754E-03 4.338312E+01  9.523842E-01 -6.199984E+01 
8.637250E+02  9.559723E-01 -5.999561E+01  2.612200E-03 4.309401E+01  2.595442E-03 4.302839E+01  9.523581E-01 -6.201626E+01 
8.637312E+02  9.560250E-01 -6.000775E+01  2.603860E-03 4.249235E+01  2.596101E-03 4.263955E+01  9.523429E-01 -6.201684E+01 
8.637375E+02  9.559379E-01 -6.001382E+01  2.592550E-03 4.185927E+01  2.584684E-03 4.215143E+01  9.523984E-01 -6.203543E+01 
8.637437E+02  9.560093E-01 -6.002048E+01  2.591290E-03 4.149986E+01  2.590064E-03 4.169684E+01  9.523187E-01 -6.204122E+01 
8.637500E+02  9.559129E-01 -6.002905E+01  2.593827E-03 4.113194E+01  2.583080E-03 4.118376E+01  9.522557E-01 -6.205299E+01 
8.637562E+02  9.558984E-01 -6.004164E+01  2.588314E-03 4.066799E+01  2.586836E-03 4.063079E+01  9.522240E-01 -6.205640E+01 
8.637625E+02  9.559574E-01 -6.004930E+01  2.591235E-03 3.991337E+01  2.588727E-03 4.011989E+01  9.522421E-01 -6.206606E+01 
8.637687E+02  9.559050E-01 -6.005606E+01  2.593238E-03 3.937184E+01  2.586196E-03 3.955230E+01  9.521899E-01 -6.207109E+01 
8.637750E+02  9.559551E-01 -6.007401E+01  2.603309E-03 3.866410E+01  2.595721E-03 3.894478E+01  9.521335E-01 -6.208626E+01 
8.637812E+02  9.559085E-01 -6.008468E+01  2.612098E-03 3.816936E+01  2.598720E-03 3.830670E+01  9.521400E-01 -6.209178E+01 
8.637875E+02  9.557833E-01 -6.009041E+01  2.613938E-03 3.739392E+01  2.607170E-03 3.753694E+01  9.521627E-01 -6.210350E+01 
8.637937E+02  9.558177E-01 -6.009995E+01  2.615808E-03 3.675187E+01  2.607502E-03 3.692661E+01  9.520896E-01 -6.210939E+01 
8.638000E+02  9.558240E-01 -6.010798E+01  2.624471E-03 3.589948E+01  2.623382E-03 3.604977E+01  9.520401E-01 -6.212364E+01 
8.638062E+02  9.557704E-01 -6.011860E+01  2.637120E-03 3.497938E+01  2.624458E-03 3.528599E+01  9.519888E-01 -6.212404E+01 
8.638125E+02  9.556458E-01 -6.013398E+01  2.645397E-03 3.418998E+01  2.636992E-03 3.439279E+01  9.520025E-01 -6.213958E+01 
8.638187E+02  9.557001E-01 -6.013940E+01  2.653245E-03 3.323892E+01  2.652214E-03 3.351554E+01  9.518464E-01 -6.214979E+01 
8.638250E+02  9.556581E-01 -6.014601E+01  2.666841E-03 3.225788E+01  2.656350E-03 3.232746E+01  9.518633E-01 -6.216062E+01 
8.638312E+02  9.555490E-01 -6.016359E+01  2.681990E-03 3.106270E+01  2.674819E-03 3.131903E+01  9.517599E-01 -6.216619E+01 
8.638375E+02  9.555132E-01 -6.016689E+01  2.691345E-03 3.014106E+01  2.690435E-03 3.031397E+01  9.517031E-01 -6.217847E+01 
8.638438E+02  9.552635E-01 -6.018257E+01  2.708620E-03 2.886016E+01  2.704313E-03 2.884200E+01  9.517201E-01 -6.219220E+01 
8.638500E+02  9.553729E-01 -6.018243E+01  2.726794E-03 2.769009E+01  2.718764E-03 2.774163E+01  9.516662E-01 -6.219852E+01 
8.638562E+02  9.551201E-01 -6.019928E+01  2.739197E-03 2.608778E+01  2.737047E-03 2.644516E+01  9.516464E-01 -6.220937E+01 
8.638625E+02  9.549978E-01 -6.020688E+01  2.762200E-03 2.476529E+01  2.760859E-03 2.483066E+01  9.515255E-01 -6.222159E+01 
8.638687E+02  9.551040E-01 -6.022191E+01  2.783095E-03 2.307143E+01  2.773799E-03 2.330974E+01  9.515174E-01 -6.222824E+01 
8.638750E+02  9.549649E-01 -6.023357E+01  2.800678E-03 2.153076E+01  2.797676E-03 2.165487E+01  9.513365E-01 -6.223388E+01 
8.638812E+02  9.549203E-01 -6.024058E+01  2.820186E-03 1.954273E+01  2.812417E-03 1.971902E+01  9.512799E-01 -6.224565E+01 
8.638875E+02  9.546524E-01 -6.025220E+01  2.839785E-03 1.764772E+01  2.834887E-03 1.770396E+01  9.511307E-01 -6.225314E+01 
8.638937E+02  9.546122E-01 -6.026356E+01  2.857002E-03 1.568104E+01  2.854958E-03 1.575029E+01  9.509913E-01 -6.226678E+01 
8.639000E+02  9.544670E-01 -6.026564E+01  2.878650E-03 1.337663E+01  2.874144E-03 1.343051E+01  9.508772E-01 -6.227320E+01 
8.639062E+02  9.543268E-01 -6.027544E+01  2.891063E-03 1.094695E+01  2.890808E-03 1.116221E+01  9.507627E-01 -6.228415E+01 
8.639125E+02  9.542516E-01 -6.028221E+01  2.903221E-03 8.488650E+00  2.907469E-03 8.653145E+00  9.506360E-01 -6.228345E+01 
8.639187E+02  9.540105E-01 -6.029083E+01  2.910532E-03 5.864836E+00  2.917051E-03 5.924510E+00  9.504741E-01 -6.229308E+01 
8.639250E+02  9.540178E-01 -6.029477E+01  2.920653E-03 3.192043E+00  2.919354E-03 3.166275E+00  9.503072E-01 -6.229975E+01 
8.639312E+02  9.538243E-01 -6.029882E+01  2.924589E-03 1.309715E-01  2.926327E-03 1.570584E-01  9.502522E-01 -6.230794E+01 
8.639375E+02  9.537245E-01 -6.031085E+01  2.918070E-03 -3.124100E+00  2.921913E-03 -3.131999E+00  9.500479E-01 -6.230491E+01 
8.639437E+02  9.535491E-01 -6.030733E+01  2.904545E-03 -6.504527E+00  2.913784E-03 -6.276791E+00  9.499702E-01 -6.231253E+01 
8.639500E+02  9.533643E-01 -6.031214E+01  2.891836E-03 -9.775067E+00  2.893317E-03 -9.773708E+00  9.499201E-01 -6.230891E+01 
8.639562E+02  9.532501E-01 -6.031464E+01  2.868322E-03 -1.354909E+01  2.875962E-03 -1.343840E+01  9.497612E-01 -6.231022E+01 
8.639625E+02  9.530998E-01 -6.031988E+01  2.828183E-03 -1.719897E+01  2.827349E-03 -1.722895E+01  9.496752E-01 -6.231425E+01 
8.639688E+02  9.529970E-01 -6.031187E+01  2.797185E-03 -2.109006E+01  2.795015E-03 -2.091865E+01  9.495554E-01 -6.231011E+01 
8.639750E+02  9.529085E-01 -6.030892E+01  2.732358E-03 -2.495308E+01  2.745464E-03 -2.490696E+01  9.495226E-01 -6.231254E+01 
8.639812E+02  9.528240E-01 -6.031432E+01  2.681121E-03 -2.899367E+01  2.681820E-03 -2.890610E+01  9.493381E-01 -6.230677E+01 
8.639875E+02  9.528109E-01 -6.030473E+01  2.616944E-03 -3.297787E+01  2.623995E-03 -3.297714E+01  9.494601E-01 -6.230896E+01 
8.639937E+02  9.526950E-01 -6.030875E+01  2.542236E-03 -3.709194E+01  2.545101E-03 -3.698518E+01  9.494213E-01 -6.230501E+01 
8.640000E+02  9.527805E-01 -6.030661E+01  2.464133E-03 -4.123748E+01  2.470424E-03 -4.122758E+01  9.493222E-01 -6.230456E+01 
8.640062E+02  9.527053E-01 -6.029683E+01  2.372931E-03 -4.540479E+01  2.381273E-03 -4.542299E+01  9.493990E-01 -6.229178E+01 
8.640125E+02  9.527626E-01 -6.029754E+01  2.287374E-03 -4.939769E+01  2.289114E-03 -4.933707E+01  9.494560E-01 -6.229446E+01 
8.640187E+02  9.527785E-01 -6.029110E+01  2.191060E-03 -5.356031E+01  2.196822E-03 -5.336393E+01  9.494924E-01 -6.229623E+01 
8.640250E+02  9.528811E-01 -6.030131E+01  2.104446E-03 -5.758026E+01  2.107710E-03 -5.745287E+01  9.495308E-01 -6.229546E+01 
8.640312E+02  9.529122E-01 -6.029436E+01  2.016417E-03 -6.126679E+01  2.021690E-03 -6.132221E+01  9.496522E-01 -6.230129E+01 
8.640375E+02  9.529451E-01 -6.029423E+01  1.922612E-03 -6.531753E+01  1.929112E-03 -6.521237E+01  9.497327E-01 -6.229450E+01 
8.640437E+02  9.531712E-01 -6.030050E+01  1.839595E-03 -6.912444E+01  1.841527E-03 -6.898136E+01  9.498338E-01 -6.230568E+01 
8.640500E+02  9.531957E-01 -6.030252E+01  1.749053E-03 -7.298443E+01  1.753744E-03 -7.268181E+01  9.499108E-01 -6.230269E+01 
8.640562E+02  9.532900E-01 -6.030675E+01  1.667102E-03 -7.644510E+01  1.677874E-03 -7.645612E+01  9.500069E-01 -6.231261E+01 
8.640625E+02  9.533740E-01 -6.031296E+01  1.592716E-03 -8.045749E+01  1.603500E-03 -7.994670E+01  9.500227E-01 -6.231477E+01 
8.640687E+02  9.533677E-01 -6.031868E+01  1.517458E-03 -8.352765E+01  1.527695E-03 -8.352548E+01  9.501461E-01 -6.232178E+01 
8.640750E+02  9.535119E-01 -6.032143E+01  1.457544E-03 -8.749535E+01  1.456496E-03 -8.705562E+01  9.502090E-01 -6.232404E+01 
8.640812E+02  9.534698E-01 -6.033331E+01  1.380615E-03 -9.083534E+01  1.395268E-03 -9.078142E+01  9.503150E-01 -6.233588E+01 
8.640875E+02  9.537283E-01 -6.033990E+01  1.331693E-03 -9.421349E+01  1.343910E-03 -9.419364E+01  9.503042E-01 -6.234062E+01 
8.640938E+02  9.537247E-01 -6.034302E+01  1.273467E-03 -9.797727E+01  1.274607E-03 -9.769602E+01  9.504579E-01 -6.234908E+01 
8.641000E+02  9.537280E-01 -6.035732E+01  1.220682E-03 -1.010210E+02  1.230802E-03 -1.008578E+02  9.503928E-01 -6.235367E+01 
8.641062E+02  9.538677E-01 -6.035813E+01  1.175181E-03 -1.047660E+02  1.188057E-03 -1.045799E+02  9.504864E-01 -6.236476E+01 
8.641125E+02  9.537933E-01 -6.037170E+01  1.144752E-03 -1.080198E+02  1.153295E-03 -1.078676E+02  9.505645E-01 -6.237294E+01 
8.641187E+02  9.539324E-01 -6.037660E+01  1.105472E-03 -1.115542E+02  1.112338E-03 -1.111671E+02  9.505194E-01 -6.238468E+01 
8.641250E+02  9.539355E-01 -6.038784E+01  1.075056E-03 -1.147430E+02  1.077426E-03 -1.143117E+02  9.506637E-01 -6.239189E+01 
8.641312E+02  9.539573E-01 -6.039447E+01  1.041815E-03 -1.182737E+02  1.050510E-03 -1.174325E+02  9.506884E-01 -6.240230E+01 
8.641375E+02  9.540101E-01 -6.040761E+01  1.021238E-03 -1.208143E+02  1.025611E-03 -1.207784E+02  9.507925E-01 -6.241193E+01 
8.641437E+02  9.540359E-01 -6.041594E+01  9.943404E-04 -1.243750E+02  1.003697E-03 -1.240931E+02  9.508183E-01 -6.242504E+01 
8.641500E+02  9.540168E-01 -6.042631E+01  9.727111E-04 -1.274846E+02  9.883102E-04 -1.270904E+02  9.507765E-01 -6.243388E+01 
8.641562E+02  9.539817E-01 -6.044169E+01  9.698664E-04 -1.302703E+02  9.698958E-04 -1.301057E+02  9.508450E-01 -6.244567E+01 
8.641625E+02  9.541248E-01 -6.045198E+01  9.533548E-04 -1.331418E+02  9.617126E-04 -1.331862E+02  9.508225E-01 -6.245609E+01 
8.641687E+02  9.541295E-01 -6.045557E+01  9.500309E-04 -1.363066E+02  9.508680E-04 -1.357671E+02  9.509029E-01 -6.246613E+01 
8.641750E+02  9.541532E-01 -6.047020E+01  9.434123E-04 -1.391901E+02  9.502822E-04 -1.383024E+02  9.508416E-01 -6.247752E+01 
8.641812E+02  9.542341E-01 -6.047175E+01  9.420653E-04 -1.416974E+02  9.441226E-04 -1.410016E+02  9.509614E-01 -6.248385E+01 
8.641875E+02  9.540982E-01 -6.048950E+01  9.374930E-04 -1.441347E+02  9.467345E-04 -1.430162E+02  9.509385E-01 -6.249520E+01 
8.641937E+02  9.541991E-01 -6.049209E+01  9.321891E-04 -1.464537E+02  9.400556E-04 -1.464229E+02  9.508853E-01 -6.250604E+01 
8.642000E+02  9.541618E-01 -6.050313E+01  9.368574E-04 -1.488424E+02  9.495968E-04 -1.482306E+02  9.509022E-01 -6.251471E+01 
8.642062E+02  9.542628E-01 -6.051908E+01  9.494802E-04 -1.510533E+02  9.519947E-04 -1.501903E+02  9.509746E-01 -6.252224E+01 
8.642125E+02  9.542331E-01 -6.053216E+01  9.570823E-04 -1.536792E+02  9.616582E-04 -1.527271E+02  9.509943E-01 -6.253461E+01 
8.642188E+02  9.541521E-01 -6.053671E+01  9.555044E-04 -1.553640E+02  9.657994E-04 -1.544773E+02  9.509796E-01 -6.254527E+01 
8.642250E+02  9.542810E-01 -6.055316E+01  9.729101E-04 -1.572803E+02  9.783438E-04 -1.567996E+02  9.510074E-01 -6.255694E+01 
8.642312E+02  9.541739E-01 -6.056176E+01  9.838138E-04 -1.586754E+02  9.858028E-04 -1.581903E+02  9.509250E-01 -6.256674E+01 
8.642375E+02  9.542112E-01 -6.057487E+01  9.909809E-04 -1.604626E+02  1.000755E-03 -1.600470E+02  9.510090E-01 -6.258177E+01 
8.642437E+02  9.541201E-01 -6.058713E+01  1.014047E-03 -1.628171E+02  1.006014E-03 -1.615993E+02  9.509388E-01 -6.258399E+01 
8.642500E+02  9.542587E-01 -6.059499E+01  1.024106E-03 -1.634928E+02  1.020837E-03 -1.635277E+02  9.508998E-01 -6.259570E+01 
8.642562E+02  9.541664E-01 -6.059466E+01  1.034835E-03 -1.654396E+02  1.037946E-03 -1.644357E+02  9.509592E-01 -6.260324E+01 
8.642625E+02  9.541136E-01 -6.061339E+01  1.050204E-03 -1.666672E+02  1.055421E-03 -1.659890E+02  9.509641E-01 -6.261818E+01 
