! Matrix data file written by TouchstoneData, EPCOS AG
! FILENAME: "B3749_WB.s2p"
! COMMENT: "(B3749_WB.s2p) EPCOS AG 12.10.2011 09:56:57"
! INFO: nport=2, nfreq=1601
! DATE: "Thu Nov 17 12:38:40 2011"
! USER: "Wilfried Schott"
!
! port | pin | signal
! -----|-----|--------
!   1  |  2  |  IN
!   2  |  4  |  OUT
! --------------------
! 
# MHZ S MA R 50
! freq  magS11 angS11  magS21 angS21  magS12 angS12  magS22 angS22
8.190000E+02  9.908119E-01 -2.271315E+01  4.854965E-04 7.110510E+01  4.780751E-04 7.024852E+01  9.908947E-01 -2.646704E+01 
8.190625E+02  9.906590E-01 -2.271854E+01  4.824310E-04 7.030860E+01  4.748267E-04 6.894340E+01  9.908714E-01 -2.647151E+01 
8.191250E+02  9.907227E-01 -2.271594E+01  4.787463E-04 6.962143E+01  4.729656E-04 7.035524E+01  9.907034E-01 -2.647894E+01 
8.191875E+02  9.906603E-01 -2.273504E+01  4.766837E-04 6.998600E+01  4.811809E-04 7.043977E+01  9.906325E-01 -2.649384E+01 
8.192500E+02  9.906406E-01 -2.273159E+01  4.843836E-04 7.071276E+01  4.785691E-04 6.890158E+01  9.906304E-01 -2.647819E+01 
8.193125E+02  9.906279E-01 -2.273623E+01  4.767713E-04 7.028694E+01  4.773571E-04 6.946497E+01  9.905781E-01 -2.649131E+01 
8.193750E+02  9.905448E-01 -2.274510E+01  4.777505E-04 6.997807E+01  4.736977E-04 6.816318E+01  9.905483E-01 -2.650003E+01 
8.194375E+02  9.906180E-01 -2.274028E+01  4.842698E-04 6.976008E+01  4.754217E-04 6.868345E+01  9.906565E-01 -2.649414E+01 
8.195000E+02  9.904729E-01 -2.275790E+01  4.689730E-04 6.882713E+01  4.672258E-04 7.025035E+01  9.905413E-01 -2.650964E+01 
8.195625E+02  9.905678E-01 -2.275438E+01  4.725523E-04 6.906510E+01  4.721258E-04 7.003822E+01  9.904664E-01 -2.650290E+01 
8.196250E+02  9.906676E-01 -2.274880E+01  4.830015E-04 6.853181E+01  4.727949E-04 6.881556E+01  9.904613E-01 -2.651093E+01 
8.196875E+02  9.905496E-01 -2.276042E+01  4.708989E-04 6.957450E+01  4.671453E-04 6.887345E+01  9.902718E-01 -2.652856E+01 
8.197500E+02  9.905136E-01 -2.276206E+01  4.653994E-04 6.786031E+01  4.733686E-04 6.859056E+01  9.903904E-01 -2.652007E+01 
8.198125E+02  9.905419E-01 -2.276301E+01  4.690218E-04 6.865493E+01  4.511212E-04 6.949340E+01  9.903987E-01 -2.652541E+01 
8.198750E+02  9.904190E-01 -2.277484E+01  4.623807E-04 6.752586E+01  4.569275E-04 6.830498E+01  9.903336E-01 -2.652948E+01 
8.199375E+02  9.904961E-01 -2.276420E+01  4.612129E-04 6.773445E+01  4.621773E-04 6.779168E+01  9.903461E-01 -2.652582E+01 
8.200000E+02  9.902911E-01 -2.278524E+01  4.507390E-04 6.896980E+01  4.652190E-04 6.922171E+01  9.901839E-01 -2.654505E+01 
8.200625E+02  9.903843E-01 -2.278986E+01  4.535593E-04 6.946034E+01  4.506962E-04 6.871867E+01  9.901746E-01 -2.653899E+01 
8.201250E+02  9.903940E-01 -2.278504E+01  4.396314E-04 6.835518E+01  4.437021E-04 6.750973E+01  9.903073E-01 -2.653823E+01 
8.201875E+02  9.903659E-01 -2.279908E+01  4.348292E-04 6.849254E+01  4.478292E-04 6.843383E+01  9.900811E-01 -2.655678E+01 
8.202500E+02  9.903344E-01 -2.279544E+01  4.305758E-04 6.888610E+01  4.307639E-04 6.709035E+01  9.900961E-01 -2.655164E+01 
8.203125E+02  9.903799E-01 -2.279471E+01  4.356367E-04 6.750676E+01  4.335826E-04 6.743966E+01  9.900845E-01 -2.656178E+01 
8.203750E+02  9.902096E-01 -2.281330E+01  4.391092E-04 6.780690E+01  4.398528E-04 6.590072E+01  9.900335E-01 -2.656130E+01 
8.204375E+02  9.903495E-01 -2.279901E+01  4.298478E-04 6.846715E+01  4.302642E-04 6.952963E+01  9.900689E-01 -2.655544E+01 
8.205000E+02  9.903031E-01 -2.280745E+01  4.229910E-04 6.922993E+01  4.297882E-04 7.126122E+01  9.899628E-01 -2.657400E+01 
8.205625E+02  9.902519E-01 -2.280966E+01  4.240857E-04 6.899324E+01  4.296615E-04 6.901192E+01  9.900619E-01 -2.657316E+01 
8.206250E+02  9.902254E-01 -2.280700E+01  4.155001E-04 6.911114E+01  4.181546E-04 7.127712E+01  9.899688E-01 -2.657670E+01 
8.206875E+02  9.902235E-01 -2.282404E+01  4.020902E-04 6.973743E+01  4.175441E-04 7.187450E+01  9.899263E-01 -2.658754E+01 
8.207500E+02  9.902008E-01 -2.281066E+01  4.105476E-04 7.106759E+01  4.155738E-04 7.002603E+01  9.900149E-01 -2.657041E+01 
8.208125E+02  9.902396E-01 -2.282043E+01  4.013549E-04 7.199364E+01  4.092034E-04 7.126478E+01  9.899300E-01 -2.659170E+01 
8.208750E+02  9.901908E-01 -2.282380E+01  4.069180E-04 7.281571E+01  3.969851E-04 6.969045E+01  9.898897E-01 -2.659137E+01 
8.209375E+02  9.902949E-01 -2.282228E+01  4.017539E-04 7.296258E+01  3.892150E-04 7.276770E+01  9.899189E-01 -2.658336E+01 
8.210000E+02  9.901882E-01 -2.283325E+01  4.092272E-04 7.388876E+01  4.044086E-04 7.290100E+01  9.898468E-01 -2.660115E+01 
8.210625E+02  9.902160E-01 -2.282525E+01  3.997777E-04 7.453600E+01  4.015039E-04 7.184499E+01  9.898765E-01 -2.659531E+01 
8.211250E+02  9.902525E-01 -2.283178E+01  3.966689E-04 7.503280E+01  4.040295E-04 7.558865E+01  9.898589E-01 -2.660512E+01 
8.211875E+02  9.901964E-01 -2.283934E+01  4.029208E-04 7.713872E+01  3.956431E-04 7.614160E+01  9.897915E-01 -2.661446E+01 
8.212500E+02  9.901881E-01 -2.283833E+01  3.923917E-04 7.670972E+01  4.038060E-04 7.713584E+01  9.898748E-01 -2.660493E+01 
8.213125E+02  9.902212E-01 -2.284359E+01  4.022685E-04 7.590570E+01  4.054648E-04 7.704185E+01  9.898611E-01 -2.661128E+01 
8.213750E+02  9.901397E-01 -2.284661E+01  4.113823E-04 7.843985E+01  4.090550E-04 7.672568E+01  9.897967E-01 -2.661894E+01 
8.214375E+02  9.902359E-01 -2.284105E+01  4.200480E-04 8.028127E+01  4.023060E-04 8.053583E+01  9.898123E-01 -2.661630E+01 
8.215000E+02  9.901420E-01 -2.285049E+01  4.204351E-04 8.016868E+01  4.060074E-04 7.954734E+01  9.897937E-01 -2.662628E+01 
8.215625E+02  9.902172E-01 -2.284823E+01  4.159394E-04 8.115909E+01  4.213836E-04 8.118558E+01  9.897529E-01 -2.662431E+01 
8.216250E+02  9.901408E-01 -2.284709E+01  4.238448E-04 8.200097E+01  4.276890E-04 8.173911E+01  9.897781E-01 -2.662520E+01 
8.216875E+02  9.901343E-01 -2.286010E+01  4.194929E-04 8.386309E+01  4.188621E-04 8.545141E+01  9.897015E-01 -2.664239E+01 
8.217500E+02  9.902092E-01 -2.284793E+01  4.276917E-04 8.385582E+01  4.309581E-04 8.377696E+01  9.897375E-01 -2.662856E+01 
8.218125E+02  9.901923E-01 -2.285660E+01  4.341226E-04 8.359226E+01  4.298519E-04 8.285188E+01  9.896557E-01 -2.664192E+01 
8.218750E+02  9.901422E-01 -2.286021E+01  4.380068E-04 8.530428E+01  4.331866E-04 8.679954E+01  9.896823E-01 -2.663859E+01 
8.219375E+02  9.902273E-01 -2.284622E+01  4.394645E-04 8.542055E+01  4.349800E-04 8.387194E+01  9.897627E-01 -2.663369E+01 
8.220000E+02  9.901481E-01 -2.286792E+01  4.512541E-04 8.395386E+01  4.475074E-04 8.521878E+01  9.896601E-01 -2.665551E+01 
8.220625E+02  9.902142E-01 -2.286211E+01  4.628883E-04 8.519085E+01  4.470659E-04 8.550365E+01  9.897712E-01 -2.663841E+01 
8.221250E+02  9.902276E-01 -2.285704E+01  4.598659E-04 8.472949E+01  4.534792E-04 8.465694E+01  9.897024E-01 -2.665301E+01 
8.221875E+02  9.901841E-01 -2.287167E+01  4.738234E-04 8.718639E+01  4.652815E-04 8.660432E+01  9.896082E-01 -2.664742E+01 
8.222500E+02  9.903014E-01 -2.285916E+01  4.881726E-04 8.441850E+01  4.789397E-04 8.574311E+01  9.897513E-01 -2.664477E+01 
8.223125E+02  9.902492E-01 -2.287274E+01  4.927746E-04 8.494112E+01  4.849664E-04 8.506086E+01  9.896999E-01 -2.666073E+01 
8.223750E+02  9.902457E-01 -2.287109E+01  5.070947E-04 8.397849E+01  4.987967E-04 8.616671E+01  9.897390E-01 -2.665026E+01 
8.224375E+02  9.902445E-01 -2.286297E+01  5.274412E-04 8.450227E+01  5.116902E-04 8.465837E+01  9.897454E-01 -2.665555E+01 
8.225000E+02  9.902991E-01 -2.288176E+01  5.151100E-04 8.364961E+01  5.180646E-04 8.359837E+01  9.896591E-01 -2.666728E+01 
8.225625E+02  9.902691E-01 -2.287077E+01  5.295268E-04 8.322081E+01  5.180750E-04 8.294834E+01  9.896853E-01 -2.665591E+01 
8.226250E+02  9.903683E-01 -2.287091E+01  5.337743E-04 8.228456E+01  5.316991E-04 8.204588E+01  9.897247E-01 -2.666538E+01 
8.226875E+02  9.903019E-01 -2.287750E+01  5.425162E-04 8.228220E+01  5.323984E-04 8.233511E+01  9.897126E-01 -2.666914E+01 
8.227500E+02  9.904325E-01 -2.287623E+01  5.399923E-04 8.048375E+01  5.375436E-04 8.191029E+01  9.898159E-01 -2.666393E+01 
8.228125E+02  9.903779E-01 -2.287466E+01  5.426968E-04 8.158412E+01  5.289487E-04 7.973391E+01  9.897871E-01 -2.666820E+01 
8.228750E+02  9.903466E-01 -2.287488E+01  5.423597E-04 8.087383E+01  5.375638E-04 8.049924E+01  9.896640E-01 -2.666988E+01 
8.229375E+02  9.904637E-01 -2.287061E+01  5.384191E-04 8.071712E+01  5.496405E-04 8.059663E+01  9.897374E-01 -2.667310E+01 
8.230000E+02  9.904137E-01 -2.288156E+01  5.488485E-04 7.960886E+01  5.345765E-04 7.962321E+01  9.897516E-01 -2.667724E+01 
8.230625E+02  9.903930E-01 -2.287340E+01  5.522813E-04 7.755237E+01  5.520225E-04 7.868531E+01  9.898549E-01 -2.666927E+01 
8.231250E+02  9.905630E-01 -2.287242E+01  5.506933E-04 7.781474E+01  5.486888E-04 7.817479E+01  9.898517E-01 -2.667422E+01 
8.231875E+02  9.903799E-01 -2.288598E+01  5.383706E-04 7.670886E+01  5.533743E-04 7.764532E+01  9.897446E-01 -2.668762E+01 
8.232500E+02  9.904683E-01 -2.287905E+01  5.633454E-04 7.692449E+01  5.462495E-04 7.658501E+01  9.899768E-01 -2.667223E+01 
8.233125E+02  9.905357E-01 -2.288519E+01  5.402802E-04 7.633923E+01  5.621181E-04 7.685228E+01  9.897430E-01 -2.668607E+01 
8.233750E+02  9.904550E-01 -2.288650E+01  5.538380E-04 7.561335E+01  5.396050E-04 7.585815E+01  9.899189E-01 -2.668236E+01 
8.234375E+02  9.905637E-01 -2.287273E+01  5.567790E-04 7.590722E+01  5.361471E-04 7.526070E+01  9.899232E-01 -2.668069E+01 
8.235000E+02  9.904619E-01 -2.288924E+01  5.396757E-04 7.445948E+01  5.458209E-04 7.506190E+01  9.897732E-01 -2.669767E+01 
8.235625E+02  9.905345E-01 -2.288698E+01  5.409668E-04 7.549606E+01  5.519988E-04 7.424829E+01  9.899075E-01 -2.667637E+01 
8.236250E+02  9.905266E-01 -2.288477E+01  5.475542E-04 7.406252E+01  5.497005E-04 7.272337E+01  9.898705E-01 -2.669343E+01 
8.236875E+02  9.905801E-01 -2.289255E+01  5.489896E-04 7.351950E+01  5.457376E-04 7.267803E+01  9.898319E-01 -2.669207E+01 
8.237500E+02  9.905404E-01 -2.287668E+01  5.363990E-04 7.384428E+01  5.457151E-04 7.225925E+01  9.900205E-01 -2.668601E+01 
8.238125E+02  9.905594E-01 -2.289418E+01  5.427856E-04 7.188539E+01  5.447315E-04 7.245775E+01  9.898150E-01 -2.670325E+01 
8.238750E+02  9.906466E-01 -2.288459E+01  5.480941E-04 7.167041E+01  5.343680E-04 7.250702E+01  9.899737E-01 -2.668864E+01 
8.239375E+02  9.905803E-01 -2.288146E+01  5.341033E-04 7.259485E+01  5.452442E-04 7.308429E+01  9.899825E-01 -2.669946E+01 
8.240000E+02  9.906524E-01 -2.289955E+01  5.428561E-04 7.227291E+01  5.383474E-04 7.255513E+01  9.899841E-01 -2.670141E+01 
8.240625E+02  9.906928E-01 -2.288526E+01  5.358882E-04 7.195556E+01  5.238308E-04 7.218364E+01  9.900186E-01 -2.668937E+01 
8.241250E+02  9.907563E-01 -2.289483E+01  5.379095E-04 6.982259E+01  5.319360E-04 7.173620E+01  9.899147E-01 -2.670819E+01 
8.241875E+02  9.906981E-01 -2.288852E+01  5.452575E-04 7.107903E+01  5.440247E-04 7.202968E+01  9.899915E-01 -2.670142E+01 
8.242500E+02  9.906933E-01 -2.288639E+01  5.366398E-04 7.018593E+01  5.359705E-04 6.890934E+01  9.901445E-01 -2.669707E+01 
8.243125E+02  9.907352E-01 -2.290132E+01  5.328640E-04 7.062143E+01  5.381202E-04 6.980234E+01  9.900822E-01 -2.671290E+01 
8.243750E+02  9.907299E-01 -2.289643E+01  5.213779E-04 6.854422E+01  5.173891E-04 6.975588E+01  9.900777E-01 -2.670789E+01 
8.244375E+02  9.907678E-01 -2.289225E+01  5.295173E-04 6.954780E+01  5.186292E-04 6.944557E+01  9.900675E-01 -2.671325E+01 
8.245000E+02  9.907636E-01 -2.290879E+01  5.326447E-04 6.976313E+01  5.246839E-04 6.826261E+01  9.899639E-01 -2.671877E+01 
8.245625E+02  9.907685E-01 -2.290804E+01  5.165079E-04 6.813727E+01  5.131033E-04 6.823279E+01  9.899631E-01 -2.671929E+01 
8.246250E+02  9.907302E-01 -2.290719E+01  5.099602E-04 6.841487E+01  5.197269E-04 7.011166E+01  9.900761E-01 -2.671542E+01 
8.246875E+02  9.907030E-01 -2.291311E+01  5.262552E-04 6.955020E+01  5.107802E-04 6.840830E+01  9.898192E-01 -2.673212E+01 
8.247500E+02  9.907217E-01 -2.290577E+01  5.177454E-04 6.968887E+01  5.144864E-04 6.893033E+01  9.899717E-01 -2.671785E+01 
8.248125E+02  9.907148E-01 -2.291628E+01  5.050530E-04 6.896467E+01  5.046745E-04 6.838891E+01  9.899520E-01 -2.673846E+01 
8.248750E+02  9.906764E-01 -2.292264E+01  5.060915E-04 6.891319E+01  5.035266E-04 6.863254E+01  9.900023E-01 -2.672608E+01 
8.249375E+02  9.907963E-01 -2.290719E+01  5.077836E-04 6.888373E+01  4.902180E-04 6.680083E+01  9.899628E-01 -2.673195E+01 
8.250000E+02  9.906303E-01 -2.293058E+01  5.078065E-04 6.794709E+01  5.007707E-04 7.005230E+01  9.898900E-01 -2.674717E+01 
8.250625E+02  9.906427E-01 -2.292164E+01  5.074936E-04 6.987129E+01  5.011444E-04 6.861798E+01  9.900357E-01 -2.673625E+01 
8.251250E+02  9.906620E-01 -2.292661E+01  5.017524E-04 6.933804E+01  4.985254E-04 6.804256E+01  9.898803E-01 -2.675159E+01 
8.251875E+02  9.906564E-01 -2.293814E+01  4.942688E-04 6.851041E+01  5.010585E-04 6.894222E+01  9.898917E-01 -2.675418E+01 
8.252500E+02  9.907348E-01 -2.292229E+01  5.087147E-04 6.856948E+01  5.020229E-04 6.927575E+01  9.899269E-01 -2.674602E+01 
8.253125E+02  9.906222E-01 -2.294370E+01  4.944674E-04 6.820188E+01  4.795701E-04 6.977791E+01  9.898000E-01 -2.676379E+01 
8.253750E+02  9.907337E-01 -2.292799E+01  4.971385E-04 6.821440E+01  4.951968E-04 6.866948E+01  9.899471E-01 -2.675163E+01 
8.254375E+02  9.906848E-01 -2.293601E+01  4.901565E-04 6.990055E+01  5.047642E-04 6.871425E+01  9.898361E-01 -2.676339E+01 
8.255000E+02  9.906396E-01 -2.295026E+01  4.827158E-04 6.914067E+01  4.997577E-04 6.846893E+01  9.898271E-01 -2.676295E+01 
8.255625E+02  9.907237E-01 -2.293391E+01  5.054202E-04 6.822178E+01  4.819327E-04 6.891204E+01  9.899290E-01 -2.675637E+01 
8.256250E+02  9.906310E-01 -2.294777E+01  5.040274E-04 6.770637E+01  5.083617E-04 6.827591E+01  9.898739E-01 -2.677660E+01 
8.256875E+02  9.905779E-01 -2.294790E+01  4.869187E-04 6.808458E+01  4.907887E-04 6.773719E+01  9.898673E-01 -2.676568E+01 
8.257500E+02  9.906923E-01 -2.294409E+01  4.872765E-04 6.805389E+01  4.855815E-04 6.901028E+01  9.898326E-01 -2.677495E+01 
8.258125E+02  9.905544E-01 -2.295832E+01  4.849640E-04 6.661465E+01  4.946981E-04 6.778577E+01  9.897419E-01 -2.678403E+01 
8.258750E+02  9.906232E-01 -2.295802E+01  4.958862E-04 6.829704E+01  4.955914E-04 6.916931E+01  9.898340E-01 -2.677803E+01 
8.259375E+02  9.906525E-01 -2.295688E+01  4.834135E-04 6.808532E+01  4.857789E-04 6.779835E+01  9.897650E-01 -2.678114E+01 
8.260000E+02  9.905579E-01 -2.296758E+01  4.857236E-04 6.778705E+01  4.814558E-04 6.797342E+01  9.898161E-01 -2.678484E+01 
8.260625E+02  9.906084E-01 -2.296180E+01  4.798609E-04 6.879619E+01  4.832564E-04 6.840389E+01  9.898819E-01 -2.678239E+01 
8.261250E+02  9.905570E-01 -2.296692E+01  4.789274E-04 6.676711E+01  4.759957E-04 6.620558E+01  9.898587E-01 -2.678249E+01 
8.261875E+02  9.906278E-01 -2.297231E+01  4.822602E-04 6.746711E+01  4.718557E-04 6.713319E+01  9.898070E-01 -2.679567E+01 
8.262500E+02  9.905385E-01 -2.296140E+01  4.817325E-04 6.671440E+01  4.696917E-04 6.638571E+01  9.898757E-01 -2.679103E+01 
8.263125E+02  9.905750E-01 -2.296762E+01  4.842913E-04 6.623894E+01  4.802252E-04 6.735659E+01  9.897192E-01 -2.680636E+01 
8.263750E+02  9.905560E-01 -2.297186E+01  4.699241E-04 6.638312E+01  4.776851E-04 6.550988E+01  9.897947E-01 -2.679772E+01 
8.264375E+02  9.906363E-01 -2.297098E+01  4.680048E-04 6.553916E+01  4.628063E-04 6.536825E+01  9.897674E-01 -2.679439E+01 
8.265000E+02  9.905616E-01 -2.298604E+01  4.617562E-04 6.449430E+01  4.732020E-04 6.572939E+01  9.897405E-01 -2.680742E+01 
8.265625E+02  9.906347E-01 -2.297498E+01  4.661390E-04 6.557887E+01  4.578811E-04 6.609707E+01  9.899458E-01 -2.679428E+01 
8.266250E+02  9.905625E-01 -2.298442E+01  4.602640E-04 6.680596E+01  4.549370E-04 6.536893E+01  9.897338E-01 -2.681595E+01 
8.266875E+02  9.904958E-01 -2.298982E+01  4.563572E-04 6.540401E+01  4.439885E-04 6.512232E+01  9.898086E-01 -2.681227E+01 
8.267500E+02  9.905910E-01 -2.297753E+01  4.586526E-04 6.452894E+01  4.477304E-04 6.543111E+01  9.898603E-01 -2.680564E+01 
8.268125E+02  9.905344E-01 -2.298934E+01  4.401320E-04 6.544592E+01  4.472164E-04 6.625996E+01  9.896619E-01 -2.682212E+01 
8.268750E+02  9.905091E-01 -2.298404E+01  4.340968E-04 6.510640E+01  4.401679E-04 6.455454E+01  9.898421E-01 -2.680832E+01 
8.269375E+02  9.905368E-01 -2.298443E+01  4.360849E-04 6.673159E+01  4.285387E-04 6.394517E+01  9.897144E-01 -2.682496E+01 
8.270000E+02  9.904604E-01 -2.300405E+01  4.205328E-04 6.522510E+01  4.365330E-04 6.529833E+01  9.897934E-01 -2.682901E+01 
8.270625E+02  9.905702E-01 -2.298834E+01  4.198529E-04 6.538200E+01  4.184427E-04 6.512352E+01  9.898160E-01 -2.681084E+01 
8.271250E+02  9.905025E-01 -2.299747E+01  4.156583E-04 6.536886E+01  4.188039E-04 6.485967E+01  9.897602E-01 -2.683106E+01 
8.271875E+02  9.905602E-01 -2.298931E+01  4.167323E-04 6.569509E+01  4.225319E-04 6.550242E+01  9.898658E-01 -2.682787E+01 
8.272500E+02  9.905767E-01 -2.299565E+01  4.208077E-04 6.651025E+01  4.055925E-04 6.518172E+01  9.898202E-01 -2.682870E+01 
8.273125E+02  9.905390E-01 -2.300137E+01  3.916348E-04 6.588546E+01  3.996965E-04 6.485583E+01  9.896724E-01 -2.683588E+01 
8.273750E+02  9.905679E-01 -2.299700E+01  4.123191E-04 6.531592E+01  3.843115E-04 6.523437E+01  9.897503E-01 -2.682585E+01 
8.274375E+02  9.904874E-01 -2.300508E+01  3.833942E-04 6.595292E+01  3.747104E-04 6.784924E+01  9.897577E-01 -2.683654E+01 
8.275000E+02  9.904028E-01 -2.301015E+01  3.763268E-04 6.729656E+01  3.827995E-04 6.882385E+01  9.897429E-01 -2.683634E+01 
8.275625E+02  9.904596E-01 -2.300611E+01  3.779441E-04 7.004146E+01  3.721196E-04 6.761513E+01  9.898453E-01 -2.683007E+01 
8.276250E+02  9.904493E-01 -2.301377E+01  3.597270E-04 7.094939E+01  3.595342E-04 6.924892E+01  9.897375E-01 -2.684182E+01 
8.276875E+02  9.904538E-01 -2.301041E+01  3.577285E-04 7.046137E+01  3.430579E-04 7.207640E+01  9.897737E-01 -2.683308E+01 
8.277500E+02  9.904801E-01 -2.300687E+01  3.516352E-04 7.274913E+01  3.481059E-04 7.101968E+01  9.897899E-01 -2.683717E+01 
8.278125E+02  9.905292E-01 -2.301159E+01  3.519898E-04 7.211160E+01  3.434227E-04 7.412616E+01  9.897029E-01 -2.685346E+01 
8.278750E+02  9.904017E-01 -2.301939E+01  3.522777E-04 7.385956E+01  3.445877E-04 7.277488E+01  9.898217E-01 -2.684583E+01 
8.279375E+02  9.904036E-01 -2.301864E+01  3.548846E-04 7.632649E+01  3.481538E-04 7.731988E+01  9.898400E-01 -2.683939E+01 
8.280000E+02  9.903980E-01 -2.302253E+01  3.359562E-04 7.796728E+01  3.396261E-04 7.951011E+01  9.897346E-01 -2.684523E+01 
8.280625E+02  9.904257E-01 -2.301366E+01  3.549441E-04 7.999713E+01  3.366779E-04 7.974760E+01  9.898887E-01 -2.683754E+01 
8.281250E+02  9.904135E-01 -2.302387E+01  3.507438E-04 8.286338E+01  3.477610E-04 8.369950E+01  9.897828E-01 -2.685765E+01 
8.281875E+02  9.903943E-01 -2.302890E+01  3.584192E-04 8.343524E+01  3.568411E-04 8.277939E+01  9.898764E-01 -2.684639E+01 
8.282500E+02  9.904405E-01 -2.301635E+01  3.596833E-04 8.598270E+01  3.459158E-04 8.735400E+01  9.899119E-01 -2.684627E+01 
8.283125E+02  9.903389E-01 -2.303220E+01  3.629067E-04 8.688983E+01  3.569097E-04 8.685372E+01  9.896880E-01 -2.686374E+01 
8.283750E+02  9.904220E-01 -2.302207E+01  3.667066E-04 8.896915E+01  3.752389E-04 8.924863E+01  9.898255E-01 -2.685532E+01 
8.284375E+02  9.903959E-01 -2.303414E+01  3.639158E-04 8.912721E+01  3.846088E-04 8.941870E+01  9.897901E-01 -2.686886E+01 
8.285000E+02  9.903427E-01 -2.304075E+01  3.756538E-04 9.201694E+01  3.705340E-04 9.035288E+01  9.898738E-01 -2.686241E+01 
8.285625E+02  9.904375E-01 -2.302389E+01  4.046033E-04 9.210229E+01  3.960195E-04 9.224327E+01  9.898335E-01 -2.686240E+01 
8.286250E+02  9.903830E-01 -2.304749E+01  4.082858E-04 9.377065E+01  4.009731E-04 9.304215E+01  9.897632E-01 -2.688061E+01 
8.286875E+02  9.904062E-01 -2.304055E+01  4.124450E-04 9.377421E+01  4.090370E-04 9.470017E+01  9.897890E-01 -2.686770E+01 
8.287500E+02  9.904217E-01 -2.304058E+01  4.257492E-04 9.403065E+01  4.178027E-04 9.260991E+01  9.897722E-01 -2.687921E+01 
