! Matrix data file written by TouchstoneData, EPCOS AG
! FILENAME: "LU52A_NB.s2p"
! COMMENT: "PINNING 1/4; PORTEX 1=93ps; 2=179.5ps;  2 Fe"
! INFO: nport=2, nfreq=1601
! DATE: "Thu Nov  5 11:06:18 2009"
! USER: "Aleksander Breg"
!
! port | pin | signal
! -----|-----|--------
!   1  |  1  |  input
!   2  |  4  |  output
! --------------------
! 
# MHZ S MA R 50
! freq  magS11 angS11  magS21 angS21  magS12 angS12  magS22 angS22
4.319200E+02  9.886236E-01 -3.590054E+01  1.256550E-04 5.741821E+01  1.296271E-04 5.666945E+01  9.957082E-01 -3.326946E+01 
4.319231E+02  9.886191E-01 -3.591866E+01  1.226666E-04 5.415169E+01  1.230400E-04 5.581827E+01  9.959966E-01 -3.327517E+01 
4.319263E+02  9.883957E-01 -3.590608E+01  1.171586E-04 5.342199E+01  1.251660E-04 5.432516E+01  9.958355E-01 -3.328093E+01 
4.319294E+02  9.886043E-01 -3.592538E+01  1.060047E-04 5.220360E+01  1.155828E-04 5.075178E+01  9.959143E-01 -3.328289E+01 
4.319325E+02  9.886304E-01 -3.591559E+01  1.098543E-04 5.501741E+01  1.200995E-04 5.426426E+01  9.959369E-01 -3.329476E+01 
4.319356E+02  9.884544E-01 -3.591882E+01  1.112584E-04 5.080371E+01  1.029085E-04 4.764642E+01  9.958364E-01 -3.328465E+01 
4.319388E+02  9.885551E-01 -3.593083E+01  1.026757E-04 4.830045E+01  1.046299E-04 4.603375E+01  9.960353E-01 -3.328413E+01 
4.319419E+02  9.885322E-01 -3.593215E+01  9.220435E-05 4.806842E+01  1.055394E-04 4.912277E+01  9.959774E-01 -3.329795E+01 
4.319450E+02  9.886193E-01 -3.593731E+01  9.243147E-05 4.349688E+01  9.333429E-05 4.553929E+01  9.958162E-01 -3.330974E+01 
4.319481E+02  9.885480E-01 -3.593622E+01  9.288103E-05 4.289813E+01  9.034336E-05 4.302504E+01  9.958410E-01 -3.331385E+01 
4.319513E+02  9.884287E-01 -3.593350E+01  9.138876E-05 3.980482E+01  9.208818E-05 4.428418E+01  9.958764E-01 -3.331215E+01 
4.319544E+02  9.884469E-01 -3.594850E+01  8.511655E-05 4.161535E+01  8.669659E-05 3.662106E+01  9.959705E-01 -3.330767E+01 
4.319575E+02  9.885783E-01 -3.594567E+01  8.281697E-05 3.690155E+01  8.516341E-05 3.694257E+01  9.958560E-01 -3.331841E+01 
4.319606E+02  9.883241E-01 -3.595298E+01  7.676156E-05 3.605262E+01  8.157750E-05 3.217925E+01  9.959683E-01 -3.332624E+01 
4.319638E+02  9.885996E-01 -3.595337E+01  7.530840E-05 2.962105E+01  8.098026E-05 3.384913E+01  9.959013E-01 -3.332178E+01 
4.319669E+02  9.886103E-01 -3.595549E+01  7.446604E-05 2.979748E+01  7.850446E-05 2.669728E+01  9.960242E-01 -3.333077E+01 
4.319700E+02  9.883512E-01 -3.595226E+01  7.360223E-05 1.978561E+01  7.133482E-05 2.311233E+01  9.962334E-01 -3.332761E+01 
4.319731E+02  9.883831E-01 -3.595735E+01  6.692571E-05 2.366795E+01  7.138009E-05 2.139690E+01  9.958323E-01 -3.333943E+01 
4.319762E+02  9.884366E-01 -3.595111E+01  6.965484E-05 1.498422E+01  7.347231E-05 1.876683E+01  9.962017E-01 -3.334690E+01 
4.319794E+02  9.885407E-01 -3.595900E+01  6.965150E-05 1.202736E+01  6.855973E-05 1.109104E+01  9.960828E-01 -3.334293E+01 
4.319825E+02  9.883488E-01 -3.596836E+01  6.884998E-05 1.040011E+01  6.531120E-05 1.123553E+01  9.961423E-01 -3.334477E+01 
4.319856E+02  9.886105E-01 -3.595997E+01  6.648109E-05 3.334894E+00  6.827263E-05 7.102406E+00  9.959198E-01 -3.336361E+01 
4.319888E+02  9.886285E-01 -3.596209E+01  6.465508E-05 1.214285E+00  6.790186E-05 -8.616154E-01  9.962110E-01 -3.336570E+01 
4.319919E+02  9.884517E-01 -3.597085E+01  6.270428E-05 -4.823003E+00  6.052195E-05 7.126610E-02  9.961203E-01 -3.335743E+01 
4.319950E+02  9.887126E-01 -3.596861E+01  6.876275E-05 -8.430030E+00  6.302505E-05 -1.701443E+00  9.961039E-01 -3.336249E+01 
4.319981E+02  9.883596E-01 -3.597454E+01  6.137163E-05 -1.007574E+01  6.494228E-05 -1.036471E+01  9.958844E-01 -3.335803E+01 
4.320013E+02  9.885974E-01 -3.596529E+01  6.719589E-05 -2.039237E+01  6.234415E-05 -1.876700E+01  9.958939E-01 -3.337858E+01 
4.320044E+02  9.886114E-01 -3.596912E+01  6.454280E-05 -1.858947E+01  7.002535E-05 -2.444022E+01  9.959046E-01 -3.337133E+01 
4.320075E+02  9.883275E-01 -3.598854E+01  7.378687E-05 -2.138487E+01  7.265168E-05 -2.185348E+01  9.959792E-01 -3.337027E+01 
4.320106E+02  9.883941E-01 -3.598765E+01  7.632363E-05 -3.068374E+01  7.858087E-05 -3.011098E+01  9.958930E-01 -3.338627E+01 
4.320138E+02  9.885388E-01 -3.598564E+01  6.810529E-05 -3.119594E+01  7.413987E-05 -3.148736E+01  9.956039E-01 -3.338007E+01 
4.320169E+02  9.885674E-01 -3.598720E+01  7.359067E-05 -2.855901E+01  7.695323E-05 -2.729364E+01  9.959714E-01 -3.338529E+01 
4.320200E+02  9.885300E-01 -3.600544E+01  7.212884E-05 -3.760126E+01  8.786776E-05 -3.550367E+01  9.960594E-01 -3.338897E+01 
4.320231E+02  9.885953E-01 -3.599349E+01  8.258191E-05 -3.792019E+01  7.970245E-05 -3.665821E+01  9.958036E-01 -3.338779E+01 
4.320263E+02  9.885623E-01 -3.600253E+01  8.225062E-05 -4.420451E+01  8.555028E-05 -3.919933E+01  9.958900E-01 -3.339776E+01 
4.320294E+02  9.885261E-01 -3.600992E+01  8.860207E-05 -4.546019E+01  8.960753E-05 -4.254232E+01  9.959236E-01 -3.340237E+01 
4.320325E+02  9.884753E-01 -3.601258E+01  8.515905E-05 -5.009113E+01  8.906288E-05 -4.482485E+01  9.955671E-01 -3.340095E+01 
4.320356E+02  9.885261E-01 -3.601434E+01  9.333905E-05 -5.177623E+01  9.698088E-05 -5.170746E+01  9.956357E-01 -3.341027E+01 
4.320387E+02  9.884756E-01 -3.601203E+01  9.656221E-05 -5.344118E+01  9.251846E-05 -5.082416E+01  9.957142E-01 -3.341211E+01 
4.320419E+02  9.884269E-01 -3.601715E+01  9.691300E-05 -5.394975E+01  1.014215E-04 -5.222113E+01  9.959301E-01 -3.340252E+01 
4.320450E+02  9.884708E-01 -3.602384E+01  1.063209E-04 -5.736491E+01  1.041108E-04 -5.340117E+01  9.959991E-01 -3.340300E+01 
4.320481E+02  9.884612E-01 -3.603964E+01  1.021828E-04 -6.023240E+01  1.067599E-04 -5.707701E+01  9.958565E-01 -3.340486E+01 
4.320513E+02  9.885316E-01 -3.603064E+01  1.156039E-04 -5.796290E+01  1.135525E-04 -5.554251E+01  9.957738E-01 -3.341206E+01 
4.320544E+02  9.885137E-01 -3.603613E+01  1.137228E-04 -6.048349E+01  1.191909E-04 -5.863549E+01  9.959571E-01 -3.341211E+01 
4.320575E+02  9.885614E-01 -3.604190E+01  1.176629E-04 -6.269377E+01  1.166060E-04 -5.969548E+01  9.958806E-01 -3.341337E+01 
4.320606E+02  9.884391E-01 -3.605522E+01  1.154491E-04 -6.268203E+01  1.164031E-04 -6.121929E+01  9.957709E-01 -3.342543E+01 
4.320638E+02  9.884533E-01 -3.603624E+01  1.223358E-04 -6.472985E+01  1.212638E-04 -6.068096E+01  9.960347E-01 -3.341867E+01 
4.320669E+02  9.886782E-01 -3.605744E+01  1.274776E-04 -6.351707E+01  1.292864E-04 -6.508939E+01  9.956787E-01 -3.342051E+01 
4.320700E+02  9.884143E-01 -3.605219E+01  1.291859E-04 -6.761162E+01  1.337144E-04 -6.419491E+01  9.957739E-01 -3.343294E+01 
4.320731E+02  9.884055E-01 -3.605356E+01  1.345934E-04 -6.893209E+01  1.356335E-04 -6.660164E+01  9.956781E-01 -3.343908E+01 
4.320763E+02  9.884810E-01 -3.605879E+01  1.447616E-04 -6.864418E+01  1.387970E-04 -6.862694E+01  9.958296E-01 -3.342835E+01 
4.320794E+02  9.885433E-01 -3.607837E+01  1.436773E-04 -6.848464E+01  1.457624E-04 -6.816542E+01  9.957881E-01 -3.344278E+01 
4.320825E+02  9.884073E-01 -3.606636E+01  1.498773E-04 -6.945072E+01  1.513788E-04 -6.795830E+01  9.956798E-01 -3.343969E+01 
4.320856E+02  9.887675E-01 -3.607526E+01  1.539660E-04 -7.075131E+01  1.500524E-04 -7.133148E+01  9.957214E-01 -3.343832E+01 
4.320888E+02  9.883716E-01 -3.607704E+01  1.495352E-04 -7.271427E+01  1.629541E-04 -7.181769E+01  9.957980E-01 -3.346327E+01 
4.320919E+02  9.885183E-01 -3.607731E+01  1.632392E-04 -7.309081E+01  1.620137E-04 -7.311089E+01  9.959054E-01 -3.345245E+01 
4.320950E+02  9.885992E-01 -3.608355E+01  1.623247E-04 -7.333586E+01  1.668562E-04 -7.289507E+01  9.959044E-01 -3.345484E+01 
4.320981E+02  9.885028E-01 -3.608812E+01  1.702341E-04 -7.445677E+01  1.715915E-04 -7.342096E+01  9.956945E-01 -3.347254E+01 
4.321012E+02  9.886465E-01 -3.608185E+01  1.738252E-04 -7.440029E+01  1.781260E-04 -7.426570E+01  9.957710E-01 -3.346107E+01 
4.321044E+02  9.884788E-01 -3.609791E+01  1.724135E-04 -7.578747E+01  1.813979E-04 -7.579578E+01  9.959373E-01 -3.348017E+01 
4.321075E+02  9.884468E-01 -3.609278E+01  1.754261E-04 -7.580236E+01  1.821481E-04 -7.539387E+01  9.955611E-01 -3.348686E+01 
4.321106E+02  9.885042E-01 -3.609459E+01  1.826019E-04 -7.713547E+01  1.873884E-04 -7.582162E+01  9.958395E-01 -3.347983E+01 
4.321138E+02  9.882878E-01 -3.610069E+01  1.927975E-04 -7.748538E+01  1.900932E-04 -7.628747E+01  9.958950E-01 -3.349541E+01 
4.321169E+02  9.882936E-01 -3.611152E+01  1.957243E-04 -7.912061E+01  1.918482E-04 -7.641493E+01  9.959116E-01 -3.349727E+01 
4.321200E+02  9.884644E-01 -3.610733E+01  2.003463E-04 -7.806884E+01  1.992397E-04 -7.992301E+01  9.959465E-01 -3.348907E+01 
4.321231E+02  9.883402E-01 -3.611292E+01  2.032707E-04 -8.067593E+01  2.018269E-04 -7.876419E+01  9.955779E-01 -3.350306E+01 
4.321263E+02  9.884455E-01 -3.611484E+01  2.077380E-04 -8.078798E+01  2.097792E-04 -7.832509E+01  9.957981E-01 -3.349099E+01 
4.321294E+02  9.885770E-01 -3.612208E+01  2.123162E-04 -7.997555E+01  2.122320E-04 -8.121432E+01  9.959736E-01 -3.350717E+01 
4.321325E+02  9.884784E-01 -3.612539E+01  2.190433E-04 -8.057642E+01  2.196404E-04 -8.073084E+01  9.960045E-01 -3.350402E+01 
4.321356E+02  9.884139E-01 -3.613233E+01  2.219897E-04 -8.105948E+01  2.213758E-04 -8.119351E+01  9.958596E-01 -3.350776E+01 
4.321388E+02  9.882666E-01 -3.613975E+01  2.238004E-04 -8.395341E+01  2.273430E-04 -8.170110E+01  9.957503E-01 -3.352222E+01 
4.321419E+02  9.881653E-01 -3.613438E+01  2.300887E-04 -8.279106E+01  2.319884E-04 -8.096038E+01  9.959724E-01 -3.350871E+01 
4.321450E+02  9.884879E-01 -3.614758E+01  2.338199E-04 -8.225598E+01  2.380780E-04 -8.052614E+01  9.958364E-01 -3.352203E+01 
4.321481E+02  9.882126E-01 -3.614437E+01  2.321941E-04 -8.384433E+01  2.345208E-04 -8.217585E+01  9.959299E-01 -3.352222E+01 
4.321513E+02  9.883548E-01 -3.613361E+01  2.359007E-04 -8.408824E+01  2.492310E-04 -8.287365E+01  9.959207E-01 -3.352454E+01 
4.321544E+02  9.883106E-01 -3.616110E+01  2.483635E-04 -8.449098E+01  2.467670E-04 -8.518072E+01  9.956428E-01 -3.353685E+01 
4.321575E+02  9.883009E-01 -3.615076E+01  2.524450E-04 -8.509592E+01  2.584242E-04 -8.388239E+01  9.957932E-01 -3.352264E+01 
4.321606E+02  9.882888E-01 -3.615528E+01  2.583508E-04 -8.389274E+01  2.542488E-04 -8.449136E+01  9.956963E-01 -3.354568E+01 
4.321637E+02  9.881940E-01 -3.614697E+01  2.603616E-04 -8.605978E+01  2.602812E-04 -8.434557E+01  9.954934E-01 -3.353096E+01 
4.321669E+02  9.883584E-01 -3.615289E+01  2.625382E-04 -8.714782E+01  2.599929E-04 -8.509113E+01  9.957445E-01 -3.353450E+01 
4.321700E+02  9.882599E-01 -3.616004E+01  2.689227E-04 -8.620660E+01  2.654755E-04 -8.558721E+01  9.955908E-01 -3.354329E+01 
4.321731E+02  9.882624E-01 -3.616177E+01  2.774855E-04 -8.527461E+01  2.736134E-04 -8.671677E+01  9.957426E-01 -3.355129E+01 
4.321763E+02  9.880472E-01 -3.617478E+01  2.766934E-04 -8.719667E+01  2.762395E-04 -8.704962E+01  9.955552E-01 -3.355471E+01 
4.321794E+02  9.880723E-01 -3.617407E+01  2.829537E-04 -8.730609E+01  2.870732E-04 -8.654257E+01  9.957014E-01 -3.353809E+01 
4.321825E+02  9.882223E-01 -3.617090E+01  2.866542E-04 -8.787730E+01  2.895657E-04 -8.769677E+01  9.956080E-01 -3.355463E+01 
4.321856E+02  9.882013E-01 -3.617474E+01  2.929982E-04 -8.754927E+01  2.889179E-04 -8.832055E+01  9.958037E-01 -3.355711E+01 
4.321888E+02  9.883782E-01 -3.617910E+01  2.932896E-04 -8.816771E+01  2.922131E-04 -8.664684E+01  9.957313E-01 -3.356340E+01 
4.321919E+02  9.882336E-01 -3.618538E+01  3.013329E-04 -8.952466E+01  3.019451E-04 -8.877274E+01  9.954972E-01 -3.356875E+01 
4.321950E+02  9.882926E-01 -3.618236E+01  3.043411E-04 -8.873208E+01  3.035906E-04 -8.872122E+01  9.956728E-01 -3.355975E+01 
4.321981E+02  9.882805E-01 -3.619169E+01  3.098803E-04 -9.013766E+01  3.153017E-04 -8.887708E+01  9.956434E-01 -3.356643E+01 
4.322013E+02  9.882100E-01 -3.618298E+01  3.152075E-04 -8.953225E+01  3.097489E-04 -8.941499E+01  9.955414E-01 -3.356741E+01 
4.322044E+02  9.885333E-01 -3.619445E+01  3.224283E-04 -9.079433E+01  3.158056E-04 -8.892736E+01  9.956178E-01 -3.356853E+01 
4.322075E+02  9.883881E-01 -3.620018E+01  3.231374E-04 -8.961436E+01  3.219699E-04 -8.971576E+01  9.955334E-01 -3.357543E+01 
4.322106E+02  9.884724E-01 -3.619378E+01  3.284612E-04 -9.083080E+01  3.277735E-04 -9.005364E+01  9.956284E-01 -3.357258E+01 
4.322138E+02  9.883991E-01 -3.620960E+01  3.332980E-04 -9.056559E+01  3.295610E-04 -9.119319E+01  9.954243E-01 -3.358990E+01 
4.322169E+02  9.885288E-01 -3.621043E+01  3.336799E-04 -9.080759E+01  3.369457E-04 -9.073303E+01  9.954998E-01 -3.358054E+01 
4.322200E+02  9.885268E-01 -3.622592E+01  3.368560E-04 -9.203512E+01  3.462191E-04 -9.120809E+01  9.955559E-01 -3.359459E+01 
4.322231E+02  9.883193E-01 -3.621346E+01  3.490566E-04 -9.252131E+01  3.396788E-04 -9.175345E+01  9.953961E-01 -3.359671E+01 
4.322262E+02  9.883417E-01 -3.623103E+01  3.496591E-04 -9.179788E+01  3.535853E-04 -9.141723E+01  9.954092E-01 -3.359585E+01 
4.322294E+02  9.882583E-01 -3.622198E+01  3.582993E-04 -9.330077E+01  3.530079E-04 -9.183688E+01  9.952653E-01 -3.361629E+01 
4.322325E+02  9.883491E-01 -3.623000E+01  3.628474E-04 -9.313148E+01  3.568218E-04 -9.214089E+01  9.954719E-01 -3.360292E+01 
4.322356E+02  9.884272E-01 -3.624372E+01  3.603481E-04 -9.281290E+01  3.639463E-04 -9.240141E+01  9.954758E-01 -3.361999E+01 
4.322388E+02  9.883519E-01 -3.623028E+01  3.717320E-04 -9.396990E+01  3.696301E-04 -9.277548E+01  9.955919E-01 -3.361262E+01 
4.322419E+02  9.883829E-01 -3.625107E+01  3.710772E-04 -9.341460E+01  3.810180E-04 -9.300589E+01  9.955401E-01 -3.361279E+01 
4.322450E+02  9.883926E-01 -3.623433E+01  3.809180E-04 -9.383698E+01  3.827911E-04 -9.326218E+01  9.954970E-01 -3.363325E+01 
4.322481E+02  9.883777E-01 -3.624429E+01  3.844927E-04 -9.356507E+01  3.924124E-04 -9.414516E+01  9.956247E-01 -3.362106E+01 
4.322513E+02  9.882600E-01 -3.624102E+01  3.879545E-04 -9.355448E+01  3.858916E-04 -9.371253E+01  9.956811E-01 -3.363489E+01 
4.322544E+02  9.884125E-01 -3.623914E+01  3.906932E-04 -9.523944E+01  3.904363E-04 -9.419646E+01  9.954354E-01 -3.364055E+01 
4.322575E+02  9.882323E-01 -3.625139E+01  4.012356E-04 -9.469063E+01  3.948769E-04 -9.453468E+01  9.956373E-01 -3.364656E+01 
4.322606E+02  9.884112E-01 -3.625492E+01  3.978771E-04 -9.542765E+01  3.986842E-04 -9.426408E+01  9.955410E-01 -3.365136E+01 
4.322638E+02  9.882939E-01 -3.626407E+01  4.034778E-04 -9.512050E+01  4.059800E-04 -9.468533E+01  9.954795E-01 -3.364716E+01 
4.322669E+02  9.882457E-01 -3.626591E+01  4.091820E-04 -9.606566E+01  4.116810E-04 -9.571204E+01  9.956977E-01 -3.365889E+01 
4.322700E+02  9.881375E-01 -3.625735E+01  4.150943E-04 -9.644603E+01  4.178051E-04 -9.577281E+01  9.956724E-01 -3.366640E+01 
4.322731E+02  9.883191E-01 -3.626547E+01  4.214605E-04 -9.552675E+01  4.236463E-04 -9.643123E+01  9.956530E-01 -3.365633E+01 
4.322763E+02  9.882237E-01 -3.626735E+01  4.197388E-04 -9.662878E+01  4.277511E-04 -9.591456E+01  9.954454E-01 -3.366820E+01 
4.322794E+02  9.883671E-01 -3.627583E+01  4.301096E-04 -9.699438E+01  4.362645E-04 -9.649295E+01  9.957472E-01 -3.365962E+01 
4.322825E+02  9.882589E-01 -3.628599E+01  4.332750E-04 -9.730773E+01  4.308117E-04 -9.646617E+01  9.954855E-01 -3.367633E+01 
4.322856E+02  9.882935E-01 -3.628440E+01  4.466498E-04 -9.752542E+01  4.345911E-04 -9.633070E+01  9.956649E-01 -3.366772E+01 
4.322887E+02  9.883963E-01 -3.629298E+01  4.386591E-04 -9.707373E+01  4.462809E-04 -9.672105E+01  9.957165E-01 -3.367640E+01 
4.322919E+02  9.881119E-01 -3.630072E+01  4.455821E-04 -9.828607E+01  4.515427E-04 -9.687550E+01  9.955465E-01 -3.369114E+01 
4.322950E+02  9.883467E-01 -3.629619E+01  4.501753E-04 -9.731281E+01  4.567227E-04 -9.690711E+01  9.955984E-01 -3.368005E+01 
4.322981E+02  9.881719E-01 -3.630950E+01  4.610110E-04 -9.739144E+01  4.569383E-04 -9.746218E+01  9.955298E-01 -3.369458E+01 
4.323013E+02  9.881570E-01 -3.630744E+01  4.592315E-04 -9.779288E+01  4.644863E-04 -9.857563E+01  9.953995E-01 -3.368744E+01 
4.323044E+02  9.883001E-01 -3.631712E+01  4.727576E-04 -9.860660E+01  4.662825E-04 -9.832597E+01  9.954975E-01 -3.369458E+01 
4.323075E+02  9.881866E-01 -3.632762E+01  4.728031E-04 -9.883667E+01  4.761896E-04 -9.881443E+01  9.956614E-01 -3.369178E+01 
4.323106E+02  9.881671E-01 -3.632998E+01  4.798625E-04 -9.926729E+01  4.785271E-04 -9.888087E+01  9.953973E-01 -3.371351E+01 
4.323138E+02  9.881597E-01 -3.633156E+01  4.799907E-04 -9.902171E+01  4.831508E-04 -9.926984E+01  9.954634E-01 -3.370997E+01 
4.323169E+02  9.881746E-01 -3.634079E+01  4.852147E-04 -9.886286E+01  4.896938E-04 -9.899401E+01  9.955127E-01 -3.371396E+01 
4.323200E+02  9.881126E-01 -3.634165E+01  4.898656E-04 -9.932519E+01  4.939046E-04 -9.994001E+01  9.952979E-01 -3.371472E+01 
4.323231E+02  9.880879E-01 -3.635008E+01  5.048447E-04 -9.955763E+01  4.992393E-04 -9.916664E+01  9.954197E-01 -3.371754E+01 
4.323263E+02  9.882459E-01 -3.636223E+01  5.052516E-04 -1.002802E+02  5.039127E-04 -9.939535E+01  9.954655E-01 -3.372228E+01 
4.323294E+02  9.880726E-01 -3.634888E+01  5.063987E-04 -1.003389E+02  5.083844E-04 -1.004273E+02  9.952972E-01 -3.372836E+01 
4.323325E+02  9.881714E-01 -3.636145E+01  5.143152E-04 -9.986287E+01  5.177441E-04 -1.001410E+02  9.953357E-01 -3.373117E+01 
4.323356E+02  9.881239E-01 -3.635327E+01  5.176125E-04 -1.004087E+02  5.190987E-04 -1.001839E+02  9.953962E-01 -3.373437E+01 
4.323388E+02  9.881551E-01 -3.635899E+01  5.216462E-04 -1.013123E+02  5.225162E-04 -1.004174E+02  9.954913E-01 -3.374681E+01 
4.323419E+02  9.882047E-01 -3.637030E+01  5.313094E-04 -1.014766E+02  5.301850E-04 -1.000880E+02  9.954834E-01 -3.374808E+01 
4.323450E+02  9.881105E-01 -3.636223E+01  5.328492E-04 -1.012721E+02  5.411866E-04 -1.008603E+02  9.952102E-01 -3.374934E+01 
4.323481E+02  9.880989E-01 -3.636494E+01  5.424492E-04 -1.011219E+02  5.457912E-04 -1.012682E+02  9.954662E-01 -3.374994E+01 
4.323512E+02  9.880662E-01 -3.638061E+01  5.492879E-04 -1.016406E+02  5.418361E-04 -1.008375E+02  9.952178E-01 -3.375808E+01 
4.323544E+02  9.879056E-01 -3.638758E+01  5.521386E-04 -1.016304E+02  5.526658E-04 -1.011841E+02  9.955718E-01 -3.376448E+01 
4.323575E+02  9.880202E-01 -3.638693E+01  5.528126E-04 -1.013429E+02  5.617618E-04 -1.012550E+02  9.955343E-01 -3.375971E+01 
4.323606E+02  9.879769E-01 -3.638566E+01  5.662128E-04 -1.025565E+02  5.554885E-04 -1.016389E+02  9.953100E-01 -3.376767E+01 
4.323638E+02  9.880075E-01 -3.638660E+01  5.721924E-04 -1.020102E+02  5.737475E-04 -1.018708E+02  9.954939E-01 -3.376334E+01 
4.323669E+02  9.880421E-01 -3.639769E+01  5.712501E-04 -1.020636E+02  5.764268E-04 -1.019180E+02  9.953736E-01 -3.378275E+01 
4.323700E+02  9.879805E-01 -3.640776E+01  5.731900E-04 -1.026903E+02  5.773851E-04 -1.022014E+02  9.955092E-01 -3.378239E+01 
4.323731E+02  9.880870E-01 -3.639868E+01  5.842484E-04 -1.023991E+02  5.830623E-04 -1.028509E+02  9.955015E-01 -3.379464E+01 
4.323763E+02  9.880552E-01 -3.640288E+01  5.888881E-04 -1.033524E+02  5.887562E-04 -1.032460E+02  9.952996E-01 -3.379792E+01 
4.323794E+02  9.880380E-01 -3.640355E+01  5.982486E-04 -1.029808E+02  5.943706E-04 -1.027883E+02  9.954618E-01 -3.378660E+01 
4.323825E+02  9.880361E-01 -3.641122E+01  6.046413E-04 -1.033415E+02  6.019738E-04 -1.027784E+02  9.953261E-01 -3.380009E+01 
4.323856E+02  9.881512E-01 -3.640891E+01  6.053854E-04 -1.037254E+02  6.081855E-04 -1.036296E+02  9.953246E-01 -3.378941E+01 
4.323888E+02  9.882482E-01 -3.642354E+01  6.142285E-04 -1.041720E+02  6.192089E-04 -1.032170E+02  9.953512E-01 -3.380844E+01 
4.323919E+02  9.881273E-01 -3.642203E+01  6.187852E-04 -1.038494E+02  6.145809E-04 -1.039344E+02  9.953160E-01 -3.380665E+01 
4.323950E+02  9.880419E-01 -3.641940E+01  6.219355E-04 -1.042445E+02  6.288698E-04 -1.040281E+02  9.953546E-01 -3.381806E+01 
4.323981E+02  9.880418E-01 -3.643616E+01  6.355323E-04 -1.041596E+02  6.398668E-04 -1.039474E+02  9.954026E-01 -3.382752E+01 
