! S-parameter for B3743 in Touchstone format with magnitude (lin) and phase
! Normalised impedance: 50 Ohm. Measurement system: 50 Ohm Ta = 25°C
! B3743_WB.s2p not matched. Measurement full 2-port calibrated incl. Port ext.
! Start: 408.92MHz, Stop: 458.92MHz, Span: 50MHz, 1601 Pts., Step: 31.3kHz
! Date:22/02/08 Epcos SAW COM WT AE PD, AB
! Pinning according data sheet recommendation, In P1, Out P4, all others GND
!
# MHZ S MA R 50
! freq  magS11 angS11  magS21 angS21  magS12 angS12  magS22 angS22
4.089200E+02  9.911461E-01 -3.289154E+01  8.236547E-05 5.693689E+01  8.766084E-05 5.772465E+01  9.884968E-01 -3.209305E+01 
4.089513E+02  9.909855E-01 -3.289247E+01  8.413349E-05 5.593332E+01  8.487921E-05 5.479199E+01  9.885440E-01 -3.209341E+01 
4.089825E+02  9.910159E-01 -3.288906E+01  9.487282E-05 5.921185E+01  9.201244E-05 5.603572E+01  9.885003E-01 -3.208848E+01 
4.090138E+02  9.910194E-01 -3.289905E+01  9.064330E-05 5.797538E+01  8.690547E-05 5.731586E+01  9.883586E-01 -3.209324E+01 
4.090450E+02  9.910712E-01 -3.290799E+01  1.001742E-04 6.008908E+01  9.160718E-05 6.032801E+01  9.884173E-01 -3.210200E+01 
4.090763E+02  9.910792E-01 -3.290677E+01  9.477040E-05 5.444832E+01  1.011292E-04 5.886694E+01  9.884669E-01 -3.210446E+01 
4.091075E+02  9.911653E-01 -3.290976E+01  9.778442E-05 5.694125E+01  9.970706E-05 5.651275E+01  9.885260E-01 -3.210373E+01 
4.091388E+02  9.910761E-01 -3.290980E+01  9.828228E-05 5.811059E+01  9.565954E-05 5.983360E+01  9.884784E-01 -3.210408E+01 
4.091700E+02  9.909541E-01 -3.291150E+01  1.022402E-04 5.592260E+01  1.031115E-04 5.615046E+01  9.884659E-01 -3.210591E+01 
4.092013E+02  9.911349E-01 -3.292148E+01  9.816490E-05 5.592690E+01  9.879340E-05 5.963148E+01  9.884907E-01 -3.210685E+01 
4.092325E+02  9.908754E-01 -3.291232E+01  9.644193E-05 5.814810E+01  9.987590E-05 5.490012E+01  9.885933E-01 -3.211559E+01 
4.092638E+02  9.910419E-01 -3.292384E+01  9.517170E-05 5.447995E+01  9.579382E-05 5.702841E+01  9.884500E-01 -3.212405E+01 
4.092950E+02  9.910858E-01 -3.292470E+01  1.111421E-04 5.648736E+01  9.486734E-05 5.514237E+01  9.885044E-01 -3.211682E+01 
4.093263E+02  9.909320E-01 -3.292973E+01  1.059622E-04 5.764354E+01  9.611177E-05 5.839308E+01  9.885502E-01 -3.212204E+01 
4.093575E+02  9.910224E-01 -3.292718E+01  9.959267E-05 5.649375E+01  1.012168E-04 5.329133E+01  9.885393E-01 -3.212882E+01 
4.093888E+02  9.910590E-01 -3.292665E+01  9.904315E-05 5.726403E+01  1.066348E-04 5.540945E+01  9.884777E-01 -3.212518E+01 
4.094200E+02  9.909556E-01 -3.293073E+01  1.092820E-04 5.855180E+01  1.062418E-04 5.773646E+01  9.884543E-01 -3.212821E+01 
4.094513E+02  9.910546E-01 -3.293003E+01  1.007682E-04 5.411330E+01  9.994108E-05 5.237553E+01  9.884429E-01 -3.213138E+01 
4.094825E+02  9.911392E-01 -3.294241E+01  1.052894E-04 5.258635E+01  1.087563E-04 5.518960E+01  9.883863E-01 -3.213628E+01 
4.095138E+02  9.909473E-01 -3.294883E+01  1.139762E-04 5.389533E+01  1.077951E-04 5.179401E+01  9.885035E-01 -3.213842E+01 
4.095450E+02  9.910359E-01 -3.295093E+01  1.168644E-04 5.128716E+01  1.065912E-04 5.384804E+01  9.884790E-01 -3.213861E+01 
4.095763E+02  9.910840E-01 -3.295341E+01  1.184877E-04 4.965464E+01  1.110930E-04 5.171833E+01  9.883751E-01 -3.214136E+01 
4.096075E+02  9.910513E-01 -3.295508E+01  1.114368E-04 4.580068E+01  1.078713E-04 5.101236E+01  9.884767E-01 -3.214733E+01 
4.096388E+02  9.911768E-01 -3.296055E+01  1.079238E-04 4.444168E+01  1.073959E-04 5.065365E+01  9.884450E-01 -3.214200E+01 
4.096700E+02  9.910432E-01 -3.295500E+01  1.040972E-04 4.962431E+01  1.110628E-04 4.611556E+01  9.884607E-01 -3.215555E+01 
4.097013E+02  9.910554E-01 -3.295917E+01  1.124317E-04 4.955800E+01  1.077137E-04 5.115737E+01  9.886005E-01 -3.215731E+01 
4.097325E+02  9.910903E-01 -3.296473E+01  1.109382E-04 4.575204E+01  1.078863E-04 4.883214E+01  9.883847E-01 -3.215419E+01 
4.097638E+02  9.910807E-01 -3.295802E+01  1.065646E-04 4.503885E+01  1.065913E-04 4.675956E+01  9.884898E-01 -3.215825E+01 
4.097950E+02  9.910195E-01 -3.296434E+01  1.097518E-04 4.508024E+01  1.036533E-04 4.659752E+01  9.884111E-01 -3.214960E+01 
4.098263E+02  9.910081E-01 -3.297438E+01  1.026819E-04 4.211212E+01  1.075466E-04 4.347155E+01  9.884008E-01 -3.216150E+01 
4.098575E+02  9.910461E-01 -3.297652E+01  1.061533E-04 4.391990E+01  9.872744E-05 4.229931E+01  9.884918E-01 -3.216568E+01 
4.098888E+02  9.910097E-01 -3.297651E+01  1.066680E-04 4.116606E+01  9.983407E-05 3.975947E+01  9.885332E-01 -3.217099E+01 
4.099200E+02  9.909676E-01 -3.298920E+01  1.033388E-04 4.125410E+01  1.027504E-04 3.784753E+01  9.884856E-01 -3.216881E+01 
4.099513E+02  9.910772E-01 -3.298571E+01  1.000243E-04 3.927021E+01  1.064155E-04 3.684625E+01  9.883984E-01 -3.217700E+01 
4.099825E+02  9.910114E-01 -3.299075E+01  9.420471E-05 4.030423E+01  9.102114E-05 3.381811E+01  9.884878E-01 -3.217413E+01 
4.100138E+02  9.909507E-01 -3.298923E+01  9.205766E-05 3.822480E+01  9.168499E-05 3.602562E+01  9.884461E-01 -3.218110E+01 
4.100450E+02  9.910079E-01 -3.299105E+01  9.143873E-05 3.542127E+01  8.190234E-05 3.062677E+01  9.884636E-01 -3.217893E+01 
4.100763E+02  9.910650E-01 -3.299431E+01  8.630371E-05 3.464872E+01  8.556918E-05 3.200407E+01  9.883133E-01 -3.218629E+01 
4.101075E+02  9.909949E-01 -3.300070E+01  8.243364E-05 2.824312E+01  8.283886E-05 3.526164E+01  9.884091E-01 -3.219070E+01 
4.101388E+02  9.909541E-01 -3.300489E+01  6.943876E-05 3.533136E+01  7.730473E-05 3.354603E+01  9.883977E-01 -3.219417E+01 
4.101700E+02  9.910344E-01 -3.300031E+01  7.700078E-05 3.486561E+01  7.176720E-05 2.899870E+01  9.883846E-01 -3.219590E+01 
4.102013E+02  9.909712E-01 -3.300041E+01  7.219373E-05 2.957773E+01  6.768197E-05 3.072109E+01  9.884645E-01 -3.219653E+01 
4.102325E+02  9.911120E-01 -3.300539E+01  6.957698E-05 2.797258E+01  5.928264E-05 3.735637E+01  9.885313E-01 -3.219914E+01 
4.102638E+02  9.909444E-01 -3.300513E+01  6.660062E-05 3.082880E+01  5.719452E-05 3.633171E+01  9.884332E-01 -3.219949E+01 
4.102950E+02  9.909884E-01 -3.300607E+01  5.922632E-05 3.788814E+01  5.394941E-05 3.285612E+01  9.884534E-01 -3.220315E+01 
4.103263E+02  9.909795E-01 -3.301218E+01  5.415373E-05 3.428218E+01  5.155621E-05 2.993515E+01  9.883762E-01 -3.220863E+01 
4.103575E+02  9.910594E-01 -3.301898E+01  5.045998E-05 3.066350E+01  5.495754E-05 3.334708E+01  9.883593E-01 -3.220715E+01 
4.103888E+02  9.910922E-01 -3.303020E+01  5.022827E-05 4.116855E+01  4.687847E-05 4.656704E+01  9.884034E-01 -3.220918E+01 
4.104200E+02  9.909771E-01 -3.302187E+01  4.561193E-05 5.018141E+01  4.369113E-05 4.190463E+01  9.884593E-01 -3.221284E+01 
4.104513E+02  9.909848E-01 -3.302591E+01  3.931149E-05 4.177154E+01  4.085943E-05 3.819786E+01  9.884472E-01 -3.221421E+01 
4.104825E+02  9.909520E-01 -3.302050E+01  4.100834E-05 4.644416E+01  2.980390E-05 5.016791E+01  9.884326E-01 -3.221399E+01 
4.105138E+02  9.909792E-01 -3.303301E+01  2.965826E-05 6.683415E+01  2.606128E-05 6.063038E+01  9.883161E-01 -3.222147E+01 
4.105450E+02  9.910869E-01 -3.303327E+01  2.904219E-05 8.258001E+01  3.117534E-05 6.527566E+01  9.884375E-01 -3.222609E+01 
4.105763E+02  9.909602E-01 -3.304029E+01  3.526262E-05 7.939410E+01  3.396623E-05 7.413304E+01  9.884899E-01 -3.222298E+01 
4.106075E+02  9.909709E-01 -3.305046E+01  3.702189E-05 7.884023E+01  2.905574E-05 8.647113E+01  9.883256E-01 -3.222641E+01 
4.106388E+02  9.909870E-01 -3.304044E+01  3.607455E-05 8.890056E+01  3.498529E-05 9.943064E+01  9.883392E-01 -3.223248E+01 
4.106700E+02  9.909975E-01 -3.304951E+01  4.019002E-05 9.988948E+01  4.027918E-05 8.873311E+01  9.884771E-01 -3.223776E+01 
4.107013E+02  9.910245E-01 -3.305294E+01  4.092932E-05 1.099708E+02  3.995271E-05 1.061752E+02  9.884762E-01 -3.223821E+01 
4.107325E+02  9.909129E-01 -3.305386E+01  4.492906E-05 1.052067E+02  4.803813E-05 1.058825E+02  9.884994E-01 -3.223604E+01 
4.107638E+02  9.909981E-01 -3.305787E+01  5.186708E-05 1.152433E+02  5.401726E-05 1.154045E+02  9.884313E-01 -3.224721E+01 
4.107950E+02  9.908176E-01 -3.305032E+01  5.572938E-05 1.107367E+02  5.267074E-05 1.105038E+02  9.884272E-01 -3.224800E+01 
4.108263E+02  9.908843E-01 -3.306479E+01  6.538283E-05 1.145396E+02  7.293594E-05 1.150822E+02  9.883768E-01 -3.225193E+01 
4.108575E+02  9.908494E-01 -3.306116E+01  7.266824E-05 1.110696E+02  7.032026E-05 1.105556E+02  9.884362E-01 -3.225743E+01 
4.108888E+02  9.908708E-01 -3.306594E+01  7.670987E-05 1.133765E+02  7.632498E-05 1.106876E+02  9.884335E-01 -3.225360E+01 
4.109200E+02  9.907382E-01 -3.306745E+01  8.273186E-05 1.122241E+02  8.171503E-05 1.090311E+02  9.884598E-01 -3.226440E+01 
4.109513E+02  9.908428E-01 -3.307392E+01  9.187962E-05 1.104118E+02  8.998596E-05 1.124602E+02  9.883917E-01 -3.226165E+01 
4.109825E+02  9.909864E-01 -3.307476E+01  9.449291E-05 1.075455E+02  9.159606E-05 1.093674E+02  9.884517E-01 -3.226588E+01 
4.110138E+02  9.909313E-01 -3.308544E+01  9.532385E-05 1.067980E+02  9.538597E-05 1.093753E+02  9.883362E-01 -3.226768E+01 
4.110450E+02  9.909488E-01 -3.309173E+01  1.100937E-04 1.058865E+02  1.068188E-04 1.071032E+02  9.882574E-01 -3.227025E+01 
4.110763E+02  9.910469E-01 -3.307977E+01  1.087988E-04 1.035341E+02  1.052601E-04 1.061594E+02  9.883968E-01 -3.227066E+01 
4.111075E+02  9.909140E-01 -3.308562E+01  1.115623E-04 9.945951E+01  1.159339E-04 1.047152E+02  9.884181E-01 -3.228058E+01 
4.111388E+02  9.910010E-01 -3.308414E+01  1.125213E-04 9.698130E+01  1.165201E-04 1.013342E+02  9.883526E-01 -3.227555E+01 
4.111700E+02  9.907138E-01 -3.308819E+01  1.230098E-04 1.012640E+02  1.156531E-04 1.016115E+02  9.883116E-01 -3.228360E+01 
4.112013E+02  9.908805E-01 -3.309012E+01  1.217734E-04 1.004035E+02  1.226566E-04 9.951314E+01  9.883124E-01 -3.228140E+01 
4.112325E+02  9.909675E-01 -3.309271E+01  1.239398E-04 9.530636E+01  1.252431E-04 9.891936E+01  9.882994E-01 -3.227799E+01 
4.112638E+02  9.909266E-01 -3.309718E+01  1.327934E-04 9.741572E+01  1.363938E-04 9.477543E+01  9.882563E-01 -3.228575E+01 
4.112950E+02  9.909962E-01 -3.310134E+01  1.345708E-04 9.516979E+01  1.267885E-04 9.408573E+01  9.882725E-01 -3.229077E+01 
4.113263E+02  9.910386E-01 -3.310466E+01  1.335866E-04 9.272194E+01  1.317402E-04 9.538515E+01  9.882250E-01 -3.229226E+01 
4.113575E+02  9.908544E-01 -3.310664E+01  1.294530E-04 9.119966E+01  1.342674E-04 9.418080E+01  9.882354E-01 -3.229454E+01 
4.113888E+02  9.908913E-01 -3.311045E+01  1.380605E-04 9.088349E+01  1.405487E-04 9.108577E+01  9.884150E-01 -3.229354E+01 
4.114200E+02  9.908544E-01 -3.311643E+01  1.312111E-04 8.929761E+01  1.369018E-04 8.888538E+01  9.883911E-01 -3.230308E+01 
4.114513E+02  9.909524E-01 -3.310446E+01  1.387224E-04 8.952866E+01  1.417891E-04 8.776980E+01  9.884078E-01 -3.230451E+01 
4.114825E+02  9.908958E-01 -3.311925E+01  1.396987E-04 9.125523E+01  1.413078E-04 8.769577E+01  9.883763E-01 -3.230510E+01 
4.115138E+02  9.908555E-01 -3.312083E+01  1.493561E-04 8.684962E+01  1.410938E-04 8.654125E+01  9.882879E-01 -3.230671E+01 
4.115450E+02  9.909083E-01 -3.312456E+01  1.453746E-04 8.540295E+01  1.392436E-04 8.631328E+01  9.883054E-01 -3.230995E+01 
4.115763E+02  9.909203E-01 -3.311956E+01  1.495993E-04 8.566522E+01  1.446054E-04 8.565425E+01  9.884771E-01 -3.231777E+01 
4.116075E+02  9.909401E-01 -3.313241E+01  1.376799E-04 8.289857E+01  1.482101E-04 8.333276E+01  9.882767E-01 -3.231724E+01 
4.116388E+02  9.908443E-01 -3.313351E+01  1.556796E-04 8.194419E+01  1.476308E-04 8.300951E+01  9.882831E-01 -3.231528E+01 
4.116700E+02  9.908779E-01 -3.313805E+01  1.445580E-04 8.241613E+01  1.478994E-04 8.043718E+01  9.882628E-01 -3.232230E+01 
4.117013E+02  9.908687E-01 -3.314583E+01  1.504118E-04 7.899558E+01  1.488932E-04 8.154215E+01  9.881840E-01 -3.231943E+01 
4.117325E+02  9.908829E-01 -3.314254E+01  1.462077E-04 8.223284E+01  1.444410E-04 8.052838E+01  9.882753E-01 -3.232639E+01 
4.117638E+02  9.909255E-01 -3.313901E+01  1.484250E-04 7.860239E+01  1.527860E-04 8.045097E+01  9.883018E-01 -3.232399E+01 
4.117950E+02  9.908395E-01 -3.314239E+01  1.550056E-04 7.831810E+01  1.604578E-04 8.043676E+01  9.883419E-01 -3.234012E+01 
4.118263E+02  9.909097E-01 -3.315317E+01  1.539378E-04 7.972387E+01  1.405890E-04 7.721148E+01  9.882142E-01 -3.233469E+01 
4.118575E+02  9.908268E-01 -3.315004E+01  1.488958E-04 7.761039E+01  1.533057E-04 7.500281E+01  9.882528E-01 -3.233585E+01 
4.118888E+02  9.908391E-01 -3.315302E+01  1.505602E-04 7.631771E+01  1.561887E-04 7.500971E+01  9.882991E-01 -3.233413E+01 
4.119200E+02  9.908941E-01 -3.314994E+01  1.494849E-04 7.568465E+01  1.564899E-04 7.576002E+01  9.882861E-01 -3.233661E+01 
4.119513E+02  9.908740E-01 -3.315997E+01  1.541078E-04 7.599923E+01  1.516612E-04 7.441254E+01  9.883259E-01 -3.234665E+01 
4.119825E+02  9.908850E-01 -3.316505E+01  1.536752E-04 7.246254E+01  1.553947E-04 7.498309E+01  9.882944E-01 -3.234997E+01 
4.120138E+02  9.907659E-01 -3.316899E+01  1.527002E-04 7.318647E+01  1.524942E-04 7.194832E+01  9.882865E-01 -3.234935E+01 
4.120450E+02  9.907448E-01 -3.316418E+01  1.467955E-04 7.379340E+01  1.502253E-04 7.238135E+01  9.882910E-01 -3.234812E+01 
4.120763E+02  9.907807E-01 -3.316585E+01  1.540115E-04 7.217762E+01  1.544847E-04 7.206738E+01  9.882961E-01 -3.235608E+01 
4.121075E+02  9.908356E-01 -3.317265E+01  1.551442E-04 7.212242E+01  1.507036E-04 7.233039E+01  9.881978E-01 -3.236015E+01 
4.121388E+02  9.909975E-01 -3.318142E+01  1.540693E-04 7.053597E+01  1.528627E-04 7.271558E+01  9.883210E-01 -3.235942E+01 
4.121700E+02  9.908226E-01 -3.317634E+01  1.599080E-04 6.962276E+01  1.547183E-04 6.829614E+01  9.882880E-01 -3.235482E+01 
4.122013E+02  9.908740E-01 -3.318917E+01  1.527697E-04 6.999870E+01  1.507260E-04 7.143788E+01  9.883310E-01 -3.236221E+01 
4.122325E+02  9.907079E-01 -3.318065E+01  1.521362E-04 7.085392E+01  1.554536E-04 7.261671E+01  9.882698E-01 -3.236139E+01 
4.122638E+02  9.908725E-01 -3.319021E+01  1.480078E-04 7.245825E+01  1.530005E-04 7.171822E+01  9.882384E-01 -3.236930E+01 
4.122950E+02  9.907043E-01 -3.318872E+01  1.487130E-04 7.125980E+01  1.512994E-04 7.556421E+01  9.881230E-01 -3.237616E+01 
4.123263E+02  9.908066E-01 -3.319671E+01  1.589465E-04 7.145807E+01  1.529313E-04 7.144408E+01  9.881960E-01 -3.237542E+01 
4.123575E+02  9.906852E-01 -3.319299E+01  1.519090E-04 7.177403E+01  1.491716E-04 7.217352E+01  9.883645E-01 -3.237496E+01 
4.123888E+02  9.907089E-01 -3.320107E+01  1.535479E-04 6.844492E+01  1.586632E-04 7.428188E+01  9.882197E-01 -3.238567E+01 
4.124200E+02  9.907893E-01 -3.320048E+01  1.616798E-04 7.168304E+01  1.687765E-04 7.287260E+01  9.881101E-01 -3.238427E+01 
4.124513E+02  9.906763E-01 -3.319350E+01  1.627246E-04 7.117946E+01  1.614123E-04 7.271350E+01  9.881960E-01 -3.238381E+01 
4.124825E+02  9.907498E-01 -3.321065E+01  1.752276E-04 7.289618E+01  1.682994E-04 7.301020E+01  9.883220E-01 -3.238518E+01 
4.125138E+02  9.906576E-01 -3.320570E+01  1.720646E-04 7.249655E+01  1.751471E-04 7.278028E+01  9.883771E-01 -3.238906E+01 
4.125450E+02  9.906854E-01 -3.320653E+01  1.852390E-04 7.191278E+01  1.769319E-04 7.221487E+01  9.882905E-01 -3.238914E+01 
4.125763E+02  9.908323E-01 -3.320389E+01  1.860963E-04 6.879808E+01  1.844765E-04 6.891010E+01  9.883239E-01 -3.239014E+01 
4.126075E+02  9.908013E-01 -3.321528E+01  1.923093E-04 6.773708E+01  1.870891E-04 6.935952E+01  9.882598E-01 -3.239891E+01 
4.126388E+02  9.907110E-01 -3.321196E+01  1.956854E-04 6.379104E+01  2.011200E-04 6.839218E+01  9.882612E-01 -3.239299E+01 
4.126700E+02  9.907760E-01 -3.321756E+01  2.077913E-04 6.479098E+01  2.051579E-04 6.284286E+01  9.881855E-01 -3.239961E+01 
4.127013E+02  9.908556E-01 -3.321212E+01  2.053096E-04 6.322309E+01  2.105831E-04 6.257512E+01  9.882669E-01 -3.240156E+01 
4.127325E+02  9.907443E-01 -3.322380E+01  2.071700E-04 5.883216E+01  2.040019E-04 6.186851E+01  9.882314E-01 -3.240090E+01 
4.127638E+02  9.907924E-01 -3.322302E+01  2.134370E-04 5.644845E+01  2.095300E-04 5.835092E+01  9.882700E-01 -3.240820E+01 
4.127950E+02  9.908145E-01 -3.322736E+01  2.067935E-04 5.468616E+01  2.117424E-04 5.542701E+01  9.882479E-01 -3.240725E+01 
4.128263E+02  9.909624E-01 -3.323194E+01  2.070415E-04 5.177403E+01  2.079660E-04 5.350656E+01  9.883065E-01 -3.240829E+01 
4.128575E+02  9.908551E-01 -3.322914E+01  2.110572E-04 5.120460E+01  2.102324E-04 5.142669E+01  9.883724E-01 -3.241630E+01 
4.128888E+02  9.908506E-01 -3.323041E+01  2.065668E-04 4.822433E+01  2.054380E-04 4.783853E+01  9.883377E-01 -3.241509E+01 
4.129200E+02  9.908908E-01 -3.323605E+01  2.157382E-04 4.799262E+01  2.017338E-04 4.710371E+01  9.882008E-01 -3.241292E+01 
4.129513E+02  9.909306E-01 -3.323622E+01  2.043881E-04 4.271178E+01  2.046716E-04 4.386787E+01  9.882413E-01 -3.242122E+01 
4.129825E+02  9.908794E-01 -3.323593E+01  2.005155E-04 4.194948E+01  2.057365E-04 4.034660E+01  9.883227E-01 -3.241700E+01 
4.130138E+02  9.909265E-01 -3.324141E+01  2.033179E-04 3.908887E+01  1.947961E-04 4.278166E+01  9.883161E-01 -3.242602E+01 
4.130450E+02  9.910184E-01 -3.324721E+01  1.986483E-04 3.804054E+01  1.948408E-04 3.796854E+01  9.883044E-01 -3.242266E+01 
4.130763E+02  9.909973E-01 -3.324868E+01  2.003039E-04 3.867801E+01  1.974943E-04 3.771630E+01  9.883621E-01 -3.242624E+01 
4.131075E+02  9.909300E-01 -3.325335E+01  1.893546E-04 3.577289E+01  1.853801E-04 3.400502E+01  9.882763E-01 -3.243326E+01 
4.131388E+02  9.908627E-01 -3.325671E+01  1.858917E-04 3.371163E+01  1.839075E-04 3.311665E+01  9.882391E-01 -3.243326E+01 
4.131700E+02  9.908578E-01 -3.326260E+01  1.885325E-04 2.893380E+01  1.820214E-04 3.106548E+01  9.883332E-01 -3.244288E+01 
4.132013E+02  9.909029E-01 -3.326495E+01  1.882349E-04 2.739028E+01  1.844400E-04 2.854876E+01  9.883940E-01 -3.244207E+01 
4.132325E+02  9.909959E-01 -3.326648E+01  1.801931E-04 2.736280E+01  1.748291E-04 2.620984E+01  9.882526E-01 -3.244959E+01 
4.132638E+02  9.908140E-01 -3.327036E+01  1.735532E-04 2.579811E+01  1.716665E-04 2.519956E+01  9.882523E-01 -3.244553E+01 
4.132950E+02  9.909113E-01 -3.327384E+01  1.719949E-04 2.204188E+01  1.685771E-04 2.300315E+01  9.882615E-01 -3.245713E+01 
4.133263E+02  9.910232E-01 -3.327356E+01  1.602389E-04 2.207656E+01  1.614837E-04 2.208424E+01  9.882350E-01 -3.245172E+01 
4.133575E+02  9.908428E-01 -3.327536E+01  1.553300E-04 1.992918E+01  1.581207E-04 2.101856E+01  9.882888E-01 -3.245233E+01 
4.133888E+02  9.908219E-01 -3.328080E+01  1.480290E-04 1.748268E+01  1.496957E-04 1.823023E+01  9.884344E-01 -3.246553E+01 
4.134200E+02  9.908687E-01 -3.328418E+01  1.491226E-04 1.626411E+01  1.470183E-04 1.630770E+01  9.884066E-01 -3.245558E+01 
4.134513E+02  9.907784E-01 -3.328092E+01  1.483753E-04 1.489943E+01  1.420519E-04 1.498682E+01  9.883096E-01 -3.246280E+01 
4.134825E+02  9.909283E-01 -3.329459E+01  1.471059E-04 1.410527E+01  1.411075E-04 1.250656E+01  9.883845E-01 -3.246585E+01 
4.135138E+02  9.909223E-01 -3.329483E+01  1.371876E-04 1.115147E+01  1.339811E-04 1.064742E+01  9.883561E-01 -3.246669E+01 
4.135450E+02  9.908278E-01 -3.329932E+01  1.257894E-04 6.450656E+00  1.274219E-04 6.714062E+00  9.883735E-01 -3.247887E+01 
4.135763E+02  9.908099E-01 -3.329221E+01  1.193260E-04 7.426690E+00  1.173189E-04 7.877452E+00  9.883549E-01 -3.248522E+01 
4.136075E+02  9.908536E-01 -3.329495E+01  1.122472E-04 5.326589E+00  1.115347E-04 3.277904E+00  9.884075E-01 -3.248082E+01 
4.136388E+02  9.909142E-01 -3.330180E+01  1.055464E-04 5.840808E+00  1.051580E-04 2.239893E+00  9.884518E-01 -3.248288E+01 
4.136700E+02  9.909698E-01 -3.330325E+01  9.576293E-05 8.291501E+00  1.008251E-04 3.626625E+00  9.882620E-01 -3.248002E+01 
4.137013E+02  9.909038E-01 -3.330428E+01  9.480943E-05 5.264794E+00  9.817055E-05 6.563836E+00  9.883430E-01 -3.248730E+01 
4.137325E+02  9.907611E-01 -3.330619E+01  8.739236E-05 1.150985E+01  8.916101E-05 4.470460E+00  9.883463E-01 -3.249028E+01 
