! Matrix data file written by TouchstoneData, EPCOS AG
! FILENAME: "B3741_SB.s2p"
! COMMENT: "PINNIG 1/4; PORTEX1 93PS; PORTEX2 179.5PS; 2"
! INFO: nport=2, nfreq=1601
! DATE: "Wed Sep 19 15:41:01 2012"
! USER: "Wilfried Schott"
!
! port | pin | signal
! -----|-----|--------
!   1  |  1  |  IN
!   2  |  4  |  OUT
! --------------------
! 
# MHZ S MA R 50
! freq  magS11 angS11  magS21 angS21  magS12 angS12  magS22 angS22
3.125000E+02  9.946900E-01 -3.312955E+01  2.390827E-04 4.816278E+01  2.368120E-04 4.993709E+01  9.909792E-01 -3.085753E+01 
3.125031E+02  9.947685E-01 -3.312792E+01  2.357107E-04 5.002519E+01  2.365764E-04 4.944299E+01  9.910662E-01 -3.085906E+01 
3.125063E+02  9.946959E-01 -3.313827E+01  2.342210E-04 4.944413E+01  2.318660E-04 4.836564E+01  9.909993E-01 -3.086027E+01 
3.125094E+02  9.946214E-01 -3.313386E+01  2.331028E-04 4.913942E+01  2.309114E-04 4.831416E+01  9.911629E-01 -3.086158E+01 
3.125125E+02  9.946521E-01 -3.313319E+01  2.332783E-04 4.907945E+01  2.336893E-04 4.884521E+01  9.909752E-01 -3.086557E+01 
3.125156E+02  9.945584E-01 -3.313632E+01  2.283730E-04 4.713754E+01  2.301420E-04 4.817943E+01  9.910048E-01 -3.086933E+01 
3.125188E+02  9.946899E-01 -3.314150E+01  2.275089E-04 4.796062E+01  2.259629E-04 4.861737E+01  9.910840E-01 -3.086510E+01 
3.125219E+02  9.946108E-01 -3.314908E+01  2.290751E-04 4.805478E+01  2.281591E-04 4.886026E+01  9.910449E-01 -3.087388E+01 
3.125250E+02  9.945630E-01 -3.314142E+01  2.274439E-04 4.872042E+01  2.224556E-04 4.792335E+01  9.910346E-01 -3.087475E+01 
3.125281E+02  9.945988E-01 -3.314483E+01  2.222527E-04 4.777748E+01  2.219220E-04 4.856624E+01  9.910203E-01 -3.087600E+01 
3.125312E+02  9.945409E-01 -3.315113E+01  2.214403E-04 4.806686E+01  2.218306E-04 4.749975E+01  9.910281E-01 -3.087683E+01 
3.125344E+02  9.945535E-01 -3.314406E+01  2.257068E-04 4.748195E+01  2.215901E-04 4.791856E+01  9.911216E-01 -3.087676E+01 
3.125375E+02  9.946495E-01 -3.315588E+01  2.184471E-04 4.742514E+01  2.197742E-04 4.678313E+01  9.910506E-01 -3.088609E+01 
3.125406E+02  9.945520E-01 -3.315036E+01  2.222678E-04 4.731711E+01  2.157769E-04 4.778555E+01  9.910294E-01 -3.089080E+01 
3.125437E+02  9.945903E-01 -3.315397E+01  2.161390E-04 4.654691E+01  2.157059E-04 4.738954E+01  9.910759E-01 -3.089237E+01 
3.125469E+02  9.946395E-01 -3.315249E+01  2.156206E-04 4.705679E+01  2.136109E-04 4.739609E+01  9.910764E-01 -3.089075E+01 
3.125500E+02  9.945732E-01 -3.315912E+01  2.194262E-04 4.743021E+01  2.184552E-04 4.677691E+01  9.912040E-01 -3.089199E+01 
3.125531E+02  9.946230E-01 -3.316137E+01  2.140665E-04 4.737197E+01  2.145563E-04 4.609172E+01  9.910421E-01 -3.089822E+01 
3.125562E+02  9.946256E-01 -3.316978E+01  2.114513E-04 4.647022E+01  2.128285E-04 4.758775E+01  9.910345E-01 -3.089874E+01 
3.125594E+02  9.945890E-01 -3.316429E+01  2.118206E-04 4.671053E+01  2.077650E-04 4.601419E+01  9.910998E-01 -3.090085E+01 
3.125625E+02  9.946770E-01 -3.316748E+01  2.100305E-04 4.647268E+01  2.037745E-04 4.617058E+01  9.910567E-01 -3.090767E+01 
3.125656E+02  9.946113E-01 -3.316774E+01  2.076039E-04 4.519786E+01  2.066707E-04 4.494655E+01  9.910632E-01 -3.090713E+01 
3.125688E+02  9.946734E-01 -3.316775E+01  2.073150E-04 4.659956E+01  2.060985E-04 4.647436E+01  9.910236E-01 -3.090615E+01 
3.125719E+02  9.946510E-01 -3.317375E+01  2.073501E-04 4.582373E+01  2.059259E-04 4.584728E+01  9.909981E-01 -3.090944E+01 
3.125750E+02  9.946262E-01 -3.317210E+01  2.051152E-04 4.656709E+01  2.055553E-04 4.581705E+01  9.910124E-01 -3.091147E+01 
3.125781E+02  9.946488E-01 -3.317645E+01  2.076667E-04 4.506820E+01  2.023918E-04 4.531105E+01  9.909976E-01 -3.091058E+01 
3.125813E+02  9.946276E-01 -3.317974E+01  2.022800E-04 4.601612E+01  1.994263E-04 4.522592E+01  9.909981E-01 -3.091616E+01 
3.125844E+02  9.946935E-01 -3.317920E+01  2.027457E-04 4.532189E+01  2.009900E-04 4.637428E+01  9.910177E-01 -3.091129E+01 
3.125875E+02  9.947502E-01 -3.318513E+01  1.992505E-04 4.521259E+01  1.995009E-04 4.561223E+01  9.909991E-01 -3.091820E+01 
3.125906E+02  9.946834E-01 -3.318889E+01  2.006106E-04 4.565266E+01  2.002959E-04 4.564850E+01  9.910324E-01 -3.091822E+01 
3.125938E+02  9.946710E-01 -3.318283E+01  1.969835E-04 4.523505E+01  1.988081E-04 4.528916E+01  9.910151E-01 -3.092120E+01 
3.125969E+02  9.946776E-01 -3.319404E+01  1.968614E-04 4.535443E+01  1.953934E-04 4.535129E+01  9.910274E-01 -3.092225E+01 
3.126000E+02  9.946642E-01 -3.319231E+01  1.953327E-04 4.469822E+01  1.923231E-04 4.436186E+01  9.910362E-01 -3.092343E+01 
3.126031E+02  9.947425E-01 -3.319108E+01  1.958799E-04 4.488847E+01  1.929419E-04 4.508438E+01  9.909770E-01 -3.093221E+01 
3.126062E+02  9.945444E-01 -3.319722E+01  1.883773E-04 4.396531E+01  1.956489E-04 4.577123E+01  9.909835E-01 -3.093209E+01 
3.126094E+02  9.946376E-01 -3.320087E+01  1.938434E-04 4.295152E+01  1.904538E-04 4.368524E+01  9.909714E-01 -3.093056E+01 
3.126125E+02  9.946849E-01 -3.319862E+01  1.875351E-04 4.423773E+01  1.877537E-04 4.419158E+01  9.910311E-01 -3.093504E+01 
3.126156E+02  9.945625E-01 -3.320973E+01  1.937154E-04 4.415495E+01  1.904967E-04 4.502340E+01  9.910312E-01 -3.093525E+01 
3.126187E+02  9.946670E-01 -3.321000E+01  1.892721E-04 4.255560E+01  1.869339E-04 4.384173E+01  9.909989E-01 -3.093870E+01 
3.126219E+02  9.945738E-01 -3.321693E+01  1.880246E-04 4.366274E+01  1.870451E-04 4.293394E+01  9.909320E-01 -3.094733E+01 
3.126250E+02  9.946094E-01 -3.321366E+01  1.857643E-04 4.391542E+01  1.851128E-04 4.296431E+01  9.909810E-01 -3.094210E+01 
3.126281E+02  9.946617E-01 -3.321512E+01  1.844259E-04 4.353035E+01  1.806954E-04 4.281933E+01  9.909434E-01 -3.094759E+01 
3.126313E+02  9.945581E-01 -3.322254E+01  1.827949E-04 4.454856E+01  1.798744E-04 4.397145E+01  9.910175E-01 -3.094856E+01 
3.126344E+02  9.945682E-01 -3.322472E+01  1.794970E-04 4.364152E+01  1.806770E-04 4.504889E+01  9.909319E-01 -3.095249E+01 
3.126375E+02  9.946205E-01 -3.322810E+01  1.775946E-04 4.323733E+01  1.751040E-04 4.419036E+01  9.909731E-01 -3.095868E+01 
3.126406E+02  9.944734E-01 -3.323034E+01  1.776074E-04 4.324372E+01  1.749951E-04 4.371756E+01  9.910010E-01 -3.095714E+01 
3.126438E+02  9.945350E-01 -3.322725E+01  1.767743E-04 4.454269E+01  1.784177E-04 4.327042E+01  9.909020E-01 -3.096231E+01 
3.126469E+02  9.945441E-01 -3.323331E+01  1.773597E-04 4.304106E+01  1.774429E-04 4.349133E+01  9.910110E-01 -3.096122E+01 
3.126500E+02  9.944879E-01 -3.323756E+01  1.757713E-04 4.310204E+01  1.716909E-04 4.407757E+01  9.909664E-01 -3.096207E+01 
3.126531E+02  9.945927E-01 -3.323203E+01  1.782556E-04 4.209108E+01  1.750493E-04 4.279975E+01  9.909142E-01 -3.096692E+01 
3.126562E+02  9.945045E-01 -3.324520E+01  1.769003E-04 4.479390E+01  1.690178E-04 4.396825E+01  9.910349E-01 -3.097078E+01 
3.126594E+02  9.944890E-01 -3.324174E+01  1.731126E-04 4.203733E+01  1.752426E-04 4.147774E+01  9.909337E-01 -3.097009E+01 
3.126625E+02  9.946390E-01 -3.324050E+01  1.690784E-04 4.343104E+01  1.689673E-04 4.279461E+01  9.908924E-01 -3.097642E+01 
3.126656E+02  9.945459E-01 -3.324642E+01  1.631659E-04 4.402516E+01  1.674236E-04 4.182320E+01  9.909062E-01 -3.097695E+01 
3.126687E+02  9.945460E-01 -3.324302E+01  1.689433E-04 4.167385E+01  1.668132E-04 4.235028E+01  9.908805E-01 -3.097915E+01 
3.126719E+02  9.945438E-01 -3.324871E+01  1.647774E-04 4.050460E+01  1.654258E-04 4.209608E+01  9.908985E-01 -3.097754E+01 
3.126750E+02  9.945503E-01 -3.325299E+01  1.623057E-04 4.199559E+01  1.637696E-04 4.243948E+01  9.908962E-01 -3.097939E+01 
3.126781E+02  9.946530E-01 -3.324947E+01  1.671763E-04 4.112813E+01  1.648088E-04 4.254428E+01  9.908158E-01 -3.098221E+01 
3.126812E+02  9.944943E-01 -3.325649E+01  1.627980E-04 4.190786E+01  1.572541E-04 4.151604E+01  9.909597E-01 -3.098612E+01 
3.126844E+02  9.945401E-01 -3.325664E+01  1.614442E-04 4.045117E+01  1.621287E-04 4.154285E+01  9.908977E-01 -3.098736E+01 
3.126875E+02  9.945515E-01 -3.325536E+01  1.603133E-04 4.027796E+01  1.616270E-04 4.294127E+01  9.909723E-01 -3.098589E+01 
3.126906E+02  9.945291E-01 -3.325746E+01  1.575993E-04 4.270761E+01  1.583925E-04 4.044614E+01  9.908335E-01 -3.098991E+01 
3.126938E+02  9.945793E-01 -3.326082E+01  1.582597E-04 4.261304E+01  1.562598E-04 4.044181E+01  9.909118E-01 -3.099200E+01 
3.126969E+02  9.945170E-01 -3.327043E+01  1.567665E-04 4.152436E+01  1.563038E-04 4.215373E+01  9.909719E-01 -3.099374E+01 
3.127000E+02  9.945473E-01 -3.326761E+01  1.573271E-04 4.227666E+01  1.547590E-04 4.149062E+01  9.909504E-01 -3.100070E+01 
3.127031E+02  9.945185E-01 -3.326954E+01  1.551418E-04 3.976206E+01  1.510466E-04 3.992688E+01  9.909460E-01 -3.100408E+01 
3.127063E+02  9.945082E-01 -3.327598E+01  1.529616E-04 4.022563E+01  1.549999E-04 3.972855E+01  9.909478E-01 -3.100690E+01 
3.127094E+02  9.945846E-01 -3.327594E+01  1.535676E-04 4.116498E+01  1.492887E-04 3.987872E+01  9.908512E-01 -3.100710E+01 
3.127125E+02  9.944423E-01 -3.328204E+01  1.523135E-04 3.859593E+01  1.473972E-04 4.070383E+01  9.909490E-01 -3.101025E+01 
3.127156E+02  9.945339E-01 -3.328165E+01  1.518460E-04 3.950978E+01  1.462854E-04 3.921010E+01  9.909046E-01 -3.101653E+01 
3.127188E+02  9.945354E-01 -3.329082E+01  1.437641E-04 3.853727E+01  1.446411E-04 3.839708E+01  9.910186E-01 -3.101481E+01 
3.127219E+02  9.944836E-01 -3.328805E+01  1.407582E-04 4.069052E+01  1.451565E-04 4.003707E+01  9.908875E-01 -3.102074E+01 
3.127250E+02  9.944497E-01 -3.329173E+01  1.425416E-04 3.924909E+01  1.413019E-04 3.858992E+01  9.909052E-01 -3.102169E+01 
3.127281E+02  9.944923E-01 -3.328935E+01  1.393763E-04 3.748461E+01  1.406829E-04 3.839015E+01  9.909570E-01 -3.102340E+01 
3.127312E+02  9.944627E-01 -3.329436E+01  1.371139E-04 3.962554E+01  1.387191E-04 3.801380E+01  9.909276E-01 -3.102649E+01 
3.127344E+02  9.945438E-01 -3.329500E+01  1.392535E-04 3.920347E+01  1.378641E-04 3.928216E+01  9.910408E-01 -3.103264E+01 
3.127375E+02  9.944050E-01 -3.329394E+01  1.355764E-04 3.780477E+01  1.410906E-04 3.925094E+01  9.909720E-01 -3.103088E+01 
3.127406E+02  9.945033E-01 -3.329859E+01  1.355298E-04 3.859220E+01  1.329400E-04 3.855516E+01  9.909447E-01 -3.103251E+01 
3.127437E+02  9.945213E-01 -3.330102E+01  1.316994E-04 3.967395E+01  1.284731E-04 3.799605E+01  9.909649E-01 -3.103300E+01 
3.127469E+02  9.944715E-01 -3.330653E+01  1.289010E-04 3.815556E+01  1.318276E-04 3.933755E+01  9.909385E-01 -3.104039E+01 
3.127500E+02  9.945839E-01 -3.330328E+01  1.285782E-04 3.913105E+01  1.331271E-04 3.804683E+01  9.909366E-01 -3.103812E+01 
3.127531E+02  9.944894E-01 -3.331268E+01  1.275502E-04 3.895412E+01  1.285992E-04 3.792633E+01  9.910061E-01 -3.103756E+01 
3.127563E+02  9.944823E-01 -3.331152E+01  1.268578E-04 3.691823E+01  1.274574E-04 3.631396E+01  9.909979E-01 -3.104297E+01 
3.127594E+02  9.944380E-01 -3.330781E+01  1.290321E-04 3.718495E+01  1.265447E-04 3.703968E+01  9.910410E-01 -3.104187E+01 
3.127625E+02  9.945001E-01 -3.331826E+01  1.205918E-04 3.601735E+01  1.236333E-04 3.602001E+01  9.909028E-01 -3.105304E+01 
3.127656E+02  9.946005E-01 -3.331634E+01  1.265031E-04 3.713450E+01  1.214703E-04 3.540987E+01  9.908354E-01 -3.104986E+01 
3.127688E+02  9.944711E-01 -3.332540E+01  1.219570E-04 3.796839E+01  1.191988E-04 3.618986E+01  9.909559E-01 -3.105437E+01 
3.127719E+02  9.944259E-01 -3.332400E+01  1.150824E-04 3.702670E+01  1.158451E-04 3.648161E+01  9.908710E-01 -3.105511E+01 
3.127750E+02  9.945082E-01 -3.332603E+01  1.157680E-04 3.711996E+01  1.200013E-04 3.785438E+01  9.909633E-01 -3.105657E+01 
3.127781E+02  9.944581E-01 -3.332676E+01  1.146713E-04 3.573142E+01  1.146253E-04 3.578655E+01  9.908799E-01 -3.105950E+01 
3.127812E+02  9.944652E-01 -3.332456E+01  1.121156E-04 3.525227E+01  1.134750E-04 3.735400E+01  9.908524E-01 -3.106410E+01 
3.127844E+02  9.944557E-01 -3.332715E+01  1.115713E-04 3.652322E+01  1.081974E-04 3.461855E+01  9.909696E-01 -3.106672E+01 
3.127875E+02  9.944528E-01 -3.334041E+01  1.086534E-04 3.416925E+01  1.076412E-04 3.618774E+01  9.909186E-01 -3.107178E+01 
3.127906E+02  9.944712E-01 -3.333847E+01  1.055481E-04 3.360565E+01  1.044067E-04 3.587124E+01  9.908971E-01 -3.107502E+01 
3.127937E+02  9.945423E-01 -3.334836E+01  1.064035E-04 3.526799E+01  1.092781E-04 3.659195E+01  9.909713E-01 -3.107461E+01 
3.127969E+02  9.945019E-01 -3.334349E+01  1.070140E-04 3.512858E+01  1.037934E-04 3.506028E+01  9.909584E-01 -3.107725E+01 
3.128000E+02  9.945926E-01 -3.335015E+01  1.021531E-04 3.254862E+01  9.740573E-05 3.668283E+01  9.908633E-01 -3.108309E+01 
3.128031E+02  9.945619E-01 -3.335518E+01  9.770079E-05 3.389261E+01  9.982285E-05 3.410252E+01  9.909397E-01 -3.108516E+01 
3.128062E+02  9.945756E-01 -3.335437E+01  1.042964E-04 3.564040E+01  9.637693E-05 3.366207E+01  9.909641E-01 -3.108195E+01 
3.128094E+02  9.945180E-01 -3.336186E+01  9.643363E-05 3.457869E+01  9.467884E-05 3.168072E+01  9.910174E-01 -3.109045E+01 
3.128125E+02  9.945218E-01 -3.335907E+01  9.516897E-05 3.543232E+01  9.284224E-05 3.153983E+01  9.909369E-01 -3.109321E+01 
3.128156E+02  9.946628E-01 -3.337169E+01  9.488587E-05 3.430265E+01  8.933647E-05 3.290719E+01  9.908853E-01 -3.109665E+01 
3.128188E+02  9.944457E-01 -3.336813E+01  9.149397E-05 3.165277E+01  9.317983E-05 3.293617E+01  9.909433E-01 -3.109680E+01 
3.128219E+02  9.945374E-01 -3.336355E+01  9.271829E-05 3.097631E+01  9.342006E-05 3.292015E+01  9.908559E-01 -3.109951E+01 
3.128250E+02  9.945251E-01 -3.337512E+01  8.602881E-05 3.056652E+01  8.648557E-05 3.052902E+01  9.908539E-01 -3.110438E+01 
3.128281E+02  9.945272E-01 -3.337553E+01  8.760665E-05 3.177757E+01  8.273625E-05 3.089521E+01  9.908917E-01 -3.110502E+01 
3.128313E+02  9.946516E-01 -3.337298E+01  8.196574E-05 2.907539E+01  8.043343E-05 3.229352E+01  9.908303E-01 -3.110532E+01 
3.128344E+02  9.944819E-01 -3.338185E+01  7.785567E-05 2.788373E+01  7.894544E-05 3.024036E+01  9.909397E-01 -3.111108E+01 
3.128375E+02  9.944988E-01 -3.338506E+01  7.572340E-05 2.858505E+01  7.629450E-05 2.973523E+01  9.908747E-01 -3.111594E+01 
3.128406E+02  9.944977E-01 -3.338280E+01  7.781131E-05 3.203192E+01  7.424136E-05 3.024125E+01  9.908043E-01 -3.111722E+01 
3.128438E+02  9.944597E-01 -3.338980E+01  6.758098E-05 2.769431E+01  7.145727E-05 2.486605E+01  9.908584E-01 -3.111829E+01 
3.128469E+02  9.945691E-01 -3.338501E+01  6.927613E-05 2.693511E+01  6.965030E-05 2.728647E+01  9.907765E-01 -3.111738E+01 
3.128500E+02  9.943477E-01 -3.339172E+01  6.741074E-05 2.485098E+01  6.954696E-05 2.511445E+01  9.908586E-01 -3.112424E+01 
3.128531E+02  9.944521E-01 -3.339362E+01  6.300738E-05 2.379760E+01  6.213416E-05 2.754699E+01  9.908113E-01 -3.112918E+01 
3.128562E+02  9.944855E-01 -3.339920E+01  6.171351E-05 2.133628E+01  6.250584E-05 2.583036E+01  9.908256E-01 -3.113138E+01 
3.128594E+02  9.944107E-01 -3.339795E+01  5.587875E-05 1.652563E+01  6.029288E-05 2.349615E+01  9.907755E-01 -3.113069E+01 
3.128625E+02  9.944977E-01 -3.340487E+01  5.938302E-05 1.958910E+01  5.475449E-05 2.531400E+01  9.907564E-01 -3.113285E+01 
3.128656E+02  9.943908E-01 -3.340419E+01  5.361124E-05 1.447932E+01  5.183626E-05 2.184235E+01  9.907873E-01 -3.113229E+01 
3.128687E+02  9.943432E-01 -3.340885E+01  4.862903E-05 1.633496E+01  4.752210E-05 1.345217E+01  9.908372E-01 -3.114127E+01 
3.128719E+02  9.944643E-01 -3.340853E+01  4.542563E-05 1.097488E+01  4.513477E-05 1.485179E+01  9.907704E-01 -3.114491E+01 
3.128750E+02  9.943338E-01 -3.340993E+01  4.444184E-05 1.116576E+01  4.150796E-05 1.015963E+01  9.908588E-01 -3.114591E+01 
3.128781E+02  9.944360E-01 -3.341449E+01  4.083938E-05 9.853876E+00  3.684220E-05 6.331102E+00  9.908432E-01 -3.115072E+01 
3.128813E+02  9.944488E-01 -3.341625E+01  3.192067E-05 7.865926E+00  3.518770E-05 6.915699E+00  9.908298E-01 -3.115142E+01 
3.128844E+02  9.943958E-01 -3.342355E+01  3.472983E-05 -8.463026E+00  2.857809E-05 -2.203579E+00  9.908011E-01 -3.115323E+01 
3.128875E+02  9.944225E-01 -3.341573E+01  2.508263E-05 -2.738023E+00  2.822977E-05 -4.840932E+00  9.907778E-01 -3.115874E+01 
3.128906E+02  9.943841E-01 -3.342803E+01  2.791005E-05 -1.485327E+01  2.478633E-05 -9.964891E+00  9.908357E-01 -3.115439E+01 
3.128938E+02  9.943970E-01 -3.342538E+01  2.277133E-05 -1.033373E+01  2.605372E-05 -2.276433E+01  9.908352E-01 -3.116858E+01 
3.128969E+02  9.943970E-01 -3.342605E+01  2.284950E-05 -3.601932E+01  2.154396E-05 -4.109681E+01  9.908684E-01 -3.116559E+01 
3.129000E+02  9.942903E-01 -3.343152E+01  1.699838E-05 -5.598618E+01  2.424637E-05 -4.526252E+01  9.907413E-01 -3.116447E+01 
3.129031E+02  9.943142E-01 -3.343751E+01  2.039837E-05 -6.663063E+01  1.934490E-05 -6.518063E+01  9.908179E-01 -3.117504E+01 
3.129062E+02  9.943480E-01 -3.344063E+01  2.025584E-05 -7.201510E+01  2.006797E-05 -8.469203E+01  9.910371E-01 -3.117790E+01 
3.129094E+02  9.942238E-01 -3.343931E+01  1.967885E-05 -8.598667E+01  2.335407E-05 -9.971842E+01  9.908550E-01 -3.118636E+01 
3.129125E+02  9.943931E-01 -3.344902E+01  2.871338E-05 -1.004088E+02  2.675487E-05 -9.714860E+01  9.907926E-01 -3.118238E+01 
3.129156E+02  9.942925E-01 -3.344644E+01  3.758248E-05 -1.110743E+02  3.349892E-05 -1.075511E+02  9.909044E-01 -3.118267E+01 
3.129187E+02  9.943071E-01 -3.345182E+01  3.942743E-05 -1.080569E+02  3.549492E-05 -1.118623E+02  9.908953E-01 -3.118885E+01 
3.129219E+02  9.943083E-01 -3.345233E+01  4.107041E-05 -1.228084E+02  4.188236E-05 -1.227440E+02  9.908249E-01 -3.119571E+01 
3.129250E+02  9.943399E-01 -3.346069E+01  4.904251E-05 -1.259392E+02  4.683675E-05 -1.259478E+02  9.908748E-01 -3.119829E+01 
3.129281E+02  9.943269E-01 -3.346026E+01  5.192737E-05 -1.313882E+02  5.064895E-05 -1.271633E+02  9.908487E-01 -3.120229E+01 
3.129312E+02  9.942831E-01 -3.347058E+01  6.193532E-05 -1.331087E+02  5.658002E-05 -1.302292E+02  9.908720E-01 -3.120116E+01 
3.129344E+02  9.942573E-01 -3.347259E+01  6.875377E-05 -1.341949E+02  6.312346E-05 -1.339068E+02  9.908129E-01 -3.120233E+01 
3.129375E+02  9.942604E-01 -3.347354E+01  7.265216E-05 -1.353767E+02  7.235740E-05 -1.372262E+02  9.907631E-01 -3.120771E+01 
3.129406E+02  9.942542E-01 -3.347811E+01  7.986335E-05 -1.404778E+02  8.057362E-05 -1.405253E+02  9.908888E-01 -3.121189E+01 
3.129438E+02  9.942165E-01 -3.347748E+01  9.135553E-05 -1.388845E+02  8.430479E-05 -1.423851E+02  9.908112E-01 -3.121760E+01 
3.129469E+02  9.943087E-01 -3.348697E+01  9.828227E-05 -1.436581E+02  9.741787E-05 -1.412038E+02  9.908145E-01 -3.121412E+01 
3.129500E+02  9.942948E-01 -3.348941E+01  9.798100E-05 -1.442574E+02  9.948198E-05 -1.438286E+02  9.908006E-01 -3.122551E+01 
3.129531E+02  9.943349E-01 -3.349117E+01  1.112387E-04 -1.469159E+02  1.141823E-04 -1.472172E+02  9.907160E-01 -3.123137E+01 
3.129563E+02  9.942631E-01 -3.349506E+01  1.176216E-04 -1.478584E+02  1.185292E-04 -1.474364E+02  9.907116E-01 -3.123264E+01 
3.129594E+02  9.942054E-01 -3.349076E+01  1.290574E-04 -1.474165E+02  1.285242E-04 -1.483238E+02  9.907378E-01 -3.123605E+01 
3.129625E+02  9.942661E-01 -3.350230E+01  1.367133E-04 -1.498419E+02  1.400148E-04 -1.505090E+02  9.907207E-01 -3.124086E+01 
3.129656E+02  9.941364E-01 -3.349764E+01  1.464594E-04 -1.511646E+02  1.483462E-04 -1.516653E+02  9.908212E-01 -3.124082E+01 
3.129688E+02  9.942175E-01 -3.350622E+01  1.616615E-04 -1.518796E+02  1.592618E-04 -1.521064E+02  9.907425E-01 -3.124505E+01 
3.129719E+02  9.941957E-01 -3.350431E+01  1.669805E-04 -1.534183E+02  1.689047E-04 -1.527548E+02  9.907158E-01 -3.124773E+01 
3.129750E+02  9.941128E-01 -3.350660E+01  1.796894E-04 -1.558811E+02  1.779839E-04 -1.557510E+02  9.906957E-01 -3.125757E+01 
3.129781E+02  9.942047E-01 -3.352213E+01  1.944504E-04 -1.561715E+02  1.929464E-04 -1.564191E+02  9.906857E-01 -3.125453E+01 
3.129812E+02  9.941345E-01 -3.351969E+01  2.011670E-04 -1.576568E+02  2.048027E-04 -1.574982E+02  9.906785E-01 -3.125576E+01 
3.129844E+02  9.942110E-01 -3.351573E+01  2.190744E-04 -1.599441E+02  2.198439E-04 -1.591191E+02  9.906392E-01 -3.126304E+01 
3.129875E+02  9.941230E-01 -3.353087E+01  2.309882E-04 -1.594731E+02  2.307425E-04 -1.615635E+02  9.907501E-01 -3.126500E+01 
