! Matrix data file written by TouchstoneData, EPCOS AG
! FILENAME: "LU52A_WB.s2p"
! COMMENT: "PINNING 1/4; PORTEX 1=93ps; 2=179.5ps;  2 Fe"
! INFO: nport=2, nfreq=1601
! DATE: "Thu Nov  5 11:06:27 2009"
! USER: "Aleksander Breg"
!
! port | pin | signal
! -----|-----|--------
!   1  |  1  |  input
!   2  |  4  |  output
! --------------------
! 
# MHZ S MA R 50
! freq  magS11 angS11  magS21 angS21  magS12 angS12  magS22 angS22
4.094200E+02  9.908573E-01 -3.262616E+01  8.629379E-05 5.787173E+01  8.968811E-05 5.490357E+01  9.976496E-01 -3.016432E+01 
4.094513E+02  9.906409E-01 -3.263669E+01  9.005282E-05 5.466433E+01  9.365566E-05 5.476973E+01  9.974881E-01 -3.017352E+01 
4.094825E+02  9.907760E-01 -3.263452E+01  9.804576E-05 5.847939E+01  8.854761E-05 5.558596E+01  9.977764E-01 -3.017209E+01 
4.095138E+02  9.905279E-01 -3.265008E+01  9.100975E-05 5.979156E+01  9.641059E-05 5.996734E+01  9.976437E-01 -3.016600E+01 
4.095450E+02  9.908466E-01 -3.265519E+01  9.324595E-05 5.408999E+01  9.455210E-05 5.823671E+01  9.978883E-01 -3.017260E+01 
4.095763E+02  9.907741E-01 -3.264417E+01  9.433628E-05 5.695922E+01  9.509487E-05 5.938859E+01  9.977917E-01 -3.018182E+01 
4.096075E+02  9.905142E-01 -3.264165E+01  9.535243E-05 6.044635E+01  9.688723E-05 5.627590E+01  9.977076E-01 -3.017864E+01 
4.096388E+02  9.905395E-01 -3.265757E+01  9.435059E-05 5.482545E+01  9.149372E-05 5.813220E+01  9.978249E-01 -3.017392E+01 
4.096700E+02  9.908419E-01 -3.266421E+01  9.444542E-05 5.811187E+01  9.814526E-05 5.872530E+01  9.979094E-01 -3.018032E+01 
4.097013E+02  9.908028E-01 -3.265831E+01  1.018704E-04 5.877951E+01  9.603789E-05 6.183450E+01  9.977582E-01 -3.019603E+01 
4.097325E+02  9.908069E-01 -3.266052E+01  1.044218E-04 5.692531E+01  1.016919E-04 5.548841E+01  9.975345E-01 -3.019793E+01 
4.097638E+02  9.907407E-01 -3.266402E+01  1.012667E-04 5.496102E+01  9.943953E-05 5.801155E+01  9.976186E-01 -3.019821E+01 
4.097950E+02  9.906096E-01 -3.266616E+01  1.026582E-04 5.635007E+01  1.015447E-04 5.497151E+01  9.978548E-01 -3.018339E+01 
4.098263E+02  9.908133E-01 -3.266461E+01  1.039905E-04 5.362996E+01  9.826880E-05 5.463290E+01  9.975105E-01 -3.019619E+01 
4.098575E+02  9.907291E-01 -3.267934E+01  1.063966E-04 5.214433E+01  1.066455E-04 5.561380E+01  9.975760E-01 -3.020221E+01 
4.098888E+02  9.907284E-01 -3.267122E+01  1.002895E-04 5.505673E+01  9.763393E-05 5.568500E+01  9.977911E-01 -3.019304E+01 
4.099200E+02  9.903461E-01 -3.267500E+01  1.034307E-04 5.373261E+01  9.898491E-05 5.297825E+01  9.978347E-01 -3.019726E+01 
4.099513E+02  9.907401E-01 -3.266645E+01  1.030488E-04 4.927501E+01  1.043469E-04 5.382287E+01  9.975556E-01 -3.021224E+01 
4.099825E+02  9.906697E-01 -3.268253E+01  9.923575E-05 4.893970E+01  9.790709E-05 4.946612E+01  9.977258E-01 -3.021017E+01 
4.100138E+02  9.907139E-01 -3.268976E+01  1.014898E-04 4.821126E+01  1.016225E-04 4.822857E+01  9.977241E-01 -3.019940E+01 
4.100450E+02  9.906414E-01 -3.269324E+01  9.467543E-05 4.791705E+01  1.000449E-04 4.857475E+01  9.976556E-01 -3.021559E+01 
4.100763E+02  9.904687E-01 -3.269731E+01  9.785307E-05 4.937425E+01  9.542736E-05 4.518629E+01  9.976760E-01 -3.021221E+01 
4.101075E+02  9.907967E-01 -3.269339E+01  9.569183E-05 4.697876E+01  9.823705E-05 4.518839E+01  9.976278E-01 -3.022744E+01 
4.101388E+02  9.908443E-01 -3.268771E+01  9.710129E-05 4.616895E+01  9.811065E-05 4.684362E+01  9.981060E-01 -3.022028E+01 
4.101700E+02  9.905983E-01 -3.269300E+01  9.263598E-05 4.797868E+01  9.771411E-05 4.779188E+01  9.976473E-01 -3.022255E+01 
4.102013E+02  9.904768E-01 -3.270987E+01  9.345404E-05 4.773637E+01  9.427455E-05 4.418003E+01  9.977232E-01 -3.023601E+01 
4.102325E+02  9.907911E-01 -3.269792E+01  8.878611E-05 4.570127E+01  9.444443E-05 4.842122E+01  9.980956E-01 -3.022602E+01 
4.102638E+02  9.906933E-01 -3.270314E+01  9.185666E-05 4.682512E+01  8.758319E-05 4.802298E+01  9.978148E-01 -3.024828E+01 
4.102950E+02  9.906517E-01 -3.271383E+01  8.488624E-05 4.112013E+01  8.875722E-05 4.631113E+01  9.979274E-01 -3.024715E+01 
4.103263E+02  9.906276E-01 -3.271227E+01  9.121604E-05 4.913262E+01  8.381429E-05 4.747996E+01  9.978212E-01 -3.022923E+01 
4.103575E+02  9.906727E-01 -3.272782E+01  7.986440E-05 4.545597E+01  8.325682E-05 4.539326E+01  9.976110E-01 -3.024221E+01 
4.103888E+02  9.906848E-01 -3.271057E+01  7.893459E-05 4.844276E+01  8.261579E-05 4.989653E+01  9.980400E-01 -3.024160E+01 
4.104200E+02  9.905927E-01 -3.271652E+01  7.737794E-05 4.726422E+01  8.325292E-05 4.821735E+01  9.977437E-01 -3.022764E+01 
4.104513E+02  9.908502E-01 -3.271695E+01  8.053175E-05 4.650724E+01  7.816901E-05 4.660259E+01  9.977729E-01 -3.024459E+01 
4.104825E+02  9.908265E-01 -3.271299E+01  7.502119E-05 5.046233E+01  7.055720E-05 5.340092E+01  9.977146E-01 -3.023533E+01 
4.105138E+02  9.906307E-01 -3.273196E+01  7.219196E-05 4.682517E+01  7.316547E-05 5.180120E+01  9.978186E-01 -3.025731E+01 
4.105450E+02  9.905283E-01 -3.270599E+01  7.684885E-05 5.434508E+01  6.461939E-05 5.205597E+01  9.978944E-01 -3.026448E+01 
4.105763E+02  9.904670E-01 -3.274140E+01  6.139977E-05 5.459975E+01  7.172458E-05 5.779118E+01  9.974396E-01 -3.025542E+01 
4.106075E+02  9.905772E-01 -3.273526E+01  6.722098E-05 5.473454E+01  6.847961E-05 5.056900E+01  9.976383E-01 -3.024755E+01 
4.106388E+02  9.906403E-01 -3.274161E+01  6.038137E-05 5.561817E+01  6.724763E-05 5.719946E+01  9.975762E-01 -3.026296E+01 
4.106700E+02  9.905268E-01 -3.274168E+01  7.105671E-05 5.525429E+01  6.782321E-05 5.868704E+01  9.978098E-01 -3.025902E+01 
4.107013E+02  9.905382E-01 -3.274211E+01  6.793392E-05 6.407742E+01  6.534201E-05 6.103346E+01  9.979164E-01 -3.027371E+01 
4.107325E+02  9.906881E-01 -3.274709E+01  6.720120E-05 6.186794E+01  7.126002E-05 5.821293E+01  9.977383E-01 -3.028032E+01 
4.107638E+02  9.906895E-01 -3.275074E+01  6.249178E-05 7.083336E+01  6.724981E-05 6.168968E+01  9.977716E-01 -3.027384E+01 
4.107950E+02  9.906349E-01 -3.276356E+01  7.099540E-05 7.068593E+01  7.249665E-05 6.985002E+01  9.977086E-01 -3.027154E+01 
4.108263E+02  9.907562E-01 -3.275975E+01  6.759196E-05 7.274447E+01  7.202897E-05 6.640771E+01  9.976821E-01 -3.027491E+01 
4.108575E+02  9.906516E-01 -3.277649E+01  6.666316E-05 7.184323E+01  6.984220E-05 7.070366E+01  9.976618E-01 -3.027053E+01 
4.108888E+02  9.907210E-01 -3.277105E+01  7.407059E-05 7.599116E+01  8.114991E-05 7.759167E+01  9.977931E-01 -3.028661E+01 
4.109200E+02  9.907104E-01 -3.277720E+01  7.615204E-05 7.507538E+01  7.504764E-05 7.155182E+01  9.976882E-01 -3.026754E+01 
4.109513E+02  9.908126E-01 -3.278683E+01  7.311773E-05 7.278668E+01  7.628334E-05 7.503625E+01  9.978312E-01 -3.029771E+01 
4.109825E+02  9.905727E-01 -3.277970E+01  7.838417E-05 7.970603E+01  8.219541E-05 8.177782E+01  9.976331E-01 -3.030512E+01 
4.110138E+02  9.907254E-01 -3.277612E+01  8.139889E-05 7.695771E+01  8.377220E-05 7.199138E+01  9.974921E-01 -3.029299E+01 
4.110450E+02  9.907809E-01 -3.278991E+01  8.545225E-05 7.558701E+01  8.753712E-05 7.656271E+01  9.976142E-01 -3.029855E+01 
4.110763E+02  9.905118E-01 -3.278869E+01  8.872556E-05 7.497346E+01  9.011936E-05 7.727387E+01  9.980042E-01 -3.027972E+01 
4.111075E+02  9.907832E-01 -3.278876E+01  8.615744E-05 7.567710E+01  8.871670E-05 7.555944E+01  9.979605E-01 -3.030488E+01 
4.111388E+02  9.905831E-01 -3.278472E+01  9.106623E-05 7.559589E+01  9.543226E-05 7.429622E+01  9.979150E-01 -3.030225E+01 
4.111700E+02  9.907137E-01 -3.277484E+01  9.136822E-05 7.279874E+01  9.884881E-05 7.155734E+01  9.978113E-01 -3.031385E+01 
4.112013E+02  9.905674E-01 -3.278666E+01  9.368737E-05 7.283392E+01  9.792363E-05 7.183327E+01  9.975994E-01 -3.030569E+01 
4.112325E+02  9.904358E-01 -3.281494E+01  1.011202E-04 6.812440E+01  9.912264E-05 7.012267E+01  9.977376E-01 -3.031498E+01 
4.112638E+02  9.906476E-01 -3.279303E+01  9.593158E-05 7.212025E+01  9.275800E-05 6.634708E+01  9.977725E-01 -3.030255E+01 
4.112950E+02  9.903870E-01 -3.279181E+01  9.843531E-05 6.858781E+01  9.977362E-05 6.858265E+01  9.978242E-01 -3.031141E+01 
4.113263E+02  9.905993E-01 -3.279664E+01  1.074816E-04 6.818066E+01  1.018264E-04 6.817811E+01  9.978816E-01 -3.033000E+01 
4.113575E+02  9.902456E-01 -3.280390E+01  1.049479E-04 6.339932E+01  1.057491E-04 6.257301E+01  9.977619E-01 -3.032498E+01 
4.113888E+02  9.907009E-01 -3.281628E+01  1.010665E-04 6.123365E+01  1.013910E-04 6.183968E+01  9.977504E-01 -3.030839E+01 
4.114200E+02  9.903110E-01 -3.279703E+01  9.627547E-05 5.816862E+01  1.016664E-04 6.084089E+01  9.973959E-01 -3.033491E+01 
4.114513E+02  9.904721E-01 -3.281014E+01  9.925644E-05 5.831384E+01  1.033814E-04 5.857451E+01  9.977015E-01 -3.033003E+01 
4.114825E+02  9.905060E-01 -3.281920E+01  9.384504E-05 5.587810E+01  1.022267E-04 5.657527E+01  9.974385E-01 -3.033221E+01 
4.115138E+02  9.905170E-01 -3.280000E+01  9.518636E-05 5.780484E+01  1.009593E-04 5.197001E+01  9.976256E-01 -3.031840E+01 
4.115450E+02  9.905671E-01 -3.282058E+01  9.348724E-05 5.101582E+01  9.897263E-05 5.545581E+01  9.976029E-01 -3.034837E+01 
4.115763E+02  9.905149E-01 -3.283181E+01  8.678835E-05 5.029566E+01  8.874979E-05 5.636870E+01  9.978424E-01 -3.035090E+01 
4.116075E+02  9.904162E-01 -3.282356E+01  8.578371E-05 5.037053E+01  8.645464E-05 4.929255E+01  9.976291E-01 -3.034526E+01 
4.116388E+02  9.905498E-01 -3.283193E+01  7.008420E-05 4.280555E+01  7.693818E-05 4.729919E+01  9.974058E-01 -3.035157E+01 
4.116700E+02  9.906027E-01 -3.283084E+01  7.411667E-05 4.778029E+01  7.175676E-05 4.683168E+01  9.976295E-01 -3.033868E+01 
4.117013E+02  9.904083E-01 -3.283123E+01  6.567204E-05 4.086462E+01  6.749431E-05 4.902878E+01  9.977666E-01 -3.034389E+01 
4.117325E+02  9.905009E-01 -3.283104E+01  5.823851E-05 4.417797E+01  6.140107E-05 5.285047E+01  9.974086E-01 -3.035473E+01 
4.117638E+02  9.904838E-01 -3.283498E+01  5.189818E-05 5.032174E+01  5.254694E-05 4.198595E+01  9.976495E-01 -3.036286E+01 
4.117950E+02  9.904339E-01 -3.283690E+01  4.063166E-05 5.065760E+01  4.533165E-05 5.063881E+01  9.976154E-01 -3.035402E+01 
4.118263E+02  9.903290E-01 -3.285414E+01  3.731756E-05 5.540720E+01  4.795120E-05 5.789109E+01  9.978459E-01 -3.035756E+01 
4.118575E+02  9.904134E-01 -3.284988E+01  3.653328E-05 7.339430E+01  3.719001E-05 7.001601E+01  9.975644E-01 -3.034609E+01 
4.118888E+02  9.904975E-01 -3.284756E+01  3.600124E-05 8.289390E+01  3.866376E-05 8.781624E+01  9.976252E-01 -3.036353E+01 
4.119200E+02  9.903954E-01 -3.283911E+01  3.481943E-05 9.517470E+01  3.833599E-05 9.234022E+01  9.973398E-01 -3.035092E+01 
4.119513E+02  9.905053E-01 -3.285545E+01  3.093256E-05 1.110925E+02  4.249587E-05 1.092363E+02  9.976452E-01 -3.036812E+01 
4.119825E+02  9.903836E-01 -3.284766E+01  4.260217E-05 1.252795E+02  4.627366E-05 1.151510E+02  9.976745E-01 -3.036239E+01 
4.120138E+02  9.904051E-01 -3.285075E+01  4.954687E-05 1.169009E+02  4.702431E-05 1.204698E+02  9.975573E-01 -3.037254E+01 
4.120450E+02  9.905511E-01 -3.285772E+01  5.649332E-05 1.200673E+02  5.817383E-05 1.228882E+02  9.978879E-01 -3.037070E+01 
4.120763E+02  9.906776E-01 -3.287926E+01  6.136066E-05 1.266845E+02  5.529619E-05 1.243465E+02  9.976692E-01 -3.037832E+01 
4.121075E+02  9.903989E-01 -3.287588E+01  6.781537E-05 1.302376E+02  6.514326E-05 1.266305E+02  9.975595E-01 -3.038188E+01 
4.121388E+02  9.904763E-01 -3.288241E+01  7.351448E-05 1.328539E+02  7.840873E-05 1.299424E+02  9.974640E-01 -3.039072E+01 
4.121700E+02  9.903450E-01 -3.289456E+01  8.431836E-05 1.293658E+02  8.604989E-05 1.317676E+02  9.972603E-01 -3.038842E+01 
4.122013E+02  9.905720E-01 -3.287620E+01  9.462224E-05 1.324553E+02  9.616834E-05 1.323000E+02  9.975310E-01 -3.038302E+01 
4.122325E+02  9.904485E-01 -3.287286E+01  1.036731E-04 1.312545E+02  1.078776E-04 1.328411E+02  9.977896E-01 -3.038993E+01 
4.122638E+02  9.904149E-01 -3.288064E+01  1.170273E-04 1.262888E+02  1.155796E-04 1.283937E+02  9.976948E-01 -3.039658E+01 
4.122950E+02  9.903679E-01 -3.290834E+01  1.247492E-04 1.285777E+02  1.256202E-04 1.295981E+02  9.978027E-01 -3.041177E+01 
4.123263E+02  9.905259E-01 -3.290175E+01  1.328471E-04 1.282235E+02  1.356416E-04 1.293561E+02  9.974493E-01 -3.040199E+01 
4.123575E+02  9.905106E-01 -3.288577E+01  1.523180E-04 1.267070E+02  1.471495E-04 1.256753E+02  9.972424E-01 -3.040300E+01 
4.123888E+02  9.902839E-01 -3.288591E+01  1.584329E-04 1.232074E+02  1.613798E-04 1.247363E+02  9.978117E-01 -3.041353E+01 
4.124200E+02  9.906019E-01 -3.290569E+01  1.792211E-04 1.228843E+02  1.726132E-04 1.248400E+02  9.974783E-01 -3.040427E+01 
4.124513E+02  9.904273E-01 -3.290508E+01  1.880480E-04 1.194210E+02  1.823666E-04 1.220730E+02  9.973143E-01 -3.043131E+01 
4.124825E+02  9.902977E-01 -3.290448E+01  1.994339E-04 1.179074E+02  1.964055E-04 1.179032E+02  9.973930E-01 -3.040752E+01 
4.125138E+02  9.903356E-01 -3.290991E+01  2.032604E-04 1.142898E+02  2.063095E-04 1.125778E+02  9.974740E-01 -3.040783E+01 
4.125450E+02  9.903146E-01 -3.290463E+01  2.196867E-04 1.114950E+02  2.198186E-04 1.115364E+02  9.974763E-01 -3.041802E+01 
4.125763E+02  9.903665E-01 -3.292335E+01  2.286484E-04 1.081074E+02  2.282217E-04 1.092055E+02  9.977245E-01 -3.041887E+01 
4.126075E+02  9.900818E-01 -3.289439E+01  2.457273E-04 1.059582E+02  2.449321E-04 1.064903E+02  9.975182E-01 -3.042638E+01 
4.126388E+02  9.902879E-01 -3.291296E+01  2.537096E-04 1.023000E+02  2.567316E-04 1.017817E+02  9.973879E-01 -3.042438E+01 
4.126700E+02  9.902556E-01 -3.291139E+01  2.623434E-04 9.973378E+01  2.666783E-04 9.981732E+01  9.973437E-01 -3.042335E+01 
4.127013E+02  9.902642E-01 -3.292335E+01  2.758549E-04 9.612939E+01  2.821034E-04 9.680993E+01  9.978043E-01 -3.042535E+01 
4.127325E+02  9.903516E-01 -3.290495E+01  2.852614E-04 9.220116E+01  2.799018E-04 9.261088E+01  9.977818E-01 -3.042847E+01 
4.127638E+02  9.903468E-01 -3.293815E+01  2.911502E-04 8.972227E+01  2.935134E-04 8.897945E+01  9.973386E-01 -3.043555E+01 
4.127950E+02  9.901733E-01 -3.291920E+01  2.982736E-04 8.485262E+01  3.026667E-04 8.509395E+01  9.975114E-01 -3.042910E+01 
4.128263E+02  9.902831E-01 -3.293446E+01  3.005870E-04 8.184915E+01  3.042342E-04 8.197569E+01  9.974776E-01 -3.044568E+01 
4.128575E+02  9.903198E-01 -3.291965E+01  3.141464E-04 7.827560E+01  3.224879E-04 7.820666E+01  9.974119E-01 -3.043911E+01 
4.128888E+02  9.902101E-01 -3.293208E+01  3.124643E-04 7.349911E+01  3.188068E-04 7.397836E+01  9.975975E-01 -3.043914E+01 
4.129200E+02  9.902286E-01 -3.294000E+01  3.209728E-04 6.974161E+01  3.205652E-04 7.129707E+01  9.973650E-01 -3.044847E+01 
4.129513E+02  9.902988E-01 -3.294288E+01  3.163049E-04 6.746573E+01  3.198533E-04 6.663271E+01  9.974695E-01 -3.044542E+01 
4.129825E+02  9.904136E-01 -3.293778E+01  3.160186E-04 6.188218E+01  3.140762E-04 6.312794E+01  9.974849E-01 -3.044928E+01 
4.130138E+02  9.903001E-01 -3.294859E+01  3.195722E-04 5.950372E+01  3.164064E-04 5.954761E+01  9.974810E-01 -3.043708E+01 
4.130450E+02  9.902875E-01 -3.294022E+01  3.121615E-04 5.524205E+01  3.145466E-04 5.685440E+01  9.977017E-01 -3.044836E+01 
4.130763E+02  9.901675E-01 -3.294788E+01  3.128810E-04 5.173037E+01  3.211805E-04 5.240967E+01  9.975340E-01 -3.043234E+01 
4.131075E+02  9.902376E-01 -3.295909E+01  3.179162E-04 4.936721E+01  3.098426E-04 4.942191E+01  9.973026E-01 -3.046737E+01 
4.131388E+02  9.902348E-01 -3.296574E+01  3.025540E-04 4.576576E+01  3.116764E-04 4.556378E+01  9.974482E-01 -3.045375E+01 
4.131700E+02  9.902526E-01 -3.294839E+01  3.071269E-04 4.249813E+01  3.075007E-04 4.271613E+01  9.976635E-01 -3.046704E+01 
4.132013E+02  9.904831E-01 -3.295736E+01  3.022256E-04 3.902788E+01  2.997720E-04 3.905995E+01  9.974622E-01 -3.046225E+01 
4.132325E+02  9.901844E-01 -3.296496E+01  2.855801E-04 3.556388E+01  2.900002E-04 3.528633E+01  9.973795E-01 -3.046984E+01 
4.132638E+02  9.901737E-01 -3.295931E+01  2.895822E-04 3.126329E+01  2.874399E-04 3.231107E+01  9.975552E-01 -3.047445E+01 
4.132950E+02  9.904764E-01 -3.296274E+01  2.808146E-04 2.916387E+01  2.764080E-04 2.862780E+01  9.974951E-01 -3.046941E+01 
4.133263E+02  9.902446E-01 -3.297801E+01  2.641875E-04 2.498034E+01  2.690448E-04 2.547543E+01  9.974722E-01 -3.046890E+01 
4.133575E+02  9.901477E-01 -3.296830E+01  2.592378E-04 2.203517E+01  2.569607E-04 2.129628E+01  9.976087E-01 -3.049825E+01 
4.133888E+02  9.902276E-01 -3.296467E+01  2.513142E-04 1.934227E+01  2.493951E-04 1.832493E+01  9.974482E-01 -3.047810E+01 
4.134200E+02  9.903206E-01 -3.295880E+01  2.406007E-04 1.411729E+01  2.378043E-04 1.530086E+01  9.973668E-01 -3.046472E+01 
4.134513E+02  9.901195E-01 -3.297612E+01  2.230442E-04 1.279227E+01  2.265962E-04 1.239305E+01  9.977502E-01 -3.050125E+01 
4.134825E+02  9.902703E-01 -3.297281E+01  2.105567E-04 7.737103E+00  2.202091E-04 9.332529E+00  9.976198E-01 -3.047815E+01 
4.135138E+02  9.904171E-01 -3.297641E+01  2.013696E-04 6.518920E+00  2.005318E-04 7.003496E+00  9.975959E-01 -3.049696E+01 
4.135450E+02  9.901599E-01 -3.298508E+01  1.899923E-04 1.761735E+00  1.883739E-04 3.443435E+00  9.975455E-01 -3.049193E+01 
4.135763E+02  9.902278E-01 -3.298754E+01  1.730503E-04 3.420124E+00  1.760885E-04 1.514742E+00  9.973326E-01 -3.048828E+01 
4.136075E+02  9.901111E-01 -3.299200E+01  1.610357E-04 -1.072746E+00  1.609344E-04 1.403648E+00  9.973912E-01 -3.047524E+01 
4.136388E+02  9.901596E-01 -3.300010E+01  1.495992E-04 8.002840E-01  1.521252E-04 -1.620072E+00  9.976995E-01 -3.050642E+01 
4.136700E+02  9.903387E-01 -3.299914E+01  1.467244E-04 -3.955004E-01  1.367054E-04 -2.236618E+00  9.978164E-01 -3.049817E+01 
4.137013E+02  9.903697E-01 -3.298524E+01  1.299556E-04 -1.185646E+00  1.358549E-04 -2.736274E+00  9.973102E-01 -3.051109E+01 
4.137325E+02  9.902138E-01 -3.301407E+01  1.262321E-04 -3.042404E+00  1.239601E-04 -2.471208E+00  9.975508E-01 -3.049513E+01 
4.137638E+02  9.906059E-01 -3.300949E+01  1.159523E-04 -5.910007E+00  1.118733E-04 -3.337063E+00  9.976928E-01 -3.050822E+01 
4.137950E+02  9.903724E-01 -3.300522E+01  1.086575E-04 -4.414150E+00  9.610845E-05 -5.241151E+00  9.977827E-01 -3.050767E+01 
4.138263E+02  9.903251E-01 -3.300832E+01  9.067288E-05 -3.757688E+00  9.810690E-05 -5.568854E+00  9.973810E-01 -3.050427E+01 
4.138575E+02  9.902276E-01 -3.300691E+01  7.629711E-05 -2.481236E+00  8.538757E-05 3.156035E-01  9.973295E-01 -3.052031E+01 
4.138888E+02  9.900857E-01 -3.301884E+01  7.627386E-05 -3.973071E+00  7.472001E-05 1.625387E+00  9.974213E-01 -3.050442E+01 
4.139200E+02  9.904549E-01 -3.300568E+01  7.699135E-05 2.476536E+00  7.200659E-05 2.052942E+00  9.977218E-01 -3.051901E+01 
4.139513E+02  9.902956E-01 -3.303210E+01  6.682980E-05 4.786637E+00  6.760236E-05 6.923777E+00  9.979369E-01 -3.050170E+01 
4.139825E+02  9.903857E-01 -3.301970E+01  6.288352E-05 7.693471E+00  6.159731E-05 9.343270E+00  9.974570E-01 -3.053109E+01 
4.140138E+02  9.902488E-01 -3.302010E+01  5.869483E-05 1.240988E+01  5.464189E-05 9.333541E+00  9.974918E-01 -3.054011E+01 
4.140450E+02  9.904192E-01 -3.303497E+01  5.061420E-05 1.711299E+01  5.874165E-05 2.100654E+01  9.974351E-01 -3.053312E+01 
4.140763E+02  9.903078E-01 -3.303967E+01  5.507435E-05 2.305419E+01  5.435721E-05 2.703308E+01  9.977868E-01 -3.053528E+01 
4.141075E+02  9.903401E-01 -3.303756E+01  4.781213E-05 2.871970E+01  5.354852E-05 3.411102E+01  9.977033E-01 -3.053531E+01 
4.141388E+02  9.902253E-01 -3.304916E+01  4.337256E-05 2.677721E+01  4.936811E-05 3.552250E+01  9.979830E-01 -3.056265E+01 
4.141700E+02  9.902219E-01 -3.304929E+01  5.303961E-05 4.265242E+01  4.797459E-05 5.417825E+01  9.975244E-01 -3.053262E+01 
4.142013E+02  9.904086E-01 -3.303433E+01  5.235390E-05 4.555979E+01  5.684164E-05 4.011879E+01  9.973817E-01 -3.054976E+01 
4.142325E+02  9.901165E-01 -3.304773E+01  5.447842E-05 4.695552E+01  5.666044E-05 5.525214E+01  9.977186E-01 -3.053633E+01 
4.142638E+02  9.905139E-01 -3.302535E+01  5.606425E-05 5.632167E+01  6.104154E-05 5.622098E+01  9.975294E-01 -3.056465E+01 
