! Matrix data file written by TouchstoneData, EPCOS AG
! FILENAME: "B3744_WB.s2p"
! COMMENT: "S-Parameter B3744 wideband (unmatched)"
! INFO: nport=2, nfreq=1601
! DATE: "Thu Jul 24 09:32:11 2008"
! USER: "Thomas Telgmann"
!
! port | pin | signal
! -----|-----|--------
!   1  |  2  |  in
!   2  |  4  |  out
! --------------------
! 
# MHZ S MA R 50
! freq  magS11 angS11  magS21 angS21  magS12 angS12  magS22 angS22
8.183000E+02  9.662281E-01 -5.350729E+01  9.200452E-04 -1.562642E+02  9.210315E-04 -1.551213E+02  9.610506E-01 -5.572777E+01 
8.183625E+02  9.663330E-01 -5.350996E+01  9.253304E-04 -1.559936E+02  9.145860E-04 -1.556137E+02  9.611412E-01 -5.573733E+01 
8.184250E+02  9.661954E-01 -5.351282E+01  9.230888E-04 -1.569455E+02  9.176328E-04 -1.569100E+02  9.610361E-01 -5.573892E+01 
8.184875E+02  9.661521E-01 -5.352896E+01  9.258449E-04 -1.581402E+02  9.206178E-04 -1.572042E+02  9.610583E-01 -5.573785E+01 
8.185500E+02  9.662220E-01 -5.351780E+01  9.125879E-04 -1.582352E+02  9.139151E-04 -1.582609E+02  9.610082E-01 -5.574903E+01 
8.186125E+02  9.661740E-01 -5.352718E+01  9.043379E-04 -1.598898E+02  9.085393E-04 -1.593021E+02  9.610487E-01 -5.575029E+01 
8.186750E+02  9.660820E-01 -5.352758E+01  8.925060E-04 -1.602851E+02  9.013453E-04 -1.597600E+02  9.610723E-01 -5.574855E+01 
8.187375E+02  9.661878E-01 -5.352679E+01  8.827308E-04 -1.610232E+02  8.859966E-04 -1.605591E+02  9.610721E-01 -5.575627E+01 
8.188000E+02  9.661679E-01 -5.353995E+01  8.757756E-04 -1.617439E+02  8.694986E-04 -1.614210E+02  9.611031E-01 -5.576170E+01 
8.188625E+02  9.659759E-01 -5.354387E+01  8.501001E-04 -1.620305E+02  8.595927E-04 -1.620248E+02  9.610167E-01 -5.576527E+01 
8.189250E+02  9.661610E-01 -5.354023E+01  8.358910E-04 -1.624726E+02  8.351724E-04 -1.617623E+02  9.610557E-01 -5.576501E+01 
8.189875E+02  9.661977E-01 -5.354250E+01  8.249500E-04 -1.626646E+02  8.162727E-04 -1.621168E+02  9.610371E-01 -5.576720E+01 
8.190500E+02  9.662356E-01 -5.355052E+01  8.105517E-04 -1.629658E+02  8.074942E-04 -1.623421E+02  9.609180E-01 -5.577567E+01 
8.191125E+02  9.661805E-01 -5.355789E+01  7.917787E-04 -1.620290E+02  7.909641E-04 -1.617739E+02  9.610089E-01 -5.577613E+01 
8.191750E+02  9.659127E-01 -5.356444E+01  7.781575E-04 -1.623890E+02  7.733251E-04 -1.617032E+02  9.610541E-01 -5.578483E+01 
8.192375E+02  9.659940E-01 -5.356227E+01  7.572558E-04 -1.620664E+02  7.580584E-04 -1.611792E+02  9.609993E-01 -5.578690E+01 
8.193000E+02  9.659742E-01 -5.356931E+01  7.385574E-04 -1.612640E+02  7.406193E-04 -1.607562E+02  9.610640E-01 -5.578985E+01 
8.193625E+02  9.659864E-01 -5.358289E+01  7.373698E-04 -1.603504E+02  7.292487E-04 -1.602385E+02  9.610047E-01 -5.580351E+01 
8.194250E+02  9.660627E-01 -5.357594E+01  7.280389E-04 -1.590999E+02  7.147536E-04 -1.586903E+02  9.608307E-01 -5.579902E+01 
8.194875E+02  9.660015E-01 -5.359208E+01  7.023242E-04 -1.586335E+02  7.058300E-04 -1.581702E+02  9.610065E-01 -5.580447E+01 
8.195500E+02  9.659708E-01 -5.358774E+01  7.018431E-04 -1.573731E+02  7.019056E-04 -1.570573E+02  9.607860E-01 -5.580004E+01 
8.196125E+02  9.660657E-01 -5.358198E+01  6.896252E-04 -1.560718E+02  6.924801E-04 -1.557102E+02  9.610246E-01 -5.580719E+01 
8.196750E+02  9.659621E-01 -5.359445E+01  6.908280E-04 -1.550411E+02  6.904431E-04 -1.545415E+02  9.609047E-01 -5.581606E+01 
8.197375E+02  9.660525E-01 -5.360182E+01  6.921385E-04 -1.536847E+02  6.925204E-04 -1.535351E+02  9.608736E-01 -5.582205E+01 
8.198000E+02  9.660153E-01 -5.359911E+01  6.894652E-04 -1.530459E+02  6.877469E-04 -1.522711E+02  9.609830E-01 -5.582445E+01 
8.198625E+02  9.659500E-01 -5.361032E+01  6.898080E-04 -1.517197E+02  6.890404E-04 -1.504048E+02  9.608596E-01 -5.583278E+01 
8.199250E+02  9.660008E-01 -5.360785E+01  6.883246E-04 -1.502670E+02  6.871485E-04 -1.502410E+02  9.608380E-01 -5.583687E+01 
8.199875E+02  9.659062E-01 -5.361570E+01  6.971913E-04 -1.495772E+02  6.935895E-04 -1.484239E+02  9.608874E-01 -5.583494E+01 
8.200500E+02  9.659494E-01 -5.362038E+01  7.001873E-04 -1.479806E+02  6.941599E-04 -1.484332E+02  9.607935E-01 -5.583909E+01 
8.201125E+02  9.660829E-01 -5.362419E+01  7.051099E-04 -1.476738E+02  7.010186E-04 -1.468158E+02  9.608169E-01 -5.584088E+01 
8.201750E+02  9.659286E-01 -5.363760E+01  7.154072E-04 -1.462249E+02  7.124221E-04 -1.458093E+02  9.608243E-01 -5.585058E+01 
8.202375E+02  9.659134E-01 -5.362954E+01  7.196204E-04 -1.446386E+02  7.202131E-04 -1.450565E+02  9.608647E-01 -5.584590E+01 
8.203000E+02  9.659772E-01 -5.363564E+01  7.282285E-04 -1.444916E+02  7.250851E-04 -1.435782E+02  9.608480E-01 -5.585894E+01 
8.203625E+02  9.660918E-01 -5.363704E+01  7.411029E-04 -1.440300E+02  7.457920E-04 -1.434491E+02  9.609063E-01 -5.585668E+01 
8.204250E+02  9.660288E-01 -5.364747E+01  7.548609E-04 -1.433314E+02  7.493367E-04 -1.434889E+02  9.608481E-01 -5.586006E+01 
8.204875E+02  9.659688E-01 -5.365474E+01  7.549394E-04 -1.431888E+02  7.570534E-04 -1.433131E+02  9.609046E-01 -5.586380E+01 
8.205500E+02  9.659024E-01 -5.364865E+01  7.720323E-04 -1.426008E+02  7.723973E-04 -1.425212E+02  9.610311E-01 -5.587310E+01 
8.206125E+02  9.658704E-01 -5.365253E+01  7.857554E-04 -1.426867E+02  7.780522E-04 -1.420788E+02  9.610164E-01 -5.586996E+01 
8.206750E+02  9.659130E-01 -5.366088E+01  7.964773E-04 -1.426056E+02  7.924019E-04 -1.419356E+02  9.609210E-01 -5.587887E+01 
8.207375E+02  9.657999E-01 -5.366814E+01  8.017027E-04 -1.424800E+02  8.041026E-04 -1.417088E+02  9.607964E-01 -5.588931E+01 
8.208000E+02  9.659919E-01 -5.367329E+01  8.114940E-04 -1.418312E+02  8.127772E-04 -1.414176E+02  9.607713E-01 -5.588814E+01 
8.208625E+02  9.658969E-01 -5.367409E+01  8.338528E-04 -1.417084E+02  8.271670E-04 -1.413915E+02  9.609166E-01 -5.589029E+01 
8.209250E+02  9.658544E-01 -5.368859E+01  8.374180E-04 -1.424144E+02  8.381392E-04 -1.414527E+02  9.609447E-01 -5.589656E+01 
8.209875E+02  9.657682E-01 -5.368432E+01  8.466289E-04 -1.420888E+02  8.546697E-04 -1.414329E+02  9.608695E-01 -5.590808E+01 
8.210500E+02  9.659661E-01 -5.367790E+01  8.523888E-04 -1.425499E+02  8.667140E-04 -1.418386E+02  9.609284E-01 -5.591015E+01 
8.211125E+02  9.660331E-01 -5.369388E+01  8.760386E-04 -1.422482E+02  8.785720E-04 -1.419154E+02  9.609082E-01 -5.591165E+01 
8.211750E+02  9.659750E-01 -5.369487E+01  8.868241E-04 -1.426823E+02  8.816916E-04 -1.422290E+02  9.608302E-01 -5.591464E+01 
8.212375E+02  9.658788E-01 -5.370185E+01  8.975219E-04 -1.429553E+02  8.923597E-04 -1.427909E+02  9.608828E-01 -5.591636E+01 
8.213000E+02  9.659521E-01 -5.371451E+01  9.111808E-04 -1.433328E+02  8.998496E-04 -1.430939E+02  9.609683E-01 -5.592562E+01 
8.213625E+02  9.658310E-01 -5.370453E+01  9.150801E-04 -1.433632E+02  9.180132E-04 -1.430039E+02  9.608442E-01 -5.592125E+01 
8.214250E+02  9.658579E-01 -5.371308E+01  9.207485E-04 -1.443099E+02  9.259690E-04 -1.434041E+02  9.607923E-01 -5.593144E+01 
8.214875E+02  9.660271E-01 -5.372024E+01  9.371081E-04 -1.446192E+02  9.333088E-04 -1.436963E+02  9.609047E-01 -5.593877E+01 
8.215500E+02  9.658678E-01 -5.373388E+01  9.493576E-04 -1.451474E+02  9.380048E-04 -1.448669E+02  9.609539E-01 -5.594423E+01 
8.216125E+02  9.657815E-01 -5.373413E+01  9.493336E-04 -1.459141E+02  9.540825E-04 -1.454858E+02  9.609178E-01 -5.594100E+01 
8.216750E+02  9.659314E-01 -5.372835E+01  9.504647E-04 -1.465712E+02  9.489080E-04 -1.462118E+02  9.609216E-01 -5.594735E+01 
8.217375E+02  9.658598E-01 -5.373289E+01  9.584638E-04 -1.469067E+02  9.558529E-04 -1.466605E+02  9.609501E-01 -5.595230E+01 
8.218000E+02  9.659384E-01 -5.374301E+01  9.538657E-04 -1.479775E+02  9.577356E-04 -1.474304E+02  9.609357E-01 -5.596372E+01 
8.218625E+02  9.659899E-01 -5.375024E+01  9.579937E-04 -1.482784E+02  9.664424E-04 -1.481582E+02  9.609179E-01 -5.596319E+01 
8.219250E+02  9.658777E-01 -5.374471E+01  9.574151E-04 -1.490190E+02  9.549353E-04 -1.488079E+02  9.609475E-01 -5.597341E+01 
8.219875E+02  9.658952E-01 -5.375964E+01  9.543211E-04 -1.496942E+02  9.606888E-04 -1.494501E+02  9.609223E-01 -5.597002E+01 
8.220500E+02  9.658188E-01 -5.375343E+01  9.540508E-04 -1.501322E+02  9.441545E-04 -1.501102E+02  9.609825E-01 -5.597345E+01 
8.221125E+02  9.659050E-01 -5.377083E+01  9.510059E-04 -1.507637E+02  9.528237E-04 -1.500505E+02  9.609296E-01 -5.597785E+01 
8.221750E+02  9.659153E-01 -5.377401E+01  9.393176E-04 -1.506154E+02  9.375673E-04 -1.509131E+02  9.609462E-01 -5.598749E+01 
8.222375E+02  9.659166E-01 -5.377991E+01  9.378068E-04 -1.512475E+02  9.362697E-04 -1.511503E+02  9.610227E-01 -5.599056E+01 
8.223000E+02  9.658586E-01 -5.378130E+01  9.233758E-04 -1.512074E+02  9.335574E-04 -1.507561E+02  9.608369E-01 -5.599075E+01 
8.223625E+02  9.659378E-01 -5.377924E+01  9.301222E-04 -1.513688E+02  9.275432E-04 -1.508315E+02  9.608967E-01 -5.600214E+01 
8.224250E+02  9.659384E-01 -5.379285E+01  9.178927E-04 -1.515548E+02  9.290091E-04 -1.507987E+02  9.609065E-01 -5.600591E+01 
8.224875E+02  9.658631E-01 -5.379586E+01  9.253504E-04 -1.514442E+02  9.233507E-04 -1.507712E+02  9.609753E-01 -5.601609E+01 
8.225500E+02  9.659240E-01 -5.380006E+01  9.182975E-04 -1.509943E+02  9.147146E-04 -1.511853E+02  9.608724E-01 -5.601910E+01 
8.226125E+02  9.658974E-01 -5.380403E+01  9.216809E-04 -1.510395E+02  9.209557E-04 -1.511933E+02  9.608840E-01 -5.601966E+01 
8.226750E+02  9.658844E-01 -5.381721E+01  9.230442E-04 -1.511687E+02  9.188367E-04 -1.513908E+02  9.608860E-01 -5.602827E+01 
8.227375E+02  9.659057E-01 -5.381806E+01  9.166468E-04 -1.511860E+02  9.200709E-04 -1.515022E+02  9.609632E-01 -5.603168E+01 
8.228000E+02  9.659019E-01 -5.382439E+01  9.228214E-04 -1.518688E+02  9.156800E-04 -1.513462E+02  9.608550E-01 -5.603850E+01 
8.228625E+02  9.659423E-01 -5.382743E+01  9.141366E-04 -1.513093E+02  9.126594E-04 -1.512303E+02  9.609742E-01 -5.604573E+01 
8.229250E+02  9.659422E-01 -5.383930E+01  9.156623E-04 -1.519634E+02  9.206335E-04 -1.513595E+02  9.609757E-01 -5.604801E+01 
8.229875E+02  9.658858E-01 -5.383784E+01  9.180672E-04 -1.517374E+02  9.177153E-04 -1.514546E+02  9.608574E-01 -5.604865E+01 
8.230500E+02  9.659277E-01 -5.383682E+01  9.174300E-04 -1.522025E+02  9.128422E-04 -1.518845E+02  9.608925E-01 -5.605331E+01 
8.231125E+02  9.659423E-01 -5.384618E+01  9.194245E-04 -1.518093E+02  9.177759E-04 -1.513079E+02  9.608625E-01 -5.605987E+01 
8.231750E+02  9.658895E-01 -5.385016E+01  9.139031E-04 -1.520351E+02  9.211710E-04 -1.519893E+02  9.608140E-01 -5.606755E+01 
8.232375E+02  9.658683E-01 -5.386102E+01  9.222735E-04 -1.520444E+02  9.192889E-04 -1.518774E+02  9.608460E-01 -5.606621E+01 
8.233000E+02  9.658051E-01 -5.386334E+01  9.249552E-04 -1.522613E+02  9.218172E-04 -1.519641E+02  9.607996E-01 -5.607254E+01 
8.233625E+02  9.658456E-01 -5.387518E+01  9.223047E-04 -1.528218E+02  9.241147E-04 -1.523947E+02  9.608923E-01 -5.607740E+01 
8.234250E+02  9.659181E-01 -5.387115E+01  9.260089E-04 -1.526695E+02  9.196098E-04 -1.524849E+02  9.608785E-01 -5.608509E+01 
8.234875E+02  9.658164E-01 -5.387533E+01  9.230323E-04 -1.533989E+02  9.240043E-04 -1.530798E+02  9.608999E-01 -5.609298E+01 
8.235500E+02  9.658265E-01 -5.388600E+01  9.233278E-04 -1.539777E+02  9.266912E-04 -1.529361E+02  9.608253E-01 -5.609421E+01 
8.236125E+02  9.657255E-01 -5.388616E+01  9.238870E-04 -1.542222E+02  9.201031E-04 -1.539375E+02  9.607445E-01 -5.609806E+01 
8.236750E+02  9.657728E-01 -5.388456E+01  9.212008E-04 -1.544901E+02  9.215115E-04 -1.541551E+02  9.607132E-01 -5.610458E+01 
8.237375E+02  9.655646E-01 -5.390028E+01  9.124949E-04 -1.546267E+02  9.139895E-04 -1.539011E+02  9.607319E-01 -5.611034E+01 
8.238000E+02  9.657216E-01 -5.390040E+01  9.159094E-04 -1.552561E+02  9.123617E-04 -1.548305E+02  9.607139E-01 -5.610760E+01 
8.238625E+02  9.656838E-01 -5.391509E+01  9.099316E-04 -1.554615E+02  9.035097E-04 -1.552182E+02  9.608975E-01 -5.611164E+01 
8.239250E+02  9.657480E-01 -5.391890E+01  9.074827E-04 -1.554056E+02  9.026884E-04 -1.556776E+02  9.607116E-01 -5.611996E+01 
8.239875E+02  9.657441E-01 -5.391912E+01  9.015079E-04 -1.560043E+02  8.970301E-04 -1.559938E+02  9.606543E-01 -5.612504E+01 
8.240500E+02  9.656317E-01 -5.392402E+01  8.882910E-04 -1.566560E+02  8.862610E-04 -1.563813E+02  9.608296E-01 -5.613082E+01 
8.241125E+02  9.657661E-01 -5.392749E+01  8.805191E-04 -1.566514E+02  8.807386E-04 -1.564139E+02  9.606828E-01 -5.613107E+01 
8.241750E+02  9.656534E-01 -5.393495E+01  8.666553E-04 -1.569521E+02  8.714483E-04 -1.564658E+02  9.606338E-01 -5.614063E+01 
8.242375E+02  9.656408E-01 -5.394144E+01  8.514651E-04 -1.571517E+02  8.550918E-04 -1.567283E+02  9.606455E-01 -5.614336E+01 
8.243000E+02  9.656424E-01 -5.394633E+01  8.340064E-04 -1.574859E+02  8.436089E-04 -1.569135E+02  9.606910E-01 -5.614767E+01 
8.243625E+02  9.656083E-01 -5.394797E+01  8.286813E-04 -1.571267E+02  8.303606E-04 -1.566840E+02  9.606505E-01 -5.615524E+01 
8.244250E+02  9.656059E-01 -5.395760E+01  8.120275E-04 -1.565382E+02  8.164799E-04 -1.563012E+02  9.606566E-01 -5.615608E+01 
8.244875E+02  9.656207E-01 -5.395553E+01  8.003797E-04 -1.563705E+02  7.967540E-04 -1.559236E+02  9.606432E-01 -5.616011E+01 
8.245500E+02  9.656441E-01 -5.395058E+01  7.914536E-04 -1.559367E+02  7.945431E-04 -1.551602E+02  9.605833E-01 -5.616956E+01 
8.246125E+02  9.655569E-01 -5.395759E+01  7.820949E-04 -1.546537E+02  7.727589E-04 -1.541160E+02  9.606666E-01 -5.617707E+01 
8.246750E+02  9.655593E-01 -5.396850E+01  7.655605E-04 -1.541523E+02  7.621482E-04 -1.540040E+02  9.606096E-01 -5.617946E+01 
8.247375E+02  9.654262E-01 -5.396451E+01  7.563241E-04 -1.533274E+02  7.520761E-04 -1.522140E+02  9.606287E-01 -5.618387E+01 
8.248000E+02  9.654084E-01 -5.398046E+01  7.567601E-04 -1.519971E+02  7.523545E-04 -1.516332E+02  9.606016E-01 -5.618205E+01 
8.248625E+02  9.655471E-01 -5.398063E+01  7.428667E-04 -1.506970E+02  7.487179E-04 -1.505561E+02  9.606296E-01 -5.618200E+01 
8.249250E+02  9.654091E-01 -5.398208E+01  7.374325E-04 -1.495234E+02  7.346430E-04 -1.495042E+02  9.604749E-01 -5.619490E+01 
8.249875E+02  9.655427E-01 -5.399426E+01  7.377842E-04 -1.478985E+02  7.361579E-04 -1.478108E+02  9.605580E-01 -5.619294E+01 
8.250500E+02  9.654431E-01 -5.399333E+01  7.402890E-04 -1.468069E+02  7.437717E-04 -1.457957E+02  9.605643E-01 -5.619929E+01 
8.251125E+02  9.653845E-01 -5.399627E+01  7.410970E-04 -1.451182E+02  7.477905E-04 -1.447490E+02  9.605509E-01 -5.620419E+01 
8.251750E+02  9.653708E-01 -5.399781E+01  7.664620E-04 -1.437146E+02  7.556189E-04 -1.427709E+02  9.605779E-01 -5.620626E+01 
8.252375E+02  9.653524E-01 -5.399889E+01  7.773036E-04 -1.423004E+02  7.746402E-04 -1.419725E+02  9.606566E-01 -5.621392E+01 
8.253000E+02  9.655446E-01 -5.400968E+01  7.881482E-04 -1.409664E+02  7.940702E-04 -1.408846E+02  9.605393E-01 -5.621391E+01 
8.253625E+02  9.655086E-01 -5.402327E+01  8.063394E-04 -1.405367E+02  8.111541E-04 -1.400688E+02  9.603841E-01 -5.621620E+01 
8.254250E+02  9.655516E-01 -5.401538E+01  8.273614E-04 -1.401375E+02  8.309439E-04 -1.399061E+02  9.605679E-01 -5.622260E+01 
8.254875E+02  9.653917E-01 -5.401525E+01  8.402746E-04 -1.400216E+02  8.428029E-04 -1.393142E+02  9.605631E-01 -5.622930E+01 
8.255500E+02  9.654688E-01 -5.403070E+01  8.686117E-04 -1.397484E+02  8.650442E-04 -1.398982E+02  9.605548E-01 -5.623612E+01 
8.256125E+02  9.653797E-01 -5.403561E+01  8.832767E-04 -1.396921E+02  8.808536E-04 -1.396939E+02  9.605168E-01 -5.623573E+01 
8.256750E+02  9.654814E-01 -5.403850E+01  9.006058E-04 -1.404874E+02  8.972564E-04 -1.394710E+02  9.604644E-01 -5.623967E+01 
8.257375E+02  9.654502E-01 -5.403650E+01  9.162161E-04 -1.401314E+02  9.214391E-04 -1.400180E+02  9.606506E-01 -5.625011E+01 
8.258000E+02  9.655304E-01 -5.404021E+01  9.395215E-04 -1.402876E+02  9.382781E-04 -1.393725E+02  9.605348E-01 -5.625091E+01 
8.258625E+02  9.654862E-01 -5.404908E+01  9.554016E-04 -1.412066E+02  9.548173E-04 -1.410891E+02  9.604535E-01 -5.625685E+01 
8.259250E+02  9.655535E-01 -5.404847E+01  9.659865E-04 -1.410479E+02  9.728702E-04 -1.408028E+02  9.605203E-01 -5.625699E+01 
8.259875E+02  9.653480E-01 -5.405992E+01  9.793399E-04 -1.421341E+02  9.789527E-04 -1.414160E+02  9.604891E-01 -5.626394E+01 
8.260500E+02  9.655059E-01 -5.406241E+01  9.913531E-04 -1.428101E+02  1.000826E-03 -1.424726E+02  9.604780E-01 -5.625979E+01 
8.261125E+02  9.654362E-01 -5.406826E+01  1.007752E-03 -1.434869E+02  1.008011E-03 -1.432796E+02  9.605048E-01 -5.626691E+01 
8.261750E+02  9.655025E-01 -5.406759E+01  1.004228E-03 -1.445484E+02  1.008604E-03 -1.439536E+02  9.605274E-01 -5.627829E+01 
8.262375E+02  9.654121E-01 -5.408155E+01  1.015307E-03 -1.455294E+02  1.018764E-03 -1.449047E+02  9.604866E-01 -5.627851E+01 
8.263000E+02  9.654538E-01 -5.407923E+01  1.019511E-03 -1.460549E+02  1.023529E-03 -1.458618E+02  9.605296E-01 -5.628298E+01 
8.263625E+02  9.653787E-01 -5.408180E+01  1.031917E-03 -1.466827E+02  1.023687E-03 -1.467509E+02  9.604741E-01 -5.628597E+01 
8.264250E+02  9.654352E-01 -5.408462E+01  1.022434E-03 -1.469876E+02  1.023689E-03 -1.470762E+02  9.605322E-01 -5.629233E+01 
8.264875E+02  9.653297E-01 -5.408877E+01  1.025479E-03 -1.483326E+02  1.028957E-03 -1.480288E+02  9.605854E-01 -5.630056E+01 
8.265500E+02  9.654471E-01 -5.409193E+01  1.031946E-03 -1.486721E+02  1.020058E-03 -1.480990E+02  9.606649E-01 -5.629694E+01 
8.266125E+02  9.653264E-01 -5.410392E+01  1.019858E-03 -1.488315E+02  1.023171E-03 -1.486626E+02  9.605762E-01 -5.629828E+01 
8.266750E+02  9.653933E-01 -5.410796E+01  1.028153E-03 -1.493602E+02  1.028648E-03 -1.495404E+02  9.605223E-01 -5.630529E+01 
8.267375E+02  9.654248E-01 -5.411729E+01  1.027185E-03 -1.501431E+02  1.018840E-03 -1.498077E+02  9.605178E-01 -5.631952E+01 
8.268000E+02  9.654603E-01 -5.412115E+01  1.020336E-03 -1.512723E+02  1.025366E-03 -1.506341E+02  9.606075E-01 -5.631720E+01 
8.268625E+02  9.653831E-01 -5.412354E+01  1.010715E-03 -1.509789E+02  1.015128E-03 -1.509353E+02  9.604485E-01 -5.632326E+01 
8.269250E+02  9.654570E-01 -5.413515E+01  1.011204E-03 -1.521484E+02  1.010154E-03 -1.515880E+02  9.604266E-01 -5.633889E+01 
8.269875E+02  9.654476E-01 -5.412957E+01  1.007126E-03 -1.526345E+02  1.007871E-03 -1.518016E+02  9.604980E-01 -5.634148E+01 
8.270500E+02  9.652789E-01 -5.414136E+01  9.955339E-04 -1.528953E+02  9.974517E-04 -1.527035E+02  9.604116E-01 -5.634436E+01 
8.271125E+02  9.655228E-01 -5.414300E+01  9.949699E-04 -1.529988E+02  9.930199E-04 -1.528267E+02  9.604136E-01 -5.634542E+01 
8.271750E+02  9.653209E-01 -5.414750E+01  9.833840E-04 -1.539237E+02  9.866843E-04 -1.532831E+02  9.604941E-01 -5.635438E+01 
8.272375E+02  9.654091E-01 -5.415803E+01  9.739081E-04 -1.530812E+02  9.722379E-04 -1.536837E+02  9.605075E-01 -5.635205E+01 
8.273000E+02  9.654286E-01 -5.416002E+01  9.663986E-04 -1.547836E+02  9.703727E-04 -1.539432E+02  9.605982E-01 -5.636318E+01 
8.273625E+02  9.654599E-01 -5.416965E+01  9.578362E-04 -1.538743E+02  9.637777E-04 -1.541717E+02  9.605470E-01 -5.636467E+01 
8.274250E+02  9.653062E-01 -5.416416E+01  9.517457E-04 -1.539380E+02  9.554029E-04 -1.539917E+02  9.604231E-01 -5.637167E+01 
8.274875E+02  9.654051E-01 -5.416986E+01  9.384531E-04 -1.544160E+02  9.444378E-04 -1.535233E+02  9.605683E-01 -5.637029E+01 
8.275500E+02  9.653207E-01 -5.417508E+01  9.446385E-04 -1.543553E+02  9.338824E-04 -1.537268E+02  9.605064E-01 -5.637443E+01 
8.276125E+02  9.654011E-01 -5.418846E+01  9.316118E-04 -1.535550E+02  9.368751E-04 -1.533900E+02  9.605632E-01 -5.637316E+01 
8.276750E+02  9.653935E-01 -5.418907E+01  9.339493E-04 -1.536662E+02  9.374514E-04 -1.535488E+02  9.605984E-01 -5.638892E+01 
8.277375E+02  9.654887E-01 -5.419547E+01  9.243521E-04 -1.527875E+02  9.294763E-04 -1.528266E+02  9.605286E-01 -5.639154E+01 
8.278000E+02  9.654945E-01 -5.419886E+01  9.232502E-04 -1.534620E+02  9.293797E-04 -1.531468E+02  9.604118E-01 -5.639305E+01 
8.278625E+02  9.653629E-01 -5.420700E+01  9.218346E-04 -1.529919E+02  9.271222E-04 -1.528614E+02  9.604570E-01 -5.639885E+01 
