! S-Parameter for B3742 in Touchstone format with Magnitude (lin) and Phase 
! Normalised impedance: 50 Ohm. Measurement system: 50 Ohm. Ta=20°C
! B3742_WB.S2P not matched. Measurement full 2-port calibrated incl. Port.Ext. 
! Start: 375.0 MHz, Stop: 425.0MHz, Span 50MHz 1601 Pts., Step 31kHz.   
! Date: 08/11/07 - EPCOS SAW COM WT AE PD; GS
! Pinning according data sheet recommendation for balanced operation:
! Please see data sheet recommendation for balanced operation.
!
! port | pin | signal
! -----|-----|--------
!   1  |  1  |  input
!   2  |  4  |  output
! --------------------
!
# MHZ S MA R 50
! freq  magS11 angS11  magS21 angS21  magS12 angS12  magS22 angS22
3.750000E+02  9.928413E-01 -3.043734E+01  9.226871E-05 -1.233814E+02  8.754969E-05 -1.231932E+02  9.897124E-01 -3.030562E+01 
3.750312E+02  9.926840E-01 -3.042406E+01  9.108025E-05 -1.219565E+02  9.043454E-05 -1.209296E+02  9.896706E-01 -3.030779E+01 
3.750625E+02  9.927506E-01 -3.043265E+01  9.666385E-05 -1.231272E+02  9.376601E-05 -1.192237E+02  9.897555E-01 -3.031168E+01 
3.750938E+02  9.928201E-01 -3.044187E+01  9.045351E-05 -1.260533E+02  9.058373E-05 -1.224310E+02  9.897260E-01 -3.030828E+01 
3.751250E+02  9.927412E-01 -3.044729E+01  9.697833E-05 -1.191298E+02  1.013615E-04 -1.221632E+02  9.896717E-01 -3.031226E+01 
3.751562E+02  9.927096E-01 -3.045092E+01  9.807585E-05 -1.187020E+02  9.895249E-05 -1.240442E+02  9.897910E-01 -3.031910E+01 
3.751875E+02  9.926217E-01 -3.045326E+01  9.201266E-05 -1.221169E+02  9.979707E-05 -1.215961E+02  9.896781E-01 -3.031779E+01 
3.752188E+02  9.928470E-01 -3.045444E+01  9.973567E-05 -1.261149E+02  9.777536E-05 -1.229551E+02  9.897568E-01 -3.032126E+01 
3.752500E+02  9.926882E-01 -3.045622E+01  9.593776E-05 -1.221756E+02  9.983286E-05 -1.212124E+02  9.897664E-01 -3.032192E+01 
3.752812E+02  9.927213E-01 -3.046123E+01  9.258800E-05 -1.253336E+02  9.899228E-05 -1.225303E+02  9.895769E-01 -3.033104E+01 
3.753125E+02  9.926356E-01 -3.045896E+01  9.979001E-05 -1.259206E+02  1.008938E-04 -1.266423E+02  9.897204E-01 -3.034149E+01 
3.753438E+02  9.926009E-01 -3.046094E+01  9.043102E-05 -1.283044E+02  9.233477E-05 -1.259681E+02  9.896278E-01 -3.032872E+01 
3.753750E+02  9.928146E-01 -3.046674E+01  9.083313E-05 -1.243078E+02  8.969834E-05 -1.271859E+02  9.897517E-01 -3.033599E+01 
3.754062E+02  9.925852E-01 -3.047641E+01  8.952232E-05 -1.245645E+02  9.156999E-05 -1.253852E+02  9.897428E-01 -3.034181E+01 
3.754375E+02  9.928170E-01 -3.046642E+01  9.140593E-05 -1.276938E+02  8.650349E-05 -1.221297E+02  9.894509E-01 -3.034428E+01 
3.754688E+02  9.927270E-01 -3.047763E+01  9.182385E-05 -1.275637E+02  9.303079E-05 -1.255607E+02  9.896341E-01 -3.033978E+01 
3.755000E+02  9.925819E-01 -3.048021E+01  8.932894E-05 -1.247711E+02  9.650298E-05 -1.198887E+02  9.898526E-01 -3.035388E+01 
3.755312E+02  9.927214E-01 -3.047523E+01  8.717717E-05 -1.219932E+02  9.549340E-05 -1.251907E+02  9.896417E-01 -3.034547E+01 
3.755625E+02  9.926977E-01 -3.048465E+01  9.026208E-05 -1.223514E+02  8.986990E-05 -1.237628E+02  9.897967E-01 -3.035449E+01 
3.755938E+02  9.927537E-01 -3.047775E+01  9.265814E-05 -1.231426E+02  8.426245E-05 -1.260964E+02  9.897589E-01 -3.035130E+01 
3.756250E+02  9.928415E-01 -3.049371E+01  9.122093E-05 -1.209539E+02  8.966255E-05 -1.230459E+02  9.897462E-01 -3.036530E+01 
3.756562E+02  9.927691E-01 -3.048970E+01  9.062450E-05 -1.211158E+02  8.766604E-05 -1.236206E+02  9.897822E-01 -3.036487E+01 
3.756875E+02  9.926645E-01 -3.049447E+01  8.975611E-05 -1.234214E+02  8.896282E-05 -1.187939E+02  9.897401E-01 -3.036408E+01 
3.757188E+02  9.927795E-01 -3.049478E+01  8.706636E-05 -1.244722E+02  8.580380E-05 -1.200129E+02  9.896997E-01 -3.037176E+01 
3.757500E+02  9.926814E-01 -3.050116E+01  9.151201E-05 -1.236704E+02  8.644144E-05 -1.211284E+02  9.896559E-01 -3.036729E+01 
3.757812E+02  9.928952E-01 -3.049794E+01  8.985586E-05 -1.184798E+02  9.225745E-05 -1.214353E+02  9.895866E-01 -3.037216E+01 
3.758125E+02  9.927041E-01 -3.051061E+01  8.916776E-05 -1.205328E+02  8.566734E-05 -1.199173E+02  9.895925E-01 -3.037539E+01 
3.758438E+02  9.927055E-01 -3.050517E+01  8.250184E-05 -1.150898E+02  8.285180E-05 -1.167444E+02  9.897922E-01 -3.038561E+01 
3.758750E+02  9.927169E-01 -3.051331E+01  8.714668E-05 -1.135245E+02  9.031740E-05 -1.146915E+02  9.896355E-01 -3.038652E+01 
3.759062E+02  9.927401E-01 -3.051376E+01  9.317921E-05 -1.166531E+02  8.549992E-05 -1.124031E+02  9.896892E-01 -3.038270E+01 
3.759375E+02  9.927730E-01 -3.052910E+01  9.596369E-05 -1.143321E+02  9.195234E-05 -1.146745E+02  9.896319E-01 -3.038692E+01 
3.759688E+02  9.928328E-01 -3.052733E+01  9.594737E-05 -1.165622E+02  9.622684E-05 -1.135574E+02  9.895454E-01 -3.038743E+01 
3.760000E+02  9.926924E-01 -3.052001E+01  9.767427E-05 -1.108894E+02  1.023425E-04 -1.117993E+02  9.897010E-01 -3.039227E+01 
3.760312E+02  9.928164E-01 -3.052370E+01  9.748568E-05 -1.135435E+02  9.635168E-05 -1.151400E+02  9.896426E-01 -3.039512E+01 
3.760625E+02  9.928528E-01 -3.053513E+01  9.342752E-05 -1.157288E+02  1.059237E-04 -1.115534E+02  9.895692E-01 -3.040256E+01 
3.760938E+02  9.929537E-01 -3.053800E+01  9.672773E-05 -1.117582E+02  1.030296E-04 -1.148367E+02  9.896584E-01 -3.040451E+01 
3.761250E+02  9.926899E-01 -3.053551E+01  1.016190E-04 -1.138005E+02  1.036640E-04 -1.117460E+02  9.894986E-01 -3.041049E+01 
3.761562E+02  9.927063E-01 -3.053893E+01  1.018860E-04 -1.158817E+02  1.038518E-04 -1.116186E+02  9.896018E-01 -3.040237E+01 
3.761875E+02  9.928257E-01 -3.054166E+01  1.028004E-04 -1.144832E+02  1.024834E-04 -1.129886E+02  9.896327E-01 -3.041399E+01 
3.762188E+02  9.927675E-01 -3.054656E+01  1.034986E-04 -1.135983E+02  1.060041E-04 -1.165279E+02  9.897355E-01 -3.041772E+01 
3.762500E+02  9.927604E-01 -3.055491E+01  9.877134E-05 -1.122528E+02  1.085428E-04 -1.144928E+02  9.896754E-01 -3.041301E+01 
3.762812E+02  9.926411E-01 -3.055309E+01  1.021149E-04 -1.105741E+02  1.071558E-04 -1.160872E+02  9.895425E-01 -3.042116E+01 
3.763125E+02  9.927116E-01 -3.055555E+01  1.047467E-04 -1.135801E+02  1.031304E-04 -1.156374E+02  9.895436E-01 -3.042201E+01 
3.763438E+02  9.928509E-01 -3.055439E+01  1.037331E-04 -1.146526E+02  1.090513E-04 -1.128654E+02  9.896189E-01 -3.043220E+01 
3.763750E+02  9.927713E-01 -3.055659E+01  1.042637E-04 -1.142024E+02  1.008920E-04 -1.133921E+02  9.896779E-01 -3.042491E+01 
3.764062E+02  9.928709E-01 -3.056941E+01  1.111046E-04 -1.116156E+02  1.084026E-04 -1.149395E+02  9.895099E-01 -3.043357E+01 
3.764375E+02  9.926219E-01 -3.056564E+01  1.017063E-04 -1.139515E+02  1.083536E-04 -1.115225E+02  9.896747E-01 -3.043347E+01 
3.764688E+02  9.927037E-01 -3.057241E+01  1.086597E-04 -1.159276E+02  1.068293E-04 -1.159875E+02  9.895769E-01 -3.043415E+01 
3.765000E+02  9.927361E-01 -3.057088E+01  1.099093E-04 -1.146716E+02  1.143832E-04 -1.137585E+02  9.896269E-01 -3.043711E+01 
3.765312E+02  9.927851E-01 -3.058075E+01  1.111505E-04 -1.162242E+02  1.079902E-04 -1.119663E+02  9.894908E-01 -3.043695E+01 
3.765625E+02  9.928491E-01 -3.057638E+01  1.130141E-04 -1.113265E+02  1.187497E-04 -1.173839E+02  9.897853E-01 -3.043843E+01 
3.765938E+02  9.925579E-01 -3.058710E+01  1.127423E-04 -1.132227E+02  1.074586E-04 -1.160916E+02  9.895892E-01 -3.045655E+01 
3.766250E+02  9.926896E-01 -3.058445E+01  1.057066E-04 -1.159793E+02  1.123021E-04 -1.129847E+02  9.896497E-01 -3.045092E+01 
3.766562E+02  9.924891E-01 -3.057414E+01  1.153414E-04 -1.141357E+02  1.119882E-04 -1.126365E+02  9.895392E-01 -3.044376E+01 
3.766875E+02  9.926737E-01 -3.057890E+01  1.179189E-04 -1.136330E+02  1.117319E-04 -1.135886E+02  9.895712E-01 -3.045729E+01 
3.767188E+02  9.927633E-01 -3.059307E+01  1.187658E-04 -1.120288E+02  1.152746E-04 -1.120752E+02  9.896588E-01 -3.046116E+01 
3.767500E+02  9.926498E-01 -3.059660E+01  1.157350E-04 -1.126937E+02  1.151660E-04 -1.157998E+02  9.896255E-01 -3.046206E+01 
3.767812E+02  9.927533E-01 -3.059906E+01  1.150389E-04 -1.124870E+02  1.258587E-04 -1.116829E+02  9.895669E-01 -3.046730E+01 
3.768125E+02  9.925455E-01 -3.060192E+01  1.176254E-04 -1.140647E+02  1.231468E-04 -1.113473E+02  9.896336E-01 -3.046843E+01 
3.768438E+02  9.926013E-01 -3.060284E+01  1.205958E-04 -1.144441E+02  1.219726E-04 -1.124893E+02  9.896099E-01 -3.047598E+01 
3.768750E+02  9.926341E-01 -3.060290E+01  1.327654E-04 -1.156506E+02  1.159935E-04 -1.142623E+02  9.895589E-01 -3.047280E+01 
3.769062E+02  9.926603E-01 -3.060998E+01  1.319595E-04 -1.163034E+02  1.205373E-04 -1.145801E+02  9.896440E-01 -3.048073E+01 
3.769375E+02  9.925829E-01 -3.061481E+01  1.252838E-04 -1.129132E+02  1.314081E-04 -1.152923E+02  9.894887E-01 -3.047877E+01 
3.769688E+02  9.926544E-01 -3.061892E+01  1.326032E-04 -1.179029E+02  1.254221E-04 -1.167559E+02  9.896510E-01 -3.048270E+01 
3.770000E+02  9.925908E-01 -3.061774E+01  1.308621E-04 -1.177307E+02  1.368843E-04 -1.205035E+02  9.896333E-01 -3.048954E+01 
3.770312E+02  9.927304E-01 -3.062787E+01  1.356380E-04 -1.186688E+02  1.419759E-04 -1.166473E+02  9.895639E-01 -3.048325E+01 
3.770625E+02  9.924960E-01 -3.062447E+01  1.346466E-04 -1.192122E+02  1.373543E-04 -1.209897E+02  9.895520E-01 -3.048197E+01 
3.770938E+02  9.926675E-01 -3.062631E+01  1.401133E-04 -1.230354E+02  1.318108E-04 -1.190402E+02  9.895141E-01 -3.049025E+01 
3.771250E+02  9.927259E-01 -3.063018E+01  1.326957E-04 -1.227271E+02  1.333092E-04 -1.204997E+02  9.897070E-01 -3.049386E+01 
3.771562E+02  9.925258E-01 -3.063279E+01  1.306760E-04 -1.243240E+02  1.350481E-04 -1.211829E+02  9.894921E-01 -3.049543E+01 
3.771875E+02  9.926756E-01 -3.064162E+01  1.330234E-04 -1.221996E+02  1.475785E-04 -1.230889E+02  9.894375E-01 -3.049627E+01 
3.772188E+02  9.925526E-01 -3.064295E+01  1.310920E-04 -1.233750E+02  1.378852E-04 -1.240807E+02  9.894071E-01 -3.050980E+01 
3.772500E+02  9.926175E-01 -3.064160E+01  1.329275E-04 -1.278421E+02  1.353773E-04 -1.238937E+02  9.894633E-01 -3.050542E+01 
3.772812E+02  9.925663E-01 -3.064126E+01  1.340988E-04 -1.221124E+02  1.345379E-04 -1.262284E+02  9.895432E-01 -3.051243E+01 
3.773125E+02  9.927150E-01 -3.064375E+01  1.327668E-04 -1.293749E+02  1.328323E-04 -1.253553E+02  9.895230E-01 -3.051686E+01 
3.773438E+02  9.925363E-01 -3.065181E+01  1.295300E-04 -1.282122E+02  1.343621E-04 -1.279848E+02  9.896539E-01 -3.051320E+01 
3.773750E+02  9.926349E-01 -3.065554E+01  1.263109E-04 -1.275149E+02  1.332320E-04 -1.276334E+02  9.895171E-01 -3.052063E+01 
3.774062E+02  9.926748E-01 -3.065262E+01  1.316080E-04 -1.286889E+02  1.297552E-04 -1.260910E+02  9.896090E-01 -3.051188E+01 
3.774375E+02  9.925083E-01 -3.066601E+01  1.322686E-04 -1.305387E+02  1.324539E-04 -1.318051E+02  9.895298E-01 -3.052853E+01 
3.774688E+02  9.925262E-01 -3.066500E+01  1.297671E-04 -1.304798E+02  1.323769E-04 -1.287054E+02  9.895242E-01 -3.052594E+01 
3.775000E+02  9.925916E-01 -3.066684E+01  1.279773E-04 -1.321773E+02  1.305529E-04 -1.306406E+02  9.895792E-01 -3.052671E+01 
3.775312E+02  9.925950E-01 -3.066547E+01  1.259441E-04 -1.290126E+02  1.268227E-04 -1.295596E+02  9.895619E-01 -3.053304E+01 
3.775625E+02  9.924643E-01 -3.066997E+01  1.236931E-04 -1.311983E+02  1.262461E-04 -1.301408E+02  9.894183E-01 -3.053089E+01 
3.775938E+02  9.925094E-01 -3.067327E+01  1.272206E-04 -1.312700E+02  1.208646E-04 -1.334471E+02  9.895020E-01 -3.054195E+01 
3.776250E+02  9.924601E-01 -3.067434E+01  1.211957E-04 -1.317546E+02  1.164188E-04 -1.317769E+02  9.895566E-01 -3.053494E+01 
3.776562E+02  9.925294E-01 -3.066857E+01  1.181366E-04 -1.364364E+02  1.235530E-04 -1.305579E+02  9.895086E-01 -3.054505E+01 
3.776875E+02  9.924690E-01 -3.067988E+01  1.225517E-04 -1.296270E+02  1.142327E-04 -1.296417E+02  9.894607E-01 -3.055053E+01 
3.777188E+02  9.924749E-01 -3.068990E+01  1.172447E-04 -1.284438E+02  1.158362E-04 -1.307043E+02  9.893430E-01 -3.054562E+01 
3.777500E+02  9.925501E-01 -3.068312E+01  1.223692E-04 -1.324349E+02  1.182624E-04 -1.256993E+02  9.895136E-01 -3.055065E+01 
3.777812E+02  9.924579E-01 -3.068871E+01  1.213389E-04 -1.281490E+02  1.222928E-04 -1.263120E+02  9.895075E-01 -3.055342E+01 
3.778125E+02  9.925366E-01 -3.069098E+01  1.114042E-04 -1.287602E+02  1.196032E-04 -1.290012E+02  9.894623E-01 -3.056244E+01 
3.778438E+02  9.925296E-01 -3.069841E+01  1.119876E-04 -1.236427E+02  1.206953E-04 -1.283716E+02  9.894290E-01 -3.056108E+01 
3.778750E+02  9.924496E-01 -3.069761E+01  1.174075E-04 -1.256767E+02  1.144494E-04 -1.260053E+02  9.895055E-01 -3.055643E+01 
3.779062E+02  9.924310E-01 -3.070661E+01  1.186108E-04 -1.255840E+02  1.245312E-04 -1.267002E+02  9.893350E-01 -3.056056E+01 
3.779375E+02  9.925075E-01 -3.070730E+01  1.163024E-04 -1.239634E+02  1.190622E-04 -1.260539E+02  9.894801E-01 -3.057265E+01 
3.779688E+02  9.925216E-01 -3.071427E+01  1.207121E-04 -1.222839E+02  1.210183E-04 -1.228109E+02  9.893330E-01 -3.057195E+01 
3.780000E+02  9.925460E-01 -3.070963E+01  1.303843E-04 -1.239893E+02  1.249047E-04 -1.237035E+02  9.894986E-01 -3.057104E+01 
3.780312E+02  9.923885E-01 -3.071875E+01  1.311974E-04 -1.229359E+02  1.260453E-04 -1.222230E+02  9.894978E-01 -3.058145E+01 
3.780625E+02  9.925271E-01 -3.072461E+01  1.292425E-04 -1.216323E+02  1.253912E-04 -1.246196E+02  9.894221E-01 -3.058080E+01 
3.780938E+02  9.924888E-01 -3.071666E+01  1.323573E-04 -1.258180E+02  1.329399E-04 -1.238382E+02  9.894244E-01 -3.058991E+01 
3.781250E+02  9.922569E-01 -3.072163E+01  1.299995E-04 -1.258322E+02  1.412613E-04 -1.238941E+02  9.895006E-01 -3.058485E+01 
3.781562E+02  9.924396E-01 -3.072504E+01  1.445742E-04 -1.240494E+02  1.349160E-04 -1.241299E+02  9.893686E-01 -3.059199E+01 
3.781875E+02  9.925130E-01 -3.072637E+01  1.481994E-04 -1.226234E+02  1.466870E-04 -1.244175E+02  9.893372E-01 -3.058669E+01 
3.782188E+02  9.922689E-01 -3.072820E+01  1.566395E-04 -1.250755E+02  1.475554E-04 -1.226842E+02  9.894467E-01 -3.060126E+01 
3.782500E+02  9.920992E-01 -3.072722E+01  1.645644E-04 -1.251552E+02  1.565001E-04 -1.245150E+02  9.891995E-01 -3.060022E+01 
3.782812E+02  9.921326E-01 -3.073494E+01  1.691317E-04 -1.280679E+02  1.683431E-04 -1.302831E+02  9.893490E-01 -3.060609E+01 
3.783125E+02  9.922564E-01 -3.073979E+01  1.727189E-04 -1.299144E+02  1.793370E-04 -1.299890E+02  9.892293E-01 -3.060123E+01 
3.783438E+02  9.924231E-01 -3.073750E+01  1.802610E-04 -1.311648E+02  1.789941E-04 -1.315024E+02  9.894121E-01 -3.060736E+01 
3.783750E+02  9.922923E-01 -3.073713E+01  1.788193E-04 -1.363014E+02  1.750422E-04 -1.375477E+02  9.894728E-01 -3.060210E+01 
3.784062E+02  9.922055E-01 -3.074906E+01  1.697980E-04 -1.365344E+02  1.788102E-04 -1.384382E+02  9.893168E-01 -3.061554E+01 
3.784375E+02  9.922735E-01 -3.074843E+01  1.727280E-04 -1.407610E+02  1.815129E-04 -1.424604E+02  9.893111E-01 -3.061655E+01 
3.784688E+02  9.923421E-01 -3.075107E+01  1.845833E-04 -1.432606E+02  1.744817E-04 -1.431812E+02  9.892383E-01 -3.061904E+01 
3.785000E+02  9.921464E-01 -3.075204E+01  1.830759E-04 -1.464829E+02  1.814045E-04 -1.462938E+02  9.892931E-01 -3.061862E+01 
3.785312E+02  9.923329E-01 -3.075814E+01  1.786614E-04 -1.478495E+02  1.768889E-04 -1.478788E+02  9.893035E-01 -3.062710E+01 
3.785625E+02  9.922853E-01 -3.074744E+01  1.839077E-04 -1.504684E+02  1.781225E-04 -1.496538E+02  9.892256E-01 -3.062540E+01 
3.785938E+02  9.923597E-01 -3.075565E+01  1.792957E-04 -1.556998E+02  1.735145E-04 -1.559481E+02  9.893585E-01 -3.062523E+01 
3.786250E+02  9.922844E-01 -3.076339E+01  1.771662E-04 -1.580014E+02  1.716996E-04 -1.583332E+02  9.893200E-01 -3.062712E+01 
3.786562E+02  9.922729E-01 -3.075855E+01  1.708296E-04 -1.609009E+02  1.734865E-04 -1.614357E+02  9.893667E-01 -3.062848E+01 
3.786875E+02  9.921954E-01 -3.075593E+01  1.619945E-04 -1.654587E+02  1.600206E-04 -1.657035E+02  9.894303E-01 -3.063151E+01 
3.787188E+02  9.923104E-01 -3.076624E+01  1.527039E-04 -1.658982E+02  1.603927E-04 -1.668490E+02  9.892525E-01 -3.064264E+01 
3.787500E+02  9.925062E-01 -3.076731E+01  1.577434E-04 -1.709188E+02  1.611200E-04 -1.689886E+02  9.892567E-01 -3.063562E+01 
3.787812E+02  9.923637E-01 -3.077267E+01  1.496460E-04 -1.737316E+02  1.528652E-04 -1.700704E+02  9.893307E-01 -3.064813E+01 
3.788125E+02  9.924507E-01 -3.077266E+01  1.468017E-04 -1.742693E+02  1.447712E-04 -1.767319E+02  9.893187E-01 -3.065062E+01 
3.788438E+02  9.922862E-01 -3.077890E+01  1.398124E-04 -1.773773E+02  1.387561E-04 -1.753429E+02  9.894217E-01 -3.064786E+01 
3.788750E+02  9.924081E-01 -3.077927E+01  1.361333E-04 -1.784843E+02  1.325734E-04 -1.760533E+02  9.892465E-01 -3.064925E+01 
3.789062E+02  9.924041E-01 -3.079083E+01  1.309649E-04 1.780284E+02  1.301111E-04 1.770236E+02  9.893782E-01 -3.065823E+01 
3.789375E+02  9.924363E-01 -3.078567E+01  1.258619E-04 1.766683E+02  1.264230E-04 1.767556E+02  9.891677E-01 -3.066243E+01 
3.789688E+02  9.924173E-01 -3.078382E+01  1.202345E-04 1.727894E+02  1.168370E-04 1.737363E+02  9.893461E-01 -3.065424E+01 
3.790000E+02  9.922249E-01 -3.079229E+01  1.195791E-04 1.718932E+02  1.158965E-04 1.722260E+02  9.893445E-01 -3.065821E+01 
3.790312E+02  9.921955E-01 -3.079691E+01  1.092705E-04 1.724128E+02  1.076566E-04 1.680930E+02  9.891875E-01 -3.065924E+01 
3.790625E+02  9.922647E-01 -3.079460E+01  1.048935E-04 1.704146E+02  1.047972E-04 1.648457E+02  9.892264E-01 -3.067343E+01 
3.790938E+02  9.922723E-01 -3.080007E+01  9.642671E-05 1.623877E+02  1.058348E-04 1.654337E+02  9.891502E-01 -3.067037E+01 
3.791250E+02  9.921012E-01 -3.080549E+01  9.903109E-05 1.579194E+02  9.975238E-05 1.616545E+02  9.893383E-01 -3.067945E+01 
3.791562E+02  9.923282E-01 -3.080856E+01  8.960615E-05 1.570330E+02  9.320776E-05 1.524373E+02  9.892567E-01 -3.068178E+01 
3.791875E+02  9.922853E-01 -3.080269E+01  9.008426E-05 1.479011E+02  8.171436E-05 1.494238E+02  9.892038E-01 -3.067885E+01 
3.792188E+02  9.920502E-01 -3.080926E+01  8.104357E-05 1.372731E+02  7.800218E-05 1.435330E+02  9.892592E-01 -3.068392E+01 
3.792500E+02  9.922098E-01 -3.081201E+01  7.458934E-05 1.328983E+02  8.388308E-05 1.304355E+02  9.891709E-01 -3.069109E+01 
3.792812E+02  9.922591E-01 -3.081994E+01  7.059860E-05 1.204539E+02  7.035063E-05 1.236181E+02  9.892439E-01 -3.068825E+01 
3.793125E+02  9.923381E-01 -3.081148E+01  6.375335E-05 1.144072E+02  6.395805E-05 1.094045E+02  9.892592E-01 -3.068615E+01 
3.793438E+02  9.923716E-01 -3.082311E+01  5.832963E-05 9.379266E+01  5.760315E-05 9.624721E+01  9.890929E-01 -3.068447E+01 
3.793750E+02  9.922834E-01 -3.082686E+01  5.602341E-05 9.198204E+01  5.860898E-05 8.167385E+01  9.892025E-01 -3.069282E+01 
3.794062E+02  9.921709E-01 -3.083098E+01  5.167251E-05 7.490697E+01  5.671486E-05 6.749981E+01  9.890629E-01 -3.069819E+01 
3.794375E+02  9.922443E-01 -3.083174E+01  7.166793E-05 5.256418E+01  5.637045E-05 5.488364E+01  9.889814E-01 -3.069256E+01 
3.794688E+02  9.920887E-01 -3.083095E+01  6.263538E-05 4.132368E+01  6.308356E-05 3.136051E+01  9.890398E-01 -3.069325E+01 
3.795000E+02  9.922965E-01 -3.083562E+01  6.821982E-05 1.806621E+01  6.802936E-05 1.461990E+01  9.890414E-01 -3.069735E+01 
3.795312E+02  9.921145E-01 -3.084211E+01  6.873095E-05 8.083345E+00  7.279296E-05 7.979225E+00  9.890729E-01 -3.070408E+01 
3.795625E+02  9.920926E-01 -3.083622E+01  7.439489E-05 -9.917454E+00  7.601662E-05 -7.867997E+00  9.892594E-01 -3.070638E+01 
3.795938E+02  9.919869E-01 -3.083905E+01  7.929850E-05 -1.572329E+01  8.245359E-05 -1.478261E+01  9.891220E-01 -3.069957E+01 
3.796250E+02  9.922120E-01 -3.084204E+01  9.031268E-05 -2.503813E+01  8.727731E-05 -2.158773E+01  9.891578E-01 -3.071028E+01 
3.796562E+02  9.922837E-01 -3.084277E+01  9.578774E-05 -3.183377E+01  9.893623E-05 -2.977058E+01  9.890583E-01 -3.071640E+01 
3.796875E+02  9.921423E-01 -3.085131E+01  1.003417E-04 -4.118394E+01  1.020104E-04 -4.012493E+01  9.889803E-01 -3.071068E+01 
3.797188E+02  9.923676E-01 -3.085561E+01  1.116619E-04 -4.429839E+01  1.058941E-04 -4.747318E+01  9.891083E-01 -3.071725E+01 
