! Matrix data file written by TouchstoneData, EPCOS AG
! FILENAME: "B3749_NB.s2p"
! COMMENT: "(B3749_NB.s2p) EPCOS AG 12.10.2011 09:56:13"
! INFO: nport=2, nfreq=1601
! DATE: "Thu Nov 17 12:38:10 2011"
! USER: "Wilfried Schott"
!
! port | pin | signal
! -----|-----|--------
!   1  |  2  |  IN
!   2  |  4  |  OUT
! --------------------
! 
# MHZ S MA R 50
! freq  magS11 angS11  magS21 angS21  magS12 angS12  magS22 angS22
8.640000E+02  9.886333E-01 -2.519444E+01  5.703344E-04 6.140861E+01  5.644335E-04 6.103233E+01  9.890645E-01 -2.923481E+01 
8.640063E+02  9.885650E-01 -2.520071E+01  5.768105E-04 6.160704E+01  5.679160E-04 6.217991E+01  9.888291E-01 -2.925599E+01 
8.640125E+02  9.885427E-01 -2.518983E+01  5.760414E-04 6.259071E+01  5.779532E-04 6.291037E+01  9.887863E-01 -2.924327E+01 
8.640187E+02  9.885262E-01 -2.519248E+01  5.751425E-04 6.343019E+01  5.823469E-04 6.338754E+01  9.886358E-01 -2.925263E+01 
8.640250E+02  9.884772E-01 -2.519993E+01  5.853097E-04 6.404600E+01  5.880075E-04 6.393304E+01  9.885049E-01 -2.925317E+01 
8.640312E+02  9.883841E-01 -2.519083E+01  5.932960E-04 6.402587E+01  5.792200E-04 6.532092E+01  9.885154E-01 -2.925801E+01 
8.640375E+02  9.884723E-01 -2.519705E+01  5.955503E-04 6.527591E+01  5.992761E-04 6.575611E+01  9.884372E-01 -2.926692E+01 
8.640438E+02  9.883630E-01 -2.519978E+01  5.986493E-04 6.572956E+01  6.009996E-04 6.505889E+01  9.885497E-01 -2.925827E+01 
8.640500E+02  9.884481E-01 -2.519411E+01  6.110287E-04 6.658666E+01  6.018245E-04 6.601988E+01  9.884122E-01 -2.926252E+01 
8.640562E+02  9.884784E-01 -2.520539E+01  6.235015E-04 6.667002E+01  6.178074E-04 6.753068E+01  9.883745E-01 -2.926983E+01 
8.640625E+02  9.883920E-01 -2.520161E+01  6.188054E-04 6.775728E+01  6.134174E-04 6.859383E+01  9.883776E-01 -2.927404E+01 
8.640688E+02  9.884492E-01 -2.520740E+01  6.249851E-04 6.881644E+01  6.329399E-04 6.896302E+01  9.883755E-01 -2.927648E+01 
8.640750E+02  9.884020E-01 -2.520908E+01  6.475874E-04 6.932314E+01  6.295870E-04 7.026518E+01  9.882881E-01 -2.928046E+01 
8.640812E+02  9.883769E-01 -2.520651E+01  6.468070E-04 6.996227E+01  6.473270E-04 7.030758E+01  9.883397E-01 -2.927188E+01 
8.640875E+02  9.884157E-01 -2.520304E+01  6.611221E-04 7.083713E+01  6.499496E-04 7.095374E+01  9.882915E-01 -2.928656E+01 
8.640938E+02  9.883453E-01 -2.521118E+01  6.639480E-04 7.131692E+01  6.667782E-04 7.105657E+01  9.882430E-01 -2.928812E+01 
8.641000E+02  9.883886E-01 -2.520851E+01  6.786503E-04 7.160098E+01  6.774156E-04 7.293211E+01  9.882830E-01 -2.927844E+01 
8.641063E+02  9.883197E-01 -2.521962E+01  6.910363E-04 7.308451E+01  6.898000E-04 7.209495E+01  9.881883E-01 -2.929280E+01 
8.641125E+02  9.883522E-01 -2.521569E+01  6.975579E-04 7.344158E+01  6.959326E-04 7.305077E+01  9.882113E-01 -2.929093E+01 
8.641187E+02  9.882827E-01 -2.521456E+01  7.197296E-04 7.357861E+01  7.010483E-04 7.482686E+01  9.881533E-01 -2.929058E+01 
8.641250E+02  9.882211E-01 -2.522701E+01  7.159375E-04 7.399980E+01  7.258144E-04 7.371725E+01  9.881508E-01 -2.930035E+01 
8.641313E+02  9.882327E-01 -2.521718E+01  7.341767E-04 7.439630E+01  7.352423E-04 7.369026E+01  9.882092E-01 -2.928214E+01 
8.641375E+02  9.882488E-01 -2.522499E+01  7.578529E-04 7.558664E+01  7.582744E-04 7.475716E+01  9.881983E-01 -2.930547E+01 
8.641437E+02  9.882411E-01 -2.523159E+01  7.735485E-04 7.471509E+01  7.705394E-04 7.516904E+01  9.881499E-01 -2.929892E+01 
8.641500E+02  9.883171E-01 -2.521512E+01  7.929312E-04 7.503333E+01  8.018132E-04 7.513390E+01  9.880712E-01 -2.929910E+01 
8.641562E+02  9.882536E-01 -2.523699E+01  8.099107E-04 7.546354E+01  8.067655E-04 7.524320E+01  9.880665E-01 -2.930906E+01 
8.641625E+02  9.882430E-01 -2.522729E+01  8.257168E-04 7.592215E+01  8.193168E-04 7.561883E+01  9.881361E-01 -2.930262E+01 
8.641688E+02  9.882017E-01 -2.523448E+01  8.443550E-04 7.531453E+01  8.433455E-04 7.594270E+01  9.880231E-01 -2.931032E+01 
8.641750E+02  9.881709E-01 -2.523441E+01  8.581188E-04 7.589716E+01  8.549331E-04 7.528705E+01  9.880727E-01 -2.929938E+01 
8.641812E+02  9.882324E-01 -2.522581E+01  8.824657E-04 7.547278E+01  8.805731E-04 7.526246E+01  9.880056E-01 -2.930649E+01 
8.641875E+02  9.881307E-01 -2.523748E+01  8.997209E-04 7.510409E+01  9.103059E-04 7.504374E+01  9.880302E-01 -2.931984E+01 
8.641938E+02  9.882895E-01 -2.523166E+01  9.248853E-04 7.550298E+01  9.169959E-04 7.512786E+01  9.879789E-01 -2.930767E+01 
8.642000E+02  9.881746E-01 -2.523377E+01  9.453139E-04 7.467187E+01  9.348363E-04 7.472699E+01  9.880385E-01 -2.931391E+01 
8.642062E+02  9.882203E-01 -2.523665E+01  9.677602E-04 7.452140E+01  9.721195E-04 7.432952E+01  9.880541E-01 -2.931990E+01 
8.642125E+02  9.881063E-01 -2.523992E+01  9.899634E-04 7.405807E+01  9.826135E-04 7.354507E+01  9.880403E-01 -2.931505E+01 
8.642188E+02  9.881976E-01 -2.524449E+01  1.012850E-03 7.303166E+01  1.013257E-03 7.358857E+01  9.880123E-01 -2.931789E+01 
8.642250E+02  9.882607E-01 -2.524344E+01  1.034623E-03 7.266966E+01  1.032765E-03 7.254126E+01  9.879628E-01 -2.932001E+01 
8.642313E+02  9.881910E-01 -2.524162E+01  1.054489E-03 7.204647E+01  1.047933E-03 7.216118E+01  9.880032E-01 -2.931775E+01 
8.642375E+02  9.882253E-01 -2.524329E+01  1.060673E-03 7.118063E+01  1.071989E-03 7.095372E+01  9.880283E-01 -2.932491E+01 
8.642437E+02  9.881307E-01 -2.525008E+01  1.078957E-03 7.025140E+01  1.080597E-03 7.033612E+01  9.879767E-01 -2.932376E+01 
8.642500E+02  9.882261E-01 -2.524439E+01  1.102754E-03 6.983552E+01  1.111426E-03 6.955036E+01  9.880729E-01 -2.931771E+01 
8.642563E+02  9.881976E-01 -2.526126E+01  1.124378E-03 6.871286E+01  1.119308E-03 6.871236E+01  9.879423E-01 -2.933137E+01 
8.642625E+02  9.882199E-01 -2.525038E+01  1.133524E-03 6.780492E+01  1.133030E-03 6.773141E+01  9.880626E-01 -2.932700E+01 
8.642687E+02  9.882637E-01 -2.524975E+01  1.160216E-03 6.690806E+01  1.153687E-03 6.657024E+01  9.880794E-01 -2.932791E+01 
8.642750E+02  9.881919E-01 -2.526584E+01  1.160797E-03 6.606689E+01  1.154820E-03 6.611804E+01  9.880064E-01 -2.933441E+01 
8.642812E+02  9.882873E-01 -2.525352E+01  1.175271E-03 6.502585E+01  1.173341E-03 6.502330E+01  9.881346E-01 -2.932185E+01 
8.642875E+02  9.882737E-01 -2.526356E+01  1.181980E-03 6.391905E+01  1.179413E-03 6.409355E+01  9.880178E-01 -2.934897E+01 
8.642938E+02  9.882602E-01 -2.526676E+01  1.191867E-03 6.314476E+01  1.195994E-03 6.299095E+01  9.880913E-01 -2.934062E+01 
8.643000E+02  9.882977E-01 -2.525808E+01  1.194323E-03 6.232433E+01  1.191791E-03 6.235619E+01  9.881270E-01 -2.933384E+01 
8.643062E+02  9.882653E-01 -2.527342E+01  1.193464E-03 6.138915E+01  1.197860E-03 6.177393E+01  9.880793E-01 -2.934742E+01 
8.643125E+02  9.883201E-01 -2.526414E+01  1.211981E-03 6.040096E+01  1.215354E-03 6.087096E+01  9.881078E-01 -2.934238E+01 
8.643188E+02  9.882633E-01 -2.526978E+01  1.207702E-03 5.975657E+01  1.210443E-03 5.984533E+01  9.881108E-01 -2.935702E+01 
8.643250E+02  9.883139E-01 -2.527901E+01  1.215777E-03 5.904291E+01  1.211361E-03 5.899445E+01  9.881710E-01 -2.934953E+01 
8.643312E+02  9.883744E-01 -2.527300E+01  1.218825E-03 5.855356E+01  1.219807E-03 5.833918E+01  9.881770E-01 -2.934595E+01 
8.643375E+02  9.883790E-01 -2.528061E+01  1.219782E-03 5.772343E+01  1.215216E-03 5.751726E+01  9.881502E-01 -2.936607E+01 
8.643438E+02  9.883684E-01 -2.527623E+01  1.225928E-03 5.708262E+01  1.220768E-03 5.689615E+01  9.881242E-01 -2.935355E+01 
8.643500E+02  9.883390E-01 -2.528231E+01  1.223350E-03 5.628621E+01  1.225255E-03 5.651772E+01  9.881604E-01 -2.936490E+01 
8.643563E+02  9.884199E-01 -2.529341E+01  1.227447E-03 5.596375E+01  1.225053E-03 5.573366E+01  9.881673E-01 -2.936469E+01 
8.643625E+02  9.883337E-01 -2.528157E+01  1.218365E-03 5.521225E+01  1.218560E-03 5.558331E+01  9.881801E-01 -2.936083E+01 
8.643687E+02  9.883414E-01 -2.529175E+01  1.218114E-03 5.413969E+01  1.228987E-03 5.452761E+01  9.880862E-01 -2.937280E+01 
8.643750E+02  9.883733E-01 -2.529681E+01  1.223778E-03 5.405429E+01  1.218338E-03 5.419327E+01  9.880965E-01 -2.937506E+01 
8.643813E+02  9.883549E-01 -2.529613E+01  1.233934E-03 5.373905E+01  1.219417E-03 5.382140E+01  9.881682E-01 -2.937444E+01 
8.643875E+02  9.884132E-01 -2.529992E+01  1.219088E-03 5.333597E+01  1.212235E-03 5.297743E+01  9.882618E-01 -2.938158E+01 
8.643937E+02  9.884129E-01 -2.530422E+01  1.216379E-03 5.315619E+01  1.214243E-03 5.277306E+01  9.881866E-01 -2.937999E+01 
8.644000E+02  9.883620E-01 -2.530433E+01  1.229163E-03 5.249935E+01  1.226746E-03 5.256360E+01  9.881977E-01 -2.938317E+01 
8.644062E+02  9.884247E-01 -2.531349E+01  1.218655E-03 5.224355E+01  1.216339E-03 5.217761E+01  9.881144E-01 -2.939307E+01 
8.644125E+02  9.884235E-01 -2.531306E+01  1.211090E-03 5.193607E+01  1.215560E-03 5.167556E+01  9.881788E-01 -2.938813E+01 
8.644188E+02  9.884461E-01 -2.531470E+01  1.227034E-03 5.166780E+01  1.211822E-03 5.124328E+01  9.881974E-01 -2.939724E+01 
8.644250E+02  9.883830E-01 -2.532082E+01  1.213968E-03 5.138020E+01  1.218505E-03 5.098416E+01  9.881617E-01 -2.939845E+01 
8.644312E+02  9.884358E-01 -2.530956E+01  1.222040E-03 5.056665E+01  1.208764E-03 5.063949E+01  9.881345E-01 -2.939393E+01 
8.644375E+02  9.883990E-01 -2.533011E+01  1.207925E-03 5.035982E+01  1.220675E-03 5.012655E+01  9.881757E-01 -2.940931E+01 
8.644438E+02  9.883253E-01 -2.532367E+01  1.209978E-03 5.058676E+01  1.223647E-03 5.000651E+01  9.881919E-01 -2.940425E+01 
8.644500E+02  9.884218E-01 -2.532379E+01  1.218902E-03 5.002222E+01  1.211643E-03 5.004541E+01  9.881634E-01 -2.940242E+01 
8.644562E+02  9.883166E-01 -2.534045E+01  1.222558E-03 4.990167E+01  1.222455E-03 4.978968E+01  9.881321E-01 -2.941252E+01 
8.644625E+02  9.883633E-01 -2.532362E+01  1.211601E-03 4.925493E+01  1.225692E-03 4.947412E+01  9.881081E-01 -2.940907E+01 
8.644688E+02  9.883978E-01 -2.533874E+01  1.217278E-03 4.925494E+01  1.228274E-03 4.941861E+01  9.880887E-01 -2.942286E+01 
8.644750E+02  9.882720E-01 -2.533891E+01  1.205824E-03 4.976328E+01  1.217881E-03 4.955234E+01  9.881009E-01 -2.941959E+01 
8.644813E+02  9.883174E-01 -2.533956E+01  1.227158E-03 4.883384E+01  1.220362E-03 4.931402E+01  9.880751E-01 -2.941554E+01 
8.644875E+02  9.883503E-01 -2.534418E+01  1.222080E-03 4.900780E+01  1.217982E-03 4.875127E+01  9.881791E-01 -2.943217E+01 
8.644937E+02  9.882288E-01 -2.534921E+01  1.231142E-03 4.887369E+01  1.219826E-03 4.868081E+01  9.880903E-01 -2.942176E+01 
8.645000E+02  9.882985E-01 -2.535206E+01  1.228198E-03 4.886513E+01  1.224997E-03 4.831030E+01  9.880984E-01 -2.943467E+01 
8.645063E+02  9.882722E-01 -2.535656E+01  1.229360E-03 4.805313E+01  1.223030E-03 4.821706E+01  9.881423E-01 -2.943662E+01 
8.645125E+02  9.883013E-01 -2.534808E+01  1.233355E-03 4.849218E+01  1.242237E-03 4.792423E+01  9.881165E-01 -2.943128E+01 
8.645187E+02  9.882391E-01 -2.536324E+01  1.231908E-03 4.811632E+01  1.236359E-03 4.779834E+01  9.880693E-01 -2.944170E+01 
8.645250E+02  9.882634E-01 -2.536029E+01  1.237276E-03 4.778687E+01  1.231059E-03 4.810050E+01  9.880608E-01 -2.944740E+01 
8.645312E+02  9.881895E-01 -2.536327E+01  1.240722E-03 4.809131E+01  1.243760E-03 4.850005E+01  9.880112E-01 -2.944399E+01 
8.645375E+02  9.881979E-01 -2.537788E+01  1.242248E-03 4.784424E+01  1.242148E-03 4.792708E+01  9.880795E-01 -2.944980E+01 
8.645438E+02  9.882134E-01 -2.536892E+01  1.243006E-03 4.784382E+01  1.252653E-03 4.759820E+01  9.880416E-01 -2.945007E+01 
8.645500E+02  9.882352E-01 -2.537344E+01  1.247372E-03 4.793254E+01  1.249395E-03 4.750691E+01  9.880721E-01 -2.945507E+01 
8.645562E+02  9.882044E-01 -2.538308E+01  1.265765E-03 4.762327E+01  1.250363E-03 4.754372E+01  9.879952E-01 -2.946317E+01 
8.645625E+02  9.881779E-01 -2.537637E+01  1.264268E-03 4.727650E+01  1.248666E-03 4.703495E+01  9.879045E-01 -2.945404E+01 
8.645688E+02  9.881790E-01 -2.538817E+01  1.258220E-03 4.726327E+01  1.260030E-03 4.754490E+01  9.879845E-01 -2.946581E+01 
8.645750E+02  9.882025E-01 -2.538825E+01  1.262207E-03 4.691380E+01  1.268139E-03 4.716286E+01  9.878819E-01 -2.946812E+01 
8.645812E+02  9.882408E-01 -2.538423E+01  1.264033E-03 4.721729E+01  1.267143E-03 4.744458E+01  9.879566E-01 -2.946558E+01 
8.645875E+02  9.881286E-01 -2.539659E+01  1.275390E-03 4.719910E+01  1.271804E-03 4.704496E+01  9.879344E-01 -2.947966E+01 
8.645938E+02  9.881501E-01 -2.539364E+01  1.283461E-03 4.658267E+01  1.278825E-03 4.672669E+01  9.879843E-01 -2.946880E+01 
8.646000E+02  9.881710E-01 -2.539315E+01  1.284685E-03 4.690169E+01  1.283356E-03 4.720118E+01  9.878757E-01 -2.947771E+01 
8.646063E+02  9.880850E-01 -2.540488E+01  1.281341E-03 4.633290E+01  1.289608E-03 4.658158E+01  9.878490E-01 -2.948811E+01 
8.646125E+02  9.880957E-01 -2.539992E+01  1.297984E-03 4.629002E+01  1.293483E-03 4.648906E+01  9.878400E-01 -2.948178E+01 
8.646187E+02  9.880848E-01 -2.540515E+01  1.289446E-03 4.651917E+01  1.298206E-03 4.636161E+01  9.877854E-01 -2.949399E+01 
8.646250E+02  9.881864E-01 -2.540959E+01  1.303637E-03 4.648165E+01  1.304570E-03 4.660733E+01  9.878434E-01 -2.948907E+01 
8.646313E+02  9.881237E-01 -2.540637E+01  1.318573E-03 4.632521E+01  1.310581E-03 4.583158E+01  9.877944E-01 -2.949421E+01 
8.646375E+02  9.880628E-01 -2.542327E+01  1.313275E-03 4.599918E+01  1.321963E-03 4.597003E+01  9.878413E-01 -2.950613E+01 
8.646437E+02  9.881131E-01 -2.541513E+01  1.325485E-03 4.562053E+01  1.326265E-03 4.588751E+01  9.877780E-01 -2.949702E+01 
8.646500E+02  9.880708E-01 -2.541993E+01  1.338094E-03 4.594283E+01  1.330671E-03 4.576162E+01  9.878280E-01 -2.950731E+01 
8.646562E+02  9.879980E-01 -2.542246E+01  1.348415E-03 4.599788E+01  1.338159E-03 4.575274E+01  9.877710E-01 -2.951019E+01 
8.646625E+02  9.880847E-01 -2.542081E+01  1.359384E-03 4.559991E+01  1.355026E-03 4.555471E+01  9.878060E-01 -2.950528E+01 
8.646688E+02  9.880551E-01 -2.543346E+01  1.362447E-03 4.537518E+01  1.353580E-03 4.554433E+01  9.878595E-01 -2.951502E+01 
8.646750E+02  9.880261E-01 -2.543140E+01  1.374291E-03 4.518819E+01  1.377501E-03 4.515205E+01  9.877778E-01 -2.951761E+01 
8.646812E+02  9.880244E-01 -2.543457E+01  1.385547E-03 4.507214E+01  1.379906E-03 4.519815E+01  9.877368E-01 -2.952054E+01 
8.646875E+02  9.879864E-01 -2.543915E+01  1.387658E-03 4.536717E+01  1.376502E-03 4.530110E+01  9.877438E-01 -2.952856E+01 
8.646938E+02  9.879812E-01 -2.543849E+01  1.393073E-03 4.525473E+01  1.399334E-03 4.527582E+01  9.877022E-01 -2.951793E+01 
8.647000E+02  9.879924E-01 -2.544608E+01  1.402053E-03 4.516680E+01  1.400211E-03 4.449641E+01  9.878475E-01 -2.952332E+01 
8.647062E+02  9.879543E-01 -2.544709E+01  1.410256E-03 4.471892E+01  1.417389E-03 4.456948E+01  9.877207E-01 -2.953304E+01 
8.647125E+02  9.879336E-01 -2.544772E+01  1.426644E-03 4.487686E+01  1.423327E-03 4.447958E+01  9.876652E-01 -2.953113E+01 
8.647188E+02  9.879918E-01 -2.545984E+01  1.429358E-03 4.443821E+01  1.428174E-03 4.485830E+01  9.875682E-01 -2.954306E+01 
8.647250E+02  9.879286E-01 -2.545765E+01  1.439476E-03 4.432524E+01  1.447927E-03 4.438562E+01  9.875972E-01 -2.953741E+01 
8.647313E+02  9.878892E-01 -2.545669E+01  1.456174E-03 4.424945E+01  1.460677E-03 4.398842E+01  9.876437E-01 -2.954689E+01 
8.647375E+02  9.878708E-01 -2.546842E+01  1.463748E-03 4.422463E+01  1.465559E-03 4.397118E+01  9.875572E-01 -2.955689E+01 
8.647437E+02  9.878811E-01 -2.546618E+01  1.472859E-03 4.370073E+01  1.473522E-03 4.381784E+01  9.875625E-01 -2.954608E+01 
8.647500E+02  9.878167E-01 -2.547362E+01  1.494335E-03 4.366659E+01  1.486723E-03 4.347515E+01  9.875580E-01 -2.955934E+01 
8.647563E+02  9.878596E-01 -2.547781E+01  1.504671E-03 4.343098E+01  1.503552E-03 4.366662E+01  9.874894E-01 -2.955997E+01 
8.647625E+02  9.878294E-01 -2.547225E+01  1.520127E-03 4.375220E+01  1.512493E-03 4.313510E+01  9.875289E-01 -2.956131E+01 
8.647687E+02  9.877140E-01 -2.548611E+01  1.533664E-03 4.306190E+01  1.527165E-03 4.306805E+01  9.875467E-01 -2.957282E+01 
8.647750E+02  9.877905E-01 -2.548437E+01  1.544977E-03 4.305139E+01  1.545209E-03 4.311160E+01  9.874823E-01 -2.956624E+01 
8.647812E+02  9.878177E-01 -2.548607E+01  1.557985E-03 4.306353E+01  1.553961E-03 4.279906E+01  9.874866E-01 -2.956891E+01 
8.647875E+02  9.875923E-01 -2.549546E+01  1.579734E-03 4.244966E+01  1.572602E-03 4.262621E+01  9.874519E-01 -2.957908E+01 
8.647938E+02  9.877344E-01 -2.549164E+01  1.590692E-03 4.235938E+01  1.591934E-03 4.244710E+01  9.874179E-01 -2.957722E+01 
8.648000E+02  9.877286E-01 -2.549496E+01  1.602221E-03 4.210141E+01  1.613677E-03 4.236042E+01  9.873630E-01 -2.959342E+01 
8.648062E+02  9.876763E-01 -2.550388E+01  1.620630E-03 4.199721E+01  1.630610E-03 4.173579E+01  9.874019E-01 -2.958209E+01 
8.648125E+02  9.876508E-01 -2.549763E+01  1.640336E-03 4.138537E+01  1.640121E-03 4.142701E+01  9.874009E-01 -2.959121E+01 
8.648188E+02  9.876010E-01 -2.551270E+01  1.665466E-03 4.174722E+01  1.664834E-03 4.109669E+01  9.873093E-01 -2.959124E+01 
8.648250E+02  9.875998E-01 -2.550689E+01  1.677280E-03 4.114276E+01  1.678733E-03 4.133563E+01  9.873406E-01 -2.959681E+01 
8.648312E+02  9.875553E-01 -2.551220E+01  1.699009E-03 4.081822E+01  1.708869E-03 4.061288E+01  9.873228E-01 -2.960459E+01 
8.648375E+02  9.874894E-01 -2.552225E+01  1.717123E-03 4.074123E+01  1.716438E-03 4.042487E+01  9.872633E-01 -2.960546E+01 
8.648438E+02  9.874886E-01 -2.552115E+01  1.741809E-03 4.025670E+01  1.741329E-03 4.036883E+01  9.872796E-01 -2.960510E+01 
8.648500E+02  9.875681E-01 -2.552764E+01  1.752282E-03 3.957890E+01  1.763312E-03 3.984271E+01  9.872443E-01 -2.961528E+01 
8.648563E+02  9.874896E-01 -2.552937E+01  1.785168E-03 3.965166E+01  1.778830E-03 3.964354E+01  9.871657E-01 -2.962010E+01 
8.648625E+02  9.873598E-01 -2.552869E+01  1.808545E-03 3.915758E+01  1.807159E-03 3.925819E+01  9.871713E-01 -2.961157E+01 
8.648687E+02  9.873443E-01 -2.554508E+01  1.828062E-03 3.901929E+01  1.837978E-03 3.919992E+01  9.871783E-01 -2.963045E+01 
8.648750E+02  9.873906E-01 -2.554205E+01  1.857576E-03 3.876369E+01  1.853843E-03 3.856099E+01  9.870771E-01 -2.962214E+01 
8.648813E+02  9.873238E-01 -2.553836E+01  1.874703E-03 3.806058E+01  1.881944E-03 3.842173E+01  9.870384E-01 -2.963234E+01 
8.648875E+02  9.873688E-01 -2.554985E+01  1.908942E-03 3.792372E+01  1.906053E-03 3.766447E+01  9.870649E-01 -2.963911E+01 
8.648937E+02  9.873045E-01 -2.554575E+01  1.941456E-03 3.757799E+01  1.929701E-03 3.724560E+01  9.870887E-01 -2.962972E+01 
8.649000E+02  9.872535E-01 -2.556105E+01  1.966748E-03 3.706402E+01  1.963866E-03 3.666738E+01  9.870340E-01 -2.964793E+01 
8.649062E+02  9.872861E-01 -2.555980E+01  1.994887E-03 3.643487E+01  1.997071E-03 3.649876E+01  9.869962E-01 -2.964695E+01 
8.649125E+02  9.872419E-01 -2.555291E+01  2.026259E-03 3.598494E+01  2.025654E-03 3.605416E+01  9.869038E-01 -2.964968E+01 
8.649188E+02  9.871086E-01 -2.557329E+01  2.058082E-03 3.555968E+01  2.059970E-03 3.571249E+01  9.868064E-01 -2.966834E+01 
8.649250E+02  9.870730E-01 -2.557052E+01  2.102291E-03 3.508113E+01  2.086724E-03 3.517527E+01  9.868517E-01 -2.965688E+01 
8.649312E+02  9.870899E-01 -2.557738E+01  2.131528E-03 3.438133E+01  2.125791E-03 3.448864E+01  9.868050E-01 -2.966623E+01 
8.649375E+02  9.870575E-01 -2.558360E+01  2.163109E-03 3.376941E+01  2.162854E-03 3.375925E+01  9.867251E-01 -2.966843E+01 
8.649438E+02  9.869890E-01 -2.557680E+01  2.206277E-03 3.317006E+01  2.202726E-03 3.337025E+01  9.867533E-01 -2.966728E+01 
8.649500E+02  9.868846E-01 -2.559119E+01  2.242685E-03 3.253723E+01  2.244790E-03 3.263911E+01  9.866483E-01 -2.968359E+01 
8.649562E+02  9.868579E-01 -2.559047E+01  2.283446E-03 3.195002E+01  2.284994E-03 3.167087E+01  9.866023E-01 -2.967893E+01 
8.649625E+02  9.867982E-01 -2.558976E+01  2.332878E-03 3.118864E+01  2.325730E-03 3.097313E+01  9.864979E-01 -2.968598E+01 
8.649688E+02  9.867028E-01 -2.560198E+01  2.380881E-03 3.028973E+01  2.377808E-03 3.035718E+01  9.864298E-01 -2.969290E+01 
8.649750E+02  9.865819E-01 -2.560373E+01  2.432122E-03 2.959291E+01  2.425716E-03 2.935257E+01  9.864299E-01 -2.969216E+01 
