! Matrix data file written by TouchstoneData, EPCOS AG
! FILENAME: "B3746_NB.s2p"
! COMMENT: "S-Parameter B3746 Narrowband (unmatched)"
! INFO: nport=2, nfreq=1601
! DATE: "Tue Jul 22 10:54:14 2008"
! USER: "Thomas Telgmann"
!
! port | pin | signal
! -----|-----|--------
!   1  |  2  |  in
!   2  |  4  |  out
! --------------------
! 
# MHZ S MA R 50
! freq  magS11 angS11  magS21 angS21  magS12 angS12  magS22 angS22
8.635000E+02  9.619768E-01 -4.959360E+01  9.695432E-04 -3.208410E+01  9.668593E-04 -3.248809E+01  9.621128E-01 -5.040826E+01 
8.635063E+02  9.618285E-01 -4.960544E+01  9.621964E-04 -3.041966E+01  9.562921E-04 -3.059952E+01  9.620422E-01 -5.041629E+01 
8.635125E+02  9.619090E-01 -4.960879E+01  9.438393E-04 -2.854469E+01  9.450589E-04 -2.844521E+01  9.622078E-01 -5.042169E+01 
8.635187E+02  9.618527E-01 -4.961513E+01  9.332819E-04 -2.678730E+01  9.295021E-04 -2.640461E+01  9.621605E-01 -5.041935E+01 
8.635250E+02  9.618769E-01 -4.961756E+01  9.216292E-04 -2.533391E+01  9.192892E-04 -2.510495E+01  9.622342E-01 -5.043260E+01 
8.635312E+02  9.619245E-01 -4.962270E+01  9.178504E-04 -2.331043E+01  9.029231E-04 -2.303346E+01  9.621666E-01 -5.043318E+01 
8.635375E+02  9.618858E-01 -4.963234E+01  9.030515E-04 -2.075777E+01  9.024422E-04 -2.118781E+01  9.621220E-01 -5.044457E+01 
8.635438E+02  9.619345E-01 -4.963486E+01  8.957377E-04 -1.837414E+01  9.044599E-04 -1.905790E+01  9.621334E-01 -5.044531E+01 
8.635500E+02  9.619006E-01 -4.963913E+01  8.939035E-04 -1.712561E+01  8.914782E-04 -1.689803E+01  9.622367E-01 -5.045614E+01 
8.635562E+02  9.618939E-01 -4.964835E+01  8.930777E-04 -1.468163E+01  8.952029E-04 -1.455650E+01  9.622848E-01 -5.045947E+01 
8.635625E+02  9.618951E-01 -4.965422E+01  8.937643E-04 -1.238234E+01  8.978677E-04 -1.213808E+01  9.620801E-01 -5.046664E+01 
8.635688E+02  9.619140E-01 -4.966247E+01  8.893206E-04 -1.017908E+01  8.923542E-04 -1.021116E+01  9.621100E-01 -5.046838E+01 
8.635750E+02  9.619457E-01 -4.966688E+01  8.957376E-04 -8.255508E+00  8.981545E-04 -8.094694E+00  9.622603E-01 -5.047317E+01 
8.635812E+02  9.619170E-01 -4.967232E+01  9.041730E-04 -5.473766E+00  8.995751E-04 -5.652616E+00  9.621010E-01 -5.047656E+01 
8.635875E+02  9.619839E-01 -4.968556E+01  9.032844E-04 -3.529481E+00  9.130016E-04 -3.688814E+00  9.621734E-01 -5.048925E+01 
8.635938E+02  9.619137E-01 -4.969171E+01  9.241340E-04 -1.346007E+00  9.265261E-04 -1.662531E+00  9.621639E-01 -5.048990E+01 
8.636000E+02  9.618762E-01 -4.969789E+01  9.289386E-04 7.864519E-01  9.390565E-04 8.746230E-01  9.620966E-01 -5.050094E+01 
8.636063E+02  9.618998E-01 -4.969892E+01  9.524602E-04 2.379391E+00  9.413909E-04 3.038580E+00  9.621063E-01 -5.050073E+01 
8.636125E+02  9.618912E-01 -4.971154E+01  9.630210E-04 4.698897E+00  9.644942E-04 4.758417E+00  9.620397E-01 -5.051419E+01 
8.636187E+02  9.619549E-01 -4.971432E+01  9.906492E-04 6.352008E+00  9.772126E-04 6.550067E+00  9.621044E-01 -5.051847E+01 
8.636250E+02  9.619482E-01 -4.971558E+01  1.010521E-03 8.466936E+00  1.007779E-03 7.977578E+00  9.620896E-01 -5.052534E+01 
8.636313E+02  9.618756E-01 -4.972752E+01  1.024194E-03 9.908231E+00  1.035795E-03 1.004421E+01  9.621444E-01 -5.052775E+01 
8.636375E+02  9.619987E-01 -4.972657E+01  1.053663E-03 1.188051E+01  1.058765E-03 1.143009E+01  9.620935E-01 -5.052924E+01 
8.636437E+02  9.619485E-01 -4.973239E+01  1.083997E-03 1.357515E+01  1.077900E-03 1.361149E+01  9.620617E-01 -5.053745E+01 
8.636500E+02  9.618810E-01 -4.974133E+01  1.116775E-03 1.418428E+01  1.117865E-03 1.485774E+01  9.621610E-01 -5.053811E+01 
8.636562E+02  9.619882E-01 -4.975251E+01  1.141808E-03 1.575215E+01  1.150069E-03 1.615822E+01  9.620857E-01 -5.054878E+01 
8.636625E+02  9.620597E-01 -4.974706E+01  1.185709E-03 1.675856E+01  1.182259E-03 1.711608E+01  9.621027E-01 -5.054841E+01 
8.636688E+02  9.619651E-01 -4.974916E+01  1.220117E-03 1.816957E+01  1.212671E-03 1.808447E+01  9.621254E-01 -5.055349E+01 
8.636750E+02  9.620116E-01 -4.975820E+01  1.252558E-03 1.886341E+01  1.251155E-03 1.899661E+01  9.621961E-01 -5.055914E+01 
8.636812E+02  9.620854E-01 -4.975893E+01  1.294270E-03 1.940714E+01  1.290142E-03 1.996292E+01  9.621371E-01 -5.056003E+01 
8.636875E+02  9.620255E-01 -4.976673E+01  1.333935E-03 2.040759E+01  1.331921E-03 2.039578E+01  9.621124E-01 -5.056517E+01 
8.636938E+02  9.620844E-01 -4.976624E+01  1.375191E-03 2.082731E+01  1.372654E-03 2.081870E+01  9.621646E-01 -5.057104E+01 
8.637000E+02  9.620676E-01 -4.977857E+01  1.416312E-03 2.131826E+01  1.415397E-03 2.169230E+01  9.621182E-01 -5.057689E+01 
8.637062E+02  9.620697E-01 -4.977940E+01  1.464705E-03 2.199587E+01  1.454737E-03 2.186119E+01  9.622116E-01 -5.058291E+01 
8.637125E+02  9.620540E-01 -4.978186E+01  1.518153E-03 2.195279E+01  1.504120E-03 2.190340E+01  9.621088E-01 -5.058559E+01 
8.637188E+02  9.620488E-01 -4.979015E+01  1.551440E-03 2.241345E+01  1.547392E-03 2.189018E+01  9.622195E-01 -5.059093E+01 
8.637250E+02  9.621214E-01 -4.979440E+01  1.588308E-03 2.224565E+01  1.597871E-03 2.207380E+01  9.622348E-01 -5.059852E+01 
8.637313E+02  9.620365E-01 -4.980074E+01  1.643679E-03 2.236738E+01  1.635703E-03 2.252696E+01  9.622900E-01 -5.060841E+01 
8.637375E+02  9.621709E-01 -4.980357E+01  1.684942E-03 2.155455E+01  1.679424E-03 2.190639E+01  9.623347E-01 -5.060912E+01 
8.637437E+02  9.620737E-01 -4.981028E+01  1.726325E-03 2.149710E+01  1.720956E-03 2.187406E+01  9.622976E-01 -5.060927E+01 
8.637500E+02  9.622021E-01 -4.981361E+01  1.765499E-03 2.130250E+01  1.770429E-03 2.117702E+01  9.622877E-01 -5.061748E+01 
8.637563E+02  9.621311E-01 -4.983025E+01  1.809577E-03 2.071698E+01  1.809985E-03 2.102589E+01  9.623804E-01 -5.061934E+01 
8.637625E+02  9.623052E-01 -4.983358E+01  1.847674E-03 2.058072E+01  1.845689E-03 2.069002E+01  9.624097E-01 -5.063126E+01 
8.637687E+02  9.621551E-01 -4.983854E+01  1.888391E-03 2.002271E+01  1.877269E-03 2.001414E+01  9.624248E-01 -5.062905E+01 
8.637750E+02  9.622948E-01 -4.984235E+01  1.920123E-03 1.963828E+01  1.919140E-03 1.957630E+01  9.624772E-01 -5.064022E+01 
8.637812E+02  9.622814E-01 -4.984923E+01  1.960989E-03 1.913045E+01  1.951727E-03 1.916102E+01  9.625547E-01 -5.064125E+01 
8.637875E+02  9.622983E-01 -4.985251E+01  1.988333E-03 1.868459E+01  1.983701E-03 1.878173E+01  9.624979E-01 -5.065026E+01 
8.637938E+02  9.623839E-01 -4.986417E+01  2.015931E-03 1.810659E+01  2.014029E-03 1.788087E+01  9.626470E-01 -5.065348E+01 
8.638000E+02  9.623898E-01 -4.987001E+01  2.046064E-03 1.736799E+01  2.045230E-03 1.748520E+01  9.626455E-01 -5.066138E+01 
8.638062E+02  9.623536E-01 -4.987902E+01  2.078412E-03 1.698918E+01  2.079932E-03 1.704098E+01  9.626823E-01 -5.066657E+01 
8.638125E+02  9.624611E-01 -4.988150E+01  2.103424E-03 1.640491E+01  2.102191E-03 1.628452E+01  9.627051E-01 -5.067104E+01 
8.638188E+02  9.626031E-01 -4.989048E+01  2.126702E-03 1.551253E+01  2.124636E-03 1.575895E+01  9.627713E-01 -5.068070E+01 
8.638250E+02  9.624519E-01 -4.989689E+01  2.145756E-03 1.537083E+01  2.145976E-03 1.520317E+01  9.627291E-01 -5.068502E+01 
8.638312E+02  9.625840E-01 -4.990716E+01  2.175448E-03 1.471322E+01  2.162972E-03 1.486516E+01  9.627685E-01 -5.069527E+01 
8.638375E+02  9.625843E-01 -4.990696E+01  2.189180E-03 1.424184E+01  2.187378E-03 1.430756E+01  9.628564E-01 -5.070121E+01 
8.638438E+02  9.625139E-01 -4.992573E+01  2.203591E-03 1.353990E+01  2.201265E-03 1.388451E+01  9.628463E-01 -5.070613E+01 
8.638500E+02  9.626502E-01 -4.992312E+01  2.217602E-03 1.330514E+01  2.216116E-03 1.316498E+01  9.628889E-01 -5.071541E+01 
8.638563E+02  9.626104E-01 -4.993292E+01  2.237143E-03 1.287604E+01  2.231778E-03 1.273489E+01  9.629016E-01 -5.072258E+01 
8.638625E+02  9.625869E-01 -4.994337E+01  2.252806E-03 1.208638E+01  2.248585E-03 1.241760E+01  9.628522E-01 -5.072433E+01 
8.638687E+02  9.625696E-01 -4.995059E+01  2.255770E-03 1.177785E+01  2.261836E-03 1.187219E+01  9.628995E-01 -5.073792E+01 
8.638750E+02  9.626036E-01 -4.995957E+01  2.273331E-03 1.151358E+01  2.270068E-03 1.160892E+01  9.628729E-01 -5.074397E+01 
8.638813E+02  9.625577E-01 -4.996434E+01  2.290117E-03 1.125242E+01  2.282059E-03 1.115125E+01  9.629303E-01 -5.075006E+01 
8.638875E+02  9.626075E-01 -4.997108E+01  2.297651E-03 1.087673E+01  2.294525E-03 1.076537E+01  9.628661E-01 -5.076076E+01 
8.638937E+02  9.626027E-01 -4.997703E+01  2.304583E-03 1.040235E+01  2.304781E-03 1.056541E+01  9.628926E-01 -5.076205E+01 
8.639000E+02  9.626524E-01 -4.999261E+01  2.313136E-03 9.954343E+00  2.303200E-03 1.030089E+01  9.629839E-01 -5.077438E+01 
8.639062E+02  9.626406E-01 -4.998839E+01  2.325848E-03 9.970816E+00  2.324184E-03 9.969189E+00  9.629298E-01 -5.078122E+01 
8.639125E+02  9.625558E-01 -4.999988E+01  2.332180E-03 9.606119E+00  2.328870E-03 9.676584E+00  9.628373E-01 -5.078510E+01 
8.639188E+02  9.625745E-01 -5.001441E+01  2.341887E-03 9.364536E+00  2.336898E-03 9.474427E+00  9.629318E-01 -5.080053E+01 
8.639250E+02  9.627196E-01 -5.001746E+01  2.353830E-03 9.287240E+00  2.344395E-03 9.281723E+00  9.628863E-01 -5.080559E+01 
8.639312E+02  9.625415E-01 -5.002710E+01  2.355713E-03 9.069237E+00  2.360773E-03 9.122023E+00  9.628938E-01 -5.081393E+01 
8.639375E+02  9.626216E-01 -5.003598E+01  2.370854E-03 8.842529E+00  2.362308E-03 8.896729E+00  9.628847E-01 -5.081768E+01 
8.639438E+02  9.625633E-01 -5.004160E+01  2.371542E-03 8.818207E+00  2.367664E-03 8.583552E+00  9.628599E-01 -5.082611E+01 
8.639500E+02  9.625599E-01 -5.005684E+01  2.390795E-03 8.659291E+00  2.388933E-03 8.472069E+00  9.627748E-01 -5.083240E+01 
8.639562E+02  9.625846E-01 -5.005779E+01  2.400460E-03 8.498926E+00  2.394100E-03 8.305585E+00  9.628956E-01 -5.084172E+01 
8.639625E+02  9.625856E-01 -5.006957E+01  2.399923E-03 8.364156E+00  2.401399E-03 8.440239E+00  9.628545E-01 -5.084851E+01 
8.639688E+02  9.625136E-01 -5.007287E+01  2.420964E-03 8.198865E+00  2.409748E-03 8.249640E+00  9.628957E-01 -5.085264E+01 
8.639750E+02  9.625860E-01 -5.007971E+01  2.427659E-03 8.228027E+00  2.419153E-03 8.160302E+00  9.629279E-01 -5.086491E+01 
8.639813E+02  9.625645E-01 -5.009765E+01  2.437544E-03 8.071788E+00  2.435809E-03 8.178680E+00  9.628685E-01 -5.087101E+01 
8.639875E+02  9.627132E-01 -5.009788E+01  2.444487E-03 8.174776E+00  2.445654E-03 8.054973E+00  9.629352E-01 -5.087791E+01 
8.639937E+02  9.625834E-01 -5.010604E+01  2.458032E-03 7.895132E+00  2.453120E-03 7.890766E+00  9.628374E-01 -5.088332E+01 
8.640000E+02  9.625761E-01 -5.011659E+01  2.472350E-03 7.908828E+00  2.467208E-03 7.869871E+00  9.629153E-01 -5.089831E+01 
8.640063E+02  9.625658E-01 -5.012563E+01  2.487305E-03 7.697054E+00  2.474996E-03 7.741066E+00  9.628211E-01 -5.090342E+01 
8.640125E+02  9.626760E-01 -5.012865E+01  2.498571E-03 7.848129E+00  2.490742E-03 7.759271E+00  9.629053E-01 -5.091254E+01 
8.640187E+02  9.625302E-01 -5.013661E+01  2.500638E-03 7.603296E+00  2.510816E-03 7.813356E+00  9.627831E-01 -5.091935E+01 
8.640250E+02  9.624555E-01 -5.014838E+01  2.524974E-03 7.894821E+00  2.517370E-03 7.878546E+00  9.627971E-01 -5.092617E+01 
8.640312E+02  9.624662E-01 -5.015409E+01  2.530367E-03 7.751697E+00  2.532548E-03 7.691095E+00  9.628647E-01 -5.094000E+01 
8.640375E+02  9.625103E-01 -5.015979E+01  2.547935E-03 7.597284E+00  2.541956E-03 7.679330E+00  9.628980E-01 -5.094892E+01 
8.640438E+02  9.624080E-01 -5.017320E+01  2.560865E-03 7.537021E+00  2.565586E-03 7.685745E+00  9.628935E-01 -5.094750E+01 
8.640500E+02  9.623627E-01 -5.017698E+01  2.577323E-03 7.643515E+00  2.576366E-03 7.755387E+00  9.628515E-01 -5.096493E+01 
8.640562E+02  9.624995E-01 -5.019310E+01  2.591603E-03 7.447675E+00  2.592347E-03 7.548824E+00  9.627889E-01 -5.096772E+01 
8.640625E+02  9.623230E-01 -5.019243E+01  2.610247E-03 7.671329E+00  2.609516E-03 7.719304E+00  9.628548E-01 -5.097603E+01 
8.640688E+02  9.624134E-01 -5.020517E+01  2.621241E-03 7.518204E+00  2.626170E-03 7.608777E+00  9.627911E-01 -5.098035E+01 
8.640750E+02  9.623500E-01 -5.020590E+01  2.646538E-03 7.500711E+00  2.638763E-03 7.441668E+00  9.626797E-01 -5.098900E+01 
8.640812E+02  9.622821E-01 -5.022104E+01  2.656327E-03 7.573259E+00  2.664684E-03 7.661797E+00  9.627370E-01 -5.099889E+01 
8.640875E+02  9.622738E-01 -5.022283E+01  2.677922E-03 7.570003E+00  2.676719E-03 7.613190E+00  9.627284E-01 -5.100269E+01 
8.640938E+02  9.623798E-01 -5.022987E+01  2.697466E-03 7.518129E+00  2.695155E-03 7.478442E+00  9.627741E-01 -5.101219E+01 
8.641000E+02  9.622718E-01 -5.024090E+01  2.715710E-03 7.418153E+00  2.717177E-03 7.308970E+00  9.626824E-01 -5.102048E+01 
8.641063E+02  9.622696E-01 -5.024881E+01  2.747079E-03 7.471358E+00  2.738159E-03 7.511715E+00  9.626676E-01 -5.103066E+01 
8.641125E+02  9.622092E-01 -5.026164E+01  2.768134E-03 7.292701E+00  2.762892E-03 7.485692E+00  9.626590E-01 -5.103306E+01 
8.641187E+02  9.621759E-01 -5.026718E+01  2.783423E-03 7.445004E+00  2.781719E-03 7.389206E+00  9.625661E-01 -5.103791E+01 
8.641250E+02  9.622594E-01 -5.027144E+01  2.807935E-03 7.379203E+00  2.804662E-03 7.368821E+00  9.625387E-01 -5.105585E+01 
8.641313E+02  9.621286E-01 -5.028325E+01  2.824582E-03 7.371995E+00  2.826168E-03 7.364888E+00  9.626073E-01 -5.105399E+01 
8.641375E+02  9.621547E-01 -5.028243E+01  2.852014E-03 7.264157E+00  2.850037E-03 7.406772E+00  9.627061E-01 -5.106656E+01 
8.641437E+02  9.621898E-01 -5.030041E+01  2.880691E-03 7.412011E+00  2.876229E-03 7.198852E+00  9.625310E-01 -5.107688E+01 
8.641500E+02  9.621894E-01 -5.030365E+01  2.904567E-03 7.265121E+00  2.899137E-03 7.254465E+00  9.624704E-01 -5.108290E+01 
8.641562E+02  9.622360E-01 -5.031119E+01  2.926303E-03 7.125363E+00  2.924974E-03 7.202111E+00  9.624974E-01 -5.109717E+01 
8.641625E+02  9.620748E-01 -5.032736E+01  2.953484E-03 7.042437E+00  2.952069E-03 6.982138E+00  9.624652E-01 -5.109903E+01 
8.641688E+02  9.620534E-01 -5.032373E+01  2.989401E-03 6.971466E+00  2.982056E-03 7.000550E+00  9.625112E-01 -5.110913E+01 
8.641750E+02  9.620398E-01 -5.033898E+01  3.014577E-03 6.838328E+00  3.008058E-03 6.855630E+00  9.624724E-01 -5.111854E+01 
8.641812E+02  9.621050E-01 -5.034607E+01  3.045375E-03 6.857976E+00  3.041807E-03 7.133577E+00  9.624832E-01 -5.112423E+01 
8.641875E+02  9.620026E-01 -5.035027E+01  3.072712E-03 6.713720E+00  3.070559E-03 6.765855E+00  9.624452E-01 -5.113626E+01 
8.641938E+02  9.619555E-01 -5.036878E+01  3.108156E-03 6.647982E+00  3.100437E-03 6.684505E+00  9.623179E-01 -5.114385E+01 
8.642000E+02  9.618967E-01 -5.037416E+01  3.137938E-03 6.725808E+00  3.134842E-03 6.599036E+00  9.623020E-01 -5.115253E+01 
8.642062E+02  9.618622E-01 -5.038288E+01  3.168687E-03 6.459508E+00  3.166603E-03 6.502809E+00  9.623175E-01 -5.115623E+01 
8.642125E+02  9.617979E-01 -5.038876E+01  3.207120E-03 6.448685E+00  3.201074E-03 6.332370E+00  9.622681E-01 -5.116914E+01 
8.642188E+02  9.618804E-01 -5.040407E+01  3.240694E-03 6.151990E+00  3.237598E-03 6.290264E+00  9.623677E-01 -5.117965E+01 
8.642250E+02  9.617860E-01 -5.040935E+01  3.275026E-03 6.016221E+00  3.269169E-03 6.139176E+00  9.622207E-01 -5.118445E+01 
8.642313E+02  9.616769E-01 -5.041884E+01  3.318293E-03 5.954805E+00  3.310469E-03 5.898407E+00  9.620753E-01 -5.119304E+01 
8.642375E+02  9.617097E-01 -5.042908E+01  3.353245E-03 5.947788E+00  3.350547E-03 5.807984E+00  9.621345E-01 -5.120087E+01 
8.642437E+02  9.616349E-01 -5.043300E+01  3.400319E-03 5.586229E+00  3.390615E-03 5.658563E+00  9.620804E-01 -5.120837E+01 
8.642500E+02  9.615109E-01 -5.044121E+01  3.439680E-03 5.405586E+00  3.434206E-03 5.441006E+00  9.620508E-01 -5.122130E+01 
8.642563E+02  9.615717E-01 -5.045027E+01  3.486617E-03 5.316959E+00  3.475686E-03 5.371124E+00  9.619282E-01 -5.122329E+01 
8.642625E+02  9.615249E-01 -5.045775E+01  3.532885E-03 5.160076E+00  3.517335E-03 5.080937E+00  9.620342E-01 -5.123651E+01 
8.642687E+02  9.614567E-01 -5.046741E+01  3.567545E-03 4.819493E+00  3.563388E-03 4.816394E+00  9.618259E-01 -5.124205E+01 
8.642750E+02  9.614062E-01 -5.047711E+01  3.617445E-03 4.655686E+00  3.608813E-03 4.697365E+00  9.618412E-01 -5.124943E+01 
8.642812E+02  9.614900E-01 -5.048682E+01  3.662733E-03 4.337412E+00  3.659246E-03 4.365122E+00  9.618389E-01 -5.125618E+01 
8.642875E+02  9.613243E-01 -5.049414E+01  3.717874E-03 4.283411E+00  3.708107E-03 4.210701E+00  9.617754E-01 -5.126618E+01 
8.642938E+02  9.613389E-01 -5.050010E+01  3.763507E-03 3.902225E+00  3.769972E-03 3.881046E+00  9.617074E-01 -5.127482E+01 
8.643000E+02  9.612802E-01 -5.051514E+01  3.822601E-03 3.457844E+00  3.810355E-03 3.528603E+00  9.616719E-01 -5.128085E+01 
8.643062E+02  9.610932E-01 -5.052748E+01  3.881854E-03 3.195945E+00  3.877433E-03 3.335748E+00  9.616944E-01 -5.129450E+01 
8.643125E+02  9.612226E-01 -5.053141E+01  3.933390E-03 2.888943E+00  3.925460E-03 2.962515E+00  9.615969E-01 -5.130467E+01 
8.643188E+02  9.610611E-01 -5.054472E+01  3.997777E-03 2.674713E+00  3.988151E-03 2.579052E+00  9.614828E-01 -5.131052E+01 
8.643250E+02  9.610226E-01 -5.055103E+01  4.056470E-03 2.245122E+00  4.043803E-03 2.406345E+00  9.613731E-01 -5.131849E+01 
8.643312E+02  9.608478E-01 -5.056410E+01  4.121188E-03 1.912561E+00  4.107324E-03 1.912661E+00  9.613408E-01 -5.133207E+01 
8.643375E+02  9.607263E-01 -5.057513E+01  4.185118E-03 1.480907E+00  4.183799E-03 1.514455E+00  9.613132E-01 -5.134089E+01 
8.643438E+02  9.606540E-01 -5.058347E+01  4.255375E-03 1.211334E+00  4.246598E-03 1.100680E+00  9.612561E-01 -5.134852E+01 
8.643500E+02  9.606609E-01 -5.059293E+01  4.316045E-03 6.389444E-01  4.322944E-03 6.639470E-01  9.611190E-01 -5.135609E+01 
8.643563E+02  9.604604E-01 -5.059882E+01  4.396965E-03 1.811633E-01  4.391083E-03 2.095630E-01  9.610273E-01 -5.136787E+01 
8.643625E+02  9.604822E-01 -5.060959E+01  4.474389E-03 -2.299834E-01  4.465189E-03 -2.858652E-01  9.609164E-01 -5.138053E+01 
8.643687E+02  9.603476E-01 -5.062152E+01  4.553196E-03 -8.140782E-01  4.543529E-03 -7.785207E-01  9.609135E-01 -5.138440E+01 
8.643750E+02  9.602837E-01 -5.063712E+01  4.643318E-03 -1.476294E+00  4.626545E-03 -1.344567E+00  9.609496E-01 -5.139812E+01 
8.643813E+02  9.601472E-01 -5.063724E+01  4.718547E-03 -1.967353E+00  4.711949E-03 -1.926959E+00  9.608155E-01 -5.140332E+01 
8.643875E+02  9.599861E-01 -5.064816E+01  4.811697E-03 -2.551797E+00  4.804020E-03 -2.559829E+00  9.606393E-01 -5.141484E+01 
8.643937E+02  9.599570E-01 -5.065723E+01  4.902269E-03 -3.281028E+00  4.887537E-03 -3.221591E+00  9.606021E-01 -5.142487E+01 
8.644000E+02  9.597765E-01 -5.066622E+01  4.993595E-03 -3.956800E+00  4.983447E-03 -3.813883E+00  9.604727E-01 -5.143144E+01 
8.644062E+02  9.596177E-01 -5.067983E+01  5.086201E-03 -4.614404E+00  5.079972E-03 -4.613269E+00  9.602564E-01 -5.144609E+01 
8.644125E+02  9.595818E-01 -5.068342E+01  5.197640E-03 -5.423629E+00  5.186604E-03 -5.400679E+00  9.603137E-01 -5.145562E+01 
8.644188E+02  9.593284E-01 -5.068935E+01  5.311439E-03 -6.222228E+00  5.297577E-03 -6.129298E+00  9.600511E-01 -5.146336E+01 
8.644250E+02  9.592340E-01 -5.069849E+01  5.410337E-03 -7.028322E+00  5.406338E-03 -7.062002E+00  9.599230E-01 -5.147086E+01 
8.644312E+02  9.591249E-01 -5.070599E+01  5.530159E-03 -8.025125E+00  5.518435E-03 -7.888393E+00  9.598217E-01 -5.148274E+01 
8.644375E+02  9.588801E-01 -5.071800E+01  5.647653E-03 -8.875572E+00  5.640796E-03 -8.909161E+00  9.597049E-01 -5.149014E+01 
8.644438E+02  9.588113E-01 -5.072057E+01  5.770441E-03 -9.960449E+00  5.763351E-03 -9.924362E+00  9.595423E-01 -5.149829E+01 
8.644500E+02  9.585769E-01 -5.073326E+01  5.901942E-03 -1.103328E+01  5.895959E-03 -1.096200E+01  9.593145E-01 -5.150631E+01 
8.644562E+02  9.584310E-01 -5.073971E+01  6.027259E-03 -1.225812E+01  6.020224E-03 -1.212512E+01  9.591820E-01 -5.151397E+01 
8.644625E+02  9.581741E-01 -5.074825E+01  6.172268E-03 -1.337063E+01  6.161603E-03 -1.335028E+01  9.589308E-01 -5.151491E+01 
