! S-parameter for B3743 in Touchstone format with magnitude (lin) and phase
! Normalised impedance: 50 Ohm. Measurement system: 50 Ohm Ta = 25°C
! B3743_NB.s2p not matched. Measurement full 2-port calibrated incl. Port ext.
! Start: 431.42MHz, Stop: 436.42MHz, Span: 5MHz, 1601 Pts., Step: 3.1kHz
! Date:22/02/08 Epcos SAW COM WT AE PD, AB
! Pinning according data sheet recommendation, In P1, Out P4, all others GND
!
# MHZ S MA R 50
! freq  magS11 angS11  magS21 angS21  magS12 angS12  magS22 angS22
4.314200E+02  9.899314E-01 -3.609994E+01  9.346795E-05 2.321578E+01  8.718322E-05 2.643364E+01  9.870861E-01 -3.519186E+01 
4.314231E+02  9.897897E-01 -3.610911E+01  8.814746E-05 2.592833E+01  8.936967E-05 1.812210E+01  9.870211E-01 -3.519654E+01 
4.314263E+02  9.897545E-01 -3.610530E+01  8.301629E-05 1.749401E+01  8.632293E-05 1.679954E+01  9.868959E-01 -3.519444E+01 
4.314294E+02  9.898397E-01 -3.611130E+01  7.567038E-05 1.365673E+01  8.416356E-05 1.115344E+01  9.869493E-01 -3.519579E+01 
4.314325E+02  9.898662E-01 -3.611481E+01  8.555317E-05 1.993278E+00  8.068654E-05 6.717316E+00  9.870971E-01 -3.520611E+01 
4.314356E+02  9.898209E-01 -3.611408E+01  8.361299E-05 5.373724E+00  7.895812E-05 6.779161E-01  9.869907E-01 -3.520508E+01 
4.314388E+02  9.898323E-01 -3.611183E+01  8.356652E-05 -6.661294E+00  8.006042E-05 -4.190737E+00  9.868652E-01 -3.521440E+01 
4.314419E+02  9.898499E-01 -3.612190E+01  7.922193E-05 -6.752776E+00  7.851541E-05 -8.482649E+00  9.870261E-01 -3.521553E+01 
4.314450E+02  9.897145E-01 -3.612208E+01  8.231567E-05 -9.164107E+00  6.720637E-05 -1.552975E+01  9.869360E-01 -3.521585E+01 
4.314481E+02  9.897554E-01 -3.612184E+01  7.734272E-05 -1.772613E+01  8.092680E-05 -1.191068E+01  9.869075E-01 -3.521784E+01 
4.314513E+02  9.897585E-01 -3.612612E+01  8.637292E-05 -1.784515E+01  8.427133E-05 -1.816261E+01  9.869326E-01 -3.522592E+01 
4.314544E+02  9.896835E-01 -3.612641E+01  8.386585E-05 -2.691548E+01  8.749803E-05 -2.753344E+01  9.869879E-01 -3.522616E+01 
4.314575E+02  9.898157E-01 -3.613058E+01  8.197554E-05 -3.202206E+01  7.810863E-05 -2.863263E+01  9.869361E-01 -3.522903E+01 
4.314606E+02  9.897375E-01 -3.613604E+01  7.940642E-05 -3.412117E+01  8.313005E-05 -3.421763E+01  9.870371E-01 -3.522837E+01 
4.314638E+02  9.896822E-01 -3.614072E+01  8.888571E-05 -3.784454E+01  8.597236E-05 -3.662295E+01  9.869210E-01 -3.523893E+01 
4.314669E+02  9.898109E-01 -3.614553E+01  9.398500E-05 -4.321056E+01  9.094538E-05 -4.113575E+01  9.869600E-01 -3.523721E+01 
4.314700E+02  9.898216E-01 -3.613924E+01  9.931036E-05 -4.509018E+01  9.474693E-05 -4.653507E+01  9.868054E-01 -3.524659E+01 
4.314731E+02  9.898261E-01 -3.615190E+01  9.120159E-05 -4.841728E+01  9.338271E-05 -4.651481E+01  9.869087E-01 -3.524159E+01 
4.314762E+02  9.897916E-01 -3.614943E+01  9.942054E-05 -5.145200E+01  1.022443E-04 -4.994090E+01  9.868943E-01 -3.524813E+01 
4.314794E+02  9.897647E-01 -3.615369E+01  1.001846E-04 -4.883248E+01  1.077163E-04 -5.416792E+01  9.868929E-01 -3.524414E+01 
4.314825E+02  9.898198E-01 -3.615205E+01  1.077765E-04 -5.513741E+01  1.092836E-04 -5.498179E+01  9.869666E-01 -3.525118E+01 
4.314856E+02  9.897551E-01 -3.615739E+01  1.115000E-04 -5.810953E+01  1.140002E-04 -5.805395E+01  9.868481E-01 -3.526165E+01 
4.314888E+02  9.897227E-01 -3.616431E+01  1.107040E-04 -6.080967E+01  1.152458E-04 -6.151155E+01  9.869235E-01 -3.525575E+01 
4.314919E+02  9.897127E-01 -3.616633E+01  1.250619E-04 -6.636303E+01  1.196664E-04 -6.100299E+01  9.869172E-01 -3.525755E+01 
4.314950E+02  9.896561E-01 -3.617079E+01  1.247847E-04 -6.857449E+01  1.188349E-04 -6.479156E+01  9.870279E-01 -3.526646E+01 
4.314981E+02  9.897397E-01 -3.616957E+01  1.225339E-04 -6.463765E+01  1.257340E-04 -6.830250E+01  9.869182E-01 -3.526905E+01 
4.315013E+02  9.897880E-01 -3.617572E+01  1.295806E-04 -7.243787E+01  1.318475E-04 -7.071281E+01  9.869009E-01 -3.527209E+01 
4.315044E+02  9.896936E-01 -3.617346E+01  1.394975E-04 -7.130574E+01  1.342277E-04 -6.880964E+01  9.868438E-01 -3.527412E+01 
4.315075E+02  9.897741E-01 -3.618718E+01  1.419740E-04 -7.104014E+01  1.398711E-04 -7.181457E+01  9.869099E-01 -3.527470E+01 
4.315106E+02  9.897350E-01 -3.618447E+01  1.396364E-04 -7.676607E+01  1.420379E-04 -7.176547E+01  9.869025E-01 -3.527684E+01 
4.315138E+02  9.895954E-01 -3.618885E+01  1.498420E-04 -7.613946E+01  1.483840E-04 -7.509634E+01  9.868458E-01 -3.527462E+01 
4.315169E+02  9.896539E-01 -3.619032E+01  1.462142E-04 -7.753788E+01  1.500194E-04 -7.658547E+01  9.868607E-01 -3.528366E+01 
4.315200E+02  9.897230E-01 -3.619356E+01  1.618393E-04 -7.666846E+01  1.567408E-04 -7.783277E+01  9.867523E-01 -3.528417E+01 
4.315231E+02  9.896899E-01 -3.619543E+01  1.561677E-04 -8.063510E+01  1.613708E-04 -7.795617E+01  9.868177E-01 -3.528721E+01 
4.315263E+02  9.897146E-01 -3.619827E+01  1.694766E-04 -7.820111E+01  1.661976E-04 -7.986707E+01  9.868067E-01 -3.529094E+01 
4.315294E+02  9.896506E-01 -3.620708E+01  1.682519E-04 -8.330827E+01  1.770413E-04 -8.301929E+01  9.868798E-01 -3.529380E+01 
4.315325E+02  9.896632E-01 -3.621438E+01  1.773341E-04 -8.309218E+01  1.741255E-04 -8.170756E+01  9.870477E-01 -3.530138E+01 
4.315356E+02  9.897686E-01 -3.621373E+01  1.789348E-04 -8.269501E+01  1.812974E-04 -8.239672E+01  9.870150E-01 -3.529823E+01 
4.315387E+02  9.896054E-01 -3.620841E+01  1.878482E-04 -8.432002E+01  1.878413E-04 -8.446254E+01  9.870636E-01 -3.530849E+01 
4.315419E+02  9.897477E-01 -3.622170E+01  1.930506E-04 -8.512501E+01  1.932696E-04 -8.483344E+01  9.869196E-01 -3.530325E+01 
4.315450E+02  9.897574E-01 -3.621903E+01  1.936127E-04 -8.723890E+01  1.947606E-04 -8.529067E+01  9.869510E-01 -3.530921E+01 
4.315481E+02  9.897226E-01 -3.622696E+01  2.042627E-04 -8.701031E+01  2.000953E-04 -8.531042E+01  9.870066E-01 -3.530757E+01 
4.315513E+02  9.897511E-01 -3.623017E+01  2.044913E-04 -8.730360E+01  2.047304E-04 -8.818059E+01  9.869772E-01 -3.531809E+01 
4.315544E+02  9.896014E-01 -3.623224E+01  2.093996E-04 -8.626169E+01  2.072138E-04 -8.895068E+01  9.868953E-01 -3.532071E+01 
4.315575E+02  9.897388E-01 -3.623338E+01  2.145908E-04 -8.852952E+01  2.036146E-04 -9.016925E+01  9.868754E-01 -3.532375E+01 
4.315606E+02  9.896652E-01 -3.624023E+01  2.123860E-04 -8.901655E+01  2.070625E-04 -8.956517E+01  9.867451E-01 -3.532784E+01 
4.315638E+02  9.896641E-01 -3.623846E+01  2.207071E-04 -9.042329E+01  2.195812E-04 -9.073511E+01  9.870070E-01 -3.533366E+01 
4.315669E+02  9.895686E-01 -3.624240E+01  2.279368E-04 -9.066688E+01  2.168297E-04 -9.203015E+01  9.869044E-01 -3.534036E+01 
4.315700E+02  9.896584E-01 -3.624374E+01  2.268598E-04 -9.061782E+01  2.330741E-04 -9.058740E+01  9.867531E-01 -3.533936E+01 
4.315731E+02  9.895069E-01 -3.625080E+01  2.335572E-04 -9.212822E+01  2.317150E-04 -9.260227E+01  9.869072E-01 -3.534189E+01 
4.315763E+02  9.896298E-01 -3.625087E+01  2.340502E-04 -9.118649E+01  2.377861E-04 -9.166967E+01  9.869713E-01 -3.534284E+01 
4.315794E+02  9.895300E-01 -3.625761E+01  2.461570E-04 -9.355784E+01  2.372748E-04 -9.458224E+01  9.869158E-01 -3.534210E+01 
4.315825E+02  9.895513E-01 -3.626290E+01  2.487736E-04 -9.452711E+01  2.489800E-04 -9.315863E+01  9.867400E-01 -3.534886E+01 
4.315856E+02  9.895548E-01 -3.626234E+01  2.483983E-04 -9.370531E+01  2.419788E-04 -9.263107E+01  9.868831E-01 -3.535302E+01 
4.315888E+02  9.895400E-01 -3.626650E+01  2.584448E-04 -9.472472E+01  2.409003E-04 -9.350000E+01  9.868970E-01 -3.535372E+01 
4.315919E+02  9.894910E-01 -3.627052E+01  2.650026E-04 -9.411738E+01  2.605574E-04 -9.541243E+01  9.868620E-01 -3.535384E+01 
4.315950E+02  9.895199E-01 -3.626422E+01  2.573145E-04 -9.617005E+01  2.664348E-04 -9.537029E+01  9.868976E-01 -3.536366E+01 
4.315981E+02  9.896353E-01 -3.627398E+01  2.620645E-04 -9.611850E+01  2.651113E-04 -9.579452E+01  9.868462E-01 -3.536599E+01 
4.316012E+02  9.896574E-01 -3.626983E+01  2.738424E-04 -9.440188E+01  2.727581E-04 -9.603337E+01  9.867347E-01 -3.536584E+01 
4.316044E+02  9.894516E-01 -3.627739E+01  2.819875E-04 -9.784990E+01  2.735981E-04 -9.534991E+01  9.868211E-01 -3.537211E+01 
4.316075E+02  9.895873E-01 -3.627442E+01  2.804234E-04 -9.794044E+01  2.768756E-04 -9.673131E+01  9.867599E-01 -3.537241E+01 
4.316106E+02  9.894995E-01 -3.628798E+01  2.805255E-04 -9.742045E+01  2.807387E-04 -9.731674E+01  9.868666E-01 -3.537355E+01 
4.316138E+02  9.895363E-01 -3.628779E+01  2.877590E-04 -9.727960E+01  2.831661E-04 -9.776292E+01  9.867251E-01 -3.537781E+01 
4.316169E+02  9.894217E-01 -3.629220E+01  2.928447E-04 -9.857766E+01  2.930705E-04 -9.866697E+01  9.868545E-01 -3.538055E+01 
4.316200E+02  9.893924E-01 -3.629383E+01  2.945348E-04 -9.835859E+01  2.921939E-04 -9.840845E+01  9.868207E-01 -3.538476E+01 
4.316231E+02  9.895402E-01 -3.629633E+01  2.999415E-04 -9.812543E+01  2.963354E-04 -9.912351E+01  9.867299E-01 -3.539224E+01 
4.316263E+02  9.895504E-01 -3.630399E+01  2.968492E-04 -1.003249E+02  2.989370E-04 -9.953196E+01  9.867707E-01 -3.539297E+01 
4.316294E+02  9.895870E-01 -3.630820E+01  3.037826E-04 -1.001181E+02  3.048914E-04 -1.003438E+02  9.867176E-01 -3.539000E+01 
4.316325E+02  9.895259E-01 -3.630943E+01  3.091683E-04 -1.006027E+02  3.146602E-04 -1.000943E+02  9.867508E-01 -3.540028E+01 
4.316356E+02  9.894688E-01 -3.631018E+01  3.137953E-04 -9.958135E+01  3.142303E-04 -1.008792E+02  9.867191E-01 -3.540215E+01 
4.316388E+02  9.895101E-01 -3.631180E+01  3.217842E-04 -1.006641E+02  3.157983E-04 -1.002871E+02  9.866361E-01 -3.540721E+01 
4.316419E+02  9.894750E-01 -3.632168E+01  3.327126E-04 -1.007665E+02  3.302641E-04 -1.003719E+02  9.868673E-01 -3.540787E+01 
4.316450E+02  9.895033E-01 -3.631836E+01  3.293348E-04 -1.007740E+02  3.299885E-04 -1.012394E+02  9.867329E-01 -3.540715E+01 
4.316481E+02  9.895771E-01 -3.632322E+01  3.329206E-04 -1.024230E+02  3.358640E-04 -1.018651E+02  9.867444E-01 -3.541734E+01 
4.316513E+02  9.895257E-01 -3.633127E+01  3.375034E-04 -1.016724E+02  3.357178E-04 -1.020173E+02  9.866858E-01 -3.542292E+01 
4.316544E+02  9.893478E-01 -3.633327E+01  3.377813E-04 -1.016720E+02  3.416769E-04 -1.028294E+02  9.867420E-01 -3.542440E+01 
4.316575E+02  9.893335E-01 -3.633763E+01  3.433165E-04 -1.029391E+02  3.425222E-04 -1.022971E+02  9.868661E-01 -3.542443E+01 
4.316606E+02  9.895175E-01 -3.633988E+01  3.494894E-04 -1.031574E+02  3.538669E-04 -1.034487E+02  9.867415E-01 -3.542398E+01 
4.316637E+02  9.894844E-01 -3.634175E+01  3.546760E-04 -1.040245E+02  3.561888E-04 -1.031637E+02  9.868507E-01 -3.542589E+01 
4.316669E+02  9.895740E-01 -3.634619E+01  3.605821E-04 -1.038055E+02  3.522187E-04 -1.025039E+02  9.868354E-01 -3.543100E+01 
4.316700E+02  9.895363E-01 -3.635201E+01  3.686539E-04 -1.043307E+02  3.629329E-04 -1.025054E+02  9.868659E-01 -3.543451E+01 
4.316731E+02  9.894837E-01 -3.635556E+01  3.629725E-04 -1.038753E+02  3.569015E-04 -1.028266E+02  9.868481E-01 -3.543879E+01 
4.316763E+02  9.895242E-01 -3.635759E+01  3.718920E-04 -1.039208E+02  3.697057E-04 -1.035765E+02  9.868570E-01 -3.544236E+01 
4.316794E+02  9.896388E-01 -3.636244E+01  3.768213E-04 -1.051610E+02  3.758958E-04 -1.036383E+02  9.868415E-01 -3.545022E+01 
4.316825E+02  9.895570E-01 -3.636561E+01  3.801897E-04 -1.040101E+02  3.736582E-04 -1.045069E+02  9.868764E-01 -3.544894E+01 
4.316856E+02  9.894328E-01 -3.636620E+01  3.912123E-04 -1.044688E+02  3.843764E-04 -1.053052E+02  9.868089E-01 -3.545498E+01 
4.316888E+02  9.895127E-01 -3.637294E+01  3.893531E-04 -1.055780E+02  3.811572E-04 -1.043729E+02  9.868217E-01 -3.546294E+01 
4.316919E+02  9.894938E-01 -3.637706E+01  3.951801E-04 -1.048618E+02  3.925969E-04 -1.051799E+02  9.868807E-01 -3.546101E+01 
4.316950E+02  9.894250E-01 -3.637899E+01  3.990116E-04 -1.056629E+02  3.988415E-04 -1.054410E+02  9.867319E-01 -3.546377E+01 
4.316981E+02  9.895571E-01 -3.638127E+01  4.091276E-04 -1.055626E+02  3.987244E-04 -1.055711E+02  9.867781E-01 -3.546250E+01 
4.317013E+02  9.894789E-01 -3.638415E+01  4.008298E-04 -1.058883E+02  4.028242E-04 -1.057879E+02  9.868129E-01 -3.547253E+01 
4.317044E+02  9.895734E-01 -3.638885E+01  3.992092E-04 -1.063844E+02  4.053398E-04 -1.064370E+02  9.868172E-01 -3.547831E+01 
4.317075E+02  9.894542E-01 -3.639413E+01  4.075609E-04 -1.064068E+02  4.076261E-04 -1.061688E+02  9.867725E-01 -3.547902E+01 
4.317106E+02  9.894253E-01 -3.639224E+01  4.188814E-04 -1.070086E+02  4.147228E-04 -1.067809E+02  9.867956E-01 -3.547924E+01 
4.317138E+02  9.895302E-01 -3.639644E+01  4.190953E-04 -1.064687E+02  4.237813E-04 -1.066413E+02  9.867329E-01 -3.549025E+01 
4.317169E+02  9.894342E-01 -3.640586E+01  4.319225E-04 -1.073987E+02  4.202606E-04 -1.065615E+02  9.867632E-01 -3.548894E+01 
4.317200E+02  9.895669E-01 -3.640653E+01  4.288641E-04 -1.073491E+02  4.306626E-04 -1.062506E+02  9.867282E-01 -3.549728E+01 
4.317231E+02  9.894118E-01 -3.641008E+01  4.343149E-04 -1.072144E+02  4.278356E-04 -1.068201E+02  9.866762E-01 -3.549667E+01 
4.317262E+02  9.893641E-01 -3.640971E+01  4.373468E-04 -1.077876E+02  4.439857E-04 -1.081718E+02  9.867351E-01 -3.549590E+01 
4.317294E+02  9.894959E-01 -3.641357E+01  4.513586E-04 -1.072799E+02  4.415089E-04 -1.078262E+02  9.866932E-01 -3.550407E+01 
4.317325E+02  9.894909E-01 -3.642265E+01  4.499358E-04 -1.078481E+02  4.408255E-04 -1.081728E+02  9.867524E-01 -3.550606E+01 
4.317356E+02  9.895446E-01 -3.641939E+01  4.563122E-04 -1.079150E+02  4.464720E-04 -1.082789E+02  9.867688E-01 -3.551468E+01 
4.317388E+02  9.893701E-01 -3.642692E+01  4.606907E-04 -1.078196E+02  4.599678E-04 -1.084452E+02  9.866874E-01 -3.551042E+01 
4.317419E+02  9.894455E-01 -3.643089E+01  4.629950E-04 -1.089998E+02  4.626730E-04 -1.080001E+02  9.868161E-01 -3.551536E+01 
4.317450E+02  9.895878E-01 -3.643455E+01  4.664450E-04 -1.081319E+02  4.576434E-04 -1.088885E+02  9.867361E-01 -3.552286E+01 
4.317481E+02  9.895594E-01 -3.643329E+01  4.695955E-04 -1.091825E+02  4.738987E-04 -1.095901E+02  9.867323E-01 -3.552717E+01 
4.317513E+02  9.895944E-01 -3.643465E+01  4.685939E-04 -1.091772E+02  4.639097E-04 -1.084581E+02  9.867582E-01 -3.552997E+01 
4.317544E+02  9.894612E-01 -3.644533E+01  4.773390E-04 -1.096275E+02  4.743987E-04 -1.090122E+02  9.867456E-01 -3.552967E+01 
4.317575E+02  9.894777E-01 -3.644044E+01  4.844053E-04 -1.096335E+02  4.789748E-04 -1.094892E+02  9.867558E-01 -3.553274E+01 
4.317606E+02  9.896005E-01 -3.644423E+01  4.867343E-04 -1.102848E+02  4.889859E-04 -1.099780E+02  9.868613E-01 -3.554134E+01 
4.317638E+02  9.895487E-01 -3.644875E+01  4.934115E-04 -1.100242E+02  4.881099E-04 -1.100142E+02  9.867288E-01 -3.554051E+01 
4.317669E+02  9.896269E-01 -3.645264E+01  4.911806E-04 -1.098398E+02  4.926820E-04 -1.100059E+02  9.867922E-01 -3.554815E+01 
4.317700E+02  9.894881E-01 -3.646086E+01  5.002269E-04 -1.095715E+02  4.989944E-04 -1.108264E+02  9.867487E-01 -3.555214E+01 
4.317731E+02  9.894773E-01 -3.645904E+01  5.009618E-04 -1.104954E+02  5.019615E-04 -1.108858E+02  9.868407E-01 -3.556034E+01 
4.317763E+02  9.895252E-01 -3.646881E+01  5.138771E-04 -1.105737E+02  5.095774E-04 -1.105442E+02  9.867539E-01 -3.555901E+01 
4.317794E+02  9.894063E-01 -3.647816E+01  5.168988E-04 -1.105944E+02  5.121450E-04 -1.106295E+02  9.867977E-01 -3.556400E+01 
4.317825E+02  9.895841E-01 -3.647441E+01  5.184519E-04 -1.105188E+02  5.180813E-04 -1.107607E+02  9.867435E-01 -3.556591E+01 
4.317856E+02  9.894354E-01 -3.647956E+01  5.253984E-04 -1.104806E+02  5.248081E-04 -1.104319E+02  9.866794E-01 -3.556896E+01 
4.317887E+02  9.893580E-01 -3.648060E+01  5.285968E-04 -1.116194E+02  5.236438E-04 -1.107025E+02  9.866527E-01 -3.556868E+01 
4.317919E+02  9.894620E-01 -3.648977E+01  5.291427E-04 -1.110909E+02  5.313165E-04 -1.111604E+02  9.866475E-01 -3.557585E+01 
4.317950E+02  9.893996E-01 -3.649735E+01  5.397662E-04 -1.118906E+02  5.330375E-04 -1.114097E+02  9.867126E-01 -3.557842E+01 
4.317981E+02  9.894710E-01 -3.650003E+01  5.422581E-04 -1.115439E+02  5.379685E-04 -1.113413E+02  9.867811E-01 -3.558181E+01 
4.318013E+02  9.894187E-01 -3.650196E+01  5.496000E-04 -1.120528E+02  5.479746E-04 -1.112192E+02  9.866540E-01 -3.558647E+01 
4.318044E+02  9.893056E-01 -3.650557E+01  5.524648E-04 -1.118482E+02  5.524020E-04 -1.113749E+02  9.867524E-01 -3.559032E+01 
4.318075E+02  9.894824E-01 -3.650957E+01  5.580118E-04 -1.120731E+02  5.553013E-04 -1.124208E+02  9.865833E-01 -3.559260E+01 
4.318106E+02  9.893010E-01 -3.651178E+01  5.638876E-04 -1.114051E+02  5.605773E-04 -1.114469E+02  9.866867E-01 -3.559755E+01 
4.318138E+02  9.893511E-01 -3.651321E+01  5.721621E-04 -1.116723E+02  5.697448E-04 -1.120028E+02  9.867202E-01 -3.559779E+01 
4.318169E+02  9.894253E-01 -3.651733E+01  5.864633E-04 -1.120442E+02  5.729473E-04 -1.125724E+02  9.866289E-01 -3.560686E+01 
4.318200E+02  9.894950E-01 -3.652279E+01  5.805103E-04 -1.124394E+02  5.745018E-04 -1.122576E+02  9.867541E-01 -3.561101E+01 
4.318231E+02  9.894452E-01 -3.652796E+01  5.731147E-04 -1.121020E+02  5.822860E-04 -1.125059E+02  9.866611E-01 -3.560687E+01 
4.318263E+02  9.892656E-01 -3.653194E+01  5.893883E-04 -1.131854E+02  5.849032E-04 -1.123825E+02  9.866542E-01 -3.561454E+01 
4.318294E+02  9.893443E-01 -3.652699E+01  5.956640E-04 -1.128747E+02  5.974636E-04 -1.130463E+02  9.867575E-01 -3.561503E+01 
4.318325E+02  9.894052E-01 -3.653551E+01  6.020155E-04 -1.125199E+02  5.968828E-04 -1.131127E+02  9.866080E-01 -3.562980E+01 
4.318356E+02  9.894784E-01 -3.653980E+01  6.041944E-04 -1.130548E+02  6.024014E-04 -1.136482E+02  9.866780E-01 -3.563034E+01 
4.318388E+02  9.894092E-01 -3.654990E+01  6.129328E-04 -1.142313E+02  6.102413E-04 -1.137704E+02  9.866953E-01 -3.563583E+01 
4.318419E+02  9.894049E-01 -3.655195E+01  6.123179E-04 -1.136194E+02  6.080374E-04 -1.135815E+02  9.864884E-01 -3.563344E+01 
4.318450E+02  9.894751E-01 -3.655220E+01  6.226523E-04 -1.141794E+02  6.178866E-04 -1.135629E+02  9.866986E-01 -3.563580E+01 
4.318481E+02  9.894240E-01 -3.656045E+01  6.231438E-04 -1.133168E+02  6.197570E-04 -1.143107E+02  9.866298E-01 -3.564879E+01 
4.318512E+02  9.894705E-01 -3.655912E+01  6.329180E-04 -1.136779E+02  6.254016E-04 -1.132814E+02  9.864643E-01 -3.564961E+01 
4.318544E+02  9.893348E-01 -3.656823E+01  6.394366E-04 -1.143240E+02  6.357294E-04 -1.142114E+02  9.866067E-01 -3.565447E+01 
4.318575E+02  9.893098E-01 -3.657273E+01  6.445447E-04 -1.137867E+02  6.387660E-04 -1.140049E+02  9.865148E-01 -3.565327E+01 
4.318606E+02  9.894624E-01 -3.657288E+01  6.479525E-04 -1.148236E+02  6.406017E-04 -1.145782E+02  9.865838E-01 -3.566144E+01 
4.318638E+02  9.893985E-01 -3.657911E+01  6.521316E-04 -1.151986E+02  6.473273E-04 -1.148516E+02  9.865497E-01 -3.566593E+01 
4.318669E+02  9.894537E-01 -3.658381E+01  6.657307E-04 -1.137024E+02  6.554815E-04 -1.142196E+02  9.865309E-01 -3.566987E+01 
4.318700E+02  9.893202E-01 -3.659239E+01  6.643367E-04 -1.145087E+02  6.653424E-04 -1.144172E+02  9.865494E-01 -3.567291E+01 
4.318731E+02  9.892592E-01 -3.659118E+01  6.728601E-04 -1.151833E+02  6.688445E-04 -1.148615E+02  9.865432E-01 -3.567969E+01 
4.318763E+02  9.894814E-01 -3.659687E+01  6.745032E-04 -1.154524E+02  6.766144E-04 -1.149581E+02  9.866205E-01 -3.568276E+01 
4.318794E+02  9.893773E-01 -3.659906E+01  6.861107E-04 -1.151783E+02  6.775748E-04 -1.152254E+02  9.865258E-01 -3.568283E+01 
4.318825E+02  9.894293E-01 -3.660562E+01  6.900455E-04 -1.157100E+02  6.896949E-04 -1.152565E+02  9.865695E-01 -3.569263E+01 
4.318856E+02  9.892533E-01 -3.661133E+01  6.911572E-04 -1.156618E+02  6.896042E-04 -1.155466E+02  9.866331E-01 -3.569122E+01 
4.318888E+02  9.893141E-01 -3.660914E+01  7.043532E-04 -1.162778E+02  7.054062E-04 -1.158163E+02  9.865270E-01 -3.569969E+01 
4.318919E+02  9.892818E-01 -3.660895E+01  7.025242E-04 -1.166931E+02  7.040539E-04 -1.158458E+02  9.866137E-01 -3.570646E+01 
4.318950E+02  9.892530E-01 -3.661960E+01  7.109322E-04 -1.159554E+02  7.122118E-04 -1.157718E+02  9.864818E-01 -3.571145E+01 
