! S-Parameter for B3742 in Touchstone format with Magnitude (lin) and Phase 
! Normalised impedance: 50 Ohm. Measurement system: 50 Ohm. Ta=20°C
! B3742_NB.S2P not matched. Measurement full 2-port calibrated incl. Port.Ext. 
! Start: 397.5 MHz, Stop: 402.5MHz, Span 5MHz 1601 Pts., Step 3.1kHz.   
! Date: 08/11/07 - EPCOS SAW COM WT AE PD; GS
! Please see data sheet recommendation for balanced operation. 
!
! port | pin | signal
! -----|-----|--------
!   1  |  1  |  input
!   2  |  4  |  output
! --------------------
!
# MHZ S MA R 50
! freq  magS11 angS11  magS21 angS21  magS12 angS12  magS22 angS22
3.975000E+02  9.917120E-01 -3.335132E+01  2.160670E-04 -1.315202E+02  2.157393E-04 -1.312248E+02  9.892181E-01 -3.318050E+01 
3.975031E+02  9.916291E-01 -3.335264E+01  2.208320E-04 -1.321223E+02  2.200371E-04 -1.298888E+02  9.893222E-01 -3.317389E+01 
3.975063E+02  9.915562E-01 -3.335610E+01  2.259020E-04 -1.300937E+02  2.315949E-04 -1.297624E+02  9.892539E-01 -3.317832E+01 
3.975094E+02  9.915831E-01 -3.335436E+01  2.171230E-04 -1.299395E+02  2.196544E-04 -1.299882E+02  9.893164E-01 -3.317466E+01 
3.975125E+02  9.917419E-01 -3.335536E+01  2.242200E-04 -1.297793E+02  2.281934E-04 -1.292639E+02  9.892604E-01 -3.318479E+01 
3.975156E+02  9.916024E-01 -3.335232E+01  2.247566E-04 -1.294051E+02  2.291078E-04 -1.292376E+02  9.892654E-01 -3.318076E+01 
3.975188E+02  9.917606E-01 -3.335715E+01  2.292401E-04 -1.318655E+02  2.231152E-04 -1.294993E+02  9.892507E-01 -3.318353E+01 
3.975219E+02  9.915901E-01 -3.335716E+01  2.320159E-04 -1.281885E+02  2.338371E-04 -1.300433E+02  9.892520E-01 -3.318729E+01 
3.975250E+02  9.916099E-01 -3.336119E+01  2.299694E-04 -1.296220E+02  2.259955E-04 -1.278649E+02  9.892427E-01 -3.319100E+01 
3.975281E+02  9.916221E-01 -3.336647E+01  2.238523E-04 -1.286518E+02  2.345367E-04 -1.300772E+02  9.892207E-01 -3.319457E+01 
3.975312E+02  9.916188E-01 -3.336194E+01  2.331722E-04 -1.300628E+02  2.320611E-04 -1.274261E+02  9.892352E-01 -3.319712E+01 
3.975344E+02  9.916456E-01 -3.336467E+01  2.308307E-04 -1.297246E+02  2.309669E-04 -1.311670E+02  9.892187E-01 -3.319952E+01 
3.975375E+02  9.916049E-01 -3.336974E+01  2.243966E-04 -1.316733E+02  2.348745E-04 -1.285676E+02  9.893057E-01 -3.320144E+01 
3.975406E+02  9.916830E-01 -3.336800E+01  2.358158E-04 -1.306499E+02  2.407495E-04 -1.291267E+02  9.891747E-01 -3.320403E+01 
3.975437E+02  9.916106E-01 -3.336876E+01  2.333472E-04 -1.297558E+02  2.335926E-04 -1.298224E+02  9.892596E-01 -3.320495E+01 
3.975469E+02  9.916172E-01 -3.337298E+01  2.398069E-04 -1.298000E+02  2.370749E-04 -1.305263E+02  9.892796E-01 -3.320767E+01 
3.975500E+02  9.916073E-01 -3.336843E+01  2.431058E-04 -1.294209E+02  2.432605E-04 -1.286131E+02  9.893264E-01 -3.320857E+01 
3.975531E+02  9.916056E-01 -3.337460E+01  2.353650E-04 -1.302231E+02  2.431238E-04 -1.299517E+02  9.893351E-01 -3.320800E+01 
3.975562E+02  9.915946E-01 -3.337907E+01  2.402060E-04 -1.274815E+02  2.385295E-04 -1.305781E+02  9.892783E-01 -3.321043E+01 
3.975594E+02  9.916068E-01 -3.338093E+01  2.401988E-04 -1.311074E+02  2.424056E-04 -1.304333E+02  9.892474E-01 -3.321268E+01 
3.975625E+02  9.915951E-01 -3.338346E+01  2.409539E-04 -1.303358E+02  2.417534E-04 -1.295943E+02  9.892115E-01 -3.321921E+01 
3.975656E+02  9.915267E-01 -3.338527E+01  2.386373E-04 -1.302778E+02  2.402309E-04 -1.289888E+02  9.892383E-01 -3.321751E+01 
3.975688E+02  9.915636E-01 -3.338511E+01  2.466329E-04 -1.313540E+02  2.485816E-04 -1.284540E+02  9.891944E-01 -3.321636E+01 
3.975719E+02  9.915383E-01 -3.338337E+01  2.507995E-04 -1.280400E+02  2.469681E-04 -1.281607E+02  9.892574E-01 -3.323017E+01 
3.975750E+02  9.915336E-01 -3.339523E+01  2.575290E-04 -1.305919E+02  2.516128E-04 -1.292057E+02  9.893048E-01 -3.322886E+01 
3.975781E+02  9.914421E-01 -3.339785E+01  2.513037E-04 -1.288567E+02  2.461830E-04 -1.288777E+02  9.893028E-01 -3.322871E+01 
3.975813E+02  9.914705E-01 -3.339638E+01  2.454025E-04 -1.293910E+02  2.459652E-04 -1.273795E+02  9.893067E-01 -3.322900E+01 
3.975844E+02  9.914803E-01 -3.339354E+01  2.475410E-04 -1.290094E+02  2.487698E-04 -1.280438E+02  9.892670E-01 -3.322886E+01 
3.975875E+02  9.914849E-01 -3.340091E+01  2.574821E-04 -1.302544E+02  2.543068E-04 -1.290062E+02  9.892774E-01 -3.322830E+01 
3.975906E+02  9.915834E-01 -3.340280E+01  2.532476E-04 -1.295281E+02  2.554777E-04 -1.281004E+02  9.891713E-01 -3.323419E+01 
3.975938E+02  9.914194E-01 -3.341544E+01  2.580504E-04 -1.285786E+02  2.474118E-04 -1.279095E+02  9.892096E-01 -3.323769E+01 
3.975969E+02  9.914671E-01 -3.341059E+01  2.642611E-04 -1.281153E+02  2.563302E-04 -1.292550E+02  9.892521E-01 -3.324423E+01 
3.976000E+02  9.914893E-01 -3.341519E+01  2.637274E-04 -1.293106E+02  2.567902E-04 -1.287717E+02  9.891601E-01 -3.324075E+01 
3.976031E+02  9.916113E-01 -3.341555E+01  2.592324E-04 -1.274021E+02  2.656632E-04 -1.274274E+02  9.890883E-01 -3.324805E+01 
3.976062E+02  9.914840E-01 -3.342108E+01  2.566000E-04 -1.279414E+02  2.597950E-04 -1.288840E+02  9.892901E-01 -3.324613E+01 
3.976094E+02  9.914854E-01 -3.342011E+01  2.609229E-04 -1.292002E+02  2.577211E-04 -1.283496E+02  9.892035E-01 -3.325357E+01 
3.976125E+02  9.914814E-01 -3.342203E+01  2.642495E-04 -1.290615E+02  2.637387E-04 -1.280930E+02  9.892408E-01 -3.325291E+01 
3.976156E+02  9.914728E-01 -3.342538E+01  2.654414E-04 -1.276959E+02  2.663838E-04 -1.290208E+02  9.892494E-01 -3.325484E+01 
3.976187E+02  9.914979E-01 -3.342423E+01  2.680091E-04 -1.286589E+02  2.666964E-04 -1.289020E+02  9.891945E-01 -3.326005E+01 
3.976219E+02  9.914505E-01 -3.342605E+01  2.677578E-04 -1.275005E+02  2.638754E-04 -1.282535E+02  9.890878E-01 -3.326572E+01 
3.976250E+02  9.915195E-01 -3.342858E+01  2.688049E-04 -1.289353E+02  2.657071E-04 -1.279864E+02  9.891982E-01 -3.326609E+01 
3.976281E+02  9.914593E-01 -3.342900E+01  2.747647E-04 -1.279365E+02  2.714845E-04 -1.282652E+02  9.890881E-01 -3.326993E+01 
3.976313E+02  9.916272E-01 -3.343619E+01  2.710612E-04 -1.277402E+02  2.726527E-04 -1.266343E+02  9.891693E-01 -3.327482E+01 
3.976344E+02  9.915000E-01 -3.344017E+01  2.685792E-04 -1.286889E+02  2.740229E-04 -1.278444E+02  9.891983E-01 -3.326980E+01 
3.976375E+02  9.914572E-01 -3.343710E+01  2.717506E-04 -1.285718E+02  2.757572E-04 -1.279470E+02  9.892384E-01 -3.327473E+01 
3.976406E+02  9.914912E-01 -3.344180E+01  2.716703E-04 -1.267599E+02  2.760661E-04 -1.279886E+02  9.892195E-01 -3.327739E+01 
3.976438E+02  9.915021E-01 -3.344680E+01  2.752345E-04 -1.277607E+02  2.755937E-04 -1.274352E+02  9.891151E-01 -3.327492E+01 
3.976469E+02  9.914775E-01 -3.345306E+01  2.782084E-04 -1.284642E+02  2.794157E-04 -1.274703E+02  9.891775E-01 -3.328356E+01 
3.976500E+02  9.915398E-01 -3.344755E+01  2.769128E-04 -1.288227E+02  2.776482E-04 -1.273632E+02  9.892256E-01 -3.328152E+01 
3.976531E+02  9.915713E-01 -3.345205E+01  2.808888E-04 -1.287472E+02  2.777976E-04 -1.274876E+02  9.892289E-01 -3.328755E+01 
3.976562E+02  9.916351E-01 -3.345402E+01  2.825297E-04 -1.299522E+02  2.842503E-04 -1.278493E+02  9.891820E-01 -3.328947E+01 
3.976594E+02  9.915485E-01 -3.345612E+01  2.821085E-04 -1.282416E+02  2.903302E-04 -1.272596E+02  9.892301E-01 -3.328804E+01 
3.976625E+02  9.915112E-01 -3.346046E+01  2.846561E-04 -1.282269E+02  2.853074E-04 -1.278416E+02  9.892214E-01 -3.329394E+01 
3.976656E+02  9.915019E-01 -3.346666E+01  2.911142E-04 -1.283965E+02  2.879208E-04 -1.272704E+02  9.892617E-01 -3.329145E+01 
3.976687E+02  9.915451E-01 -3.346295E+01  2.901240E-04 -1.281934E+02  2.866839E-04 -1.271423E+02  9.891581E-01 -3.329143E+01 
3.976719E+02  9.914892E-01 -3.346708E+01  2.889421E-04 -1.276487E+02  2.886287E-04 -1.276737E+02  9.892603E-01 -3.329518E+01 
3.976750E+02  9.916590E-01 -3.346822E+01  2.889491E-04 -1.276974E+02  2.908778E-04 -1.292146E+02  9.892073E-01 -3.329447E+01 
3.976781E+02  9.915696E-01 -3.346974E+01  2.988157E-04 -1.277534E+02  2.922776E-04 -1.272428E+02  9.891365E-01 -3.330169E+01 
3.976812E+02  9.916485E-01 -3.346748E+01  2.947709E-04 -1.269686E+02  2.982708E-04 -1.279049E+02  9.891560E-01 -3.329755E+01 
3.976844E+02  9.915014E-01 -3.347924E+01  2.906607E-04 -1.281819E+02  2.987725E-04 -1.278062E+02  9.891148E-01 -3.330383E+01 
3.976875E+02  9.914347E-01 -3.347300E+01  2.993895E-04 -1.283599E+02  3.006199E-04 -1.283420E+02  9.890038E-01 -3.330698E+01 
3.976906E+02  9.915605E-01 -3.347936E+01  3.058728E-04 -1.283026E+02  3.010237E-04 -1.274031E+02  9.891592E-01 -3.330794E+01 
3.976938E+02  9.914684E-01 -3.348265E+01  3.013301E-04 -1.285141E+02  3.011972E-04 -1.275460E+02  9.892695E-01 -3.330677E+01 
3.976969E+02  9.913970E-01 -3.348792E+01  3.039104E-04 -1.291581E+02  3.005551E-04 -1.276839E+02  9.891134E-01 -3.331564E+01 
3.977000E+02  9.914548E-01 -3.348816E+01  3.037506E-04 -1.285761E+02  3.091378E-04 -1.283251E+02  9.891600E-01 -3.331172E+01 
3.977031E+02  9.914321E-01 -3.348927E+01  3.062969E-04 -1.276295E+02  3.090916E-04 -1.283957E+02  9.891477E-01 -3.331503E+01 
3.977063E+02  9.915102E-01 -3.349529E+01  3.140123E-04 -1.269722E+02  3.077145E-04 -1.267764E+02  9.891624E-01 -3.331904E+01 
3.977094E+02  9.914147E-01 -3.349506E+01  3.110225E-04 -1.283407E+02  3.165967E-04 -1.270870E+02  9.891096E-01 -3.332460E+01 
3.977125E+02  9.914533E-01 -3.349440E+01  3.158937E-04 -1.280227E+02  3.110187E-04 -1.280567E+02  9.890987E-01 -3.332503E+01 
3.977156E+02  9.913866E-01 -3.350343E+01  3.201136E-04 -1.282593E+02  3.152559E-04 -1.290879E+02  9.891666E-01 -3.332368E+01 
3.977188E+02  9.913410E-01 -3.350202E+01  3.182803E-04 -1.287244E+02  3.171239E-04 -1.277543E+02  9.891727E-01 -3.332506E+01 
3.977219E+02  9.913903E-01 -3.350425E+01  3.215076E-04 -1.276289E+02  3.209589E-04 -1.277725E+02  9.890701E-01 -3.333404E+01 
3.977250E+02  9.913744E-01 -3.350751E+01  3.266617E-04 -1.291053E+02  3.251550E-04 -1.282764E+02  9.891581E-01 -3.333784E+01 
3.977281E+02  9.913379E-01 -3.351093E+01  3.242418E-04 -1.279615E+02  3.239293E-04 -1.286553E+02  9.891542E-01 -3.333770E+01 
3.977312E+02  9.914732E-01 -3.351716E+01  3.244076E-04 -1.286158E+02  3.232099E-04 -1.271707E+02  9.889823E-01 -3.333642E+01 
3.977344E+02  9.914871E-01 -3.350889E+01  3.285286E-04 -1.293482E+02  3.242896E-04 -1.293455E+02  9.891789E-01 -3.334384E+01 
3.977375E+02  9.915721E-01 -3.351553E+01  3.249621E-04 -1.290248E+02  3.243451E-04 -1.281010E+02  9.891886E-01 -3.334329E+01 
3.977406E+02  9.914719E-01 -3.352381E+01  3.354708E-04 -1.304832E+02  3.295519E-04 -1.285484E+02  9.891520E-01 -3.334597E+01 
3.977437E+02  9.913758E-01 -3.352492E+01  3.357313E-04 -1.280521E+02  3.330273E-04 -1.285318E+02  9.891973E-01 -3.334672E+01 
3.977469E+02  9.914094E-01 -3.352887E+01  3.402358E-04 -1.284958E+02  3.309725E-04 -1.276176E+02  9.891193E-01 -3.335378E+01 
3.977500E+02  9.914113E-01 -3.353630E+01  3.420959E-04 -1.300531E+02  3.414117E-04 -1.278113E+02  9.891158E-01 -3.335638E+01 
3.977531E+02  9.915000E-01 -3.353039E+01  3.391624E-04 -1.294132E+02  3.382878E-04 -1.282128E+02  9.892013E-01 -3.335294E+01 
3.977563E+02  9.914958E-01 -3.353373E+01  3.401018E-04 -1.291220E+02  3.433767E-04 -1.285541E+02  9.892095E-01 -3.336314E+01 
3.977594E+02  9.914617E-01 -3.353918E+01  3.441187E-04 -1.298411E+02  3.460804E-04 -1.286963E+02  9.890962E-01 -3.335721E+01 
3.977625E+02  9.915227E-01 -3.353550E+01  3.456811E-04 -1.285332E+02  3.537825E-04 -1.289028E+02  9.890978E-01 -3.336210E+01 
3.977656E+02  9.913939E-01 -3.354554E+01  3.509450E-04 -1.298003E+02  3.471230E-04 -1.285437E+02  9.891425E-01 -3.337075E+01 
3.977688E+02  9.915365E-01 -3.354515E+01  3.480469E-04 -1.282940E+02  3.472337E-04 -1.290915E+02  9.891132E-01 -3.337173E+01 
3.977719E+02  9.914961E-01 -3.354458E+01  3.550640E-04 -1.294939E+02  3.547806E-04 -1.284199E+02  9.891132E-01 -3.337305E+01 
3.977750E+02  9.914592E-01 -3.354350E+01  3.495898E-04 -1.287264E+02  3.580786E-04 -1.284012E+02  9.890866E-01 -3.337869E+01 
3.977781E+02  9.915701E-01 -3.354870E+01  3.623681E-04 -1.294710E+02  3.580666E-04 -1.291971E+02  9.891137E-01 -3.337680E+01 
3.977812E+02  9.914946E-01 -3.354790E+01  3.556556E-04 -1.293215E+02  3.643945E-04 -1.290012E+02  9.890732E-01 -3.338399E+01 
3.977844E+02  9.915402E-01 -3.355580E+01  3.590407E-04 -1.298163E+02  3.625129E-04 -1.297566E+02  9.890899E-01 -3.338613E+01 
3.977875E+02  9.914772E-01 -3.356193E+01  3.570791E-04 -1.308406E+02  3.606792E-04 -1.286621E+02  9.889957E-01 -3.338717E+01 
3.977906E+02  9.916153E-01 -3.356159E+01  3.613483E-04 -1.297827E+02  3.666439E-04 -1.295232E+02  9.890511E-01 -3.338870E+01 
3.977937E+02  9.916738E-01 -3.356279E+01  3.664187E-04 -1.297378E+02  3.622990E-04 -1.304830E+02  9.890196E-01 -3.339487E+01 
3.977969E+02  9.915548E-01 -3.357319E+01  3.722292E-04 -1.307765E+02  3.718192E-04 -1.296155E+02  9.891352E-01 -3.339401E+01 
3.978000E+02  9.914063E-01 -3.356870E+01  3.723758E-04 -1.301376E+02  3.749873E-04 -1.308352E+02  9.891108E-01 -3.339612E+01 
3.978031E+02  9.915731E-01 -3.357828E+01  3.772498E-04 -1.296931E+02  3.702002E-04 -1.287272E+02  9.890661E-01 -3.339807E+01 
3.978062E+02  9.914265E-01 -3.357760E+01  3.854418E-04 -1.300556E+02  3.759098E-04 -1.303728E+02  9.889382E-01 -3.340413E+01 
3.978094E+02  9.914975E-01 -3.357931E+01  3.848680E-04 -1.303683E+02  3.787020E-04 -1.300894E+02  9.890723E-01 -3.340237E+01 
3.978125E+02  9.916075E-01 -3.357824E+01  3.792203E-04 -1.305804E+02  3.857869E-04 -1.306762E+02  9.891218E-01 -3.340810E+01 
3.978156E+02  9.915993E-01 -3.358181E+01  3.806085E-04 -1.313474E+02  3.906248E-04 -1.304107E+02  9.890723E-01 -3.340902E+01 
3.978188E+02  9.914880E-01 -3.358769E+01  3.916244E-04 -1.312734E+02  3.839313E-04 -1.306383E+02  9.891141E-01 -3.341562E+01 
3.978219E+02  9.914018E-01 -3.359087E+01  3.982556E-04 -1.308190E+02  3.868068E-04 -1.307473E+02  9.890000E-01 -3.341368E+01 
3.978250E+02  9.914714E-01 -3.359105E+01  3.969665E-04 -1.315080E+02  3.941788E-04 -1.306903E+02  9.890450E-01 -3.341317E+01 
3.978281E+02  9.915182E-01 -3.358726E+01  3.944854E-04 -1.317778E+02  4.038004E-04 -1.310343E+02  9.890841E-01 -3.342236E+01 
3.978313E+02  9.914201E-01 -3.359184E+01  4.015116E-04 -1.316407E+02  4.048931E-04 -1.313589E+02  9.891194E-01 -3.342181E+01 
3.978344E+02  9.914124E-01 -3.359933E+01  4.114044E-04 -1.310894E+02  4.081044E-04 -1.302941E+02  9.890497E-01 -3.342172E+01 
3.978375E+02  9.913570E-01 -3.360000E+01  4.055515E-04 -1.323079E+02  4.043607E-04 -1.312550E+02  9.891089E-01 -3.342802E+01 
3.978406E+02  9.914108E-01 -3.360275E+01  4.112307E-04 -1.316545E+02  4.161486E-04 -1.319122E+02  9.891777E-01 -3.342838E+01 
3.978438E+02  9.914584E-01 -3.359973E+01  4.130860E-04 -1.316643E+02  4.162590E-04 -1.323681E+02  9.891251E-01 -3.342922E+01 
3.978469E+02  9.912421E-01 -3.360364E+01  4.151230E-04 -1.316515E+02  4.234591E-04 -1.317940E+02  9.890959E-01 -3.343632E+01 
3.978500E+02  9.914677E-01 -3.360858E+01  4.226823E-04 -1.324274E+02  4.202532E-04 -1.314034E+02  9.890086E-01 -3.343928E+01 
3.978531E+02  9.913701E-01 -3.361122E+01  4.211082E-04 -1.335434E+02  4.249386E-04 -1.315911E+02  9.890540E-01 -3.344638E+01 
3.978562E+02  9.913704E-01 -3.361140E+01  4.358365E-04 -1.322648E+02  4.275286E-04 -1.324687E+02  9.891532E-01 -3.344266E+01 
3.978594E+02  9.913685E-01 -3.362077E+01  4.323904E-04 -1.333651E+02  4.277083E-04 -1.324077E+02  9.890696E-01 -3.344744E+01 
3.978625E+02  9.912647E-01 -3.361596E+01  4.361350E-04 -1.328434E+02  4.314985E-04 -1.318308E+02  9.890000E-01 -3.345021E+01 
3.978656E+02  9.913797E-01 -3.362152E+01  4.367801E-04 -1.332773E+02  4.382581E-04 -1.327990E+02  9.890351E-01 -3.345374E+01 
3.978687E+02  9.912870E-01 -3.362209E+01  4.445555E-04 -1.331020E+02  4.433502E-04 -1.324696E+02  9.890604E-01 -3.345203E+01 
3.978719E+02  9.912389E-01 -3.362419E+01  4.445166E-04 -1.340611E+02  4.461707E-04 -1.333385E+02  9.890696E-01 -3.346049E+01 
3.978750E+02  9.913185E-01 -3.362679E+01  4.521655E-04 -1.328212E+02  4.557397E-04 -1.331830E+02  9.890165E-01 -3.345922E+01 
3.978781E+02  9.912390E-01 -3.363389E+01  4.595995E-04 -1.328732E+02  4.566518E-04 -1.337672E+02  9.891024E-01 -3.346172E+01 
3.978813E+02  9.912991E-01 -3.363379E+01  4.629856E-04 -1.347985E+02  4.615659E-04 -1.338534E+02  9.890475E-01 -3.346355E+01 
3.978844E+02  9.913362E-01 -3.363730E+01  4.608957E-04 -1.337670E+02  4.651308E-04 -1.338168E+02  9.890539E-01 -3.346922E+01 
3.978875E+02  9.914078E-01 -3.364238E+01  4.735039E-04 -1.340127E+02  4.695196E-04 -1.339922E+02  9.890093E-01 -3.346817E+01 
3.978906E+02  9.913481E-01 -3.364816E+01  4.705238E-04 -1.341377E+02  4.738827E-04 -1.346009E+02  9.890353E-01 -3.347517E+01 
3.978938E+02  9.912989E-01 -3.364631E+01  4.781224E-04 -1.359208E+02  4.801206E-04 -1.341333E+02  9.889513E-01 -3.347995E+01 
3.978969E+02  9.913564E-01 -3.364505E+01  4.875556E-04 -1.351630E+02  4.853145E-04 -1.345576E+02  9.890182E-01 -3.348104E+01 
3.979000E+02  9.913974E-01 -3.365244E+01  4.904610E-04 -1.349870E+02  4.922702E-04 -1.350827E+02  9.890597E-01 -3.348373E+01 
3.979031E+02  9.914766E-01 -3.365409E+01  4.955595E-04 -1.355556E+02  4.975094E-04 -1.349627E+02  9.890118E-01 -3.349094E+01 
3.979062E+02  9.913531E-01 -3.365928E+01  4.965804E-04 -1.365326E+02  4.938090E-04 -1.359990E+02  9.889936E-01 -3.349213E+01 
3.979094E+02  9.914309E-01 -3.366172E+01  5.026810E-04 -1.362695E+02  5.033981E-04 -1.358899E+02  9.888896E-01 -3.350179E+01 
3.979125E+02  9.913380E-01 -3.366277E+01  5.106843E-04 -1.367251E+02  5.096962E-04 -1.365853E+02  9.890129E-01 -3.350092E+01 
3.979156E+02  9.913449E-01 -3.366568E+01  5.193460E-04 -1.373188E+02  5.141884E-04 -1.371471E+02  9.890780E-01 -3.349989E+01 
3.979187E+02  9.914253E-01 -3.366612E+01  5.225042E-04 -1.368878E+02  5.218286E-04 -1.373075E+02  9.889815E-01 -3.350465E+01 
3.979219E+02  9.912013E-01 -3.366740E+01  5.288935E-04 -1.383573E+02  5.298517E-04 -1.369625E+02  9.890070E-01 -3.351170E+01 
3.979250E+02  9.913132E-01 -3.367341E+01  5.396160E-04 -1.388519E+02  5.341902E-04 -1.378586E+02  9.888885E-01 -3.351580E+01 
3.979281E+02  9.913012E-01 -3.367404E+01  5.449265E-04 -1.383911E+02  5.475301E-04 -1.382711E+02  9.889245E-01 -3.350974E+01 
3.979312E+02  9.913353E-01 -3.367157E+01  5.517320E-04 -1.383873E+02  5.490043E-04 -1.381728E+02  9.888561E-01 -3.351712E+01 
3.979344E+02  9.914108E-01 -3.368679E+01  5.627461E-04 -1.395319E+02  5.545126E-04 -1.387521E+02  9.888540E-01 -3.351963E+01 
3.979375E+02  9.913109E-01 -3.368710E+01  5.667277E-04 -1.397182E+02  5.715031E-04 -1.391246E+02  9.888660E-01 -3.352107E+01 
3.979406E+02  9.913388E-01 -3.368791E+01  5.667735E-04 -1.402630E+02  5.743295E-04 -1.393714E+02  9.888779E-01 -3.352843E+01 
3.979438E+02  9.913310E-01 -3.369626E+01  5.852820E-04 -1.403188E+02  5.803552E-04 -1.399425E+02  9.889071E-01 -3.352582E+01 
3.979469E+02  9.913566E-01 -3.369469E+01  5.938221E-04 -1.406883E+02  5.888437E-04 -1.402373E+02  9.889614E-01 -3.353056E+01 
3.979500E+02  9.912674E-01 -3.369688E+01  6.011028E-04 -1.412489E+02  5.897230E-04 -1.409500E+02  9.888673E-01 -3.353673E+01 
3.979531E+02  9.911292E-01 -3.370893E+01  5.983751E-04 -1.418625E+02  6.093452E-04 -1.412465E+02  9.888636E-01 -3.353993E+01 
3.979563E+02  9.911969E-01 -3.370177E+01  6.130757E-04 -1.425808E+02  6.141879E-04 -1.424352E+02  9.888150E-01 -3.354067E+01 
3.979594E+02  9.912046E-01 -3.370643E+01  6.271660E-04 -1.438303E+02  6.235374E-04 -1.425040E+02  9.889599E-01 -3.354118E+01 
3.979625E+02  9.912755E-01 -3.371313E+01  6.308994E-04 -1.433990E+02  6.310083E-04 -1.435871E+02  9.887927E-01 -3.355002E+01 
3.979656E+02  9.911975E-01 -3.371090E+01  6.395283E-04 -1.445029E+02  6.411506E-04 -1.441563E+02  9.888426E-01 -3.355223E+01 
3.979688E+02  9.911773E-01 -3.372007E+01  6.479407E-04 -1.444550E+02  6.551522E-04 -1.451370E+02  9.886274E-01 -3.355484E+01 
3.979719E+02  9.911463E-01 -3.372492E+01  6.652665E-04 -1.460011E+02  6.699460E-04 -1.452720E+02  9.888407E-01 -3.355753E+01 
