! Matrix data file written by TouchstoneData, EPCOS AG
! FILENAME: "B3746_WB.s2p"
! COMMENT: "S-Parameter B3746 Wideband (unmatched)"
! INFO: nport=2, nfreq=1601
! DATE: "Tue Jul 22 10:54:27 2008"
! USER: "Thomas Telgmann"
!
! port | pin | signal
! -----|-----|--------
!   1  |  2  |  in
!   2  |  4  |  out
! --------------------
! 
# MHZ S MA R 50
! freq  magS11 angS11  magS21 angS21  magS12 angS12  magS22 angS22
8.185000E+02  9.719562E-01 -4.468716E+01  1.706001E-04 -1.601941E+02  1.769839E-04 -1.574464E+02  9.706978E-01 -4.560025E+01 
8.185625E+02  9.719753E-01 -4.469392E+01  1.777449E-04 -1.591506E+02  1.818137E-04 -1.574520E+02  9.706402E-01 -4.560424E+01 
8.186250E+02  9.719048E-01 -4.469859E+01  1.895668E-04 -1.574047E+02  1.853072E-04 -1.574273E+02  9.707225E-01 -4.561057E+01 
8.186875E+02  9.718945E-01 -4.469454E+01  1.856918E-04 -1.595930E+02  1.838793E-04 -1.606760E+02  9.705967E-01 -4.561601E+01 
8.187500E+02  9.717724E-01 -4.470451E+01  2.028233E-04 -1.588528E+02  1.930985E-04 -1.605341E+02  9.707342E-01 -4.561788E+01 
8.188125E+02  9.717997E-01 -4.470988E+01  2.014518E-04 -1.575465E+02  1.976069E-04 -1.616734E+02  9.707692E-01 -4.562399E+01 
8.188750E+02  9.717232E-01 -4.472020E+01  1.988569E-04 -1.634505E+02  1.998566E-04 -1.621405E+02  9.706875E-01 -4.562505E+01 
8.189375E+02  9.717570E-01 -4.471266E+01  1.963865E-04 -1.652696E+02  2.031563E-04 -1.659190E+02  9.707743E-01 -4.562737E+01 
8.190000E+02  9.718332E-01 -4.472305E+01  2.046544E-04 -1.649921E+02  2.070845E-04 -1.641929E+02  9.706562E-01 -4.563369E+01 
8.190625E+02  9.717170E-01 -4.471458E+01  2.051640E-04 -1.675143E+02  2.037071E-04 -1.674642E+02  9.706651E-01 -4.563117E+01 
8.191250E+02  9.718535E-01 -4.472450E+01  2.037876E-04 -1.684535E+02  2.076576E-04 -1.695253E+02  9.706574E-01 -4.564183E+01 
8.191875E+02  9.718352E-01 -4.473006E+01  2.071741E-04 -1.704879E+02  2.093583E-04 -1.718165E+02  9.706360E-01 -4.563759E+01 
8.192500E+02  9.716771E-01 -4.473009E+01  2.103541E-04 -1.700208E+02  2.115514E-04 -1.735566E+02  9.706650E-01 -4.563907E+01 
8.193125E+02  9.715496E-01 -4.474020E+01  2.060887E-04 -1.714964E+02  1.998661E-04 -1.739322E+02  9.705985E-01 -4.565244E+01 
8.193750E+02  9.718392E-01 -4.474559E+01  2.039824E-04 -1.752484E+02  2.096795E-04 -1.730904E+02  9.705860E-01 -4.565468E+01 
8.194375E+02  9.717965E-01 -4.474336E+01  2.084320E-04 -1.764738E+02  2.003404E-04 -1.754125E+02  9.706614E-01 -4.565483E+01 
8.195000E+02  9.717073E-01 -4.475201E+01  2.109435E-04 -1.788855E+02  2.077147E-04 -1.762501E+02  9.706928E-01 -4.565072E+01 
8.195625E+02  9.718748E-01 -4.475737E+01  2.015513E-04 -1.799986E+02  2.118658E-04 -1.787129E+02  9.706671E-01 -4.566631E+01 
8.196250E+02  9.718208E-01 -4.474941E+01  2.030852E-04 -1.791658E+02  2.101731E-04 1.790322E+02  9.705910E-01 -4.566375E+01 
8.196875E+02  9.716587E-01 -4.476128E+01  2.013416E-04 1.788821E+02  2.042433E-04 1.785760E+02  9.706063E-01 -4.567794E+01 
8.197500E+02  9.715733E-01 -4.476788E+01  1.996320E-04 1.775823E+02  2.109755E-04 1.760325E+02  9.706001E-01 -4.567257E+01 
8.198125E+02  9.716762E-01 -4.476426E+01  1.941921E-04 1.760205E+02  2.009128E-04 1.748669E+02  9.707227E-01 -4.568154E+01 
8.198750E+02  9.716159E-01 -4.477811E+01  1.949229E-04 1.721146E+02  2.059949E-04 1.727264E+02  9.705080E-01 -4.567629E+01 
8.199375E+02  9.716507E-01 -4.477431E+01  1.938764E-04 1.718255E+02  1.993590E-04 1.724453E+02  9.705694E-01 -4.568730E+01 
8.200000E+02  9.717593E-01 -4.478155E+01  1.959416E-04 1.701007E+02  1.974773E-04 1.702271E+02  9.705699E-01 -4.569363E+01 
8.200625E+02  9.717695E-01 -4.477856E+01  1.895181E-04 1.676017E+02  1.877244E-04 1.674422E+02  9.705549E-01 -4.569130E+01 
8.201250E+02  9.717378E-01 -4.479002E+01  1.866688E-04 1.649956E+02  1.823767E-04 1.656100E+02  9.705298E-01 -4.569364E+01 
8.201875E+02  9.717580E-01 -4.478745E+01  1.824582E-04 1.636080E+02  1.850919E-04 1.665945E+02  9.705690E-01 -4.570429E+01 
8.202500E+02  9.717333E-01 -4.480000E+01  1.746676E-04 1.633383E+02  1.851973E-04 1.621957E+02  9.705643E-01 -4.570635E+01 
8.203125E+02  9.715771E-01 -4.480293E+01  1.682564E-04 1.607721E+02  1.727376E-04 1.618217E+02  9.705030E-01 -4.570959E+01 
8.203750E+02  9.715405E-01 -4.480184E+01  1.700242E-04 1.577892E+02  1.670340E-04 1.571553E+02  9.705394E-01 -4.571190E+01 
8.204375E+02  9.715403E-01 -4.480849E+01  1.578638E-04 1.560347E+02  1.621051E-04 1.574564E+02  9.704126E-01 -4.571213E+01 
8.205000E+02  9.718347E-01 -4.480454E+01  1.481980E-04 1.563455E+02  1.556860E-04 1.548434E+02  9.704515E-01 -4.572256E+01 
8.205625E+02  9.717305E-01 -4.482069E+01  1.380829E-04 1.519761E+02  1.393377E-04 1.556814E+02  9.705186E-01 -4.572099E+01 
8.206250E+02  9.717346E-01 -4.481718E+01  1.365538E-04 1.481576E+02  1.292699E-04 1.515334E+02  9.705001E-01 -4.572731E+01 
8.206875E+02  9.716377E-01 -4.482363E+01  1.239012E-04 1.496679E+02  1.303257E-04 1.499210E+02  9.704740E-01 -4.572901E+01 
8.207500E+02  9.716841E-01 -4.482114E+01  1.170450E-04 1.498187E+02  1.173791E-04 1.476260E+02  9.704095E-01 -4.573659E+01 
8.208125E+02  9.716253E-01 -4.483008E+01  1.080671E-04 1.455618E+02  1.069785E-04 1.468550E+02  9.705234E-01 -4.573647E+01 
8.208750E+02  9.717032E-01 -4.483055E+01  9.892793E-05 1.492648E+02  8.989823E-05 1.507107E+02  9.705373E-01 -4.573764E+01 
8.209375E+02  9.715746E-01 -4.484206E+01  8.756216E-05 1.417699E+02  8.907129E-05 1.513668E+02  9.704330E-01 -4.574227E+01 
8.210000E+02  9.715212E-01 -4.484419E+01  7.599156E-05 1.467052E+02  7.305725E-05 1.467487E+02  9.704793E-01 -4.574518E+01 
8.210625E+02  9.715474E-01 -4.483436E+01  6.368806E-05 1.476120E+02  6.758867E-05 1.530527E+02  9.704500E-01 -4.574937E+01 
8.211250E+02  9.717365E-01 -4.484445E+01  4.996178E-05 1.592240E+02  5.639982E-05 1.581599E+02  9.704515E-01 -4.575909E+01 
8.211875E+02  9.716556E-01 -4.484977E+01  4.276063E-05 1.638696E+02  5.259751E-05 1.682814E+02  9.705428E-01 -4.575753E+01 
8.212500E+02  9.715525E-01 -4.485514E+01  3.962116E-05 -1.761282E+02  4.087079E-05 -1.735749E+02  9.705267E-01 -4.575696E+01 
8.213125E+02  9.715882E-01 -4.485846E+01  3.890664E-05 -1.667453E+02  4.175900E-05 -1.629539E+02  9.705616E-01 -4.576379E+01 
8.213750E+02  9.716004E-01 -4.486499E+01  3.637904E-05 -1.444107E+02  4.424942E-05 -1.521181E+02  9.703531E-01 -4.575816E+01 
8.214375E+02  9.714652E-01 -4.487134E+01  4.531527E-05 -1.312292E+02  5.379247E-05 -1.344806E+02  9.706462E-01 -4.576927E+01 
8.215000E+02  9.716184E-01 -4.486900E+01  6.213296E-05 -1.366674E+02  6.468929E-05 -1.349047E+02  9.705210E-01 -4.578002E+01 
8.215625E+02  9.716942E-01 -4.486923E+01  7.243984E-05 -1.229958E+02  6.903947E-05 -1.289848E+02  9.705096E-01 -4.577073E+01 
8.216250E+02  9.716331E-01 -4.487441E+01  7.751616E-05 -1.237149E+02  7.947005E-05 -1.243817E+02  9.704889E-01 -4.578193E+01 
8.216875E+02  9.715691E-01 -4.488717E+01  8.400817E-05 -1.260003E+02  8.765170E-05 -1.269403E+02  9.705433E-01 -4.578251E+01 
8.217500E+02  9.714348E-01 -4.488566E+01  9.369344E-05 -1.204586E+02  8.954521E-05 -1.243686E+02  9.703910E-01 -4.579416E+01 
8.218125E+02  9.713910E-01 -4.488822E+01  1.066016E-04 -1.227234E+02  1.066934E-04 -1.247707E+02  9.704905E-01 -4.578966E+01 
8.218750E+02  9.716710E-01 -4.488950E+01  1.148381E-04 -1.262535E+02  1.146524E-04 -1.267591E+02  9.704931E-01 -4.580181E+01 
8.219375E+02  9.714818E-01 -4.490097E+01  1.299624E-04 -1.298676E+02  1.245367E-04 -1.297288E+02  9.704037E-01 -4.579828E+01 
8.220000E+02  9.715098E-01 -4.490203E+01  1.243305E-04 -1.275470E+02  1.326567E-04 -1.273021E+02  9.705038E-01 -4.580753E+01 
8.220625E+02  9.716695E-01 -4.489905E+01  1.376482E-04 -1.319211E+02  1.418009E-04 -1.305679E+02  9.704507E-01 -4.580554E+01 
8.221250E+02  9.715171E-01 -4.490686E+01  1.451481E-04 -1.319365E+02  1.540197E-04 -1.314707E+02  9.705077E-01 -4.580818E+01 
8.221875E+02  9.714988E-01 -4.491366E+01  1.566846E-04 -1.343767E+02  1.536687E-04 -1.336116E+02  9.704036E-01 -4.581539E+01 
8.222500E+02  9.716279E-01 -4.491317E+01  1.578075E-04 -1.364553E+02  1.556800E-04 -1.366945E+02  9.703987E-01 -4.581915E+01 
8.223125E+02  9.714898E-01 -4.492250E+01  1.648289E-04 -1.357663E+02  1.703442E-04 -1.392204E+02  9.704516E-01 -4.582799E+01 
8.223750E+02  9.715301E-01 -4.493040E+01  1.656835E-04 -1.377457E+02  1.643013E-04 -1.390195E+02  9.705523E-01 -4.582683E+01 
8.224375E+02  9.715684E-01 -4.492309E+01  1.757117E-04 -1.380190E+02  1.733101E-04 -1.418597E+02  9.705576E-01 -4.583362E+01 
8.225000E+02  9.714874E-01 -4.493552E+01  1.733193E-04 -1.428975E+02  1.744641E-04 -1.429472E+02  9.706130E-01 -4.583308E+01 
8.225625E+02  9.715091E-01 -4.493643E+01  1.742771E-04 -1.464574E+02  1.789741E-04 -1.430267E+02  9.704168E-01 -4.583970E+01 
8.226250E+02  9.715383E-01 -4.493182E+01  1.813958E-04 -1.436355E+02  1.875263E-04 -1.452689E+02  9.704886E-01 -4.583251E+01 
8.226875E+02  9.715657E-01 -4.493906E+01  1.906249E-04 -1.480126E+02  1.833303E-04 -1.468293E+02  9.704935E-01 -4.584780E+01 
8.227500E+02  9.715632E-01 -4.495670E+01  1.883177E-04 -1.459000E+02  1.893478E-04 -1.479119E+02  9.704405E-01 -4.584839E+01 
8.228125E+02  9.713832E-01 -4.495469E+01  1.813240E-04 -1.490140E+02  1.920506E-04 -1.486908E+02  9.706428E-01 -4.584852E+01 
8.228750E+02  9.715738E-01 -4.494972E+01  1.897469E-04 -1.499103E+02  1.895965E-04 -1.489126E+02  9.704888E-01 -4.585547E+01 
8.229375E+02  9.715012E-01 -4.495965E+01  1.908413E-04 -1.502541E+02  1.891518E-04 -1.516370E+02  9.703816E-01 -4.586477E+01 
8.230000E+02  9.714391E-01 -4.497444E+01  1.867021E-04 -1.530674E+02  1.927919E-04 -1.543558E+02  9.703606E-01 -4.586886E+01 
8.230625E+02  9.714674E-01 -4.496120E+01  1.896302E-04 -1.504900E+02  1.914467E-04 -1.560547E+02  9.704564E-01 -4.587504E+01 
8.231250E+02  9.715373E-01 -4.497034E+01  1.912644E-04 -1.540658E+02  1.925391E-04 -1.534948E+02  9.705216E-01 -4.587362E+01 
8.231875E+02  9.713736E-01 -4.497258E+01  1.813990E-04 -1.563853E+02  1.941026E-04 -1.566591E+02  9.704016E-01 -4.588370E+01 
8.232500E+02  9.715516E-01 -4.498057E+01  1.923698E-04 -1.569449E+02  1.906723E-04 -1.570695E+02  9.704947E-01 -4.587989E+01 
8.233125E+02  9.715307E-01 -4.497804E+01  1.913083E-04 -1.580155E+02  1.880438E-04 -1.582070E+02  9.704362E-01 -4.588536E+01 
8.233750E+02  9.715000E-01 -4.498807E+01  1.912459E-04 -1.588339E+02  1.912947E-04 -1.600005E+02  9.704827E-01 -4.588439E+01 
8.234375E+02  9.715303E-01 -4.498706E+01  1.829515E-04 -1.570968E+02  2.002566E-04 -1.610304E+02  9.703758E-01 -4.589626E+01 
8.235000E+02  9.714846E-01 -4.499305E+01  1.916547E-04 -1.600332E+02  1.949160E-04 -1.594227E+02  9.704076E-01 -4.589967E+01 
8.235625E+02  9.715982E-01 -4.499789E+01  1.860248E-04 -1.588086E+02  1.975753E-04 -1.612810E+02  9.703992E-01 -4.590420E+01 
8.236250E+02  9.714444E-01 -4.500286E+01  1.879370E-04 -1.615495E+02  1.902219E-04 -1.608378E+02  9.704523E-01 -4.590971E+01 
8.236875E+02  9.713712E-01 -4.500698E+01  1.900637E-04 -1.608683E+02  1.860379E-04 -1.609689E+02  9.705418E-01 -4.590688E+01 
8.237500E+02  9.715357E-01 -4.500983E+01  1.916486E-04 -1.613542E+02  1.865251E-04 -1.616755E+02  9.704740E-01 -4.591942E+01 
8.238125E+02  9.715785E-01 -4.501278E+01  1.851256E-04 -1.603867E+02  1.878764E-04 -1.624357E+02  9.705787E-01 -4.591639E+01 
8.238750E+02  9.713116E-01 -4.501806E+01  1.797453E-04 -1.626183E+02  1.820972E-04 -1.623430E+02  9.703933E-01 -4.592652E+01 
8.239375E+02  9.714406E-01 -4.502790E+01  1.740705E-04 -1.637131E+02  1.840402E-04 -1.635789E+02  9.705078E-01 -4.593114E+01 
8.240000E+02  9.714992E-01 -4.502458E+01  1.845751E-04 -1.604025E+02  1.823610E-04 -1.643982E+02  9.705615E-01 -4.594079E+01 
8.240625E+02  9.714527E-01 -4.503314E+01  1.805751E-04 -1.628401E+02  1.863318E-04 -1.617404E+02  9.704731E-01 -4.593430E+01 
8.241250E+02  9.713755E-01 -4.504607E+01  1.899383E-04 -1.615331E+02  1.844443E-04 -1.632410E+02  9.705305E-01 -4.594324E+01 
8.241875E+02  9.714584E-01 -4.504008E+01  1.835011E-04 -1.630628E+02  1.922465E-04 -1.659982E+02  9.704399E-01 -4.594496E+01 
8.242500E+02  9.714651E-01 -4.504883E+01  1.799749E-04 -1.621000E+02  1.808349E-04 -1.619129E+02  9.705109E-01 -4.594540E+01 
8.243125E+02  9.714192E-01 -4.505193E+01  1.752172E-04 -1.634489E+02  1.813738E-04 -1.622134E+02  9.704136E-01 -4.595071E+01 
8.243750E+02  9.713557E-01 -4.505338E+01  1.845126E-04 -1.616872E+02  1.890972E-04 -1.618595E+02  9.705894E-01 -4.595538E+01 
8.244375E+02  9.713982E-01 -4.505378E+01  1.817329E-04 -1.609204E+02  1.856616E-04 -1.615341E+02  9.703887E-01 -4.596300E+01 
8.245000E+02  9.714138E-01 -4.505870E+01  1.900218E-04 -1.617550E+02  1.957392E-04 -1.644361E+02  9.704025E-01 -4.596699E+01 
8.245625E+02  9.712649E-01 -4.507588E+01  1.871990E-04 -1.607927E+02  1.947681E-04 -1.618947E+02  9.703859E-01 -4.597380E+01 
8.246250E+02  9.715072E-01 -4.506557E+01  1.923837E-04 -1.607625E+02  1.973948E-04 -1.613908E+02  9.704328E-01 -4.597872E+01 
8.246875E+02  9.713720E-01 -4.507603E+01  1.897668E-04 -1.630132E+02  1.976983E-04 -1.616795E+02  9.704137E-01 -4.598205E+01 
8.247500E+02  9.713365E-01 -4.507766E+01  1.967818E-04 -1.633726E+02  1.975485E-04 -1.636943E+02  9.703388E-01 -4.598247E+01 
8.248125E+02  9.712351E-01 -4.508592E+01  2.032059E-04 -1.606277E+02  2.049472E-04 -1.642158E+02  9.704032E-01 -4.598565E+01 
8.248750E+02  9.714013E-01 -4.508939E+01  2.061856E-04 -1.643190E+02  2.086521E-04 -1.646773E+02  9.703382E-01 -4.599518E+01 
8.249375E+02  9.713809E-01 -4.509323E+01  2.065836E-04 -1.651963E+02  2.093752E-04 -1.651502E+02  9.703152E-01 -4.599122E+01 
8.250000E+02  9.713982E-01 -4.510117E+01  2.149065E-04 -1.672013E+02  2.138256E-04 -1.660496E+02  9.702921E-01 -4.600288E+01 
8.250625E+02  9.712445E-01 -4.509746E+01  2.141594E-04 -1.645290E+02  2.160996E-04 -1.680994E+02  9.703525E-01 -4.600016E+01 
8.251250E+02  9.712526E-01 -4.511162E+01  2.197652E-04 -1.673016E+02  2.230669E-04 -1.694660E+02  9.703611E-01 -4.601029E+01 
8.251875E+02  9.713497E-01 -4.511572E+01  2.192419E-04 -1.696922E+02  2.176774E-04 -1.701057E+02  9.703208E-01 -4.600795E+01 
8.252500E+02  9.711891E-01 -4.511235E+01  2.107103E-04 -1.713909E+02  2.160303E-04 -1.745863E+02  9.702901E-01 -4.601627E+01 
8.253125E+02  9.712862E-01 -4.512018E+01  2.243004E-04 -1.722146E+02  2.262470E-04 -1.747653E+02  9.701786E-01 -4.602548E+01 
8.253750E+02  9.712987E-01 -4.512842E+01  2.270386E-04 -1.757792E+02  2.321733E-04 -1.757636E+02  9.703045E-01 -4.601604E+01 
8.254375E+02  9.712239E-01 -4.512664E+01  2.306152E-04 -1.783065E+02  2.272102E-04 -1.769775E+02  9.702389E-01 -4.603129E+01 
8.255000E+02  9.712372E-01 -4.513065E+01  2.257527E-04 -1.797278E+02  2.319806E-04 1.796255E+02  9.701533E-01 -4.603076E+01 
8.255625E+02  9.711943E-01 -4.513404E+01  2.320930E-04 1.799879E+02  2.276384E-04 -1.798482E+02  9.702388E-01 -4.603674E+01 
8.256250E+02  9.711745E-01 -4.514080E+01  2.257857E-04 1.769192E+02  2.276516E-04 1.753324E+02  9.701346E-01 -4.603610E+01 
8.256875E+02  9.711466E-01 -4.514648E+01  2.281865E-04 1.750038E+02  2.322984E-04 1.750463E+02  9.703023E-01 -4.604963E+01 
8.257500E+02  9.711387E-01 -4.514599E+01  2.213186E-04 1.701942E+02  2.342841E-04 1.712905E+02  9.702653E-01 -4.605170E+01 
8.258125E+02  9.711591E-01 -4.515364E+01  2.268635E-04 1.685855E+02  2.166381E-04 1.715668E+02  9.702190E-01 -4.605141E+01 
8.258750E+02  9.712115E-01 -4.515442E+01  2.307366E-04 1.652989E+02  2.273391E-04 1.646599E+02  9.701191E-01 -4.605857E+01 
8.259375E+02  9.710993E-01 -4.515534E+01  2.133953E-04 1.623940E+02  2.167371E-04 1.632985E+02  9.701487E-01 -4.606031E+01 
8.260000E+02  9.712161E-01 -4.516079E+01  2.198991E-04 1.599996E+02  2.221624E-04 1.593008E+02  9.701743E-01 -4.606453E+01 
8.260625E+02  9.711165E-01 -4.516470E+01  1.993362E-04 1.572502E+02  2.152833E-04 1.602323E+02  9.701153E-01 -4.607333E+01 
8.261250E+02  9.709763E-01 -4.517733E+01  2.107957E-04 1.558331E+02  2.128762E-04 1.556441E+02  9.702549E-01 -4.607680E+01 
8.261875E+02  9.711447E-01 -4.517994E+01  1.960457E-04 1.527571E+02  1.987048E-04 1.527931E+02  9.702491E-01 -4.607630E+01 
8.262500E+02  9.710414E-01 -4.517806E+01  1.918060E-04 1.482235E+02  1.976851E-04 1.493244E+02  9.701130E-01 -4.607839E+01 
8.263125E+02  9.709881E-01 -4.518324E+01  1.895541E-04 1.462789E+02  1.936428E-04 1.494535E+02  9.699381E-01 -4.608532E+01 
8.263750E+02  9.710661E-01 -4.519542E+01  1.797992E-04 1.427477E+02  1.839492E-04 1.474874E+02  9.701791E-01 -4.608862E+01 
8.264375E+02  9.709471E-01 -4.520104E+01  1.801020E-04 1.409064E+02  1.799679E-04 1.416943E+02  9.700827E-01 -4.610140E+01 
8.265000E+02  9.710242E-01 -4.519973E+01  1.742699E-04 1.386099E+02  1.699845E-04 1.383011E+02  9.700181E-01 -4.610132E+01 
8.265625E+02  9.709694E-01 -4.519472E+01  1.621851E-04 1.351815E+02  1.649751E-04 1.354047E+02  9.700786E-01 -4.610251E+01 
8.266250E+02  9.709123E-01 -4.520392E+01  1.469954E-04 1.303917E+02  1.580234E-04 1.325624E+02  9.700625E-01 -4.610622E+01 
8.266875E+02  9.710463E-01 -4.520579E+01  1.412304E-04 1.246763E+02  1.513134E-04 1.265994E+02  9.699938E-01 -4.610946E+01 
8.267500E+02  9.711457E-01 -4.521023E+01  1.361431E-04 1.222373E+02  1.356733E-04 1.242893E+02  9.699296E-01 -4.611248E+01 
8.268125E+02  9.710030E-01 -4.521693E+01  1.331039E-04 1.199254E+02  1.383729E-04 1.193366E+02  9.702051E-01 -4.611531E+01 
8.268750E+02  9.710170E-01 -4.522982E+01  1.301716E-04 1.158101E+02  1.247709E-04 1.207401E+02  9.699798E-01 -4.611825E+01 
8.269375E+02  9.709977E-01 -4.522271E+01  1.191125E-04 1.076568E+02  1.253550E-04 1.112532E+02  9.699953E-01 -4.612132E+01 
8.270000E+02  9.708214E-01 -4.523287E+01  1.193077E-04 1.022326E+02  1.215913E-04 1.063455E+02  9.699248E-01 -4.612909E+01 
8.270625E+02  9.709060E-01 -4.523401E+01  1.126401E-04 1.011336E+02  1.165267E-04 9.790782E+01  9.700723E-01 -4.613308E+01 
8.271250E+02  9.708590E-01 -4.523308E+01  1.036357E-04 9.025666E+01  1.110777E-04 9.065456E+01  9.699610E-01 -4.613823E+01 
8.271875E+02  9.708926E-01 -4.524649E+01  1.047263E-04 8.224924E+01  1.009669E-04 8.688013E+01  9.698580E-01 -4.614356E+01 
8.272500E+02  9.708618E-01 -4.524256E+01  1.011689E-04 7.331145E+01  9.741658E-05 7.820792E+01  9.698851E-01 -4.614525E+01 
8.273125E+02  9.709370E-01 -4.524788E+01  1.043785E-04 6.290640E+01  9.681243E-05 6.924061E+01  9.698617E-01 -4.614451E+01 
8.273750E+02  9.707961E-01 -4.525308E+01  1.067420E-04 5.585392E+01  1.048556E-04 5.634479E+01  9.698817E-01 -4.615202E+01 
8.274375E+02  9.708046E-01 -4.525327E+01  1.112151E-04 4.293435E+01  1.020149E-04 5.127466E+01  9.699012E-01 -4.615137E+01 
8.275000E+02  9.708336E-01 -4.526454E+01  1.014113E-04 3.901314E+01  1.092372E-04 3.962396E+01  9.699067E-01 -4.615302E+01 
8.275625E+02  9.707303E-01 -4.526918E+01  1.178813E-04 2.598044E+01  1.130486E-04 3.106951E+01  9.699951E-01 -4.616007E+01 
8.276250E+02  9.708014E-01 -4.527085E+01  1.260928E-04 2.086072E+01  1.219243E-04 2.081830E+01  9.698349E-01 -4.616056E+01 
8.276875E+02  9.707878E-01 -4.527102E+01  1.285012E-04 1.506536E+01  1.300975E-04 1.156869E+01  9.697996E-01 -4.616773E+01 
8.277500E+02  9.707983E-01 -4.526429E+01  1.435255E-04 1.000592E+00  1.383243E-04 3.949564E+00  9.698997E-01 -4.617319E+01 
8.278125E+02  9.707139E-01 -4.527581E+01  1.548750E-04 -6.724817E+00  1.507192E-04 -7.683372E+00  9.698955E-01 -4.617281E+01 
8.278750E+02  9.706769E-01 -4.528154E+01  1.683705E-04 -1.183264E+01  1.633392E-04 -1.298397E+01  9.698664E-01 -4.617569E+01 
8.279375E+02  9.708723E-01 -4.528521E+01  1.882666E-04 -2.108466E+01  1.833585E-04 -2.021760E+01  9.699921E-01 -4.617667E+01 
8.280000E+02  9.706539E-01 -4.529258E+01  1.980566E-04 -2.404185E+01  2.011513E-04 -2.531600E+01  9.699431E-01 -4.618059E+01 
8.280625E+02  9.706599E-01 -4.529638E+01  2.203147E-04 -3.063598E+01  2.077866E-04 -3.354079E+01  9.699408E-01 -4.618313E+01 
8.281250E+02  9.706609E-01 -4.529486E+01  2.308177E-04 -3.700169E+01  2.295890E-04 -3.943874E+01  9.698485E-01 -4.619177E+01 
