! Matrix data file written by TouchstoneData, EPCOS AG
! FILENAME: "B3741_WB.s2p"
! COMMENT: "PINNIG 1/4; PORTEX1 93PS; PORTEX2 179.5PS; 2"
! INFO: nport=2, nfreq=1601
! DATE: "Wed Sep 19 15:41:05 2012"
! USER: "Wilfried Schott"
!
! port | pin | signal
! -----|-----|--------
!   1  |  1  |  IN
!   2  |  4  |  OUT
! --------------------
! 
# MHZ S MA R 50
! freq  magS11 angS11  magS21 angS21  magS12 angS12  magS22 angS22
2.900000E+02  9.959381E-01 -2.984559E+01  3.399714E-04 6.062237E+01  3.358931E-04 6.139351E+01  9.925208E-01 -2.770603E+01 
2.900312E+02  9.958555E-01 -2.985846E+01  3.383686E-04 6.108249E+01  3.335094E-04 6.086965E+01  9.924486E-01 -2.770693E+01 
2.900625E+02  9.959238E-01 -2.986018E+01  3.389716E-04 6.102959E+01  3.372477E-04 6.159913E+01  9.926615E-01 -2.771075E+01 
2.900938E+02  9.957640E-01 -2.986804E+01  3.414079E-04 6.057601E+01  3.415826E-04 6.116992E+01  9.925617E-01 -2.771331E+01 
2.901250E+02  9.958384E-01 -2.987139E+01  3.391425E-04 6.074767E+01  3.350506E-04 6.021520E+01  9.926205E-01 -2.771474E+01 
2.901562E+02  9.958346E-01 -2.986707E+01  3.399912E-04 6.088500E+01  3.391365E-04 6.113858E+01  9.925697E-01 -2.771590E+01 
2.901875E+02  9.958920E-01 -2.987616E+01  3.414490E-04 6.062258E+01  3.347936E-04 6.103038E+01  9.924873E-01 -2.772442E+01 
2.902188E+02  9.958621E-01 -2.987830E+01  3.365353E-04 6.146662E+01  3.406880E-04 6.111295E+01  9.925615E-01 -2.772300E+01 
2.902500E+02  9.957571E-01 -2.988047E+01  3.403525E-04 6.156463E+01  3.418171E-04 6.158784E+01  9.924046E-01 -2.772964E+01 
2.902812E+02  9.956974E-01 -2.987599E+01  3.394425E-04 6.165712E+01  3.369482E-04 6.144334E+01  9.925551E-01 -2.771914E+01 
2.903125E+02  9.957953E-01 -2.988738E+01  3.450158E-04 6.150157E+01  3.379094E-04 6.145520E+01  9.925857E-01 -2.773127E+01 
2.903438E+02  9.958512E-01 -2.989187E+01  3.413671E-04 6.065948E+01  3.394794E-04 6.086462E+01  9.924894E-01 -2.774055E+01 
2.903750E+02  9.958658E-01 -2.988883E+01  3.429316E-04 6.113394E+01  3.389720E-04 6.086359E+01  9.924499E-01 -2.773887E+01 
2.904062E+02  9.958073E-01 -2.989796E+01  3.421577E-04 6.045676E+01  3.404863E-04 6.092887E+01  9.925590E-01 -2.774683E+01 
2.904375E+02  9.957720E-01 -2.990330E+01  3.426178E-04 6.070197E+01  3.401238E-04 6.088837E+01  9.924564E-01 -2.774471E+01 
2.904688E+02  9.958141E-01 -2.990042E+01  3.419019E-04 6.058849E+01  3.431678E-04 6.039478E+01  9.925392E-01 -2.774873E+01 
2.905000E+02  9.958837E-01 -2.990940E+01  3.404388E-04 6.051425E+01  3.390100E-04 6.077365E+01  9.925199E-01 -2.774659E+01 
2.905312E+02  9.959012E-01 -2.991016E+01  3.447500E-04 6.051961E+01  3.377879E-04 6.067618E+01  9.925201E-01 -2.775891E+01 
2.905625E+02  9.957153E-01 -2.991113E+01  3.410049E-04 5.995149E+01  3.374822E-04 6.038503E+01  9.924207E-01 -2.775686E+01 
2.905938E+02  9.959227E-01 -2.992186E+01  3.369584E-04 5.958678E+01  3.394718E-04 5.991035E+01  9.924699E-01 -2.775873E+01 
2.906250E+02  9.958901E-01 -2.992230E+01  3.415207E-04 5.992548E+01  3.401253E-04 6.004952E+01  9.925279E-01 -2.776125E+01 
2.906562E+02  9.958704E-01 -2.992231E+01  3.393906E-04 5.999308E+01  3.372395E-04 6.013013E+01  9.926446E-01 -2.776822E+01 
2.906875E+02  9.959842E-01 -2.992959E+01  3.433733E-04 6.044046E+01  3.387261E-04 5.980861E+01  9.925253E-01 -2.777037E+01 
2.907188E+02  9.958651E-01 -2.993123E+01  3.393121E-04 5.935724E+01  3.364810E-04 6.007370E+01  9.925293E-01 -2.777488E+01 
2.907500E+02  9.958078E-01 -2.993130E+01  3.421561E-04 5.951978E+01  3.346725E-04 5.893794E+01  9.924953E-01 -2.777108E+01 
2.907812E+02  9.958346E-01 -2.993536E+01  3.413477E-04 5.937908E+01  3.376112E-04 6.023499E+01  9.925424E-01 -2.778186E+01 
2.908125E+02  9.959197E-01 -2.994767E+01  3.403306E-04 5.912811E+01  3.326337E-04 5.907325E+01  9.925244E-01 -2.778147E+01 
2.908438E+02  9.958817E-01 -2.994256E+01  3.355905E-04 5.932795E+01  3.355631E-04 5.927519E+01  9.924458E-01 -2.779013E+01 
2.908750E+02  9.958664E-01 -2.995119E+01  3.391472E-04 5.927980E+01  3.350219E-04 5.973006E+01  9.924521E-01 -2.778926E+01 
2.909062E+02  9.957041E-01 -2.995396E+01  3.357059E-04 5.859578E+01  3.343624E-04 5.895469E+01  9.925496E-01 -2.779796E+01 
2.909375E+02  9.958832E-01 -2.995642E+01  3.360250E-04 5.909517E+01  3.336842E-04 5.929891E+01  9.924516E-01 -2.779483E+01 
2.909688E+02  9.960092E-01 -2.996490E+01  3.349185E-04 5.911271E+01  3.356385E-04 5.884124E+01  9.924493E-01 -2.779969E+01 
2.910000E+02  9.958780E-01 -2.996211E+01  3.328878E-04 5.896116E+01  3.307827E-04 5.936448E+01  9.924650E-01 -2.780565E+01 
2.910312E+02  9.958019E-01 -2.996961E+01  3.315370E-04 5.909751E+01  3.282153E-04 5.873718E+01  9.925685E-01 -2.780848E+01 
2.910625E+02  9.957171E-01 -2.996652E+01  3.315564E-04 5.804989E+01  3.253386E-04 5.851902E+01  9.925098E-01 -2.780927E+01 
2.910938E+02  9.957157E-01 -2.997341E+01  3.265620E-04 5.856722E+01  3.309804E-04 5.889332E+01  9.924318E-01 -2.781107E+01 
2.911250E+02  9.957735E-01 -2.997998E+01  3.267089E-04 5.854803E+01  3.226550E-04 5.872471E+01  9.923609E-01 -2.781580E+01 
2.911562E+02  9.957409E-01 -2.997653E+01  3.230111E-04 5.870166E+01  3.202099E-04 5.848557E+01  9.924843E-01 -2.781972E+01 
2.911875E+02  9.959156E-01 -2.998209E+01  3.211696E-04 5.879972E+01  3.193039E-04 5.857570E+01  9.925377E-01 -2.782345E+01 
2.912188E+02  9.957771E-01 -2.998058E+01  3.180954E-04 5.792251E+01  3.182751E-04 5.843356E+01  9.925253E-01 -2.782636E+01 
2.912500E+02  9.957685E-01 -2.999219E+01  3.150996E-04 5.839910E+01  3.151966E-04 5.896302E+01  9.924403E-01 -2.782438E+01 
2.912812E+02  9.956964E-01 -2.999424E+01  3.149452E-04 5.914945E+01  3.100511E-04 5.904728E+01  9.925447E-01 -2.783045E+01 
2.913125E+02  9.957450E-01 -2.999721E+01  3.158875E-04 5.949167E+01  3.107735E-04 5.993339E+01  9.923315E-01 -2.783133E+01 
2.913438E+02  9.958980E-01 -3.000106E+01  3.158814E-04 5.991988E+01  3.115315E-04 6.095249E+01  9.923800E-01 -2.784105E+01 
2.913750E+02  9.959666E-01 -3.000785E+01  3.160927E-04 5.939335E+01  3.133106E-04 6.069316E+01  9.924767E-01 -2.784087E+01 
2.914062E+02  9.956605E-01 -3.000272E+01  3.105837E-04 6.051260E+01  3.089762E-04 6.050537E+01  9.924378E-01 -2.784095E+01 
2.914375E+02  9.956319E-01 -3.000618E+01  3.147517E-04 6.072364E+01  3.120650E-04 6.005448E+01  9.924212E-01 -2.784069E+01 
2.914688E+02  9.957186E-01 -3.000619E+01  3.164550E-04 6.018885E+01  3.119147E-04 6.096064E+01  9.923967E-01 -2.785516E+01 
2.915000E+02  9.957535E-01 -3.001440E+01  3.124019E-04 6.051711E+01  3.067789E-04 6.088297E+01  9.924133E-01 -2.785268E+01 
2.915312E+02  9.957522E-01 -3.001523E+01  3.108081E-04 6.178467E+01  3.093832E-04 6.092898E+01  9.923888E-01 -2.785942E+01 
2.915625E+02  9.957810E-01 -3.002811E+01  3.114533E-04 5.980478E+01  3.077856E-04 6.108208E+01  9.923308E-01 -2.786073E+01 
2.915938E+02  9.957912E-01 -3.002089E+01  3.101504E-04 6.107824E+01  3.061880E-04 6.071454E+01  9.924404E-01 -2.786331E+01 
2.916250E+02  9.957467E-01 -3.002136E+01  3.092837E-04 6.188160E+01  3.014132E-04 6.219736E+01  9.924197E-01 -2.786559E+01 
2.916562E+02  9.957705E-01 -3.003528E+01  3.034623E-04 6.239331E+01  3.079169E-04 6.253422E+01  9.924137E-01 -2.786066E+01 
2.916875E+02  9.957239E-01 -3.003722E+01  3.032928E-04 6.321134E+01  3.044833E-04 6.189722E+01  9.925348E-01 -2.787152E+01 
2.917188E+02  9.957138E-01 -3.003533E+01  3.050934E-04 6.247410E+01  3.023248E-04 6.197214E+01  9.924199E-01 -2.787291E+01 
2.917500E+02  9.956332E-01 -3.004224E+01  2.985706E-04 6.251935E+01  3.038715E-04 6.265636E+01  9.923920E-01 -2.788276E+01 
2.917812E+02  9.958012E-01 -3.004440E+01  3.032106E-04 6.246008E+01  2.962120E-04 6.307248E+01  9.922796E-01 -2.787562E+01 
2.918125E+02  9.957221E-01 -3.004496E+01  3.026597E-04 6.330156E+01  2.988252E-04 6.295523E+01  9.922928E-01 -2.788402E+01 
2.918438E+02  9.958477E-01 -3.005243E+01  2.962112E-04 6.298658E+01  2.964587E-04 6.289950E+01  9.924432E-01 -2.788836E+01 
2.918750E+02  9.958800E-01 -3.005820E+01  3.004299E-04 6.372438E+01  2.940729E-04 6.436545E+01  9.923077E-01 -2.788679E+01 
2.919062E+02  9.956705E-01 -3.005927E+01  2.962293E-04 6.400650E+01  2.908590E-04 6.486112E+01  9.923039E-01 -2.789153E+01 
2.919375E+02  9.956088E-01 -3.005392E+01  2.916252E-04 6.536412E+01  2.954515E-04 6.576630E+01  9.924037E-01 -2.789657E+01 
2.919688E+02  9.956348E-01 -3.006405E+01  2.993295E-04 6.598319E+01  2.958917E-04 6.622164E+01  9.923229E-01 -2.789320E+01 
2.920000E+02  9.956254E-01 -3.006822E+01  2.967172E-04 6.787821E+01  2.960986E-04 6.736986E+01  9.922894E-01 -2.790008E+01 
2.920312E+02  9.956087E-01 -3.006624E+01  2.975704E-04 6.760479E+01  2.984965E-04 6.830547E+01  9.925072E-01 -2.790325E+01 
2.920625E+02  9.956305E-01 -3.007278E+01  2.993571E-04 6.946614E+01  3.010290E-04 6.975636E+01  9.923809E-01 -2.790861E+01 
2.920938E+02  9.955239E-01 -3.007385E+01  3.032740E-04 7.039186E+01  3.045399E-04 6.980926E+01  9.924121E-01 -2.791374E+01 
2.921250E+02  9.956079E-01 -3.007740E+01  3.061896E-04 7.051481E+01  3.090279E-04 7.025844E+01  9.922251E-01 -2.791634E+01 
2.921562E+02  9.956319E-01 -3.008419E+01  3.120746E-04 7.144321E+01  3.082404E-04 7.050750E+01  9.923068E-01 -2.791669E+01 
2.921875E+02  9.956520E-01 -3.008146E+01  3.157914E-04 7.109784E+01  3.139040E-04 7.093796E+01  9.924118E-01 -2.791990E+01 
2.922188E+02  9.956325E-01 -3.008259E+01  3.213258E-04 7.099938E+01  3.243509E-04 7.072944E+01  9.923158E-01 -2.792158E+01 
2.922500E+02  9.958461E-01 -3.008678E+01  3.320480E-04 7.106762E+01  3.299218E-04 7.225152E+01  9.923142E-01 -2.792991E+01 
2.922812E+02  9.957611E-01 -3.008515E+01  3.375899E-04 7.062600E+01  3.309681E-04 7.088602E+01  9.923693E-01 -2.793231E+01 
2.923125E+02  9.957619E-01 -3.009630E+01  3.394101E-04 7.068371E+01  3.370100E-04 7.082759E+01  9.923559E-01 -2.793366E+01 
2.923438E+02  9.956899E-01 -3.009867E+01  3.413990E-04 7.028342E+01  3.389187E-04 7.021116E+01  9.923241E-01 -2.793250E+01 
2.923750E+02  9.957002E-01 -3.010130E+01  3.433081E-04 6.969670E+01  3.352547E-04 6.912680E+01  9.925921E-01 -2.794297E+01 
2.924062E+02  9.956988E-01 -3.009852E+01  3.412474E-04 6.903038E+01  3.399794E-04 6.974869E+01  9.923592E-01 -2.794706E+01 
2.924375E+02  9.957637E-01 -3.010761E+01  3.434101E-04 6.970066E+01  3.437328E-04 6.922330E+01  9.923793E-01 -2.794111E+01 
2.924688E+02  9.956165E-01 -3.011365E+01  3.435661E-04 6.820642E+01  3.412080E-04 6.860993E+01  9.923175E-01 -2.794476E+01 
2.925000E+02  9.957116E-01 -3.011530E+01  3.400442E-04 6.864322E+01  3.423376E-04 6.868342E+01  9.923782E-01 -2.795111E+01 
2.925312E+02  9.955921E-01 -3.012171E+01  3.449498E-04 6.909383E+01  3.403257E-04 6.946579E+01  9.923685E-01 -2.795838E+01 
2.925625E+02  9.956580E-01 -3.012558E+01  3.432175E-04 6.929027E+01  3.362367E-04 6.930708E+01  9.923333E-01 -2.795968E+01 
2.925938E+02  9.956235E-01 -3.012391E+01  3.426928E-04 6.852690E+01  3.415430E-04 6.932068E+01  9.923380E-01 -2.796624E+01 
2.926250E+02  9.958809E-01 -3.012289E+01  3.452938E-04 6.910934E+01  3.411604E-04 6.904163E+01  9.922623E-01 -2.797166E+01 
2.926562E+02  9.957056E-01 -3.013898E+01  3.457118E-04 6.943808E+01  3.427430E-04 6.952258E+01  9.923175E-01 -2.796814E+01 
2.926875E+02  9.956551E-01 -3.013342E+01  3.450873E-04 7.030860E+01  3.447295E-04 7.037987E+01  9.921973E-01 -2.796806E+01 
2.927188E+02  9.958350E-01 -3.013717E+01  3.426439E-04 7.073918E+01  3.466915E-04 7.100020E+01  9.922707E-01 -2.797433E+01 
2.927500E+02  9.957753E-01 -3.013595E+01  3.540523E-04 7.087967E+01  3.489639E-04 7.133886E+01  9.921479E-01 -2.797523E+01 
2.927812E+02  9.956537E-01 -3.014706E+01  3.563431E-04 7.034191E+01  3.528751E-04 7.106978E+01  9.921391E-01 -2.797808E+01 
2.928125E+02  9.957584E-01 -3.014952E+01  3.638205E-04 7.149829E+01  3.607915E-04 7.071946E+01  9.921868E-01 -2.797990E+01 
2.928438E+02  9.954997E-01 -3.015455E+01  3.682724E-04 7.045366E+01  3.623036E-04 7.024157E+01  9.921753E-01 -2.798205E+01 
2.928750E+02  9.955512E-01 -3.015832E+01  3.682293E-04 7.057764E+01  3.651442E-04 7.055302E+01  9.921441E-01 -2.798500E+01 
2.929062E+02  9.957060E-01 -3.015996E+01  3.750424E-04 6.996155E+01  3.677924E-04 7.048381E+01  9.921420E-01 -2.798967E+01 
2.929375E+02  9.956913E-01 -3.016181E+01  3.754823E-04 6.979812E+01  3.718355E-04 7.031563E+01  9.921313E-01 -2.798829E+01 
2.929688E+02  9.956644E-01 -3.016540E+01  3.817307E-04 6.895914E+01  3.796441E-04 6.909622E+01  9.922339E-01 -2.799187E+01 
2.930000E+02  9.956295E-01 -3.016437E+01  3.829099E-04 6.834742E+01  3.813894E-04 6.933548E+01  9.921332E-01 -2.799513E+01 
2.930312E+02  9.955494E-01 -3.016938E+01  3.879068E-04 6.759422E+01  3.844917E-04 6.826566E+01  9.921123E-01 -2.800259E+01 
2.930625E+02  9.956526E-01 -3.016939E+01  3.893329E-04 6.808257E+01  3.829425E-04 6.759941E+01  9.921632E-01 -2.799587E+01 
2.930938E+02  9.956485E-01 -3.017629E+01  3.918451E-04 6.661161E+01  3.827085E-04 6.735462E+01  9.921716E-01 -2.799927E+01 
2.931250E+02  9.955827E-01 -3.017746E+01  3.897859E-04 6.649514E+01  3.824301E-04 6.623613E+01  9.921065E-01 -2.800469E+01 
2.931562E+02  9.955833E-01 -3.017860E+01  3.887204E-04 6.592655E+01  3.858794E-04 6.621420E+01  9.922538E-01 -2.799607E+01 
2.931875E+02  9.956335E-01 -3.018785E+01  3.839072E-04 6.518135E+01  3.771498E-04 6.602839E+01  9.923115E-01 -2.801220E+01 
2.932188E+02  9.956914E-01 -3.018331E+01  3.833329E-04 6.543666E+01  3.795540E-04 6.575651E+01  9.922659E-01 -2.800191E+01 
2.932500E+02  9.956290E-01 -3.018803E+01  3.858395E-04 6.605077E+01  3.791089E-04 6.564352E+01  9.922205E-01 -2.800836E+01 
2.932812E+02  9.956714E-01 -3.019580E+01  3.839383E-04 6.565355E+01  3.850984E-04 6.496024E+01  9.922266E-01 -2.801655E+01 
2.933125E+02  9.957221E-01 -3.019901E+01  3.846522E-04 6.535644E+01  3.824473E-04 6.559388E+01  9.923833E-01 -2.801756E+01 
2.933438E+02  9.956773E-01 -3.019082E+01  3.835463E-04 6.491007E+01  3.844983E-04 6.546952E+01  9.921658E-01 -2.801855E+01 
2.933750E+02  9.955823E-01 -3.020518E+01  3.846927E-04 6.473276E+01  3.813068E-04 6.551856E+01  9.922398E-01 -2.802419E+01 
2.934062E+02  9.956204E-01 -3.020849E+01  3.898541E-04 6.493440E+01  3.829173E-04 6.486028E+01  9.922378E-01 -2.803414E+01 
2.934375E+02  9.956909E-01 -3.021494E+01  3.873148E-04 6.508461E+01  3.880281E-04 6.425061E+01  9.923798E-01 -2.803501E+01 
2.934688E+02  9.956455E-01 -3.021273E+01  3.917102E-04 6.504196E+01  3.862602E-04 6.548301E+01  9.922551E-01 -2.804389E+01 
2.935000E+02  9.955012E-01 -3.021829E+01  3.943708E-04 6.480867E+01  3.897374E-04 6.461149E+01  9.921936E-01 -2.804088E+01 
2.935312E+02  9.956285E-01 -3.021994E+01  3.945644E-04 6.426683E+01  3.926091E-04 6.500946E+01  9.922783E-01 -2.804241E+01 
2.935625E+02  9.957290E-01 -3.022331E+01  3.974649E-04 6.415755E+01  3.929509E-04 6.383851E+01  9.922360E-01 -2.804572E+01 
2.935938E+02  9.957723E-01 -3.023568E+01  4.040105E-04 6.325833E+01  3.984029E-04 6.360856E+01  9.923279E-01 -2.805490E+01 
2.936250E+02  9.956565E-01 -3.022990E+01  4.031449E-04 6.324050E+01  3.977209E-04 6.324677E+01  9.921874E-01 -2.805744E+01 
2.936562E+02  9.956194E-01 -3.023187E+01  4.038727E-04 6.247243E+01  4.045402E-04 6.210230E+01  9.922321E-01 -2.805983E+01 
2.936875E+02  9.955896E-01 -3.023391E+01  4.035074E-04 6.194611E+01  3.994895E-04 6.177323E+01  9.922719E-01 -2.806684E+01 
2.937188E+02  9.956604E-01 -3.023593E+01  4.034142E-04 6.172650E+01  3.993004E-04 6.168294E+01  9.923893E-01 -2.806619E+01 
2.937500E+02  9.957010E-01 -3.024363E+01  4.020144E-04 6.115623E+01  3.992706E-04 6.071875E+01  9.922280E-01 -2.806650E+01 
2.937812E+02  9.957014E-01 -3.024080E+01  4.017381E-04 6.003386E+01  3.997238E-04 6.047839E+01  9.922292E-01 -2.807054E+01 
2.938125E+02  9.955588E-01 -3.024680E+01  3.978046E-04 5.938429E+01  3.978288E-04 5.973549E+01  9.921822E-01 -2.807201E+01 
2.938438E+02  9.955645E-01 -3.025289E+01  4.028726E-04 5.897287E+01  3.969543E-04 5.915234E+01  9.922059E-01 -2.808067E+01 
2.938750E+02  9.956080E-01 -3.025498E+01  4.012463E-04 5.849136E+01  3.927948E-04 5.861809E+01  9.922999E-01 -2.807480E+01 
2.939062E+02  9.956779E-01 -3.025569E+01  3.936155E-04 5.825335E+01  3.882758E-04 5.826037E+01  9.921659E-01 -2.808197E+01 
2.939375E+02  9.957993E-01 -3.025497E+01  3.939452E-04 5.830317E+01  3.871109E-04 5.829036E+01  9.923534E-01 -2.808594E+01 
2.939688E+02  9.955908E-01 -3.026761E+01  3.856999E-04 5.740047E+01  3.877449E-04 5.808876E+01  9.921999E-01 -2.808707E+01 
2.940000E+02  9.956177E-01 -3.027002E+01  3.896845E-04 5.739153E+01  3.848931E-04 5.779190E+01  9.923164E-01 -2.808788E+01 
2.940312E+02  9.956609E-01 -3.027406E+01  3.895798E-04 5.748667E+01  3.851273E-04 5.810557E+01  9.923612E-01 -2.809340E+01 
2.940625E+02  9.957079E-01 -3.027868E+01  3.874105E-04 5.726677E+01  3.826162E-04 5.790018E+01  9.923372E-01 -2.810187E+01 
2.940938E+02  9.955195E-01 -3.027787E+01  3.832109E-04 5.754881E+01  3.807117E-04 5.799086E+01  9.922121E-01 -2.810096E+01 
2.941250E+02  9.956704E-01 -3.027879E+01  3.835673E-04 5.709644E+01  3.804871E-04 5.712254E+01  9.922560E-01 -2.809821E+01 
2.941562E+02  9.956550E-01 -3.028585E+01  3.830206E-04 5.678962E+01  3.786512E-04 5.756438E+01  9.922097E-01 -2.810188E+01 
2.941875E+02  9.957253E-01 -3.029369E+01  3.815265E-04 5.635254E+01  3.773272E-04 5.689824E+01  9.923746E-01 -2.811154E+01 
2.942188E+02  9.957169E-01 -3.028847E+01  3.796731E-04 5.614972E+01  3.770596E-04 5.612306E+01  9.923574E-01 -2.811649E+01 
2.942500E+02  9.955654E-01 -3.030129E+01  3.778696E-04 5.632971E+01  3.736561E-04 5.640265E+01  9.923730E-01 -2.812022E+01 
2.942812E+02  9.955727E-01 -3.029714E+01  3.786127E-04 5.554833E+01  3.740225E-04 5.540042E+01  9.922569E-01 -2.812131E+01 
2.943125E+02  9.956965E-01 -3.030165E+01  3.723251E-04 5.589544E+01  3.751346E-04 5.517228E+01  9.923470E-01 -2.812018E+01 
2.943438E+02  9.957095E-01 -3.030778E+01  3.754539E-04 5.540626E+01  3.740370E-04 5.564508E+01  9.922986E-01 -2.812494E+01 
2.943750E+02  9.956592E-01 -3.031282E+01  3.734759E-04 5.452397E+01  3.680838E-04 5.498548E+01  9.923336E-01 -2.812934E+01 
2.944062E+02  9.956831E-01 -3.031050E+01  3.708499E-04 5.379301E+01  3.694767E-04 5.424805E+01  9.923244E-01 -2.813185E+01 
2.944375E+02  9.955663E-01 -3.031771E+01  3.705063E-04 5.359576E+01  3.659248E-04 5.420345E+01  9.923016E-01 -2.813077E+01 
2.944688E+02  9.955629E-01 -3.032056E+01  3.631038E-04 5.386838E+01  3.607048E-04 5.382446E+01  9.924335E-01 -2.813799E+01 
2.945000E+02  9.956066E-01 -3.032195E+01  3.647519E-04 5.311993E+01  3.639769E-04 5.355701E+01  9.923772E-01 -2.814599E+01 
2.945312E+02  9.955830E-01 -3.032603E+01  3.609031E-04 5.336274E+01  3.577878E-04 5.289284E+01  9.923117E-01 -2.814084E+01 
2.945625E+02  9.956830E-01 -3.033693E+01  3.563456E-04 5.286898E+01  3.539856E-04 5.287225E+01  9.922524E-01 -2.814859E+01 
2.945938E+02  9.956502E-01 -3.033924E+01  3.589740E-04 5.280523E+01  3.502962E-04 5.225179E+01  9.922025E-01 -2.814500E+01 
2.946250E+02  9.957379E-01 -3.033973E+01  3.471702E-04 5.287432E+01  3.427494E-04 5.279909E+01  9.923210E-01 -2.815707E+01 
2.946562E+02  9.956405E-01 -3.034030E+01  3.405890E-04 5.243286E+01  3.403536E-04 5.263948E+01  9.922506E-01 -2.815886E+01 
2.946875E+02  9.956186E-01 -3.033977E+01  3.380642E-04 5.339618E+01  3.345399E-04 5.308864E+01  9.921716E-01 -2.816477E+01 
2.947188E+02  9.956362E-01 -3.034614E+01  3.306780E-04 5.369018E+01  3.322017E-04 5.344710E+01  9.922590E-01 -2.816479E+01 
2.947500E+02  9.955211E-01 -3.035168E+01  3.268803E-04 5.348211E+01  3.258034E-04 5.442369E+01  9.923441E-01 -2.816628E+01 
2.947812E+02  9.956859E-01 -3.035702E+01  3.279187E-04 5.462855E+01  3.236224E-04 5.519570E+01  9.923117E-01 -2.816991E+01 
2.948125E+02  9.957831E-01 -3.035165E+01  3.229544E-04 5.534617E+01  3.180277E-04 5.496602E+01  9.923760E-01 -2.817791E+01 
2.948438E+02  9.957568E-01 -3.036294E+01  3.220607E-04 5.574446E+01  3.184315E-04 5.565033E+01  9.924139E-01 -2.818102E+01 
2.948750E+02  9.956540E-01 -3.036768E+01  3.176536E-04 5.596220E+01  3.133577E-04 5.614235E+01  9.923215E-01 -2.818217E+01 
