! Matrix data file written by TouchstoneData, EPCOS AG
! FILENAME: "B3758_NB.s2p"
! COMMENT: "un-matching S-parameter for B3758"
! INFO: nport=2, nfreq=1601
! DATE: "Tue Nov  6 09:40:43 2012"
! USER: "Eluer Wang"
!
! port | pin | signal
! -----|-----|--------
!   1  |  2  |  in
!   2  |  4  |  out
! --------------------
! 
# MHZ S MA R 50
! freq  magS11 angS11  magS21 angS21  magS12 angS12  magS22 angS22
9.258500E+02  9.366506E-01 -6.236035E+01  1.521061E-03 -1.474920E+02  1.519033E-03 -1.473107E+02  9.455037E-01 -5.959414E+01 
9.258531E+02  9.367520E-01 -6.237395E+01  1.510523E-03 -1.479505E+02  1.509311E-03 -1.479227E+02  9.454476E-01 -5.960781E+01 
9.258563E+02  9.366525E-01 -6.239429E+01  1.508243E-03 -1.479546E+02  1.502627E-03 -1.483981E+02  9.454438E-01 -5.961679E+01 
9.258594E+02  9.366800E-01 -6.240239E+01  1.492011E-03 -1.485890E+02  1.489714E-03 -1.483241E+02  9.453918E-01 -5.963288E+01 
9.258625E+02  9.366749E-01 -6.240454E+01  1.480311E-03 -1.489523E+02  1.483123E-03 -1.488259E+02  9.454275E-01 -5.963375E+01 
9.258656E+02  9.366675E-01 -6.241405E+01  1.475797E-03 -1.490074E+02  1.475241E-03 -1.488494E+02  9.454564E-01 -5.964283E+01 
9.258687E+02  9.366418E-01 -6.242566E+01  1.465661E-03 -1.491915E+02  1.460794E-03 -1.492399E+02  9.454275E-01 -5.965694E+01 
9.258719E+02  9.365882E-01 -6.244055E+01  1.457329E-03 -1.494987E+02  1.457558E-03 -1.495398E+02  9.453364E-01 -5.967631E+01 
9.258750E+02  9.366030E-01 -6.245112E+01  1.445146E-03 -1.494123E+02  1.448671E-03 -1.500977E+02  9.453520E-01 -5.968476E+01 
9.258781E+02  9.365653E-01 -6.245957E+01  1.437621E-03 -1.499749E+02  1.437398E-03 -1.496256E+02  9.453145E-01 -5.968446E+01 
9.258813E+02  9.365091E-01 -6.246653E+01  1.435268E-03 -1.501927E+02  1.436310E-03 -1.502369E+02  9.452849E-01 -5.969291E+01 
9.258844E+02  9.365375E-01 -6.247105E+01  1.422404E-03 -1.500815E+02  1.424819E-03 -1.505029E+02  9.452749E-01 -5.970445E+01 
9.258875E+02  9.365828E-01 -6.249096E+01  1.412906E-03 -1.505618E+02  1.413813E-03 -1.505272E+02  9.452956E-01 -5.972603E+01 
9.258906E+02  9.365374E-01 -6.250872E+01  1.417773E-03 -1.506832E+02  1.413712E-03 -1.508730E+02  9.452553E-01 -5.974057E+01 
9.258938E+02  9.365330E-01 -6.251400E+01  1.399520E-03 -1.511049E+02  1.410853E-03 -1.510213E+02  9.452015E-01 -5.973937E+01 
9.258969E+02  9.365225E-01 -6.252258E+01  1.394957E-03 -1.511701E+02  1.392510E-03 -1.512830E+02  9.451786E-01 -5.974483E+01 
9.259000E+02  9.364773E-01 -6.251837E+01  1.388044E-03 -1.511847E+02  1.389841E-03 -1.514408E+02  9.451425E-01 -5.975796E+01 
9.259031E+02  9.364652E-01 -6.253690E+01  1.394477E-03 -1.517016E+02  1.381433E-03 -1.515219E+02  9.450989E-01 -5.977630E+01 
9.259062E+02  9.363870E-01 -6.255883E+01  1.382649E-03 -1.519236E+02  1.382766E-03 -1.522177E+02  9.451222E-01 -5.979417E+01 
9.259094E+02  9.364258E-01 -6.256935E+01  1.371983E-03 -1.519290E+02  1.367545E-03 -1.522617E+02  9.450950E-01 -5.979637E+01 
9.259125E+02  9.363934E-01 -6.257305E+01  1.373403E-03 -1.520169E+02  1.365048E-03 -1.522102E+02  9.449992E-01 -5.979769E+01 
9.259156E+02  9.363516E-01 -6.257656E+01  1.368026E-03 -1.524772E+02  1.358959E-03 -1.523429E+02  9.449557E-01 -5.979637E+01 
9.259188E+02  9.363926E-01 -6.259347E+01  1.355380E-03 -1.525135E+02  1.355718E-03 -1.525379E+02  9.450439E-01 -5.982662E+01 
9.259219E+02  9.363143E-01 -6.261319E+01  1.357498E-03 -1.527474E+02  1.357585E-03 -1.530153E+02  9.449749E-01 -5.984740E+01 
9.259250E+02  9.363119E-01 -6.262730E+01  1.352743E-03 -1.528962E+02  1.350180E-03 -1.530664E+02  9.449740E-01 -5.984963E+01 
9.259281E+02  9.362693E-01 -6.262661E+01  1.349309E-03 -1.532722E+02  1.344519E-03 -1.530745E+02  9.448859E-01 -5.985052E+01 
9.259312E+02  9.362198E-01 -6.262736E+01  1.344467E-03 -1.531432E+02  1.342713E-03 -1.531983E+02  9.448100E-01 -5.985204E+01 
9.259344E+02  9.362734E-01 -6.264350E+01  1.338275E-03 -1.533415E+02  1.331608E-03 -1.537865E+02  9.448300E-01 -5.988245E+01 
9.259375E+02  9.361446E-01 -6.265941E+01  1.335541E-03 -1.536121E+02  1.326169E-03 -1.535903E+02  9.448571E-01 -5.990176E+01 
9.259406E+02  9.362377E-01 -6.267888E+01  1.322037E-03 -1.539428E+02  1.328504E-03 -1.541428E+02  9.447817E-01 -5.990727E+01 
9.259438E+02  9.361330E-01 -6.268043E+01  1.327387E-03 -1.540697E+02  1.324542E-03 -1.540457E+02  9.447887E-01 -5.990577E+01 
9.259469E+02  9.360970E-01 -6.268477E+01  1.324382E-03 -1.541806E+02  1.316584E-03 -1.542808E+02  9.447398E-01 -5.990542E+01 
9.259500E+02  9.360867E-01 -6.269247E+01  1.321210E-03 -1.540427E+02  1.324279E-03 -1.545716E+02  9.447279E-01 -5.992713E+01 
9.259531E+02  9.360883E-01 -6.270712E+01  1.314356E-03 -1.543815E+02  1.322446E-03 -1.543870E+02  9.447541E-01 -5.995088E+01 
9.259563E+02  9.360691E-01 -6.273068E+01  1.314042E-03 -1.548526E+02  1.310192E-03 -1.551612E+02  9.446578E-01 -5.996704E+01 
9.259594E+02  9.360651E-01 -6.273193E+01  1.309579E-03 -1.550552E+02  1.309989E-03 -1.550856E+02  9.445977E-01 -5.996910E+01 
9.259625E+02  9.360325E-01 -6.273808E+01  1.312499E-03 -1.549412E+02  1.308001E-03 -1.551307E+02  9.446822E-01 -5.996559E+01 
9.259656E+02  9.359876E-01 -6.275020E+01  1.302151E-03 -1.551626E+02  1.305929E-03 -1.553797E+02  9.445592E-01 -5.998561E+01 
9.259688E+02  9.359784E-01 -6.276190E+01  1.306015E-03 -1.554418E+02  1.302663E-03 -1.556212E+02  9.445634E-01 -6.000537E+01 
9.259719E+02  9.359317E-01 -6.278299E+01  1.304542E-03 -1.554480E+02  1.299266E-03 -1.557704E+02  9.445530E-01 -6.002077E+01 
9.259750E+02  9.359401E-01 -6.278731E+01  1.301202E-03 -1.559265E+02  1.303377E-03 -1.556767E+02  9.445418E-01 -6.002776E+01 
9.259781E+02  9.359164E-01 -6.279108E+01  1.298190E-03 -1.560105E+02  1.297334E-03 -1.559218E+02  9.444792E-01 -6.002522E+01 
9.259813E+02  9.358603E-01 -6.280336E+01  1.295736E-03 -1.560645E+02  1.297177E-03 -1.560444E+02  9.444595E-01 -6.003883E+01 
9.259844E+02  9.358723E-01 -6.281424E+01  1.293954E-03 -1.564122E+02  1.297254E-03 -1.562062E+02  9.443832E-01 -6.005739E+01 
9.259875E+02  9.357888E-01 -6.283186E+01  1.295660E-03 -1.563219E+02  1.297939E-03 -1.563680E+02  9.443107E-01 -6.007395E+01 
9.259906E+02  9.357796E-01 -6.283761E+01  1.291010E-03 -1.567428E+02  1.296379E-03 -1.568594E+02  9.443822E-01 -6.008524E+01 
9.259937E+02  9.357264E-01 -6.284716E+01  1.294843E-03 -1.566849E+02  1.294412E-03 -1.566847E+02  9.442464E-01 -6.008556E+01 
9.259969E+02  9.357662E-01 -6.285833E+01  1.288837E-03 -1.567612E+02  1.294129E-03 -1.566615E+02  9.442504E-01 -6.009546E+01 
9.260000E+02  9.357386E-01 -6.286632E+01  1.293727E-03 -1.568770E+02  1.284466E-03 -1.567723E+02  9.442497E-01 -6.011111E+01 
9.260031E+02  9.357268E-01 -6.288551E+01  1.291619E-03 -1.571961E+02  1.290087E-03 -1.572001E+02  9.442362E-01 -6.012071E+01 
9.260063E+02  9.356890E-01 -6.289475E+01  1.285225E-03 -1.569477E+02  1.285061E-03 -1.571442E+02  9.442467E-01 -6.013401E+01 
9.260094E+02  9.356608E-01 -6.290225E+01  1.284505E-03 -1.572798E+02  1.281519E-03 -1.574799E+02  9.441430E-01 -6.014642E+01 
9.260125E+02  9.356535E-01 -6.291355E+01  1.299367E-03 -1.575631E+02  1.288627E-03 -1.576710E+02  9.441113E-01 -6.015372E+01 
9.260156E+02  9.356394E-01 -6.292135E+01  1.283172E-03 -1.570624E+02  1.292543E-03 -1.578905E+02  9.440258E-01 -6.016180E+01 
9.260188E+02  9.356276E-01 -6.293572E+01  1.289676E-03 -1.579913E+02  1.293286E-03 -1.578679E+02  9.440732E-01 -6.017422E+01 
9.260219E+02  9.355580E-01 -6.294856E+01  1.285965E-03 -1.579882E+02  1.294952E-03 -1.580418E+02  9.440736E-01 -6.019966E+01 
9.260250E+02  9.354991E-01 -6.296315E+01  1.284012E-03 -1.580463E+02  1.288746E-03 -1.580903E+02  9.440438E-01 -6.020665E+01 
9.260281E+02  9.355269E-01 -6.297195E+01  1.289527E-03 -1.584293E+02  1.291240E-03 -1.584168E+02  9.439052E-01 -6.021491E+01 
9.260312E+02  9.354535E-01 -6.298097E+01  1.285277E-03 -1.581088E+02  1.293844E-03 -1.585478E+02  9.439063E-01 -6.021865E+01 
9.260344E+02  9.354615E-01 -6.298879E+01  1.299010E-03 -1.581885E+02  1.290585E-03 -1.584972E+02  9.438083E-01 -6.022901E+01 
9.260375E+02  9.353829E-01 -6.300768E+01  1.293218E-03 -1.584714E+02  1.293416E-03 -1.588633E+02  9.438481E-01 -6.024985E+01 
9.260406E+02  9.353934E-01 -6.301922E+01  1.301359E-03 -1.583528E+02  1.295042E-03 -1.591503E+02  9.437874E-01 -6.026464E+01 
9.260438E+02  9.353961E-01 -6.303303E+01  1.293861E-03 -1.589005E+02  1.291454E-03 -1.588269E+02  9.437590E-01 -6.027348E+01 
9.260469E+02  9.353579E-01 -6.303380E+01  1.291706E-03 -1.590311E+02  1.290975E-03 -1.590579E+02  9.437232E-01 -6.027432E+01 
9.260500E+02  9.353434E-01 -6.304279E+01  1.291554E-03 -1.591419E+02  1.297197E-03 -1.591910E+02  9.437262E-01 -6.028770E+01 
9.260531E+02  9.352242E-01 -6.305827E+01  1.297879E-03 -1.593595E+02  1.293957E-03 -1.591429E+02  9.437794E-01 -6.031087E+01 
9.260562E+02  9.352427E-01 -6.308015E+01  1.303016E-03 -1.590317E+02  1.299241E-03 -1.592017E+02  9.437081E-01 -6.033077E+01 
9.260594E+02  9.352063E-01 -6.308708E+01  1.304719E-03 -1.597003E+02  1.297650E-03 -1.597905E+02  9.436530E-01 -6.033762E+01 
9.260625E+02  9.352152E-01 -6.309472E+01  1.313369E-03 -1.594818E+02  1.310648E-03 -1.597575E+02  9.435999E-01 -6.033856E+01 
9.260656E+02  9.351049E-01 -6.309525E+01  1.307369E-03 -1.595190E+02  1.311696E-03 -1.596351E+02  9.435658E-01 -6.034856E+01 
9.260688E+02  9.350732E-01 -6.311176E+01  1.310146E-03 -1.598914E+02  1.305875E-03 -1.601036E+02  9.435056E-01 -6.036579E+01 
9.260719E+02  9.350263E-01 -6.313299E+01  1.309855E-03 -1.602876E+02  1.304805E-03 -1.600649E+02  9.435504E-01 -6.039534E+01 
9.260750E+02  9.351074E-01 -6.314465E+01  1.310135E-03 -1.601966E+02  1.311109E-03 -1.603187E+02  9.434999E-01 -6.039840E+01 
9.260781E+02  9.350144E-01 -6.315285E+01  1.318123E-03 -1.602470E+02  1.314630E-03 -1.602596E+02  9.433998E-01 -6.039912E+01 
9.260813E+02  9.349454E-01 -6.315536E+01  1.313834E-03 -1.603573E+02  1.314118E-03 -1.601697E+02  9.434323E-01 -6.041301E+01 
9.260844E+02  9.349970E-01 -6.316588E+01  1.327849E-03 -1.602118E+02  1.311532E-03 -1.605074E+02  9.433300E-01 -6.042368E+01 
9.260875E+02  9.349060E-01 -6.318603E+01  1.324509E-03 -1.606358E+02  1.325602E-03 -1.606050E+02  9.433549E-01 -6.045190E+01 
9.260906E+02  9.348879E-01 -6.320658E+01  1.327067E-03 -1.602757E+02  1.330329E-03 -1.606452E+02  9.432812E-01 -6.046047E+01 
9.260938E+02  9.349212E-01 -6.321774E+01  1.334624E-03 -1.608778E+02  1.332904E-03 -1.608664E+02  9.432262E-01 -6.046558E+01 
9.260969E+02  9.347862E-01 -6.321386E+01  1.337148E-03 -1.610667E+02  1.330768E-03 -1.612868E+02  9.431662E-01 -6.046365E+01 
9.261000E+02  9.348200E-01 -6.322432E+01  1.331177E-03 -1.610576E+02  1.336879E-03 -1.614163E+02  9.431489E-01 -6.047987E+01 
9.261031E+02  9.347013E-01 -6.324405E+01  1.340887E-03 -1.612428E+02  1.336811E-03 -1.612771E+02  9.431115E-01 -6.051098E+01 
9.261063E+02  9.347520E-01 -6.326358E+01  1.345549E-03 -1.612593E+02  1.341541E-03 -1.613705E+02  9.430954E-01 -6.052320E+01 
9.261094E+02  9.346934E-01 -6.327352E+01  1.347192E-03 -1.612801E+02  1.341910E-03 -1.613168E+02  9.430167E-01 -6.052775E+01 
9.261125E+02  9.346191E-01 -6.327534E+01  1.352556E-03 -1.614018E+02  1.347705E-03 -1.618228E+02  9.429603E-01 -6.053294E+01 
9.261156E+02  9.346315E-01 -6.328427E+01  1.358776E-03 -1.616565E+02  1.350937E-03 -1.616689E+02  9.428921E-01 -6.054147E+01 
9.261187E+02  9.346370E-01 -6.329911E+01  1.353890E-03 -1.616866E+02  1.356332E-03 -1.620098E+02  9.429335E-01 -6.057161E+01 
9.261219E+02  9.345559E-01 -6.332110E+01  1.366362E-03 -1.618189E+02  1.356578E-03 -1.619323E+02  9.429372E-01 -6.058554E+01 
9.261250E+02  9.346077E-01 -6.333570E+01  1.365644E-03 -1.619017E+02  1.364236E-03 -1.619710E+02  9.428682E-01 -6.059404E+01 
9.261281E+02  9.344854E-01 -6.333548E+01  1.378007E-03 -1.621378E+02  1.370214E-03 -1.626110E+02  9.427694E-01 -6.059365E+01 
9.261313E+02  9.344500E-01 -6.334767E+01  1.380808E-03 -1.623476E+02  1.376313E-03 -1.622814E+02  9.427589E-01 -6.060996E+01 
9.261344E+02  9.344699E-01 -6.335742E+01  1.380589E-03 -1.623775E+02  1.379267E-03 -1.623422E+02  9.428116E-01 -6.063237E+01 
9.261375E+02  9.344187E-01 -6.337825E+01  1.384450E-03 -1.622635E+02  1.380574E-03 -1.625651E+02  9.427212E-01 -6.064909E+01 
9.261406E+02  9.344095E-01 -6.339603E+01  1.396152E-03 -1.627135E+02  1.382921E-03 -1.627094E+02  9.427241E-01 -6.065745E+01 
9.261438E+02  9.343220E-01 -6.339706E+01  1.390668E-03 -1.625842E+02  1.385576E-03 -1.627219E+02  9.426019E-01 -6.066216E+01 
9.261469E+02  9.343017E-01 -6.340645E+01  1.395779E-03 -1.624239E+02  1.400974E-03 -1.628916E+02  9.425744E-01 -6.067485E+01 
9.261500E+02  9.342224E-01 -6.341448E+01  1.408195E-03 -1.629408E+02  1.406564E-03 -1.631574E+02  9.425650E-01 -6.068744E+01 
9.261531E+02  9.342448E-01 -6.343710E+01  1.412262E-03 -1.631291E+02  1.412396E-03 -1.631805E+02  9.424661E-01 -6.071007E+01 
9.261562E+02  9.342811E-01 -6.345167E+01  1.416629E-03 -1.631634E+02  1.413230E-03 -1.634393E+02  9.425133E-01 -6.073206E+01 
9.261594E+02  9.341765E-01 -6.345838E+01  1.424315E-03 -1.632710E+02  1.421899E-03 -1.632738E+02  9.424311E-01 -6.073507E+01 
9.261625E+02  9.342094E-01 -6.347274E+01  1.422372E-03 -1.633849E+02  1.429933E-03 -1.636597E+02  9.424149E-01 -6.074464E+01 
9.261656E+02  9.340485E-01 -6.347954E+01  1.430169E-03 -1.635332E+02  1.426446E-03 -1.635448E+02  9.423491E-01 -6.075230E+01 
9.261688E+02  9.340897E-01 -6.349706E+01  1.437373E-03 -1.634072E+02  1.438223E-03 -1.638826E+02  9.423438E-01 -6.077804E+01 
9.261719E+02  9.340669E-01 -6.350723E+01  1.445267E-03 -1.637958E+02  1.442233E-03 -1.638963E+02  9.422470E-01 -6.079760E+01 
9.261750E+02  9.340203E-01 -6.352588E+01  1.450031E-03 -1.640006E+02  1.451569E-03 -1.639422E+02  9.422088E-01 -6.080607E+01 
9.261781E+02  9.339491E-01 -6.353697E+01  1.456925E-03 -1.639840E+02  1.453907E-03 -1.640490E+02  9.422087E-01 -6.081833E+01 
9.261812E+02  9.339147E-01 -6.354265E+01  1.461981E-03 -1.641007E+02  1.460171E-03 -1.641448E+02  9.421086E-01 -6.081843E+01 
9.261844E+02  9.338625E-01 -6.355388E+01  1.469692E-03 -1.641048E+02  1.467231E-03 -1.642248E+02  9.421398E-01 -6.083773E+01 
9.261875E+02  9.338488E-01 -6.357095E+01  1.471096E-03 -1.643940E+02  1.474550E-03 -1.645029E+02  9.420348E-01 -6.085603E+01 
9.261906E+02  9.338398E-01 -6.359156E+01  1.485183E-03 -1.645643E+02  1.486724E-03 -1.644869E+02  9.420656E-01 -6.087565E+01 
9.261938E+02  9.337840E-01 -6.360296E+01  1.490318E-03 -1.648437E+02  1.495267E-03 -1.643715E+02  9.420097E-01 -6.088530E+01 
9.261969E+02  9.337359E-01 -6.360887E+01  1.500386E-03 -1.647980E+02  1.495975E-03 -1.649283E+02  9.419006E-01 -6.088918E+01 
9.262000E+02  9.337070E-01 -6.361817E+01  1.506970E-03 -1.649372E+02  1.506868E-03 -1.649754E+02  9.418681E-01 -6.090424E+01 
9.262031E+02  9.336412E-01 -6.363410E+01  1.517385E-03 -1.650488E+02  1.512956E-03 -1.651301E+02  9.418859E-01 -6.092162E+01 
9.262063E+02  9.336198E-01 -6.365368E+01  1.522304E-03 -1.652750E+02  1.517987E-03 -1.651118E+02  9.418217E-01 -6.094747E+01 
9.262094E+02  9.336550E-01 -6.366670E+01  1.532757E-03 -1.651709E+02  1.525996E-03 -1.655008E+02  9.418458E-01 -6.095883E+01 
9.262125E+02  9.335681E-01 -6.367702E+01  1.540532E-03 -1.654529E+02  1.539992E-03 -1.655683E+02  9.417000E-01 -6.095720E+01 
9.262156E+02  9.335114E-01 -6.368314E+01  1.544458E-03 -1.653859E+02  1.539255E-03 -1.656668E+02  9.415452E-01 -6.096608E+01 
9.262188E+02  9.335352E-01 -6.370072E+01  1.558048E-03 -1.655517E+02  1.555134E-03 -1.660183E+02  9.416163E-01 -6.099950E+01 
9.262219E+02  9.334832E-01 -6.372221E+01  1.559963E-03 -1.656939E+02  1.566225E-03 -1.661652E+02  9.415925E-01 -6.101784E+01 
9.262250E+02  9.334103E-01 -6.373516E+01  1.576248E-03 -1.659634E+02  1.577998E-03 -1.660581E+02  9.415752E-01 -6.102291E+01 
9.262281E+02  9.333481E-01 -6.373719E+01  1.576175E-03 -1.661027E+02  1.585305E-03 -1.661012E+02  9.414634E-01 -6.102254E+01 
9.262313E+02  9.333192E-01 -6.374753E+01  1.594382E-03 -1.663328E+02  1.589194E-03 -1.664201E+02  9.414453E-01 -6.104351E+01 
9.262344E+02  9.332470E-01 -6.376634E+01  1.600768E-03 -1.665135E+02  1.598228E-03 -1.665002E+02  9.414374E-01 -6.106917E+01 
9.262375E+02  9.332740E-01 -6.378861E+01  1.610490E-03 -1.667014E+02  1.607917E-03 -1.664200E+02  9.414277E-01 -6.109146E+01 
9.262406E+02  9.332385E-01 -6.380096E+01  1.628390E-03 -1.666830E+02  1.618888E-03 -1.668431E+02  9.413612E-01 -6.110153E+01 
9.262437E+02  9.331955E-01 -6.380360E+01  1.630631E-03 -1.667371E+02  1.629870E-03 -1.670203E+02  9.412351E-01 -6.109755E+01 
9.262469E+02  9.331249E-01 -6.381210E+01  1.636690E-03 -1.668274E+02  1.638520E-03 -1.669896E+02  9.411668E-01 -6.110938E+01 
9.262500E+02  9.330646E-01 -6.383385E+01  1.651702E-03 -1.670399E+02  1.649099E-03 -1.671242E+02  9.412225E-01 -6.113974E+01 
9.262531E+02  9.330338E-01 -6.385340E+01  1.663020E-03 -1.673381E+02  1.653537E-03 -1.673472E+02  9.411909E-01 -6.116614E+01 
9.262563E+02  9.330115E-01 -6.387069E+01  1.673487E-03 -1.676253E+02  1.676062E-03 -1.675532E+02  9.411449E-01 -6.117548E+01 
9.262594E+02  9.329677E-01 -6.387089E+01  1.682994E-03 -1.676124E+02  1.682135E-03 -1.675928E+02  9.410719E-01 -6.118016E+01 
9.262625E+02  9.328929E-01 -6.388441E+01  1.693026E-03 -1.674834E+02  1.696972E-03 -1.678542E+02  9.409105E-01 -6.118598E+01 
9.262656E+02  9.328589E-01 -6.389822E+01  1.698871E-03 -1.678529E+02  1.706604E-03 -1.680743E+02  9.409573E-01 -6.121363E+01 
9.262688E+02  9.328560E-01 -6.392097E+01  1.716086E-03 -1.678186E+02  1.711416E-03 -1.682331E+02  9.408826E-01 -6.123857E+01 
9.262719E+02  9.327617E-01 -6.393783E+01  1.733833E-03 -1.683827E+02  1.731519E-03 -1.683754E+02  9.407976E-01 -6.124464E+01 
9.262750E+02  9.327339E-01 -6.394407E+01  1.746710E-03 -1.683337E+02  1.740999E-03 -1.684476E+02  9.407031E-01 -6.125152E+01 
9.262781E+02  9.326898E-01 -6.395272E+01  1.751023E-03 -1.683388E+02  1.751262E-03 -1.684963E+02  9.406721E-01 -6.125753E+01 
9.262812E+02  9.326282E-01 -6.396988E+01  1.769206E-03 -1.686554E+02  1.768179E-03 -1.689319E+02  9.407151E-01 -6.128456E+01 
9.262844E+02  9.326597E-01 -6.399130E+01  1.777259E-03 -1.689348E+02  1.780964E-03 -1.687250E+02  9.406402E-01 -6.130803E+01 
9.262875E+02  9.325747E-01 -6.400893E+01  1.796653E-03 -1.692161E+02  1.796121E-03 -1.690489E+02  9.406110E-01 -6.132566E+01 
9.262906E+02  9.325239E-01 -6.401939E+01  1.810250E-03 -1.690845E+02  1.804526E-03 -1.692415E+02  9.405024E-01 -6.132891E+01 
9.262938E+02  9.324879E-01 -6.402779E+01  1.825965E-03 -1.691144E+02  1.830689E-03 -1.695710E+02  9.403607E-01 -6.134200E+01 
9.262969E+02  9.324382E-01 -6.404014E+01  1.836330E-03 -1.695774E+02  1.843758E-03 -1.697010E+02  9.403744E-01 -6.135940E+01 
9.263000E+02  9.323750E-01 -6.405646E+01  1.853294E-03 -1.697534E+02  1.860826E-03 -1.700166E+02  9.403535E-01 -6.138558E+01 
9.263031E+02  9.323063E-01 -6.407657E+01  1.858925E-03 -1.697531E+02  1.858080E-03 -1.702213E+02  9.402976E-01 -6.140224E+01 
9.263062E+02  9.322996E-01 -6.409084E+01  1.883899E-03 -1.702157E+02  1.883896E-03 -1.705976E+02  9.402391E-01 -6.141548E+01 
9.263094E+02  9.322607E-01 -6.410462E+01  1.894573E-03 -1.705516E+02  1.891027E-03 -1.705760E+02  9.402007E-01 -6.142558E+01 
9.263125E+02  9.321627E-01 -6.411193E+01  1.912324E-03 -1.706284E+02  1.907278E-03 -1.708587E+02  9.401235E-01 -6.143966E+01 
9.263156E+02  9.321000E-01 -6.412531E+01  1.926169E-03 -1.708360E+02  1.931765E-03 -1.708301E+02  9.400649E-01 -6.145697E+01 
9.263188E+02  9.321027E-01 -6.414604E+01  1.949083E-03 -1.710500E+02  1.940007E-03 -1.713071E+02  9.400448E-01 -6.147538E+01 
9.263219E+02  9.320669E-01 -6.416933E+01  1.965016E-03 -1.714233E+02  1.959270E-03 -1.714021E+02  9.399261E-01 -6.149468E+01 
9.263250E+02  9.319437E-01 -6.418379E+01  1.980737E-03 -1.718600E+02  1.977705E-03 -1.716201E+02  9.398836E-01 -6.151101E+01 
9.263281E+02  9.319533E-01 -6.419021E+01  2.004482E-03 -1.716721E+02  1.997716E-03 -1.718096E+02  9.398311E-01 -6.152290E+01 
