! Matrix data file written by TouchstoneData, EPCOS AG
! FILENAME: "B3758_WB.s2p"
! COMMENT: "un-matching S-parameters for B3758"
! INFO: nport=2, nfreq=1601
! DATE: "Tue Nov  6 09:40:48 2012"
! USER: "Eluer Wang"
!
! port | pin | signal
! -----|-----|--------
!   1  |  2  |  in
!   2  |  4  |  out
! --------------------
! 
# MHZ S MA R 50
! freq  magS11 angS11  magS21 angS21  magS12 angS12  magS22 angS22
9.033500E+02  9.522580E-01 -5.542369E+01  7.757988E-04 -1.506421E+02  7.802472E-04 -1.512740E+02  9.609766E-01 -5.260579E+01 
9.033813E+02  9.523427E-01 -5.543878E+01  7.811973E-04 -1.512406E+02  7.843523E-04 -1.510933E+02  9.610146E-01 -5.260964E+01 
9.034125E+02  9.522978E-01 -5.543576E+01  7.783299E-04 -1.503395E+02  7.740484E-04 -1.510152E+02  9.610651E-01 -5.260941E+01 
9.034438E+02  9.523797E-01 -5.543152E+01  7.698240E-04 -1.499392E+02  7.824928E-04 -1.507292E+02  9.609961E-01 -5.260564E+01 
9.034750E+02  9.523598E-01 -5.543356E+01  7.849552E-04 -1.497418E+02  7.884001E-04 -1.505499E+02  9.611182E-01 -5.261381E+01 
9.035063E+02  9.523341E-01 -5.543974E+01  7.776236E-04 -1.494520E+02  7.771895E-04 -1.499478E+02  9.610552E-01 -5.261367E+01 
9.035375E+02  9.522976E-01 -5.545536E+01  7.859264E-04 -1.494356E+02  7.746227E-04 -1.499428E+02  9.610613E-01 -5.262472E+01 
9.035688E+02  9.523884E-01 -5.545382E+01  7.798426E-04 -1.493899E+02  7.838761E-04 -1.492178E+02  9.609829E-01 -5.262578E+01 
9.036000E+02  9.523024E-01 -5.545101E+01  7.820724E-04 -1.488901E+02  7.783143E-04 -1.491943E+02  9.609854E-01 -5.261877E+01 
9.036313E+02  9.523072E-01 -5.544330E+01  7.854241E-04 -1.494798E+02  7.885701E-04 -1.488328E+02  9.610125E-01 -5.261535E+01 
9.036625E+02  9.523406E-01 -5.545635E+01  7.889372E-04 -1.486890E+02  7.872324E-04 -1.482783E+02  9.610340E-01 -5.262708E+01 
9.036938E+02  9.523458E-01 -5.546472E+01  7.903193E-04 -1.476662E+02  7.847088E-04 -1.481182E+02  9.610408E-01 -5.264815E+01 
9.037250E+02  9.524126E-01 -5.546802E+01  7.841828E-04 -1.477056E+02  7.864657E-04 -1.483234E+02  9.610180E-01 -5.264637E+01 
9.037563E+02  9.523461E-01 -5.546635E+01  7.953991E-04 -1.481965E+02  7.820939E-04 -1.484790E+02  9.609721E-01 -5.264011E+01 
9.037875E+02  9.523570E-01 -5.545736E+01  7.921557E-04 -1.480398E+02  7.917380E-04 -1.486130E+02  9.609727E-01 -5.262916E+01 
9.038188E+02  9.523441E-01 -5.546570E+01  7.967902E-04 -1.468217E+02  7.896361E-04 -1.474252E+02  9.609882E-01 -5.264407E+01 
9.038500E+02  9.523334E-01 -5.547736E+01  7.877462E-04 -1.473855E+02  7.900182E-04 -1.477340E+02  9.610576E-01 -5.266136E+01 
9.038813E+02  9.523915E-01 -5.548944E+01  7.923342E-04 -1.473590E+02  7.960872E-04 -1.477402E+02  9.610131E-01 -5.265999E+01 
9.039125E+02  9.523428E-01 -5.548423E+01  7.925264E-04 -1.472946E+02  7.813979E-04 -1.473301E+02  9.610286E-01 -5.265664E+01 
9.039438E+02  9.523533E-01 -5.547602E+01  7.874977E-04 -1.466455E+02  8.023545E-04 -1.471153E+02  9.609542E-01 -5.264681E+01 
9.039750E+02  9.523152E-01 -5.547712E+01  7.958090E-04 -1.469615E+02  7.985293E-04 -1.462659E+02  9.610508E-01 -5.265874E+01 
9.040063E+02  9.523909E-01 -5.549068E+01  8.002703E-04 -1.468521E+02  7.927368E-04 -1.466323E+02  9.610401E-01 -5.267663E+01 
9.040375E+02  9.523975E-01 -5.550430E+01  8.148470E-04 -1.464403E+02  8.048942E-04 -1.465595E+02  9.610210E-01 -5.267498E+01 
9.040688E+02  9.523493E-01 -5.550367E+01  7.961313E-04 -1.460727E+02  8.073772E-04 -1.466986E+02  9.610648E-01 -5.267437E+01 
9.041000E+02  9.523449E-01 -5.548959E+01  8.102656E-04 -1.462819E+02  8.133528E-04 -1.461235E+02  9.610086E-01 -5.266742E+01 
9.041313E+02  9.523244E-01 -5.549198E+01  8.081253E-04 -1.462000E+02  8.011524E-04 -1.460143E+02  9.609204E-01 -5.267184E+01 
9.041625E+02  9.523230E-01 -5.549958E+01  8.174444E-04 -1.466346E+02  8.086187E-04 -1.458159E+02  9.609661E-01 -5.268845E+01 
9.041938E+02  9.522752E-01 -5.551538E+01  8.181617E-04 -1.450664E+02  8.150385E-04 -1.459615E+02  9.609802E-01 -5.269640E+01 
9.042250E+02  9.523020E-01 -5.552078E+01  8.175442E-04 -1.455935E+02  8.139322E-04 -1.458560E+02  9.610030E-01 -5.268803E+01 
9.042563E+02  9.522686E-01 -5.551117E+01  8.213645E-04 -1.455072E+02  8.162672E-04 -1.459497E+02  9.609332E-01 -5.267222E+01 
9.042875E+02  9.522230E-01 -5.551012E+01  8.152201E-04 -1.455941E+02  8.176580E-04 -1.454038E+02  9.609639E-01 -5.268474E+01 
9.043188E+02  9.523228E-01 -5.551202E+01  8.259179E-04 -1.454650E+02  8.254583E-04 -1.455191E+02  9.609589E-01 -5.269779E+01 
9.043500E+02  9.523101E-01 -5.553232E+01  8.290109E-04 -1.458925E+02  8.214781E-04 -1.461104E+02  9.609393E-01 -5.270291E+01 
9.043813E+02  9.522829E-01 -5.553231E+01  8.320921E-04 -1.458281E+02  8.251012E-04 -1.456593E+02  9.609122E-01 -5.270481E+01 
9.044125E+02  9.522789E-01 -5.552894E+01  8.293763E-04 -1.462591E+02  8.278172E-04 -1.467871E+02  9.609151E-01 -5.269251E+01 
9.044438E+02  9.522562E-01 -5.552912E+01  8.266043E-04 -1.460949E+02  8.288537E-04 -1.463837E+02  9.608660E-01 -5.269854E+01 
9.044750E+02  9.522806E-01 -5.553162E+01  8.286046E-04 -1.462040E+02  8.289470E-04 -1.461236E+02  9.609544E-01 -5.271091E+01 
9.045063E+02  9.522253E-01 -5.554498E+01  8.304876E-04 -1.465773E+02  8.299780E-04 -1.465995E+02  9.608850E-01 -5.272020E+01 
9.045375E+02  9.522532E-01 -5.554823E+01  8.322806E-04 -1.463836E+02  8.271853E-04 -1.465776E+02  9.609270E-01 -5.271799E+01 
9.045688E+02  9.521229E-01 -5.554757E+01  8.322762E-04 -1.462718E+02  8.243754E-04 -1.466987E+02  9.609194E-01 -5.270939E+01 
9.046000E+02  9.522015E-01 -5.554325E+01  8.260915E-04 -1.468304E+02  8.257093E-04 -1.466603E+02  9.608656E-01 -5.271520E+01 
9.046313E+02  9.522389E-01 -5.554619E+01  8.208739E-04 -1.463674E+02  8.225895E-04 -1.465514E+02  9.608473E-01 -5.271906E+01 
9.046625E+02  9.521794E-01 -5.555746E+01  8.188513E-04 -1.469158E+02  8.277878E-04 -1.464519E+02  9.608494E-01 -5.272655E+01 
9.046938E+02  9.522288E-01 -5.556496E+01  8.110923E-04 -1.464821E+02  8.165106E-04 -1.472374E+02  9.608095E-01 -5.273405E+01 
9.047250E+02  9.521971E-01 -5.556032E+01  8.164899E-04 -1.460403E+02  8.116005E-04 -1.472563E+02  9.608568E-01 -5.272989E+01 
9.047563E+02  9.521670E-01 -5.556543E+01  8.057534E-04 -1.466309E+02  8.039013E-04 -1.466785E+02  9.608220E-01 -5.272655E+01 
9.047875E+02  9.521343E-01 -5.556272E+01  8.048444E-04 -1.458154E+02  8.005428E-04 -1.462706E+02  9.607752E-01 -5.272907E+01 
9.048188E+02  9.520890E-01 -5.557019E+01  8.070377E-04 -1.463389E+02  8.012664E-04 -1.459515E+02  9.608286E-01 -5.274310E+01 
9.048500E+02  9.521554E-01 -5.557432E+01  7.884083E-04 -1.461743E+02  8.014678E-04 -1.460916E+02  9.608244E-01 -5.274839E+01 
9.048813E+02  9.521467E-01 -5.557495E+01  7.927987E-04 -1.452995E+02  7.948873E-04 -1.457688E+02  9.607432E-01 -5.275136E+01 
9.049125E+02  9.520657E-01 -5.558242E+01  7.929649E-04 -1.456269E+02  7.834561E-04 -1.455353E+02  9.607388E-01 -5.274767E+01 
9.049438E+02  9.521294E-01 -5.557534E+01  7.911988E-04 -1.445506E+02  7.830786E-04 -1.448908E+02  9.607459E-01 -5.274403E+01 
9.049750E+02  9.521117E-01 -5.558217E+01  7.770167E-04 -1.450575E+02  7.900523E-04 -1.442754E+02  9.608028E-01 -5.275363E+01 
9.050063E+02  9.520641E-01 -5.558781E+01  7.865708E-04 -1.439503E+02  7.799292E-04 -1.439750E+02  9.607421E-01 -5.276211E+01 
9.050375E+02  9.520982E-01 -5.559565E+01  7.763654E-04 -1.431932E+02  7.766127E-04 -1.435198E+02  9.607075E-01 -5.276772E+01 
9.050688E+02  9.521210E-01 -5.560020E+01  7.825637E-04 -1.431401E+02  7.781750E-04 -1.430244E+02  9.607288E-01 -5.276881E+01 
9.051000E+02  9.519630E-01 -5.559719E+01  7.819502E-04 -1.419897E+02  7.757689E-04 -1.427117E+02  9.607111E-01 -5.276224E+01 
9.051313E+02  9.520627E-01 -5.559444E+01  7.820484E-04 -1.419479E+02  7.784382E-04 -1.417388E+02  9.606480E-01 -5.276038E+01 
9.051625E+02  9.520743E-01 -5.560016E+01  7.800660E-04 -1.409058E+02  7.768412E-04 -1.408715E+02  9.606453E-01 -5.277312E+01 
9.051938E+02  9.519760E-01 -5.560673E+01  7.855979E-04 -1.402604E+02  7.786703E-04 -1.401962E+02  9.607656E-01 -5.278855E+01 
9.052250E+02  9.520252E-01 -5.562026E+01  7.792470E-04 -1.397478E+02  7.758117E-04 -1.396774E+02  9.607063E-01 -5.277806E+01 
9.052563E+02  9.519716E-01 -5.561688E+01  7.821666E-04 -1.386599E+02  7.750386E-04 -1.383301E+02  9.607396E-01 -5.277871E+01 
9.052875E+02  9.518561E-01 -5.561182E+01  7.973739E-04 -1.378603E+02  7.933959E-04 -1.382745E+02  9.605679E-01 -5.277229E+01 
9.053188E+02  9.518628E-01 -5.561429E+01  8.010229E-04 -1.371434E+02  7.979420E-04 -1.373935E+02  9.606234E-01 -5.277858E+01 
9.053500E+02  9.518910E-01 -5.562292E+01  8.079085E-04 -1.366356E+02  8.000363E-04 -1.359706E+02  9.606202E-01 -5.279511E+01 
9.053813E+02  9.518938E-01 -5.563857E+01  8.084209E-04 -1.357509E+02  8.062690E-04 -1.360154E+02  9.606179E-01 -5.279389E+01 
9.054125E+02  9.518124E-01 -5.563391E+01  8.093799E-04 -1.350820E+02  8.237435E-04 -1.352464E+02  9.605649E-01 -5.279210E+01 
9.054438E+02  9.518279E-01 -5.562976E+01  8.267406E-04 -1.349126E+02  8.235095E-04 -1.353046E+02  9.605855E-01 -5.278361E+01 
9.054750E+02  9.518588E-01 -5.562706E+01  8.383513E-04 -1.334691E+02  8.440786E-04 -1.347700E+02  9.605615E-01 -5.278173E+01 
9.055063E+02  9.518425E-01 -5.563625E+01  8.460166E-04 -1.337022E+02  8.515599E-04 -1.338350E+02  9.605931E-01 -5.280472E+01 
9.055375E+02  9.517725E-01 -5.564812E+01  8.715826E-04 -1.336736E+02  8.569651E-04 -1.336806E+02  9.605476E-01 -5.281417E+01 
9.055688E+02  9.517815E-01 -5.564686E+01  8.740253E-04 -1.329372E+02  8.688124E-04 -1.325256E+02  9.605304E-01 -5.280919E+01 
9.056000E+02  9.518548E-01 -5.564341E+01  8.881722E-04 -1.326975E+02  8.830540E-04 -1.329529E+02  9.604942E-01 -5.279048E+01 
9.056313E+02  9.517248E-01 -5.564380E+01  8.970436E-04 -1.326993E+02  8.950254E-04 -1.328048E+02  9.604052E-01 -5.279503E+01 
9.056625E+02  9.517484E-01 -5.564735E+01  9.181661E-04 -1.323390E+02  9.050253E-04 -1.324090E+02  9.604802E-01 -5.281178E+01 
9.056938E+02  9.517527E-01 -5.566141E+01  9.245392E-04 -1.326603E+02  9.211263E-04 -1.320232E+02  9.605019E-01 -5.282708E+01 
9.057250E+02  9.516619E-01 -5.566349E+01  9.350452E-04 -1.318103E+02  9.355994E-04 -1.324085E+02  9.604686E-01 -5.282004E+01 
9.057563E+02  9.516545E-01 -5.565995E+01  9.538589E-04 -1.322093E+02  9.571391E-04 -1.320846E+02  9.604373E-01 -5.281076E+01 
9.057875E+02  9.515680E-01 -5.564742E+01  9.690423E-04 -1.319901E+02  9.647902E-04 -1.321557E+02  9.603965E-01 -5.280590E+01 
9.058188E+02  9.515794E-01 -5.566127E+01  9.798750E-04 -1.318682E+02  9.758858E-04 -1.316471E+02  9.604106E-01 -5.282089E+01 
9.058500E+02  9.516185E-01 -5.566989E+01  9.925757E-04 -1.321378E+02  9.946369E-04 -1.322753E+02  9.604157E-01 -5.283492E+01 
9.058813E+02  9.516127E-01 -5.568106E+01  1.002275E-03 -1.323801E+02  1.014817E-03 -1.323257E+02  9.604250E-01 -5.283340E+01 
9.059125E+02  9.516432E-01 -5.566914E+01  1.021631E-03 -1.327238E+02  1.020639E-03 -1.326710E+02  9.603314E-01 -5.282531E+01 
9.059438E+02  9.515448E-01 -5.566533E+01  1.033154E-03 -1.324510E+02  1.034208E-03 -1.325218E+02  9.603299E-01 -5.281767E+01 
9.059750E+02  9.514889E-01 -5.567147E+01  1.048949E-03 -1.328564E+02  1.042202E-03 -1.325236E+02  9.603498E-01 -5.282616E+01 
9.060063E+02  9.515266E-01 -5.568200E+01  1.059775E-03 -1.331409E+02  1.054715E-03 -1.327939E+02  9.603449E-01 -5.284367E+01 
9.060375E+02  9.515473E-01 -5.569301E+01  1.078233E-03 -1.332571E+02  1.082039E-03 -1.330521E+02  9.603530E-01 -5.284366E+01 
9.060688E+02  9.515041E-01 -5.568786E+01  1.094440E-03 -1.336636E+02  1.096494E-03 -1.333426E+02  9.603339E-01 -5.283431E+01 
9.061000E+02  9.514928E-01 -5.568359E+01  1.102474E-03 -1.341842E+02  1.102131E-03 -1.334287E+02  9.602908E-01 -5.283497E+01 
9.061313E+02  9.513934E-01 -5.568512E+01  1.115767E-03 -1.337418E+02  1.111285E-03 -1.343099E+02  9.602879E-01 -5.283654E+01 
9.061625E+02  9.514046E-01 -5.569078E+01  1.138143E-03 -1.344122E+02  1.128787E-03 -1.346998E+02  9.603203E-01 -5.285197E+01 
9.061938E+02  9.514169E-01 -5.570180E+01  1.149866E-03 -1.349147E+02  1.149069E-03 -1.348485E+02  9.603000E-01 -5.285847E+01 
9.062250E+02  9.513272E-01 -5.570157E+01  1.152376E-03 -1.351934E+02  1.154316E-03 -1.355878E+02  9.602426E-01 -5.285270E+01 
9.062563E+02  9.513298E-01 -5.569869E+01  1.162987E-03 -1.356963E+02  1.164050E-03 -1.358163E+02  9.602358E-01 -5.284516E+01 
9.062875E+02  9.513603E-01 -5.570210E+01  1.172566E-03 -1.363825E+02  1.174001E-03 -1.360806E+02  9.601973E-01 -5.285042E+01 
9.063188E+02  9.513354E-01 -5.570054E+01  1.183985E-03 -1.367658E+02  1.183895E-03 -1.369500E+02  9.601809E-01 -5.285865E+01 
9.063500E+02  9.512776E-01 -5.571278E+01  1.193744E-03 -1.368111E+02  1.193287E-03 -1.371905E+02  9.601927E-01 -5.285839E+01 
9.063813E+02  9.512864E-01 -5.571759E+01  1.199268E-03 -1.374858E+02  1.203881E-03 -1.373208E+02  9.600170E-01 -5.285039E+01 
9.064125E+02  9.512607E-01 -5.570677E+01  1.214986E-03 -1.376783E+02  1.218185E-03 -1.375075E+02  9.600502E-01 -5.285842E+01 
9.064438E+02  9.512578E-01 -5.571895E+01  1.216926E-03 -1.385087E+02  1.225096E-03 -1.384339E+02  9.600763E-01 -5.287283E+01 
9.064750E+02  9.512289E-01 -5.572322E+01  1.227100E-03 -1.386255E+02  1.233387E-03 -1.388055E+02  9.600563E-01 -5.287097E+01 
9.065063E+02  9.511860E-01 -5.571860E+01  1.238774E-03 -1.391123E+02  1.242490E-03 -1.389882E+02  9.600651E-01 -5.286504E+01 
9.065375E+02  9.511510E-01 -5.571226E+01  1.251132E-03 -1.389312E+02  1.258841E-03 -1.391790E+02  9.600830E-01 -5.286022E+01 
9.065688E+02  9.511626E-01 -5.571633E+01  1.264784E-03 -1.396503E+02  1.256751E-03 -1.391385E+02  9.600392E-01 -5.286858E+01 
9.066000E+02  9.511320E-01 -5.572906E+01  1.265271E-03 -1.402750E+02  1.270439E-03 -1.400697E+02  9.600128E-01 -5.288392E+01 
9.066313E+02  9.510692E-01 -5.573716E+01  1.282824E-03 -1.400445E+02  1.281205E-03 -1.401263E+02  9.599826E-01 -5.287989E+01 
9.066625E+02  9.510596E-01 -5.573216E+01  1.300788E-03 -1.401986E+02  1.290428E-03 -1.405957E+02  9.599465E-01 -5.287252E+01 
9.066938E+02  9.510596E-01 -5.572677E+01  1.305200E-03 -1.408717E+02  1.313839E-03 -1.407809E+02  9.599114E-01 -5.285907E+01 
9.067250E+02  9.509946E-01 -5.572397E+01  1.327060E-03 -1.412543E+02  1.319232E-03 -1.415930E+02  9.599365E-01 -5.287242E+01 
9.067563E+02  9.510096E-01 -5.573569E+01  1.336666E-03 -1.412720E+02  1.337026E-03 -1.418562E+02  9.598702E-01 -5.288568E+01 
9.067875E+02  9.509524E-01 -5.574487E+01  1.352285E-03 -1.419273E+02  1.357132E-03 -1.423520E+02  9.598203E-01 -5.288690E+01 
9.068188E+02  9.509695E-01 -5.574453E+01  1.367709E-03 -1.423622E+02  1.362665E-03 -1.422841E+02  9.598214E-01 -5.288274E+01 
9.068500E+02  9.509327E-01 -5.574002E+01  1.382680E-03 -1.427807E+02  1.380808E-03 -1.429678E+02  9.598233E-01 -5.287261E+01 
9.068813E+02  9.509044E-01 -5.573492E+01  1.400013E-03 -1.432023E+02  1.397784E-03 -1.431789E+02  9.598328E-01 -5.287979E+01 
9.069125E+02  9.508419E-01 -5.574515E+01  1.415065E-03 -1.441079E+02  1.419294E-03 -1.440462E+02  9.597692E-01 -5.289630E+01 
9.069438E+02  9.508353E-01 -5.576334E+01  1.428773E-03 -1.446863E+02  1.431824E-03 -1.449515E+02  9.598275E-01 -5.290589E+01 
9.069750E+02  9.508108E-01 -5.576333E+01  1.459893E-03 -1.452452E+02  1.459922E-03 -1.454642E+02  9.598514E-01 -5.289883E+01 
9.070063E+02  9.508117E-01 -5.575369E+01  1.469520E-03 -1.461729E+02  1.469619E-03 -1.462838E+02  9.597169E-01 -5.288754E+01 
9.070375E+02  9.508658E-01 -5.574737E+01  1.492963E-03 -1.470613E+02  1.487869E-03 -1.468590E+02  9.597252E-01 -5.288902E+01 
9.070688E+02  9.507759E-01 -5.576461E+01  1.508347E-03 -1.482830E+02  1.504768E-03 -1.481751E+02  9.597584E-01 -5.290275E+01 
9.071000E+02  9.508660E-01 -5.577595E+01  1.532880E-03 -1.489556E+02  1.528268E-03 -1.487544E+02  9.597082E-01 -5.292021E+01 
9.071313E+02  9.508237E-01 -5.577783E+01  1.543592E-03 -1.498346E+02  1.544811E-03 -1.496132E+02  9.597241E-01 -5.290949E+01 
9.071625E+02  9.508603E-01 -5.577046E+01  1.567961E-03 -1.507999E+02  1.560933E-03 -1.508591E+02  9.596891E-01 -5.290658E+01 
9.071938E+02  9.507899E-01 -5.576930E+01  1.576886E-03 -1.519329E+02  1.580300E-03 -1.520583E+02  9.595957E-01 -5.290356E+01 
9.072250E+02  9.507779E-01 -5.577959E+01  1.592632E-03 -1.530149E+02  1.586941E-03 -1.528199E+02  9.596042E-01 -5.291599E+01 
9.072563E+02  9.506723E-01 -5.578609E+01  1.604504E-03 -1.541937E+02  1.608523E-03 -1.543631E+02  9.596292E-01 -5.293148E+01 
9.072875E+02  9.506919E-01 -5.579989E+01  1.620918E-03 -1.554864E+02  1.615957E-03 -1.556914E+02  9.596431E-01 -5.292512E+01 
9.073188E+02  9.506434E-01 -5.579312E+01  1.630906E-03 -1.566975E+02  1.634418E-03 -1.566219E+02  9.596228E-01 -5.291446E+01 
9.073500E+02  9.506041E-01 -5.578846E+01  1.644614E-03 -1.583320E+02  1.646073E-03 -1.583313E+02  9.595546E-01 -5.291985E+01 
9.073813E+02  9.506529E-01 -5.579363E+01  1.654611E-03 -1.592673E+02  1.657775E-03 -1.598056E+02  9.596474E-01 -5.293049E+01 
9.074125E+02  9.505902E-01 -5.580055E+01  1.665480E-03 -1.607829E+02  1.664573E-03 -1.607955E+02  9.595804E-01 -5.294150E+01 
9.074438E+02  9.505430E-01 -5.581010E+01  1.668736E-03 -1.621176E+02  1.675643E-03 -1.623703E+02  9.596422E-01 -5.294859E+01 
9.074750E+02  9.506286E-01 -5.580702E+01  1.681121E-03 -1.640152E+02  1.667529E-03 -1.639236E+02  9.596026E-01 -5.293841E+01 
9.075063E+02  9.505772E-01 -5.580746E+01  1.684071E-03 -1.649309E+02  1.685266E-03 -1.655949E+02  9.595507E-01 -5.293806E+01 
9.075375E+02  9.504801E-01 -5.581036E+01  1.687425E-03 -1.670469E+02  1.672429E-03 -1.668808E+02  9.595883E-01 -5.294546E+01 
9.075688E+02  9.505027E-01 -5.581174E+01  1.677305E-03 -1.685177E+02  1.676832E-03 -1.688652E+02  9.595416E-01 -5.295691E+01 
9.076000E+02  9.504527E-01 -5.581977E+01  1.681874E-03 -1.698324E+02  1.686380E-03 -1.702097E+02  9.595844E-01 -5.296169E+01 
9.076313E+02  9.504874E-01 -5.582617E+01  1.681339E-03 -1.719313E+02  1.672072E-03 -1.720436E+02  9.594948E-01 -5.295617E+01 
9.076625E+02  9.504401E-01 -5.582181E+01  1.672393E-03 -1.733664E+02  1.668360E-03 -1.736025E+02  9.594057E-01 -5.295856E+01 
9.076938E+02  9.503862E-01 -5.581798E+01  1.670290E-03 -1.751681E+02  1.665985E-03 -1.754463E+02  9.594244E-01 -5.295720E+01 
9.077250E+02  9.503913E-01 -5.582120E+01  1.661242E-03 -1.772145E+02  1.656860E-03 -1.774519E+02  9.595068E-01 -5.296876E+01 
9.077563E+02  9.503407E-01 -5.582769E+01  1.651848E-03 -1.788850E+02  1.644740E-03 -1.791690E+02  9.594201E-01 -5.297221E+01 
9.077875E+02  9.504203E-01 -5.583595E+01  1.633915E-03 1.794147E+02  1.626165E-03 1.790313E+02  9.594217E-01 -5.297459E+01 
9.078188E+02  9.502630E-01 -5.583280E+01  1.609465E-03 1.771585E+02  1.620193E-03 1.771145E+02  9.593636E-01 -5.297768E+01 
9.078500E+02  9.502999E-01 -5.583059E+01  1.588880E-03 1.752708E+02  1.589619E-03 1.750810E+02  9.593218E-01 -5.297303E+01 
9.078813E+02  9.503416E-01 -5.583296E+01  1.572714E-03 1.733615E+02  1.557448E-03 1.734237E+02  9.593408E-01 -5.297215E+01 
9.079125E+02  9.502682E-01 -5.582933E+01  1.548841E-03 1.712596E+02  1.539996E-03 1.708314E+02  9.592495E-01 -5.298182E+01 
9.079438E+02  9.502766E-01 -5.583873E+01  1.511691E-03 1.693148E+02  1.509197E-03 1.689582E+02  9.592950E-01 -5.298567E+01 
9.079750E+02  9.503044E-01 -5.583961E+01  1.474746E-03 1.674827E+02  1.482349E-03 1.670682E+02  9.593442E-01 -5.299308E+01 
9.080063E+02  9.502543E-01 -5.583426E+01  1.443259E-03 1.653980E+02  1.448105E-03 1.652149E+02  9.591865E-01 -5.298067E+01 
9.080375E+02  9.502496E-01 -5.583210E+01  1.400991E-03 1.631273E+02  1.402590E-03 1.630991E+02  9.591931E-01 -5.297475E+01 
9.080688E+02  9.502559E-01 -5.582953E+01  1.358090E-03 1.614151E+02  1.357136E-03 1.610955E+02  9.592205E-01 -5.298794E+01 
9.081000E+02  9.502551E-01 -5.584095E+01  1.316038E-03 1.594353E+02  1.310477E-03 1.591537E+02  9.592841E-01 -5.299386E+01 
9.081313E+02  9.502840E-01 -5.584932E+01  1.282405E-03 1.574765E+02  1.269873E-03 1.575085E+02  9.592124E-01 -5.299907E+01 
