! Matrix data file written by TouchstoneData, EPCOS AG
! FILENAME: "B3768_WB.s2p"
! COMMENT: "PINNING 2/5; PORTEX1 104.5PS; PORTEX2 195PS;"
! INFO: nport=2, nfreq=1601
! DATE: "Wed Sep 19 15:41:14 2012"
! USER: "Wilfried Schott"
!
! port | pin | signal
! -----|-----|--------
!   1  |  2  |  IN
!   2  |  5  |  OUT
! --------------------
! 
# MHZ S MA R 50
! freq  magS11 angS11  magS21 angS21  magS12 angS12  magS22 angS22
2.888500E+02  9.906852E-01 -3.120914E+01  3.233647E-04 6.669025E+01  3.199515E-04 6.721233E+01  9.900445E-01 -2.983940E+01 
2.888813E+02  9.908327E-01 -3.120931E+01  3.343622E-04 6.829601E+01  3.246849E-04 6.836818E+01  9.901135E-01 -2.983695E+01 
2.889125E+02  9.908412E-01 -3.121071E+01  3.408843E-04 6.598057E+01  3.370085E-04 6.909623E+01  9.900493E-01 -2.985014E+01 
2.889438E+02  9.907498E-01 -3.121553E+01  3.412598E-04 6.814559E+01  3.495815E-04 6.692388E+01  9.902957E-01 -2.984624E+01 
2.889750E+02  9.908108E-01 -3.122414E+01  3.449215E-04 6.775033E+01  3.399333E-04 6.710418E+01  9.900908E-01 -2.984850E+01 
2.890063E+02  9.908205E-01 -3.122381E+01  3.538685E-04 6.974900E+01  3.548167E-04 6.880846E+01  9.899961E-01 -2.984958E+01 
2.890375E+02  9.907390E-01 -3.122977E+01  3.536692E-04 6.727923E+01  3.530166E-04 6.789541E+01  9.900045E-01 -2.985470E+01 
2.890688E+02  9.908190E-01 -3.123017E+01  3.587271E-04 6.831338E+01  3.593649E-04 6.730246E+01  9.900470E-01 -2.986284E+01 
2.891000E+02  9.907728E-01 -3.122524E+01  3.575514E-04 6.808128E+01  3.578758E-04 6.743809E+01  9.902095E-01 -2.986099E+01 
2.891313E+02  9.907465E-01 -3.123799E+01  3.671838E-04 6.730078E+01  3.589739E-04 6.613299E+01  9.900124E-01 -2.987383E+01 
2.891625E+02  9.909128E-01 -3.123905E+01  3.739386E-04 6.655024E+01  3.735839E-04 6.633852E+01  9.900971E-01 -2.986620E+01 
2.891938E+02  9.907499E-01 -3.124270E+01  3.697543E-04 6.568229E+01  3.787897E-04 6.539099E+01  9.900054E-01 -2.986991E+01 
2.892250E+02  9.909364E-01 -3.124790E+01  3.822986E-04 6.495297E+01  3.779294E-04 6.592785E+01  9.901424E-01 -2.987645E+01 
2.892563E+02  9.910160E-01 -3.124642E+01  3.839131E-04 6.524315E+01  3.812216E-04 6.362799E+01  9.900808E-01 -2.987983E+01 
2.892875E+02  9.908100E-01 -3.125083E+01  3.868750E-04 6.290493E+01  3.774727E-04 6.276329E+01  9.900765E-01 -2.988615E+01 
2.893188E+02  9.908406E-01 -3.125282E+01  3.747422E-04 6.195574E+01  3.807783E-04 6.226505E+01  9.900658E-01 -2.988875E+01 
2.893500E+02  9.907539E-01 -3.125655E+01  3.783195E-04 6.152766E+01  3.757203E-04 6.098239E+01  9.900212E-01 -2.989618E+01 
2.893813E+02  9.907715E-01 -3.126439E+01  3.780282E-04 6.057306E+01  3.765096E-04 6.102634E+01  9.900883E-01 -2.989305E+01 
2.894125E+02  9.907260E-01 -3.126478E+01  3.737596E-04 6.077351E+01  3.769702E-04 6.018803E+01  9.900387E-01 -2.990032E+01 
2.894438E+02  9.909196E-01 -3.127076E+01  3.672179E-04 5.914316E+01  3.727192E-04 5.947429E+01  9.900734E-01 -2.989939E+01 
2.894750E+02  9.907543E-01 -3.126881E+01  3.581191E-04 6.006335E+01  3.623262E-04 6.067338E+01  9.899607E-01 -2.990610E+01 
2.895063E+02  9.907258E-01 -3.127475E+01  3.548343E-04 5.932638E+01  3.658769E-04 5.820869E+01  9.900981E-01 -2.990824E+01 
2.895375E+02  9.908179E-01 -3.128092E+01  3.587417E-04 5.981425E+01  3.531561E-04 5.833717E+01  9.900057E-01 -2.991459E+01 
2.895688E+02  9.907668E-01 -3.128324E+01  3.546331E-04 5.870903E+01  3.490566E-04 5.929401E+01  9.899498E-01 -2.992316E+01 
2.896000E+02  9.909845E-01 -3.128163E+01  3.533365E-04 5.997620E+01  3.448615E-04 5.995745E+01  9.900535E-01 -2.991523E+01 
2.896313E+02  9.908729E-01 -3.128552E+01  3.417894E-04 5.937734E+01  3.456820E-04 6.038705E+01  9.899429E-01 -2.992396E+01 
2.896625E+02  9.907506E-01 -3.128822E+01  3.362634E-04 6.014892E+01  3.465536E-04 6.082197E+01  9.900859E-01 -2.992693E+01 
2.896938E+02  9.909328E-01 -3.130476E+01  3.361728E-04 6.041523E+01  3.347187E-04 6.110404E+01  9.899060E-01 -2.992165E+01 
2.897250E+02  9.908864E-01 -3.129722E+01  3.370065E-04 6.123084E+01  3.295882E-04 6.167154E+01  9.900701E-01 -2.993176E+01 
2.897563E+02  9.908841E-01 -3.130256E+01  3.293324E-04 6.103999E+01  3.260608E-04 6.152511E+01  9.898254E-01 -2.994055E+01 
2.897875E+02  9.908667E-01 -3.131052E+01  3.272725E-04 6.219390E+01  3.295524E-04 6.340362E+01  9.899765E-01 -2.993813E+01 
2.898188E+02  9.908797E-01 -3.130726E+01  3.220930E-04 6.356441E+01  3.247485E-04 6.411351E+01  9.898673E-01 -2.993893E+01 
2.898500E+02  9.909414E-01 -3.131471E+01  3.209989E-04 6.336577E+01  3.264879E-04 6.390364E+01  9.900589E-01 -2.994142E+01 
2.898813E+02  9.907436E-01 -3.131766E+01  3.235734E-04 6.438241E+01  3.262818E-04 6.445813E+01  9.899747E-01 -2.994673E+01 
2.899125E+02  9.909471E-01 -3.133292E+01  3.318564E-04 6.442203E+01  3.343324E-04 6.578905E+01  9.900522E-01 -2.994867E+01 
2.899438E+02  9.909265E-01 -3.132065E+01  3.306151E-04 6.543399E+01  3.381564E-04 6.607684E+01  9.901548E-01 -2.996027E+01 
2.899750E+02  9.909722E-01 -3.132321E+01  3.343740E-04 6.662345E+01  3.377473E-04 6.507822E+01  9.899878E-01 -2.996534E+01 
2.900063E+02  9.909081E-01 -3.132633E+01  3.451940E-04 6.605690E+01  3.381053E-04 6.698939E+01  9.900958E-01 -2.996598E+01 
2.900375E+02  9.907876E-01 -3.133338E+01  3.447140E-04 6.693322E+01  3.458422E-04 6.626192E+01  9.900600E-01 -2.996969E+01 
2.900688E+02  9.908188E-01 -3.133769E+01  3.445452E-04 6.649690E+01  3.484489E-04 6.651438E+01  9.900221E-01 -2.997254E+01 
2.901000E+02  9.909549E-01 -3.133746E+01  3.539613E-04 6.570416E+01  3.512227E-04 6.755558E+01  9.899962E-01 -2.997440E+01 
2.901313E+02  9.908817E-01 -3.134341E+01  3.539869E-04 6.591156E+01  3.504707E-04 6.599232E+01  9.901149E-01 -2.997309E+01 
2.901625E+02  9.909322E-01 -3.135327E+01  3.594461E-04 6.555264E+01  3.612585E-04 6.593450E+01  9.900002E-01 -2.997494E+01 
2.901938E+02  9.907342E-01 -3.135114E+01  3.608926E-04 6.635067E+01  3.591131E-04 6.549854E+01  9.899939E-01 -2.997826E+01 
2.902250E+02  9.908427E-01 -3.135778E+01  3.558569E-04 6.527408E+01  3.635900E-04 6.508825E+01  9.901041E-01 -2.998482E+01 
2.902563E+02  9.908199E-01 -3.136139E+01  3.551588E-04 6.505537E+01  3.628078E-04 6.508490E+01  9.899313E-01 -2.999125E+01 
2.902875E+02  9.908574E-01 -3.136640E+01  3.586808E-04 6.424143E+01  3.621134E-04 6.491890E+01  9.900190E-01 -2.999828E+01 
2.903188E+02  9.907683E-01 -3.136824E+01  3.604243E-04 6.414891E+01  3.629706E-04 6.423508E+01  9.899678E-01 -3.000216E+01 
2.903500E+02  9.909199E-01 -3.136577E+01  3.596039E-04 6.416118E+01  3.568523E-04 6.522701E+01  9.901847E-01 -2.999750E+01 
2.903813E+02  9.906282E-01 -3.137963E+01  3.592550E-04 6.351625E+01  3.654109E-04 6.516124E+01  9.900822E-01 -3.001152E+01 
2.904125E+02  9.907037E-01 -3.138248E+01  3.564531E-04 6.393789E+01  3.606262E-04 6.363434E+01  9.900216E-01 -3.000444E+01 
2.904438E+02  9.908053E-01 -3.137503E+01  3.624878E-04 6.324596E+01  3.528400E-04 6.347481E+01  9.898950E-01 -3.001114E+01 
2.904750E+02  9.908237E-01 -3.138788E+01  3.625463E-04 6.267006E+01  3.616275E-04 6.267081E+01  9.899420E-01 -3.001344E+01 
2.905063E+02  9.910026E-01 -3.138610E+01  3.676249E-04 6.316676E+01  3.554224E-04 6.258270E+01  9.900396E-01 -3.002021E+01 
2.905375E+02  9.908569E-01 -3.138629E+01  3.564856E-04 6.411061E+01  3.574101E-04 6.278376E+01  9.899042E-01 -3.002071E+01 
2.905688E+02  9.909361E-01 -3.138965E+01  3.595602E-04 6.237093E+01  3.706694E-04 6.296971E+01  9.901135E-01 -3.002567E+01 
2.906000E+02  9.910009E-01 -3.139953E+01  3.656514E-04 6.175807E+01  3.577854E-04 6.285268E+01  9.900073E-01 -3.002833E+01 
2.906313E+02  9.909596E-01 -3.141403E+01  3.583797E-04 6.239419E+01  3.577729E-04 6.242775E+01  9.900859E-01 -3.004378E+01 
2.906625E+02  9.908226E-01 -3.140088E+01  3.548647E-04 6.202042E+01  3.555435E-04 6.167541E+01  9.900085E-01 -3.004189E+01 
2.906938E+02  9.907953E-01 -3.141219E+01  3.562069E-04 6.304852E+01  3.603962E-04 6.271731E+01  9.899895E-01 -3.004762E+01 
2.907250E+02  9.909218E-01 -3.141411E+01  3.519488E-04 6.066807E+01  3.488874E-04 6.172411E+01  9.900158E-01 -3.004214E+01 
2.907563E+02  9.908711E-01 -3.141946E+01  3.579426E-04 6.174203E+01  3.520670E-04 6.208247E+01  9.900483E-01 -3.005597E+01 
2.907875E+02  9.908549E-01 -3.142088E+01  3.444574E-04 6.232071E+01  3.543151E-04 6.287948E+01  9.900997E-01 -3.005151E+01 
2.908188E+02  9.910053E-01 -3.143014E+01  3.535594E-04 6.249968E+01  3.558769E-04 6.187482E+01  9.899096E-01 -3.005994E+01 
2.908500E+02  9.908336E-01 -3.142535E+01  3.469836E-04 6.181546E+01  3.509584E-04 6.216613E+01  9.899996E-01 -3.005558E+01 
2.908813E+02  9.906416E-01 -3.143775E+01  3.424931E-04 6.124027E+01  3.514149E-04 6.266406E+01  9.899851E-01 -3.005970E+01 
2.909125E+02  9.909932E-01 -3.144101E+01  3.482183E-04 6.154012E+01  3.534791E-04 6.120711E+01  9.900166E-01 -3.006608E+01 
2.909438E+02  9.907903E-01 -3.144568E+01  3.412500E-04 6.149933E+01  3.479686E-04 6.151364E+01  9.899906E-01 -3.006544E+01 
2.909750E+02  9.908257E-01 -3.143933E+01  3.386302E-04 6.166814E+01  3.392908E-04 6.179438E+01  9.899326E-01 -3.007030E+01 
2.910063E+02  9.908939E-01 -3.145175E+01  3.431151E-04 6.055122E+01  3.341551E-04 6.172715E+01  9.900801E-01 -3.007438E+01 
2.910375E+02  9.909486E-01 -3.146046E+01  3.320216E-04 6.052001E+01  3.375913E-04 6.185382E+01  9.899230E-01 -3.008421E+01 
2.910688E+02  9.908961E-01 -3.146131E+01  3.333174E-04 6.180378E+01  3.302802E-04 6.181514E+01  9.901145E-01 -3.008506E+01 
2.911000E+02  9.907936E-01 -3.145000E+01  3.340555E-04 6.172686E+01  3.282224E-04 6.264905E+01  9.899616E-01 -3.008551E+01 
2.911313E+02  9.907525E-01 -3.146649E+01  3.294659E-04 6.181795E+01  3.278534E-04 6.175235E+01  9.898830E-01 -3.008844E+01 
2.911625E+02  9.907682E-01 -3.146649E+01  3.222158E-04 6.212928E+01  3.313366E-04 6.272075E+01  9.900235E-01 -3.009606E+01 
2.911938E+02  9.908844E-01 -3.146490E+01  3.199917E-04 6.387972E+01  3.236880E-04 6.366097E+01  9.899449E-01 -3.010507E+01 
2.912250E+02  9.908882E-01 -3.147780E+01  3.130748E-04 6.306185E+01  3.229769E-04 6.335432E+01  9.899089E-01 -3.009941E+01 
2.912563E+02  9.908722E-01 -3.147739E+01  3.173867E-04 6.390598E+01  3.139396E-04 6.510320E+01  9.901916E-01 -3.010664E+01 
2.912875E+02  9.908733E-01 -3.148187E+01  3.178953E-04 6.574630E+01  3.252746E-04 6.621638E+01  9.899090E-01 -3.010502E+01 
2.913188E+02  9.909254E-01 -3.148636E+01  3.203491E-04 6.721410E+01  3.202069E-04 6.675500E+01  9.900092E-01 -3.011309E+01 
2.913500E+02  9.908628E-01 -3.148883E+01  3.179257E-04 6.717871E+01  3.228795E-04 6.721421E+01  9.899538E-01 -3.011978E+01 
2.913813E+02  9.909190E-01 -3.148820E+01  3.213395E-04 6.790088E+01  3.236751E-04 6.852624E+01  9.899404E-01 -3.012643E+01 
2.914125E+02  9.908292E-01 -3.148944E+01  3.301730E-04 6.984907E+01  3.283842E-04 6.821387E+01  9.900066E-01 -3.012713E+01 
2.914438E+02  9.907784E-01 -3.150052E+01  3.364523E-04 6.967301E+01  3.335032E-04 6.871049E+01  9.899110E-01 -3.012620E+01 
2.914750E+02  9.907144E-01 -3.149690E+01  3.325503E-04 6.994905E+01  3.298544E-04 6.985166E+01  9.899247E-01 -3.014074E+01 
2.915063E+02  9.908942E-01 -3.151108E+01  3.418281E-04 7.048009E+01  3.371527E-04 7.028234E+01  9.898552E-01 -3.012638E+01 
2.915375E+02  9.907510E-01 -3.151645E+01  3.390066E-04 7.136103E+01  3.481431E-04 7.119783E+01  9.899155E-01 -3.014405E+01 
2.915688E+02  9.908632E-01 -3.151497E+01  3.442056E-04 7.109147E+01  3.427961E-04 7.189696E+01  9.898150E-01 -3.013955E+01 
2.916000E+02  9.908740E-01 -3.151423E+01  3.466453E-04 7.195569E+01  3.540857E-04 7.221869E+01  9.898600E-01 -3.014219E+01 
2.916313E+02  9.908063E-01 -3.152495E+01  3.577218E-04 7.179667E+01  3.622439E-04 7.215521E+01  9.899384E-01 -3.014601E+01 
2.916625E+02  9.908156E-01 -3.152993E+01  3.618822E-04 7.248391E+01  3.595870E-04 7.151154E+01  9.899013E-01 -3.014953E+01 
2.916938E+02  9.907287E-01 -3.152249E+01  3.703604E-04 7.145024E+01  3.665210E-04 7.243975E+01  9.899804E-01 -3.015659E+01 
2.917250E+02  9.906510E-01 -3.152799E+01  3.680900E-04 7.199887E+01  3.705017E-04 7.120696E+01  9.899089E-01 -3.015718E+01 
2.917563E+02  9.907819E-01 -3.154241E+01  3.719428E-04 7.228481E+01  3.875985E-04 7.161836E+01  9.899474E-01 -3.015914E+01 
2.917875E+02  9.906910E-01 -3.153979E+01  3.864988E-04 7.204399E+01  3.933473E-04 7.201936E+01  9.897536E-01 -3.015987E+01 
2.918188E+02  9.907618E-01 -3.153836E+01  3.957692E-04 7.140089E+01  3.998539E-04 7.033416E+01  9.898016E-01 -3.017338E+01 
2.918500E+02  9.907967E-01 -3.153975E+01  4.028846E-04 6.893186E+01  3.977987E-04 7.113117E+01  9.898460E-01 -3.016997E+01 
2.918813E+02  9.906365E-01 -3.155097E+01  4.170987E-04 6.888800E+01  4.146189E-04 6.854041E+01  9.897266E-01 -3.017853E+01 
2.919125E+02  9.907371E-01 -3.155306E+01  4.107964E-04 6.806098E+01  4.099351E-04 6.893189E+01  9.898200E-01 -3.018108E+01 
2.919438E+02  9.907176E-01 -3.156082E+01  4.147311E-04 6.723200E+01  4.179387E-04 6.662670E+01  9.899752E-01 -3.018527E+01 
2.919750E+02  9.909114E-01 -3.156689E+01  4.190858E-04 6.436079E+01  4.211416E-04 6.593063E+01  9.900052E-01 -3.019126E+01 
2.920063E+02  9.905930E-01 -3.157437E+01  4.230966E-04 6.399091E+01  4.163269E-04 6.275580E+01  9.897067E-01 -3.019397E+01 
2.920375E+02  9.906248E-01 -3.156786E+01  4.186602E-04 6.282147E+01  4.239572E-04 6.296466E+01  9.897249E-01 -3.019541E+01 
2.920688E+02  9.906627E-01 -3.157517E+01  4.222629E-04 6.181054E+01  4.167123E-04 6.217428E+01  9.898181E-01 -3.019486E+01 
2.921000E+02  9.907144E-01 -3.157784E+01  4.226807E-04 6.017050E+01  4.244028E-04 6.063970E+01  9.897190E-01 -3.019867E+01 
2.921313E+02  9.907616E-01 -3.158059E+01  4.168446E-04 5.965292E+01  4.170701E-04 6.005651E+01  9.898584E-01 -3.019978E+01 
2.921625E+02  9.907037E-01 -3.158099E+01  4.102909E-04 5.778429E+01  4.110946E-04 5.784255E+01  9.896935E-01 -3.020755E+01 
2.921938E+02  9.908530E-01 -3.158788E+01  4.074877E-04 5.818011E+01  4.096040E-04 5.756403E+01  9.897408E-01 -3.021091E+01 
2.922250E+02  9.907148E-01 -3.159084E+01  4.086161E-04 5.644892E+01  3.896624E-04 5.614598E+01  9.896830E-01 -3.021065E+01 
2.922563E+02  9.906534E-01 -3.159007E+01  3.895454E-04 5.471617E+01  3.916340E-04 5.572427E+01  9.897968E-01 -3.021153E+01 
2.922875E+02  9.908366E-01 -3.160148E+01  3.886484E-04 5.442231E+01  3.808254E-04 5.405896E+01  9.896583E-01 -3.021646E+01 
2.923188E+02  9.907012E-01 -3.160019E+01  3.747944E-04 5.288590E+01  3.802548E-04 5.213243E+01  9.898376E-01 -3.022653E+01 
2.923500E+02  9.906245E-01 -3.160866E+01  3.646135E-04 5.239838E+01  3.651740E-04 5.286425E+01  9.896779E-01 -3.022641E+01 
2.923813E+02  9.906828E-01 -3.161302E+01  3.502165E-04 5.267872E+01  3.519359E-04 5.251357E+01  9.897737E-01 -3.023356E+01 
2.924125E+02  9.904776E-01 -3.160843E+01  3.460543E-04 5.315083E+01  3.369657E-04 5.200519E+01  9.898414E-01 -3.022954E+01 
2.924438E+02  9.905749E-01 -3.161712E+01  3.301594E-04 5.324863E+01  3.305672E-04 5.252117E+01  9.897430E-01 -3.023873E+01 
2.924750E+02  9.905989E-01 -3.162929E+01  3.212188E-04 5.298454E+01  3.162329E-04 5.365395E+01  9.897576E-01 -3.024405E+01 
2.925063E+02  9.905758E-01 -3.161930E+01  3.016260E-04 5.510335E+01  3.054591E-04 5.414556E+01  9.896660E-01 -3.024142E+01 
2.925375E+02  9.905897E-01 -3.161488E+01  2.942514E-04 5.587521E+01  2.897992E-04 5.568472E+01  9.897050E-01 -3.024294E+01 
2.925688E+02  9.906800E-01 -3.162314E+01  2.802287E-04 5.954670E+01  2.894744E-04 6.058953E+01  9.896824E-01 -3.025503E+01 
2.926000E+02  9.906300E-01 -3.162657E+01  2.866047E-04 6.116918E+01  2.861888E-04 6.186054E+01  9.898979E-01 -3.025210E+01 
2.926313E+02  9.907203E-01 -3.163119E+01  2.887177E-04 6.432469E+01  2.800058E-04 6.367704E+01  9.897322E-01 -3.026589E+01 
2.926625E+02  9.905587E-01 -3.164277E+01  2.880050E-04 6.813823E+01  2.900202E-04 6.703846E+01  9.898808E-01 -3.026575E+01 
2.926938E+02  9.906017E-01 -3.163657E+01  2.965542E-04 6.846112E+01  2.904028E-04 6.947852E+01  9.896770E-01 -3.027562E+01 
2.927250E+02  9.905471E-01 -3.164144E+01  3.010938E-04 7.127600E+01  3.003199E-04 7.231663E+01  9.899255E-01 -3.026768E+01 
2.927563E+02  9.905856E-01 -3.165011E+01  3.140661E-04 7.326080E+01  3.062239E-04 7.123875E+01  9.897573E-01 -3.026064E+01 
2.927875E+02  9.907617E-01 -3.165541E+01  3.287995E-04 7.316561E+01  3.295400E-04 7.220492E+01  9.898044E-01 -3.027646E+01 
2.928188E+02  9.905010E-01 -3.165903E+01  3.331628E-04 7.424237E+01  3.309876E-04 7.312288E+01  9.897987E-01 -3.028177E+01 
2.928500E+02  9.905426E-01 -3.165170E+01  3.517783E-04 7.336896E+01  3.465636E-04 7.332116E+01  9.896124E-01 -3.028465E+01 
2.928813E+02  9.906462E-01 -3.166309E+01  3.504201E-04 7.394569E+01  3.523681E-04 7.280809E+01  9.897428E-01 -3.028527E+01 
2.929125E+02  9.906292E-01 -3.166004E+01  3.706920E-04 7.279300E+01  3.608642E-04 7.297263E+01  9.897304E-01 -3.028632E+01 
2.929438E+02  9.906342E-01 -3.166959E+01  3.736884E-04 7.144724E+01  3.654486E-04 7.344869E+01  9.898497E-01 -3.029355E+01 
2.929750E+02  9.905915E-01 -3.166797E+01  3.764630E-04 7.278929E+01  3.899781E-04 7.280674E+01  9.898735E-01 -3.029640E+01 
2.930063E+02  9.905870E-01 -3.167913E+01  3.900856E-04 7.197132E+01  3.902192E-04 7.254973E+01  9.896841E-01 -3.029558E+01 
2.930375E+02  9.904212E-01 -3.167739E+01  4.061913E-04 7.083606E+01  4.011058E-04 7.130081E+01  9.896701E-01 -3.029884E+01 
2.930688E+02  9.906338E-01 -3.168298E+01  4.124404E-04 7.081131E+01  4.053930E-04 7.143201E+01  9.897753E-01 -3.030114E+01 
2.931000E+02  9.906006E-01 -3.169287E+01  4.148296E-04 6.996362E+01  4.215744E-04 6.929788E+01  9.896763E-01 -3.031280E+01 
2.931313E+02  9.906659E-01 -3.169369E+01  4.199630E-04 6.800525E+01  4.222840E-04 6.772075E+01  9.897277E-01 -3.031298E+01 
2.931625E+02  9.904966E-01 -3.169408E+01  4.284790E-04 6.701191E+01  4.263063E-04 6.592668E+01  9.897850E-01 -3.031330E+01 
2.931938E+02  9.906218E-01 -3.169667E+01  4.294179E-04 6.597691E+01  4.311419E-04 6.499613E+01  9.895327E-01 -3.031889E+01 
2.932250E+02  9.906785E-01 -3.169845E+01  4.406537E-04 6.286932E+01  4.340143E-04 6.395681E+01  9.896595E-01 -3.032029E+01 
2.932563E+02  9.905543E-01 -3.169712E+01  4.275866E-04 6.201341E+01  4.300711E-04 6.214599E+01  9.896997E-01 -3.032134E+01 
2.932875E+02  9.906313E-01 -3.170357E+01  4.293706E-04 6.052142E+01  4.289350E-04 6.018214E+01  9.897934E-01 -3.032217E+01 
2.933188E+02  9.907123E-01 -3.170132E+01  4.244916E-04 5.783671E+01  4.245094E-04 5.837093E+01  9.896919E-01 -3.033553E+01 
2.933500E+02  9.906467E-01 -3.170847E+01  4.110160E-04 5.735337E+01  4.144090E-04 5.614725E+01  9.897772E-01 -3.033434E+01 
2.933813E+02  9.906377E-01 -3.170861E+01  4.115791E-04 5.543803E+01  4.051258E-04 5.442480E+01  9.898160E-01 -3.034853E+01 
2.934125E+02  9.906295E-01 -3.171554E+01  4.041206E-04 5.404677E+01  3.975552E-04 5.543630E+01  9.897193E-01 -3.034168E+01 
2.934438E+02  9.905161E-01 -3.172161E+01  3.845658E-04 5.355479E+01  3.884858E-04 5.389575E+01  9.897286E-01 -3.034941E+01 
2.934750E+02  9.906129E-01 -3.172279E+01  3.736384E-04 5.275446E+01  3.730967E-04 5.330299E+01  9.897814E-01 -3.035176E+01 
2.935063E+02  9.906509E-01 -3.172319E+01  3.680067E-04 5.259421E+01  3.726380E-04 5.313580E+01  9.898329E-01 -3.034619E+01 
2.935375E+02  9.906744E-01 -3.172446E+01  3.562217E-04 5.266845E+01  3.581238E-04 5.300515E+01  9.898551E-01 -3.035213E+01 
2.935688E+02  9.906593E-01 -3.173677E+01  3.439615E-04 5.248480E+01  3.426208E-04 5.267949E+01  9.897664E-01 -3.034984E+01 
2.936000E+02  9.905897E-01 -3.174427E+01  3.397621E-04 5.326817E+01  3.392778E-04 5.389591E+01  9.895470E-01 -3.036462E+01 
2.936313E+02  9.905591E-01 -3.175040E+01  3.231848E-04 5.635997E+01  3.328853E-04 5.388725E+01  9.897036E-01 -3.035771E+01 
2.936625E+02  9.905812E-01 -3.174156E+01  3.238565E-04 5.555583E+01  3.203154E-04 5.545583E+01  9.896849E-01 -3.036970E+01 
2.936938E+02  9.906484E-01 -3.175602E+01  3.091716E-04 5.673483E+01  3.091950E-04 5.850132E+01  9.898532E-01 -3.038151E+01 
2.937250E+02  9.905337E-01 -3.175039E+01  3.142362E-04 5.797871E+01  3.097292E-04 6.047919E+01  9.896650E-01 -3.037396E+01 
