! Matrix data file written by TouchstoneData, EPCOS AG
! FILENAME: "B3769_SB.s2p"
! COMMENT: "16 Nov 2004 S11-NoP:1601;Caltype:FULL2PORT;P"
! INFO: nport=2, nfreq=1601
! DATE: "Wed Sep 19 16:04:49 2012"
! USER: "Wilfried Schott"
!
! port | pin | signal
! -----|-----|--------
!   1  |  2  |  IN
!   2  |  5  |  OUT
! --------------------
! 
# MHZ S MA R 50
! freq  magS11 angS11  magS21 angS21  magS12 angS12  magS22 angS22
3.125000E+02  9.892002E-01 -3.426614E+01  2.042171E-03 4.672680E+01  2.047289E-03 4.674167E+01  9.889762E-01 -3.130448E+01 
3.125031E+02  9.891673E-01 -3.427543E+01  2.037867E-03 4.568412E+01  2.022456E-03 4.565916E+01  9.890329E-01 -3.130173E+01 
3.125063E+02  9.894691E-01 -3.427278E+01  2.029153E-03 4.428245E+01  2.016374E-03 4.403709E+01  9.888742E-01 -3.131192E+01 
3.125094E+02  9.892653E-01 -3.428400E+01  2.009882E-03 4.293059E+01  2.007604E-03 4.291805E+01  9.888019E-01 -3.131223E+01 
3.125125E+02  9.892781E-01 -3.428253E+01  1.994940E-03 4.166192E+01  1.997434E-03 4.162960E+01  9.888661E-01 -3.131593E+01 
3.125156E+02  9.891078E-01 -3.428474E+01  1.983864E-03 4.035702E+01  1.987479E-03 4.048293E+01  9.889880E-01 -3.131375E+01 
3.125188E+02  9.891285E-01 -3.428977E+01  1.975095E-03 3.915998E+01  1.972434E-03 3.923399E+01  9.888718E-01 -3.132730E+01 
3.125219E+02  9.892796E-01 -3.429388E+01  1.967645E-03 3.773339E+01  1.966916E-03 3.790047E+01  9.889669E-01 -3.132505E+01 
3.125250E+02  9.891190E-01 -3.429273E+01  1.963749E-03 3.650602E+01  1.961773E-03 3.658047E+01  9.889686E-01 -3.133570E+01 
3.125281E+02  9.891855E-01 -3.430253E+01  1.955111E-03 3.509510E+01  1.953937E-03 3.504044E+01  9.889495E-01 -3.133087E+01 
3.125312E+02  9.891304E-01 -3.430613E+01  1.950628E-03 3.331296E+01  1.933974E-03 3.365052E+01  9.890466E-01 -3.134143E+01 
3.125344E+02  9.890059E-01 -3.430277E+01  1.941209E-03 3.214479E+01  1.937226E-03 3.217353E+01  9.887991E-01 -3.134047E+01 
3.125375E+02  9.891679E-01 -3.431012E+01  1.935212E-03 3.049764E+01  1.929224E-03 3.081337E+01  9.887958E-01 -3.134245E+01 
3.125406E+02  9.890482E-01 -3.431186E+01  1.929135E-03 2.923453E+01  1.925536E-03 2.925975E+01  9.888453E-01 -3.134941E+01 
3.125437E+02  9.891113E-01 -3.431868E+01  1.918016E-03 2.754356E+01  1.920103E-03 2.750585E+01  9.887577E-01 -3.135413E+01 
3.125469E+02  9.889967E-01 -3.432044E+01  1.908769E-03 2.591532E+01  1.916716E-03 2.598800E+01  9.888204E-01 -3.134826E+01 
3.125500E+02  9.888986E-01 -3.431144E+01  1.909436E-03 2.435657E+01  1.908688E-03 2.407994E+01  9.885991E-01 -3.135577E+01 
3.125531E+02  9.890420E-01 -3.432011E+01  1.901519E-03 2.231700E+01  1.906448E-03 2.270704E+01  9.886635E-01 -3.135979E+01 
3.125562E+02  9.890094E-01 -3.432165E+01  1.890757E-03 2.065029E+01  1.892000E-03 2.072193E+01  9.886809E-01 -3.135927E+01 
3.125594E+02  9.889897E-01 -3.432456E+01  1.891102E-03 1.866161E+01  1.882899E-03 1.896650E+01  9.885246E-01 -3.135640E+01 
3.125625E+02  9.889197E-01 -3.433347E+01  1.880605E-03 1.685011E+01  1.873552E-03 1.704079E+01  9.885602E-01 -3.136703E+01 
3.125656E+02  9.887696E-01 -3.433044E+01  1.864670E-03 1.492209E+01  1.865690E-03 1.508127E+01  9.883682E-01 -3.136954E+01 
3.125688E+02  9.888450E-01 -3.433007E+01  1.856918E-03 1.272859E+01  1.846855E-03 1.294863E+01  9.884121E-01 -3.136407E+01 
3.125719E+02  9.888874E-01 -3.433509E+01  1.842082E-03 1.071698E+01  1.840330E-03 1.096566E+01  9.884855E-01 -3.136892E+01 
3.125750E+02  9.887395E-01 -3.433293E+01  1.825472E-03 8.577037E+00  1.819940E-03 8.527438E+00  9.883698E-01 -3.136581E+01 
3.125781E+02  9.887708E-01 -3.433094E+01  1.807618E-03 6.311380E+00  1.801129E-03 6.021737E+00  9.883342E-01 -3.136217E+01 
3.125813E+02  9.886620E-01 -3.433243E+01  1.785540E-03 3.953744E+00  1.783148E-03 3.982904E+00  9.883043E-01 -3.137500E+01 
3.125844E+02  9.887361E-01 -3.433344E+01  1.762232E-03 1.848994E+00  1.762529E-03 1.658550E+00  9.882982E-01 -3.135853E+01 
3.125875E+02  9.887214E-01 -3.432986E+01  1.731008E-03 -7.690199E-01  1.730429E-03 -1.104447E+00  9.883545E-01 -3.136673E+01 
3.125906E+02  9.887243E-01 -3.433393E+01  1.702691E-03 -3.761981E+00  1.702321E-03 -3.669997E+00  9.883467E-01 -3.136537E+01 
3.125938E+02  9.887140E-01 -3.433231E+01  1.677960E-03 -6.159968E+00  1.670880E-03 -6.231092E+00  9.883789E-01 -3.136421E+01 
3.125969E+02  9.885798E-01 -3.433651E+01  1.632204E-03 -8.568099E+00  1.638363E-03 -8.902051E+00  9.881927E-01 -3.136621E+01 
3.126000E+02  9.888015E-01 -3.432695E+01  1.605869E-03 -1.133558E+01  1.595002E-03 -1.111658E+01  9.881998E-01 -3.136406E+01 
3.126031E+02  9.887671E-01 -3.432910E+01  1.553273E-03 -1.369257E+01  1.551375E-03 -1.405907E+01  9.883597E-01 -3.136426E+01 
3.126062E+02  9.888242E-01 -3.433093E+01  1.514372E-03 -1.637402E+01  1.503982E-03 -1.651657E+01  9.883436E-01 -3.136804E+01 
3.126094E+02  9.888301E-01 -3.432567E+01  1.466359E-03 -1.905984E+01  1.453432E-03 -1.921264E+01  9.883810E-01 -3.136011E+01 
3.126125E+02  9.886981E-01 -3.433037E+01  1.416288E-03 -2.175847E+01  1.410004E-03 -2.199098E+01  9.884855E-01 -3.135642E+01 
3.126156E+02  9.888491E-01 -3.432571E+01  1.360951E-03 -2.424734E+01  1.350906E-03 -2.451315E+01  9.885733E-01 -3.136506E+01 
3.126187E+02  9.888547E-01 -3.432739E+01  1.302959E-03 -2.678884E+01  1.299495E-03 -2.674414E+01  9.885421E-01 -3.136697E+01 
3.126219E+02  9.890076E-01 -3.432791E+01  1.251696E-03 -2.926103E+01  1.243409E-03 -2.898794E+01  9.885963E-01 -3.135842E+01 
3.126250E+02  9.891583E-01 -3.432715E+01  1.192034E-03 -3.149200E+01  1.192362E-03 -3.110227E+01  9.887059E-01 -3.135598E+01 
3.126281E+02  9.889416E-01 -3.433332E+01  1.143227E-03 -3.354294E+01  1.136834E-03 -3.354289E+01  9.887524E-01 -3.136412E+01 
3.126313E+02  9.891001E-01 -3.433964E+01  1.085212E-03 -3.602222E+01  1.077655E-03 -3.596029E+01  9.888407E-01 -3.136380E+01 
3.126344E+02  9.892132E-01 -3.433304E+01  1.026803E-03 -3.800549E+01  1.035124E-03 -3.742105E+01  9.888167E-01 -3.137067E+01 
3.126375E+02  9.892881E-01 -3.433489E+01  9.812495E-04 -3.955107E+01  9.791524E-04 -3.958568E+01  9.888257E-01 -3.136737E+01 
3.126406E+02  9.892953E-01 -3.433709E+01  9.312343E-04 -4.147199E+01  9.166086E-04 -4.128985E+01  9.890602E-01 -3.137274E+01 
3.126438E+02  9.893972E-01 -3.434302E+01  8.705264E-04 -4.306298E+01  8.727464E-04 -4.273503E+01  9.889892E-01 -3.137332E+01 
3.126469E+02  9.895958E-01 -3.434130E+01  8.244908E-04 -4.485971E+01  8.217628E-04 -4.454890E+01  9.891520E-01 -3.137871E+01 
3.126500E+02  9.895043E-01 -3.435456E+01  7.735828E-04 -4.616780E+01  7.725963E-04 -4.524262E+01  9.891262E-01 -3.138589E+01 
3.126531E+02  9.895286E-01 -3.435254E+01  7.324191E-04 -4.702724E+01  7.323025E-04 -4.718657E+01  9.891295E-01 -3.139222E+01 
3.126562E+02  9.896934E-01 -3.436091E+01  6.824355E-04 -4.824754E+01  6.816631E-04 -4.805377E+01  9.892560E-01 -3.139188E+01 
3.126594E+02  9.895026E-01 -3.435828E+01  6.476649E-04 -4.947165E+01  6.420232E-04 -4.920339E+01  9.892084E-01 -3.139056E+01 
3.126625E+02  9.897510E-01 -3.436600E+01  6.090045E-04 -4.980479E+01  6.055818E-04 -5.021458E+01  9.893470E-01 -3.139332E+01 
3.126656E+02  9.897445E-01 -3.437329E+01  5.717332E-04 -5.050658E+01  5.668560E-04 -5.094817E+01  9.892383E-01 -3.139914E+01 
3.126687E+02  9.898118E-01 -3.436575E+01  5.283047E-04 -5.167528E+01  5.245060E-04 -5.174017E+01  9.893216E-01 -3.139810E+01 
3.126719E+02  9.899867E-01 -3.437788E+01  4.994253E-04 -5.252330E+01  4.923695E-04 -5.188068E+01  9.893344E-01 -3.140735E+01 
3.126750E+02  9.899900E-01 -3.438393E+01  4.620693E-04 -5.176169E+01  4.562551E-04 -5.166046E+01  9.894487E-01 -3.140618E+01 
3.126781E+02  9.898551E-01 -3.438541E+01  4.307496E-04 -5.237386E+01  4.304567E-04 -5.213018E+01  9.894952E-01 -3.141031E+01 
3.126812E+02  9.899186E-01 -3.438691E+01  4.022331E-04 -5.344437E+01  3.963720E-04 -5.236685E+01  9.894825E-01 -3.141832E+01 
3.126844E+02  9.900867E-01 -3.438311E+01  3.725642E-04 -5.340009E+01  3.730173E-04 -5.273093E+01  9.894128E-01 -3.142112E+01 
3.126875E+02  9.899407E-01 -3.439467E+01  3.524286E-04 -5.275861E+01  3.472595E-04 -5.247174E+01  9.894350E-01 -3.141952E+01 
3.126906E+02  9.899326E-01 -3.440372E+01  3.204134E-04 -5.260321E+01  3.258350E-04 -5.248583E+01  9.894765E-01 -3.142126E+01 
3.126938E+02  9.900284E-01 -3.440573E+01  3.003381E-04 -5.178352E+01  2.932584E-04 -5.148229E+01  9.896153E-01 -3.142975E+01 
3.126969E+02  9.900564E-01 -3.441076E+01  2.766283E-04 -5.120325E+01  2.799982E-04 -5.052424E+01  9.895633E-01 -3.143456E+01 
3.127000E+02  9.901063E-01 -3.440493E+01  2.515276E-04 -4.904512E+01  2.580394E-04 -4.811345E+01  9.895789E-01 -3.144187E+01 
3.127031E+02  9.901683E-01 -3.441001E+01  2.419101E-04 -4.806052E+01  2.404211E-04 -4.726023E+01  9.896681E-01 -3.144524E+01 
3.127063E+02  9.900396E-01 -3.441886E+01  2.181595E-04 -4.711346E+01  2.157553E-04 -4.650795E+01  9.896746E-01 -3.145287E+01 
3.127094E+02  9.901301E-01 -3.442465E+01  2.014436E-04 -4.558537E+01  2.034165E-04 -4.466375E+01  9.896879E-01 -3.145548E+01 
3.127125E+02  9.901278E-01 -3.442727E+01  1.845724E-04 -4.437253E+01  1.825146E-04 -4.272907E+01  9.895680E-01 -3.145930E+01 
3.127156E+02  9.902010E-01 -3.443278E+01  1.712107E-04 -3.845784E+01  1.648027E-04 -3.753802E+01  9.895771E-01 -3.146454E+01 
3.127188E+02  9.900779E-01 -3.443399E+01  1.552821E-04 -3.711580E+01  1.574504E-04 -3.637820E+01  9.896106E-01 -3.146649E+01 
3.127219E+02  9.901399E-01 -3.444401E+01  1.475263E-04 -3.273748E+01  1.506750E-04 -3.144993E+01  9.897413E-01 -3.147202E+01 
3.127250E+02  9.901859E-01 -3.444394E+01  1.359408E-04 -2.951058E+01  1.327899E-04 -3.030042E+01  9.896887E-01 -3.147288E+01 
3.127281E+02  9.900368E-01 -3.445532E+01  1.280832E-04 -2.330043E+01  1.334398E-04 -2.285941E+01  9.897004E-01 -3.147982E+01 
3.127312E+02  9.901759E-01 -3.445324E+01  1.240746E-04 -1.768149E+01  1.109517E-04 -1.796323E+01  9.896122E-01 -3.148344E+01 
3.127344E+02  9.900837E-01 -3.445560E+01  1.102773E-04 -1.320750E+01  1.090285E-04 -1.321439E+01  9.896738E-01 -3.148842E+01 
3.127375E+02  9.901478E-01 -3.445576E+01  1.127916E-04 -6.087198E+00  1.113092E-04 -5.181518E+00  9.896704E-01 -3.149991E+01 
3.127406E+02  9.903779E-01 -3.446324E+01  1.008350E-04 -1.096834E+00  1.010162E-04 -6.229067E+00  9.896822E-01 -3.150166E+01 
3.127437E+02  9.902288E-01 -3.447828E+01  1.044040E-04 4.731359E+00  1.091048E-04 4.731294E+00  9.895968E-01 -3.150448E+01 
3.127469E+02  9.902858E-01 -3.448516E+01  1.071324E-04 9.724969E+00  1.108673E-04 1.278367E+01  9.896368E-01 -3.151007E+01 
3.127500E+02  9.901586E-01 -3.448698E+01  1.102083E-04 1.887280E+01  1.028114E-04 1.605569E+01  9.895907E-01 -3.151367E+01 
3.127531E+02  9.901590E-01 -3.448423E+01  1.069753E-04 1.961241E+01  1.086732E-04 1.835451E+01  9.896001E-01 -3.151696E+01 
3.127563E+02  9.902809E-01 -3.448579E+01  1.097005E-04 2.365433E+01  1.140272E-04 2.714650E+01  9.896531E-01 -3.151828E+01 
3.127594E+02  9.901428E-01 -3.449159E+01  1.134781E-04 3.009970E+01  1.157888E-04 3.081663E+01  9.896813E-01 -3.151769E+01 
3.127625E+02  9.903030E-01 -3.450207E+01  1.211876E-04 3.416381E+01  1.209041E-04 3.431330E+01  9.896671E-01 -3.152595E+01 
3.127656E+02  9.901466E-01 -3.449911E+01  1.280013E-04 3.626384E+01  1.347330E-04 3.338420E+01  9.896745E-01 -3.153162E+01 
3.127688E+02  9.902498E-01 -3.450129E+01  1.315010E-04 3.913638E+01  1.284834E-04 3.876304E+01  9.896587E-01 -3.153164E+01 
3.127719E+02  9.903161E-01 -3.450395E+01  1.374545E-04 3.859903E+01  1.309932E-04 4.259688E+01  9.897219E-01 -3.153247E+01 
3.127750E+02  9.903269E-01 -3.451042E+01  1.441468E-04 4.342257E+01  1.373316E-04 4.291118E+01  9.896098E-01 -3.154209E+01 
3.127781E+02  9.904181E-01 -3.451561E+01  1.515920E-04 4.532014E+01  1.467886E-04 4.769131E+01  9.896771E-01 -3.154066E+01 
3.127812E+02  9.902621E-01 -3.452362E+01  1.547003E-04 4.667216E+01  1.516395E-04 4.915427E+01  9.895977E-01 -3.154671E+01 
3.127844E+02  9.903236E-01 -3.451841E+01  1.555670E-04 4.832796E+01  1.527401E-04 4.876259E+01  9.897421E-01 -3.154965E+01 
3.127875E+02  9.902779E-01 -3.452999E+01  1.643177E-04 5.041687E+01  1.662385E-04 5.179345E+01  9.898233E-01 -3.155408E+01 
3.127906E+02  9.902850E-01 -3.452732E+01  1.679729E-04 5.172196E+01  1.676142E-04 4.967018E+01  9.896087E-01 -3.156331E+01 
3.127937E+02  9.903381E-01 -3.452775E+01  1.748941E-04 5.187181E+01  1.719944E-04 5.303791E+01  9.896886E-01 -3.156041E+01 
3.127969E+02  9.902229E-01 -3.454457E+01  1.824717E-04 5.274237E+01  1.715127E-04 5.426248E+01  9.898260E-01 -3.156808E+01 
3.128000E+02  9.901800E-01 -3.452884E+01  1.863168E-04 5.599649E+01  1.833867E-04 5.500730E+01  9.896897E-01 -3.155835E+01 
3.128031E+02  9.902596E-01 -3.454003E+01  1.888198E-04 5.510571E+01  1.856178E-04 5.466125E+01  9.897816E-01 -3.157251E+01 
3.128062E+02  9.903564E-01 -3.455201E+01  1.909353E-04 5.520940E+01  1.827903E-04 5.648687E+01  9.898901E-01 -3.158073E+01 
3.128094E+02  9.901592E-01 -3.454470E+01  2.068661E-04 5.554979E+01  1.961683E-04 5.535289E+01  9.897873E-01 -3.157796E+01 
3.128125E+02  9.902256E-01 -3.455980E+01  2.042106E-04 5.708052E+01  2.009770E-04 5.703278E+01  9.897967E-01 -3.157104E+01 
3.128156E+02  9.902693E-01 -3.455629E+01  2.076467E-04 5.710597E+01  2.055604E-04 5.737851E+01  9.897992E-01 -3.158430E+01 
3.128188E+02  9.902750E-01 -3.457104E+01  2.093935E-04 5.735757E+01  2.041100E-04 5.849725E+01  9.899161E-01 -3.158937E+01 
3.128219E+02  9.900885E-01 -3.456017E+01  2.155992E-04 5.847371E+01  2.096199E-04 5.773633E+01  9.898116E-01 -3.159432E+01 
3.128250E+02  9.902117E-01 -3.456763E+01  2.184843E-04 5.798707E+01  2.223817E-04 5.915008E+01  9.898572E-01 -3.159355E+01 
3.128281E+02  9.900524E-01 -3.457463E+01  2.219613E-04 5.909911E+01  2.199049E-04 5.759162E+01  9.897732E-01 -3.160703E+01 
3.128313E+02  9.902341E-01 -3.457338E+01  2.291194E-04 5.891907E+01  2.281080E-04 6.066288E+01  9.896916E-01 -3.160342E+01 
3.128344E+02  9.902224E-01 -3.458359E+01  2.275233E-04 6.008396E+01  2.338956E-04 5.954141E+01  9.898265E-01 -3.161391E+01 
3.128375E+02  9.900959E-01 -3.458612E+01  2.319549E-04 5.951411E+01  2.271822E-04 5.971215E+01  9.896335E-01 -3.161796E+01 
3.128406E+02  9.902646E-01 -3.458886E+01  2.369261E-04 6.141518E+01  2.405145E-04 5.944053E+01  9.897777E-01 -3.161815E+01 
3.128438E+02  9.901607E-01 -3.459360E+01  2.428043E-04 6.183315E+01  2.403638E-04 6.014184E+01  9.896663E-01 -3.161796E+01 
3.128469E+02  9.902214E-01 -3.459707E+01  2.467601E-04 6.077116E+01  2.503462E-04 6.045422E+01  9.896459E-01 -3.162035E+01 
3.128500E+02  9.902823E-01 -3.459892E+01  2.523621E-04 6.124307E+01  2.500045E-04 6.163409E+01  9.897495E-01 -3.163045E+01 
3.128531E+02  9.901540E-01 -3.461336E+01  2.473293E-04 6.060897E+01  2.518559E-04 6.187783E+01  9.898286E-01 -3.163530E+01 
3.128562E+02  9.901522E-01 -3.460642E+01  2.523687E-04 6.153260E+01  2.593859E-04 6.127212E+01  9.898059E-01 -3.163409E+01 
3.128594E+02  9.902639E-01 -3.461474E+01  2.643437E-04 6.065294E+01  2.576145E-04 6.066019E+01  9.896387E-01 -3.164358E+01 
3.128625E+02  9.903177E-01 -3.462226E+01  2.611954E-04 5.913973E+01  2.639463E-04 6.159971E+01  9.897109E-01 -3.164448E+01 
3.128656E+02  9.902328E-01 -3.462462E+01  2.586688E-04 6.347880E+01  2.643109E-04 6.211839E+01  9.897836E-01 -3.164591E+01 
3.128687E+02  9.901660E-01 -3.462809E+01  2.665971E-04 6.147937E+01  2.694610E-04 6.177956E+01  9.897663E-01 -3.165120E+01 
3.128719E+02  9.902387E-01 -3.463634E+01  2.718242E-04 6.293753E+01  2.747023E-04 6.106299E+01  9.898365E-01 -3.165855E+01 
3.128750E+02  9.903266E-01 -3.463132E+01  2.795962E-04 6.101225E+01  2.716967E-04 6.281182E+01  9.897360E-01 -3.165951E+01 
3.128781E+02  9.902689E-01 -3.464681E+01  2.726660E-04 6.295955E+01  2.743929E-04 6.090831E+01  9.897624E-01 -3.166168E+01 
3.128813E+02  9.902744E-01 -3.464344E+01  2.842137E-04 6.157610E+01  2.746604E-04 6.177034E+01  9.898192E-01 -3.166871E+01 
3.128844E+02  9.901929E-01 -3.464658E+01  2.845875E-04 6.235022E+01  2.827575E-04 6.262540E+01  9.898170E-01 -3.166953E+01 
3.128875E+02  9.902090E-01 -3.465198E+01  2.922412E-04 6.232450E+01  2.893890E-04 6.234570E+01  9.899217E-01 -3.166921E+01 
3.128906E+02  9.903710E-01 -3.465150E+01  2.852776E-04 6.344330E+01  2.948941E-04 6.212654E+01  9.896998E-01 -3.168672E+01 
3.128938E+02  9.903228E-01 -3.465414E+01  2.865016E-04 6.279926E+01  3.012894E-04 6.175799E+01  9.898294E-01 -3.168588E+01 
3.128969E+02  9.902141E-01 -3.465935E+01  2.958611E-04 6.248397E+01  2.908309E-04 6.303765E+01  9.897456E-01 -3.168673E+01 
3.129000E+02  9.901292E-01 -3.467208E+01  2.963164E-04 6.224181E+01  2.968205E-04 6.239561E+01  9.898345E-01 -3.169267E+01 
3.129031E+02  9.902288E-01 -3.467210E+01  3.003219E-04 6.418181E+01  2.997523E-04 6.302218E+01  9.898746E-01 -3.169976E+01 
3.129062E+02  9.902869E-01 -3.467484E+01  3.046269E-04 6.174939E+01  2.988253E-04 6.216420E+01  9.897866E-01 -3.169993E+01 
3.129094E+02  9.902320E-01 -3.467516E+01  3.047353E-04 6.271395E+01  3.043014E-04 6.307534E+01  9.898293E-01 -3.170473E+01 
3.129125E+02  9.902395E-01 -3.468432E+01  3.112267E-04 6.218352E+01  3.003490E-04 6.188102E+01  9.897312E-01 -3.170967E+01 
3.129156E+02  9.902513E-01 -3.468540E+01  3.085964E-04 6.256865E+01  3.099228E-04 6.332100E+01  9.899200E-01 -3.171107E+01 
3.129187E+02  9.902498E-01 -3.468506E+01  3.108693E-04 6.190231E+01  3.173072E-04 6.329449E+01  9.898681E-01 -3.171753E+01 
3.129219E+02  9.902916E-01 -3.468969E+01  3.132666E-04 6.239580E+01  3.168132E-04 6.318907E+01  9.898675E-01 -3.172623E+01 
3.129250E+02  9.902109E-01 -3.469589E+01  3.212961E-04 6.153587E+01  3.169945E-04 6.367019E+01  9.898554E-01 -3.172543E+01 
3.129281E+02  9.902530E-01 -3.470727E+01  3.283753E-04 6.180984E+01  3.206308E-04 6.372587E+01  9.898109E-01 -3.172453E+01 
3.129312E+02  9.902130E-01 -3.471453E+01  3.265014E-04 6.356932E+01  3.244164E-04 6.134714E+01  9.897415E-01 -3.173323E+01 
3.129344E+02  9.901336E-01 -3.470681E+01  3.271553E-04 6.183115E+01  3.289420E-04 6.318846E+01  9.896636E-01 -3.173900E+01 
3.129375E+02  9.902417E-01 -3.471416E+01  3.282349E-04 6.333228E+01  3.250020E-04 6.283445E+01  9.897563E-01 -3.173850E+01 
3.129406E+02  9.901649E-01 -3.472121E+01  3.348477E-04 6.229068E+01  3.329985E-04 6.313782E+01  9.897749E-01 -3.174465E+01 
3.129438E+02  9.901669E-01 -3.472318E+01  3.380482E-04 6.320876E+01  3.342470E-04 6.146596E+01  9.897369E-01 -3.174503E+01 
3.129469E+02  9.901994E-01 -3.472280E+01  3.353842E-04 6.352244E+01  3.369929E-04 6.388597E+01  9.897881E-01 -3.174982E+01 
3.129500E+02  9.902877E-01 -3.472513E+01  3.334180E-04 6.113414E+01  3.390425E-04 6.287628E+01  9.897428E-01 -3.175595E+01 
3.129531E+02  9.901967E-01 -3.473216E+01  3.325820E-04 6.299818E+01  3.351138E-04 6.315660E+01  9.897058E-01 -3.175412E+01 
3.129563E+02  9.901935E-01 -3.473108E+01  3.414509E-04 6.309254E+01  3.441695E-04 6.268539E+01  9.897559E-01 -3.176268E+01 
3.129594E+02  9.902831E-01 -3.474024E+01  3.460668E-04 6.208367E+01  3.446475E-04 6.223957E+01  9.896364E-01 -3.176833E+01 
3.129625E+02  9.901976E-01 -3.474196E+01  3.491466E-04 6.210795E+01  3.483686E-04 6.298674E+01  9.896099E-01 -3.177107E+01 
3.129656E+02  9.902927E-01 -3.475112E+01  3.568794E-04 6.229749E+01  3.472130E-04 6.230023E+01  9.898024E-01 -3.177675E+01 
3.129688E+02  9.902218E-01 -3.475174E+01  3.528307E-04 6.280918E+01  3.563234E-04 6.257986E+01  9.897020E-01 -3.177780E+01 
3.129719E+02  9.901093E-01 -3.475460E+01  3.517797E-04 6.305864E+01  3.522984E-04 6.272169E+01  9.897971E-01 -3.178170E+01 
3.129750E+02  9.900945E-01 -3.476004E+01  3.567535E-04 6.246167E+01  3.475010E-04 6.169690E+01  9.897155E-01 -3.178236E+01 
3.129781E+02  9.901696E-01 -3.476710E+01  3.555897E-04 6.323302E+01  3.561406E-04 6.334784E+01  9.896284E-01 -3.179445E+01 
3.129812E+02  9.902126E-01 -3.476374E+01  3.603983E-04 6.095078E+01  3.617988E-04 6.296555E+01  9.897130E-01 -3.179830E+01 
3.129844E+02  9.902295E-01 -3.477403E+01  3.639393E-04 6.267861E+01  3.698938E-04 6.326321E+01  9.897568E-01 -3.180109E+01 
3.129875E+02  9.902620E-01 -3.476941E+01  3.676648E-04 6.372229E+01  3.613871E-04 6.222492E+01  9.897081E-01 -3.180371E+01 
