! S-Parameter for B3760 in Touchstone format with Magnitude (lin) and Phase 
! Normalised impedance: 50 Ohm. Measurement system: 50 Ohm. Ta=20°C
! B3760_50.S2P not matched. Measurement full 2-port calibrated incl. Port.Ext. 
! Start: 408.920MHz, Stop: 458.920MHz, Span 50MHz 801 Pts., Step 0.062.5MHz.
! Date: 01/02/04 - EPCOS SAW CE AE PD; AGL
! Pinning according data sheet recommendation: IN P2, OUT P5, other GND
!
# MHz  S  MA  R  50
!
!  Freq           S11               S21               S12               S22
408.9200 9.807E-01  -35.70 3.867E-04   82.40 3.867E-04   82.40 9.801E-01  -34.49
408.9825 9.809E-01  -35.72 3.806E-04   71.88 3.806E-04   71.88 9.801E-01  -34.42
409.0450 9.814E-01  -35.71 4.390E-04   64.08 4.390E-04   64.08 9.794E-01  -34.36
409.1075 9.817E-01  -35.77 3.620E-04   69.10 3.620E-04   69.10 9.797E-01  -34.37
409.1700 9.813E-01  -35.95 4.295E-04   72.16 4.295E-04   72.16 9.794E-01  -34.34
409.2325 9.824E-01  -35.73 4.072E-04   73.20 4.072E-04   73.20 9.798E-01  -34.33
409.2950 9.820E-01  -35.73 3.857E-04   63.12 3.857E-04   63.12 9.802E-01  -34.36
409.3575 9.823E-01  -35.81 3.965E-04   70.20 3.965E-04   70.20 9.798E-01  -34.35
409.4200 9.819E-01  -35.78 3.907E-04   56.51 3.907E-04   56.51 9.801E-01  -34.37
409.4825 9.825E-01  -35.73 3.570E-04   56.19 3.570E-04   56.19 9.803E-01  -34.41
409.5450 9.823E-01  -35.77 3.720E-04   56.77 3.720E-04   56.77 9.802E-01  -34.40
409.6075 9.823E-01  -35.77 3.826E-04   57.35 3.826E-04   57.35 9.803E-01  -34.42
409.6700 9.830E-01  -35.81 4.072E-04   62.49 4.072E-04   62.49 9.803E-01  -34.38
409.7325 9.823E-01  -35.81 3.005E-04   56.24 3.005E-04   56.24 9.803E-01  -34.47
409.7950 9.824E-01  -35.82 3.624E-04   52.75 3.624E-04   52.75 9.803E-01  -34.44
409.8575 9.825E-01  -35.81 3.252E-04   50.11 3.252E-04   50.11 9.807E-01  -34.41
409.9200 9.828E-01  -35.83 2.899E-04   52.18 2.899E-04   52.18 9.810E-01  -34.43
409.9825 9.820E-01  -35.82 2.820E-04   50.56 2.820E-04   50.56 9.804E-01  -34.41
410.0450 9.822E-01  -35.86 2.775E-04   58.98 2.775E-04   58.98 9.805E-01  -34.40
410.1075 9.824E-01  -35.85 2.967E-04   61.01 2.967E-04   61.01 9.806E-01  -34.42
410.1700 9.822E-01  -35.81 3.328E-04   66.06 3.328E-04   66.06 9.807E-01  -34.41
410.2325 9.825E-01  -35.83 3.340E-04   64.00 3.340E-04   64.00 9.803E-01  -34.43
410.2950 9.822E-01  -35.85 3.135E-04   65.30 3.135E-04   65.30 9.802E-01  -34.41
410.3575 9.819E-01  -35.87 3.666E-04   75.51 3.666E-04   75.51 9.802E-01  -34.41
410.4200 9.817E-01  -35.88 3.834E-04   72.95 3.834E-04   72.95 9.804E-01  -34.44
410.4825 9.823E-01  -35.86 3.305E-04   71.12 3.305E-04   71.12 9.810E-01  -34.40
410.5450 9.825E-01  -35.90 3.871E-04   70.17 3.871E-04   70.17 9.802E-01  -34.45
410.6075 9.818E-01  -35.88 3.580E-04   62.53 3.580E-04   62.53 9.798E-01  -34.47
410.6700 9.821E-01  -35.90 4.497E-04   54.95 4.497E-04   54.95 9.801E-01  -34.48
410.7325 9.818E-01  -35.95 3.874E-04   60.63 3.874E-04   60.63 9.810E-01  -34.47
410.7950 9.817E-01  -35.92 3.617E-04   55.43 3.617E-04   55.43 9.803E-01  -34.46
410.8575 9.815E-01  -35.94 3.670E-04   57.53 3.670E-04   57.53 9.800E-01  -34.44
410.9200 9.813E-01  -35.93 3.897E-04   53.02 3.897E-04   53.02 9.803E-01  -34.47
410.9825 9.821E-01  -35.95 3.174E-04   53.73 3.174E-04   53.73 9.805E-01  -34.48
411.0450 9.824E-01  -35.92 3.041E-04   56.07 3.041E-04   56.07 9.800E-01  -34.48
411.1075 9.816E-01  -35.96 3.000E-04   58.26 3.000E-04   58.26 9.805E-01  -34.51
411.1700 9.815E-01  -35.94 2.882E-04   54.87 2.882E-04   54.87 9.805E-01  -34.52
411.2325 9.813E-01  -35.97 2.774E-04   62.39 2.774E-04   62.39 9.799E-01  -34.52
411.2950 9.814E-01  -35.96 3.120E-04   66.28 3.120E-04   66.28 9.805E-01  -34.54
411.3575 9.807E-01  -35.95 3.189E-04   57.48 3.189E-04   57.48 9.803E-01  -34.54
411.4200 9.814E-01  -36.00 2.675E-04   62.61 2.675E-04   62.61 9.803E-01  -34.54
411.4825 9.821E-01  -35.99 3.402E-04   62.46 3.402E-04   62.46 9.802E-01  -34.55
411.5450 9.815E-01  -35.98 3.268E-04   67.15 3.268E-04   67.15 9.800E-01  -34.55
411.6075 9.814E-01  -35.98 3.526E-04   73.56 3.526E-04   73.56 9.806E-01  -34.55
411.6700 9.810E-01  -35.97 3.899E-04   70.89 3.899E-04   70.89 9.807E-01  -34.56
411.7325 9.812E-01  -36.00 3.575E-04   66.86 3.575E-04   66.86 9.806E-01  -34.56
411.7950 9.811E-01  -36.00 3.462E-04   69.17 3.462E-04   69.17 9.806E-01  -34.56
411.8575 9.810E-01  -36.01 3.363E-04   63.74 3.363E-04   63.74 9.804E-01  -34.56
411.9200 9.813E-01  -36.01 3.433E-04   61.63 3.433E-04   61.63 9.801E-01  -34.56
411.9825 9.812E-01  -36.03 3.631E-04   63.76 3.631E-04   63.76 9.810E-01  -34.58
412.0450 9.808E-01  -36.02 3.520E-04   58.46 3.520E-04   58.46 9.812E-01  -34.57
412.1075 9.817E-01  -36.02 2.921E-04   51.79 2.921E-04   51.79 9.815E-01  -34.59
412.1700 9.802E-01  -36.07 3.616E-04   52.95 3.616E-04   52.95 9.812E-01  -34.59
412.2325 9.815E-01  -36.07 3.387E-04   60.67 3.387E-04   60.67 9.813E-01  -34.59
412.2950 9.819E-01  -36.06 3.153E-04   53.76 3.153E-04   53.76 9.810E-01  -34.53
412.3575 9.815E-01  -36.09 3.304E-04   57.48 3.304E-04   57.48 9.806E-01  -34.53
412.4200 9.820E-01  -36.05 3.431E-04   68.81 3.431E-04   68.81 9.808E-01  -34.46
412.4825 9.815E-01  -36.08 3.353E-04   60.17 3.353E-04   60.17 9.805E-01  -34.44
412.5450 9.814E-01  -36.10 3.546E-04   60.91 3.546E-04   60.91 9.809E-01  -34.40
412.6075 9.844E-01  -36.02 3.441E-04   59.88 3.441E-04   59.88 9.815E-01  -34.56
412.6700 9.821E-01  -36.10 3.071E-04   54.79 3.071E-04   54.79 9.816E-01  -34.34
412.7325 9.825E-01  -36.10 3.137E-04   53.84 3.137E-04   53.84 9.812E-01  -34.31
412.7950 9.826E-01  -36.11 3.168E-04   65.97 3.168E-04   65.97 9.816E-01  -34.30
412.8575 9.820E-01  -36.12 3.408E-04   63.38 3.408E-04   63.38 9.812E-01  -34.37
412.9200 9.819E-01  -36.13 3.503E-04   63.78 3.503E-04   63.78 9.815E-01  -34.48
412.9825 9.818E-01  -36.14 3.571E-04   64.72 3.571E-04   64.72 9.821E-01  -34.59
413.0450 9.816E-01  -36.13 3.195E-04   60.56 3.195E-04   60.56 9.815E-01  -34.70
413.1075 9.804E-01  -36.31 3.135E-04   67.08 3.135E-04   67.08 9.820E-01  -34.70
413.1700 9.814E-01  -36.20 2.971E-04   66.85 2.971E-04   66.85 9.813E-01  -34.94
413.2325 9.814E-01  -36.15 3.522E-04   71.09 3.522E-04   71.09 9.821E-01  -35.00
413.2950 9.815E-01  -36.18 3.892E-04   61.17 3.892E-04   61.17 9.821E-01  -35.10
413.3575 9.815E-01  -36.21 3.503E-04   65.03 3.503E-04   65.03 9.818E-01  -35.22
413.4200 9.806E-01  -36.24 3.247E-04   61.94 3.247E-04   61.94 9.823E-01  -35.34
413.4825 9.813E-01  -36.22 3.665E-04   61.04 3.665E-04   61.04 9.832E-01  -35.30
413.5450 9.814E-01  -36.26 3.571E-04   69.03 3.571E-04   69.03 9.837E-01  -35.26
413.6075 9.806E-01  -36.23 3.406E-04   64.99 3.406E-04   64.99 9.841E-01  -35.18
413.6700 9.808E-01  -36.23 3.350E-04   58.30 3.350E-04   58.30 9.843E-01  -35.12
413.7325 9.810E-01  -36.28 3.250E-04   57.73 3.250E-04   57.73 9.833E-01  -35.06
413.7950 9.819E-01  -36.25 3.675E-04   57.63 3.675E-04   57.63 9.830E-01  -34.97
413.8575 9.807E-01  -36.21 3.113E-04   49.41 3.113E-04   49.41 9.828E-01  -34.92
413.9200 9.809E-01  -36.23 2.758E-04   59.93 2.758E-04   59.93 9.815E-01  -34.84
413.9825 9.801E-01  -36.26 2.885E-04   78.54 2.885E-04   78.54 9.808E-01  -34.80
414.0450 9.807E-01  -36.28 2.563E-04   74.85 2.563E-04   74.85 9.795E-01  -34.80
414.1075 9.809E-01  -36.43 2.891E-04   84.43 2.891E-04   84.43 9.792E-01  -34.81
414.1700 9.807E-01  -36.64 3.153E-04   74.10 3.153E-04   74.10 9.794E-01  -34.82
414.2325 9.811E-01  -36.83 3.612E-04   77.40 3.612E-04   77.40 9.797E-01  -34.88
414.2950 9.816E-01  -37.01 3.700E-04   79.64 3.700E-04   79.64 9.796E-01  -34.84
414.3575 9.812E-01  -37.20 4.052E-04   77.70 4.052E-04   77.70 9.798E-01  -34.86
414.4200 9.811E-01  -37.37 4.710E-04   75.32 4.710E-04   75.32 9.798E-01  -34.89
414.4825 9.811E-01  -37.59 4.348E-04   67.75 4.348E-04   67.75 9.797E-01  -34.89
414.5450 9.819E-01  -36.33 4.584E-04   66.94 4.584E-04   66.94 9.802E-01  -34.89
414.6075 9.813E-01  -36.32 4.980E-04   59.42 4.980E-04   59.42 9.805E-01  -34.90
414.6700 9.813E-01  -36.37 4.366E-04   52.81 4.366E-04   52.81 9.804E-01  -34.94
414.7325 9.815E-01  -36.37 4.403E-04   52.57 4.403E-04   52.57 9.802E-01  -34.91
414.7950 9.812E-01  -36.38 4.015E-04   50.79 4.015E-04   50.79 9.805E-01  -34.92
414.8575 9.814E-01  -36.34 3.469E-04   49.66 3.469E-04   49.66 9.800E-01  -34.91
414.9200 9.809E-01  -36.38 3.425E-04   48.33 3.425E-04   48.33 9.806E-01  -34.93
414.9825 9.817E-01  -36.39 3.282E-04   38.76 3.282E-04   38.76 9.801E-01  -34.89
415.0450 9.820E-01  -36.38 3.009E-04   44.76 3.009E-04   44.76 9.800E-01  -34.91
415.1075 9.815E-01  -36.39 2.644E-04   42.99 2.644E-04   42.99 9.808E-01  -34.90
415.1700 9.819E-01  -36.39 2.351E-04   45.29 2.351E-04   45.29 9.801E-01  -34.89
415.2325 9.823E-01  -36.41 2.527E-04   58.44 2.527E-04   58.44 9.799E-01  -34.92
415.2950 9.815E-01  -36.44 2.519E-04   57.45 2.519E-04   57.45 9.805E-01  -34.95
415.3575 9.810E-01  -36.40 2.970E-04   66.12 2.970E-04   66.12 9.806E-01  -34.92
415.4200 9.814E-01  -36.40 2.409E-04   63.68 2.409E-04   63.68 9.802E-01  -34.93
415.4825 9.806E-01  -36.44 2.737E-04   68.19 2.737E-04   68.19 9.801E-01  -34.97
415.5450 9.805E-01  -36.45 2.922E-04   72.93 2.922E-04   72.93 9.802E-01  -34.99
415.6075 9.810E-01  -36.46 3.591E-04   78.22 3.591E-04   78.22 9.805E-01  -34.98
415.6700 9.811E-01  -36.43 3.475E-04   68.12 3.475E-04   68.12 9.803E-01  -35.02
415.7325 9.808E-01  -36.44 4.660E-04   73.46 4.660E-04   73.46 9.800E-01  -35.04
415.7950 9.806E-01  -36.42 4.275E-04   67.09 4.275E-04   67.09 9.801E-01  -35.01
415.8575 9.806E-01  -36.46 4.179E-04   64.91 4.179E-04   64.91 9.804E-01  -35.04
415.9200 9.802E-01  -36.49 4.250E-04   62.14 4.250E-04   62.14 9.799E-01  -35.07
415.9825 9.812E-01  -36.50 4.436E-04   60.87 4.436E-04   60.87 9.799E-01  -35.06
416.0450 9.814E-01  -36.50 4.050E-04   57.05 4.050E-04   57.05 9.800E-01  -35.05
416.1075 9.811E-01  -36.50 4.135E-04   50.48 4.135E-04   50.48 9.799E-01  -35.04
416.1700 9.811E-01  -36.52 3.784E-04   55.30 3.784E-04   55.30 9.799E-01  -35.05
416.2325 9.812E-01  -36.52 3.771E-04   46.56 3.771E-04   46.56 9.799E-01  -35.07
416.2950 9.813E-01  -36.50 3.409E-04   44.67 3.409E-04   44.67 9.803E-01  -35.06
416.3575 9.808E-01  -36.52 3.023E-04   50.28 3.023E-04   50.28 9.806E-01  -35.08
416.4200 9.815E-01  -36.55 3.646E-04   48.33 3.646E-04   48.33 9.801E-01  -35.07
416.4825 9.813E-01  -36.52 3.239E-04   54.51 3.239E-04   54.51 9.802E-01  -35.08
416.5450 9.813E-01  -36.52 2.284E-04   46.76 2.284E-04   46.76 9.800E-01  -35.12
416.6075 9.811E-01  -36.53 2.656E-04   53.77 2.656E-04   53.77 9.800E-01  -35.08
416.6700 9.801E-01  -36.56 3.084E-04   57.03 3.084E-04   57.03 9.803E-01  -35.08
416.7325 9.813E-01  -36.54 3.113E-04   61.05 3.113E-04   61.05 9.805E-01  -35.09
416.7950 9.807E-01  -36.56 3.536E-04   61.25 3.536E-04   61.25 9.809E-01  -35.09
416.8575 9.819E-01  -36.55 3.686E-04   66.28 3.686E-04   66.28 9.805E-01  -35.14
416.9200 9.811E-01  -36.57 3.097E-04   67.16 3.097E-04   67.16 9.801E-01  -35.12
416.9825 9.810E-01  -36.59 3.211E-04   66.23 3.211E-04   66.23 9.805E-01  -35.13
417.0450 9.818E-01  -36.59 3.230E-04   70.21 3.230E-04   70.21 9.810E-01  -35.14
417.1075 9.812E-01  -36.58 3.228E-04   60.52 3.228E-04   60.52 9.797E-01  -35.17
417.1700 9.816E-01  -36.61 2.929E-04   68.04 2.929E-04   68.04 9.804E-01  -35.14
417.2325 9.820E-01  -36.63 3.297E-04   63.34 3.297E-04   63.34 9.801E-01  -35.09
417.2950 9.821E-01  -36.65 3.079E-04   62.91 3.079E-04   62.91 9.796E-01  -35.05
417.3575 9.815E-01  -36.64 3.218E-04   59.13 3.218E-04   59.13 9.795E-01  -35.04
417.4200 9.815E-01  -36.64 3.353E-04   60.53 3.353E-04   60.53 9.793E-01  -34.99
417.4825 9.823E-01  -36.65 3.368E-04   62.64 3.368E-04   62.64 9.788E-01  -34.96
417.5450 9.823E-01  -36.68 3.340E-04   58.60 3.340E-04   58.60 9.793E-01  -34.91
417.6075 9.817E-01  -36.68 2.996E-04   67.42 2.996E-04   67.42 9.795E-01  -34.88
417.6700 9.824E-01  -36.74 3.251E-04   54.46 3.251E-04   54.46 9.803E-01  -34.76
417.7325 9.818E-01  -36.72 2.750E-04   52.59 2.750E-04   52.59 9.802E-01  -34.84
417.7950 9.818E-01  -36.69 3.407E-04   66.70 3.407E-04   66.70 9.802E-01  -34.87
417.8575 9.811E-01  -36.72 3.207E-04   64.36 3.207E-04   64.36 9.800E-01  -35.01
417.9200 9.811E-01  -36.74 2.895E-04   62.85 2.895E-04   62.85 9.795E-01  -35.10
417.9825 9.806E-01  -36.75 3.172E-04   60.61 3.172E-04   60.61 9.800E-01  -35.24
418.0450 9.808E-01  -36.74 2.751E-04   60.10 2.751E-04   60.10 9.803E-01  -35.37
418.1075 9.804E-01  -36.79 2.691E-04   63.96 2.691E-04   63.96 9.812E-01  -35.45
418.1700 9.807E-01  -36.74 2.971E-04   67.21 2.971E-04   67.21 9.820E-01  -35.47
418.2325 9.804E-01  -36.76 3.095E-04   61.65 3.095E-04   61.65 9.821E-01  -35.63
418.2950 9.799E-01  -36.81 3.649E-04   76.59 3.649E-04   76.59 9.825E-01  -35.69
418.3575 9.804E-01  -36.79 4.055E-04   68.80 4.055E-04   68.80 9.830E-01  -35.79
418.4200 9.798E-01  -36.83 3.796E-04   75.32 3.796E-04   75.32 9.840E-01  -35.80
418.4825 9.795E-01  -36.83 4.312E-04   68.34 4.312E-04   68.34 9.842E-01  -35.77
418.5450 9.801E-01  -36.80 4.079E-04   62.74 4.079E-04   62.74 9.841E-01  -35.68
418.6075 9.802E-01  -36.82 4.275E-04   60.00 4.275E-04   60.00 9.838E-01  -35.62
418.6700 9.804E-01  -36.83 4.566E-04   55.16 4.566E-04   55.16 9.834E-01  -35.55
418.7325 9.799E-01  -36.81 4.019E-04   49.28 4.019E-04   49.28 9.826E-01  -35.51
418.7950 9.800E-01  -36.81 4.638E-04   47.42 4.638E-04   47.42 9.819E-01  -35.45
418.8575 9.802E-01  -36.80 4.070E-04   40.91 4.070E-04   40.91 9.810E-01  -35.40
418.9200 9.801E-01  -36.79 3.843E-04   43.81 3.843E-04   43.81 9.798E-01  -35.38
418.9825 9.799E-01  -36.78 3.348E-04   42.21 3.348E-04   42.21 9.781E-01  -35.40
419.0450 9.804E-01  -36.80 2.996E-04   46.06 2.996E-04   46.06 9.783E-01  -35.36
419.1075 9.807E-01  -36.85 2.727E-04   54.53 2.727E-04   54.53 9.793E-01  -35.40
419.1700 9.804E-01  -36.85 2.893E-04   55.17 2.893E-04   55.17 9.790E-01  -35.41
419.2325 9.811E-01  -36.83 2.268E-04   63.65 2.268E-04   63.65 9.793E-01  -35.40
419.2950 9.802E-01  -36.85 2.629E-04   68.00 2.629E-04   68.00 9.798E-01  -35.43
419.3575 9.803E-01  -36.87 2.310E-04   70.98 2.310E-04   70.98 9.794E-01  -35.46
419.4200 9.808E-01  -36.85 3.086E-04   81.97 3.086E-04   81.97 9.801E-01  -35.45
419.4825 9.815E-01  -36.92 3.091E-04   82.32 3.091E-04   82.32 9.801E-01  -35.47
419.5450 9.807E-01  -36.93 3.930E-04   86.06 3.930E-04   86.06 9.800E-01  -35.46
419.6075 9.808E-01  -36.94 4.048E-04   75.30 4.048E-04   75.30 9.802E-01  -35.46
419.6700 9.808E-01  -36.97 4.865E-04   80.07 4.865E-04   80.07 9.799E-01  -35.46
419.7325 9.806E-01  -36.92 4.832E-04   80.54 4.832E-04   80.54 9.797E-01  -35.49
419.7950 9.811E-01  -36.94 5.392E-04   65.25 5.392E-04   65.25 9.793E-01  -35.47
419.8575 9.804E-01  -36.94 6.125E-04   66.81 6.125E-04   66.81 9.797E-01  -35.46
419.9200 9.810E-01  -36.97 6.065E-04   50.54 6.065E-04   50.54 9.794E-01  -35.45
419.9825 9.815E-01  -36.95 5.542E-04   47.27 5.542E-04   47.27 9.795E-01  -35.44
420.0450 9.812E-01  -36.96 5.934E-04   45.79 5.934E-04   45.79 9.795E-01  -35.47
420.1075 9.810E-01  -36.96 5.498E-04   29.62 5.498E-04   29.62 9.794E-01  -35.48
420.1700 9.812E-01  -36.98 4.981E-04   25.88 4.981E-04   25.88 9.793E-01  -35.48
420.2325 9.814E-01  -37.00 4.358E-04   24.24 4.358E-04   24.24 9.794E-01  -35.48
420.2950 9.809E-01  -36.98 3.467E-04   25.20 3.467E-04   25.20 9.795E-01  -35.61
420.3575 9.808E-01  -37.02 3.611E-04   13.62 3.611E-04   13.62 9.800E-01  -35.51
420.4200 9.808E-01  -36.97 3.093E-04   19.29 3.093E-04   19.29 9.801E-01  -35.46
420.4825 9.806E-01  -37.03 2.138E-04   15.56 2.138E-04   15.56 9.800E-01  -35.48
420.5450 9.805E-01  -37.01 2.314E-04   28.87 2.314E-04   28.87 9.799E-01  -35.52
420.6075 9.808E-01  -36.99 1.956E-04   31.57 1.956E-04   31.57 9.802E-01  -35.50
420.6700 9.805E-01  -37.01 1.857E-04   44.51 1.857E-04   44.51 9.799E-01  -35.53
420.7325 9.807E-01  -37.03 2.158E-04   66.82 2.158E-04   66.82 9.799E-01  -35.51
420.7950 9.805E-01  -37.04 2.043E-04   69.79 2.043E-04   69.79 9.799E-01  -35.52
420.8575 9.807E-01  -37.03 2.887E-04   78.81 2.887E-04   78.81 9.801E-01  -35.56
420.9200 9.806E-01  -37.04 3.043E-04   63.57 3.043E-04   63.57 9.809E-01  -35.53
420.9825 9.802E-01  -37.06 3.241E-04   72.01 3.241E-04   72.01 9.800E-01  -35.56
421.0450 9.806E-01  -37.07 3.301E-04   74.09 3.301E-04   74.09 9.802E-01  -35.58
421.1075 9.807E-01  -37.07 3.387E-04   67.56 3.387E-04   67.56 9.805E-01  -35.57
421.1700 9.806E-01  -37.05 3.772E-04   61.35 3.772E-04   61.35 9.810E-01  -35.58
421.2325 9.810E-01  -37.06 3.438E-04   60.49 3.438E-04   60.49 9.810E-01  -35.60
421.2950 9.805E-01  -37.12 3.370E-04   50.35 3.370E-04   50.35 9.803E-01  -35.61
421.3575 9.804E-01  -37.10 2.737E-04   57.02 2.737E-04   57.02 9.806E-01  -35.63
421.4200 9.812E-01  -37.09 3.898E-04   48.42 3.898E-04   48.42 9.809E-01  -35.62
421.4825 9.812E-01  -37.14 3.195E-04   59.50 3.195E-04   59.50 9.807E-01  -35.66
421.5450 9.808E-01  -37.13 3.015E-04   62.01 3.015E-04   62.01 9.805E-01  -35.63
421.6075 9.805E-01  -37.14 3.363E-04   52.16 3.363E-04   52.16 9.810E-01  -35.67
421.6700 9.812E-01  -37.11 2.714E-04   56.08 2.714E-04   56.08 9.805E-01  -35.68
421.7325 9.810E-01  -37.16 3.103E-04   56.14 3.103E-04   56.14 9.807E-01  -35.71
421.7950 9.813E-01  -37.16 3.147E-04   56.48 3.147E-04   56.48 9.810E-01  -35.69
421.8575 9.808E-01  -37.16 2.804E-04   69.14 2.804E-04   69.14 9.802E-01  -35.73
421.9200 9.812E-01  -37.19 3.406E-04   53.43 3.406E-04   53.43 9.802E-01  -35.71
421.9825 9.811E-01  -37.19 3.248E-04   55.84 3.248E-04   55.84 9.805E-01  -35.73
422.0450 9.808E-01  -37.20 3.362E-04   64.05 3.362E-04   64.05 9.801E-01  -35.76
422.1075 9.808E-01  -37.23 3.274E-04   68.06 3.274E-04   68.06 9.806E-01  -35.80
422.1700 9.810E-01  -37.20 2.900E-04   56.68 2.900E-04   56.68 9.801E-01  -35.78
422.2325 9.817E-01  -37.22 3.069E-04   63.71 3.069E-04   63.71 9.802E-01  -35.83
422.2950 9.811E-01  -37.22 2.859E-04   57.17 2.859E-04   57.17 9.803E-01  -35.77
422.3575 9.809E-01  -37.24 2.767E-04   65.83 2.767E-04   65.83 9.800E-01  -35.80
422.4200 9.810E-01  -37.28 3.245E-04   63.58 3.245E-04   63.58 9.800E-01  -35.82
422.4825 9.812E-01  -37.31 3.374E-04   63.78 3.374E-04   63.78 9.804E-01  -35.81
422.5450 9.806E-01  -37.27 2.847E-04   59.57 2.847E-04   59.57 9.804E-01  -35.84
422.6075 9.809E-01  -37.32 3.093E-04   61.50 3.093E-04   61.50 9.802E-01  -35.85
422.6700 9.803E-01  -37.31 3.584E-04   65.64 3.584E-04   65.64 9.797E-01  -35.81
422.7325 9.809E-01  -37.30 3.415E-04   55.98 3.415E-04   55.98 9.796E-01  -35.90
422.7950 9.823E-01  -37.17 3.313E-04   57.51 3.313E-04   57.51 9.831E-01  -36.07
422.8575 9.802E-01  -37.34 3.322E-04   57.19 3.322E-04   57.19 9.801E-01  -35.88
422.9200 9.804E-01  -37.34 3.103E-04   47.07 3.103E-04   47.07 9.802E-01  -35.88
422.9825 9.801E-01  -37.38 2.910E-04   59.35 2.910E-04   59.35 9.797E-01  -35.88
423.0450 9.808E-01  -37.35 2.719E-04   53.66 2.719E-04   53.66 9.801E-01  -35.89
423.1075 9.801E-01  -37.39 2.477E-04   55.49 2.477E-04   55.49 9.801E-01  -35.92
423.1700 9.807E-01  -37.42 1.668E-04   68.49 1.668E-04   68.49 9.799E-01  -35.90
423.2325 9.799E-01  -37.42 1.891E-04   84.27 1.891E-04   84.27 9.805E-01  -35.94
423.2950 9.800E-01  -37.65 2.917E-04   75.22 2.917E-04   75.22 9.783E-01  -35.83
423.3575 9.801E-01  -37.46 2.727E-04   84.68 2.727E-04   84.68 9.794E-01  -35.98
423.4200 9.803E-01  -37.45 3.052E-04   95.68 3.052E-04   95.68 9.799E-01  -35.93
423.4825 9.801E-01  -37.45 3.901E-04   95.94 3.901E-04   95.94 9.797E-01  -35.97
423.5450 9.800E-01  -37.47 4.653E-04   93.42 4.653E-04   93.42 9.796E-01  -35.93
423.6075 9.800E-01  -37.51 5.492E-04   93.75 5.492E-04   93.75 9.792E-01  -35.98
423.6700 9.805E-01  -37.48 5.690E-04   83.78 5.690E-04   83.78 9.794E-01  -35.98
