! Matrix data file written by TouchstoneData, EPCOS AG
! FILENAME: "B3768_SB.s2p"
! COMMENT: "PINNING 2/5; PORTEX1 104.5PS; PORTEX2 195PS;"
! INFO: nport=2, nfreq=1601
! DATE: "Wed Sep 19 15:41:23 2012"
! USER: "Wilfried Schott"
!
! port | pin | signal
! -----|-----|--------
!   1  |  2  |  IN
!   2  |  5  |  OUT
! --------------------
! 
# MHZ S MA R 50
! freq  magS11 angS11  magS21 angS21  magS12 angS12  magS22 angS22
3.113500E+02  9.885593E-01 -3.478024E+01  8.044187E-04 1.038598E+02  8.017282E-04 1.033736E+02  9.874180E-01 -3.336867E+01 
3.113531E+02  9.886273E-01 -3.478225E+01  8.236608E-04 1.048524E+02  8.184830E-04 1.048970E+02  9.874801E-01 -3.337468E+01 
3.113563E+02  9.884810E-01 -3.478584E+01  8.306499E-04 1.058673E+02  8.243803E-04 1.057017E+02  9.874027E-01 -3.338165E+01 
3.113594E+02  9.885940E-01 -3.478526E+01  8.516002E-04 1.069856E+02  8.440363E-04 1.067901E+02  9.874027E-01 -3.337625E+01 
3.113625E+02  9.884291E-01 -3.478479E+01  8.592279E-04 1.083720E+02  8.582877E-04 1.083444E+02  9.873161E-01 -3.338593E+01 
3.113656E+02  9.884588E-01 -3.479333E+01  8.800233E-04 1.088626E+02  8.840775E-04 1.091786E+02  9.871855E-01 -3.338574E+01 
3.113688E+02  9.885103E-01 -3.479148E+01  9.078365E-04 1.106887E+02  9.028293E-04 1.097135E+02  9.871814E-01 -3.338909E+01 
3.113719E+02  9.883761E-01 -3.479502E+01  9.333355E-04 1.107689E+02  9.305231E-04 1.105554E+02  9.873094E-01 -3.339073E+01 
3.113750E+02  9.883361E-01 -3.480021E+01  9.598642E-04 1.114821E+02  9.695548E-04 1.114101E+02  9.872064E-01 -3.339305E+01 
3.113781E+02  9.883704E-01 -3.480814E+01  1.000963E-03 1.122183E+02  9.920066E-04 1.121894E+02  9.870932E-01 -3.340019E+01 
3.113813E+02  9.883267E-01 -3.479892E+01  1.023772E-03 1.129587E+02  1.026537E-03 1.127418E+02  9.871060E-01 -3.340524E+01 
3.113844E+02  9.883804E-01 -3.480856E+01  1.062898E-03 1.133239E+02  1.066011E-03 1.130486E+02  9.870209E-01 -3.339913E+01 
3.113875E+02  9.882127E-01 -3.480289E+01  1.097539E-03 1.135049E+02  1.098257E-03 1.133238E+02  9.869105E-01 -3.341267E+01 
3.113906E+02  9.881487E-01 -3.480915E+01  1.146222E-03 1.132211E+02  1.137380E-03 1.140101E+02  9.870296E-01 -3.341162E+01 
3.113938E+02  9.880718E-01 -3.482084E+01  1.185075E-03 1.137559E+02  1.185497E-03 1.138462E+02  9.868719E-01 -3.340970E+01 
3.113969E+02  9.878574E-01 -3.481567E+01  1.236945E-03 1.136094E+02  1.239871E-03 1.131858E+02  9.869513E-01 -3.340822E+01 
3.114000E+02  9.878377E-01 -3.481973E+01  1.285535E-03 1.135809E+02  1.286797E-03 1.135171E+02  9.867687E-01 -3.341676E+01 
3.114031E+02  9.880704E-01 -3.482563E+01  1.340646E-03 1.131800E+02  1.335283E-03 1.134470E+02  9.867785E-01 -3.341322E+01 
3.114062E+02  9.878616E-01 -3.482388E+01  1.387699E-03 1.124551E+02  1.388383E-03 1.122490E+02  9.867416E-01 -3.342474E+01 
3.114094E+02  9.878759E-01 -3.483518E+01  1.453961E-03 1.116144E+02  1.447517E-03 1.119634E+02  9.866041E-01 -3.342226E+01 
3.114125E+02  9.877143E-01 -3.483475E+01  1.519400E-03 1.110838E+02  1.507724E-03 1.109030E+02  9.866254E-01 -3.341456E+01 
3.114156E+02  9.877265E-01 -3.483252E+01  1.575000E-03 1.099816E+02  1.569243E-03 1.100931E+02  9.865010E-01 -3.342234E+01 
3.114188E+02  9.877382E-01 -3.482829E+01  1.634770E-03 1.087675E+02  1.629106E-03 1.090003E+02  9.865445E-01 -3.341018E+01 
3.114219E+02  9.877278E-01 -3.482643E+01  1.702992E-03 1.076142E+02  1.707517E-03 1.078446E+02  9.864745E-01 -3.341534E+01 
3.114250E+02  9.876723E-01 -3.483077E+01  1.759342E-03 1.062062E+02  1.755850E-03 1.063540E+02  9.864460E-01 -3.341022E+01 
3.114281E+02  9.874956E-01 -3.483465E+01  1.830733E-03 1.046424E+02  1.831448E-03 1.046434E+02  9.863857E-01 -3.341095E+01 
3.114313E+02  9.874361E-01 -3.482772E+01  1.896073E-03 1.026430E+02  1.896512E-03 1.032187E+02  9.863167E-01 -3.340324E+01 
3.114344E+02  9.875492E-01 -3.482420E+01  1.955464E-03 1.011284E+02  1.956026E-03 1.012172E+02  9.862373E-01 -3.340389E+01 
3.114375E+02  9.875791E-01 -3.482572E+01  2.017137E-03 9.896933E+01  2.024971E-03 9.923162E+01  9.862309E-01 -3.340390E+01 
3.114406E+02  9.875364E-01 -3.483438E+01  2.083884E-03 9.701584E+01  2.082675E-03 9.709477E+01  9.862978E-01 -3.340713E+01 
3.114438E+02  9.874813E-01 -3.482941E+01  2.151559E-03 9.480337E+01  2.148147E-03 9.486454E+01  9.862338E-01 -3.339958E+01 
3.114469E+02  9.873938E-01 -3.482301E+01  2.204880E-03 9.256679E+01  2.206838E-03 9.263935E+01  9.863002E-01 -3.339902E+01 
3.114500E+02  9.875353E-01 -3.482366E+01  2.255767E-03 9.023462E+01  2.259055E-03 9.027365E+01  9.862481E-01 -3.339608E+01 
3.114531E+02  9.873992E-01 -3.481625E+01  2.310866E-03 8.801932E+01  2.315633E-03 8.783483E+01  9.863398E-01 -3.339521E+01 
3.114563E+02  9.875843E-01 -3.481636E+01  2.356000E-03 8.537294E+01  2.356554E-03 8.547900E+01  9.863800E-01 -3.339324E+01 
3.114594E+02  9.875258E-01 -3.482197E+01  2.397713E-03 8.294905E+01  2.395995E-03 8.281454E+01  9.864107E-01 -3.339167E+01 
3.114625E+02  9.876099E-01 -3.481813E+01  2.434155E-03 8.018823E+01  2.431881E-03 8.036706E+01  9.863497E-01 -3.338688E+01 
3.114656E+02  9.875877E-01 -3.482213E+01  2.467313E-03 7.783403E+01  2.462880E-03 7.760340E+01  9.865421E-01 -3.338610E+01 
3.114688E+02  9.878658E-01 -3.482099E+01  2.499388E-03 7.514882E+01  2.489270E-03 7.528313E+01  9.865269E-01 -3.338222E+01 
3.114719E+02  9.876928E-01 -3.482397E+01  2.514502E-03 7.267146E+01  2.512060E-03 7.269709E+01  9.865998E-01 -3.339006E+01 
3.114750E+02  9.878219E-01 -3.482425E+01  2.523843E-03 7.014437E+01  2.526819E-03 7.016588E+01  9.867281E-01 -3.338856E+01 
3.114781E+02  9.879059E-01 -3.482432E+01  2.537066E-03 6.755540E+01  2.541290E-03 6.762647E+01  9.868407E-01 -3.339172E+01 
3.114813E+02  9.878002E-01 -3.482014E+01  2.547296E-03 6.505700E+01  2.540204E-03 6.526793E+01  9.867547E-01 -3.339637E+01 
3.114844E+02  9.878825E-01 -3.482408E+01  2.544054E-03 6.280065E+01  2.541410E-03 6.271269E+01  9.869216E-01 -3.339754E+01 
3.114875E+02  9.879203E-01 -3.483077E+01  2.549099E-03 6.050095E+01  2.539487E-03 6.037212E+01  9.868998E-01 -3.340924E+01 
3.114906E+02  9.880482E-01 -3.483406E+01  2.535919E-03 5.794288E+01  2.540431E-03 5.821404E+01  9.868481E-01 -3.340479E+01 
3.114938E+02  9.877823E-01 -3.482805E+01  2.543452E-03 5.581989E+01  2.529524E-03 5.618716E+01  9.869445E-01 -3.340496E+01 
3.114969E+02  9.878069E-01 -3.483423E+01  2.531155E-03 5.382175E+01  2.522515E-03 5.372941E+01  9.869617E-01 -3.340954E+01 
3.115000E+02  9.879998E-01 -3.484468E+01  2.526483E-03 5.157364E+01  2.515335E-03 5.155302E+01  9.870541E-01 -3.341659E+01 
3.115031E+02  9.880921E-01 -3.483336E+01  2.513745E-03 4.931033E+01  2.502216E-03 4.970505E+01  9.870884E-01 -3.342070E+01 
3.115063E+02  9.879633E-01 -3.484497E+01  2.502415E-03 4.742602E+01  2.497748E-03 4.738568E+01  9.870061E-01 -3.341430E+01 
3.115094E+02  9.879571E-01 -3.484181E+01  2.491143E-03 4.526550E+01  2.489191E-03 4.537613E+01  9.870350E-01 -3.342478E+01 
3.115125E+02  9.879443E-01 -3.485269E+01  2.481542E-03 4.329609E+01  2.479646E-03 4.330331E+01  9.871392E-01 -3.343191E+01 
3.115156E+02  9.879995E-01 -3.485112E+01  2.464625E-03 4.121244E+01  2.466798E-03 4.121923E+01  9.871389E-01 -3.342495E+01 
3.115188E+02  9.880491E-01 -3.485843E+01  2.460152E-03 3.910212E+01  2.443956E-03 3.920051E+01  9.870243E-01 -3.343387E+01 
3.115219E+02  9.877842E-01 -3.486176E+01  2.445518E-03 3.702681E+01  2.435078E-03 3.719676E+01  9.871754E-01 -3.343800E+01 
3.115250E+02  9.878010E-01 -3.485923E+01  2.429736E-03 3.491761E+01  2.431550E-03 3.499424E+01  9.870233E-01 -3.343956E+01 
3.115281E+02  9.877713E-01 -3.486548E+01  2.427887E-03 3.289103E+01  2.419896E-03 3.281785E+01  9.870264E-01 -3.344146E+01 
3.115312E+02  9.878349E-01 -3.485988E+01  2.407712E-03 3.081168E+01  2.407879E-03 3.084137E+01  9.870384E-01 -3.344778E+01 
3.115344E+02  9.879204E-01 -3.487058E+01  2.392937E-03 2.863287E+01  2.393035E-03 2.884335E+01  9.870846E-01 -3.344708E+01 
3.115375E+02  9.878579E-01 -3.487246E+01  2.377537E-03 2.637069E+01  2.375401E-03 2.652799E+01  9.869095E-01 -3.344971E+01 
3.115406E+02  9.875252E-01 -3.487177E+01  2.361449E-03 2.411593E+01  2.351763E-03 2.423842E+01  9.868540E-01 -3.345885E+01 
3.115438E+02  9.876688E-01 -3.486983E+01  2.346565E-03 2.182195E+01  2.340490E-03 2.216726E+01  9.867849E-01 -3.345551E+01 
3.115469E+02  9.875501E-01 -3.487710E+01  2.320938E-03 1.959220E+01  2.314152E-03 1.966259E+01  9.869476E-01 -3.346036E+01 
3.115500E+02  9.875761E-01 -3.487875E+01  2.305478E-03 1.723681E+01  2.292384E-03 1.748084E+01  9.868076E-01 -3.346710E+01 
3.115531E+02  9.875045E-01 -3.487617E+01  2.277576E-03 1.499876E+01  2.274360E-03 1.510930E+01  9.868454E-01 -3.346015E+01 
3.115563E+02  9.875701E-01 -3.487648E+01  2.251362E-03 1.262027E+01  2.246463E-03 1.229428E+01  9.868042E-01 -3.346898E+01 
3.115594E+02  9.875094E-01 -3.487905E+01  2.219332E-03 1.000342E+01  2.212617E-03 1.010004E+01  9.866797E-01 -3.346434E+01 
3.115625E+02  9.874488E-01 -3.487871E+01  2.188075E-03 7.678716E+00  2.185207E-03 7.616445E+00  9.867479E-01 -3.346666E+01 
3.115656E+02  9.874547E-01 -3.487792E+01  2.145532E-03 4.944627E+00  2.143008E-03 4.912651E+00  9.867523E-01 -3.346479E+01 
3.115688E+02  9.873119E-01 -3.487385E+01  2.104825E-03 2.458691E+00  2.109568E-03 2.513661E+00  9.866034E-01 -3.346390E+01 
3.115719E+02  9.874588E-01 -3.487770E+01  2.065327E-03 -8.814453E-02  2.061766E-03 -2.861544E-01  9.867296E-01 -3.346304E+01 
3.115750E+02  9.874223E-01 -3.487472E+01  2.017737E-03 -2.439054E+00  2.017245E-03 -2.694572E+00  9.867003E-01 -3.345728E+01 
3.115781E+02  9.874062E-01 -3.486566E+01  1.965993E-03 -5.290481E+00  1.963232E-03 -5.130068E+00  9.866433E-01 -3.345922E+01 
3.115813E+02  9.875424E-01 -3.486982E+01  1.918483E-03 -7.933823E+00  1.915481E-03 -7.811231E+00  9.867929E-01 -3.346064E+01 
3.115844E+02  9.874640E-01 -3.486501E+01  1.869133E-03 -1.039230E+01  1.865208E-03 -1.048914E+01  9.867678E-01 -3.345841E+01 
3.115875E+02  9.877094E-01 -3.486570E+01  1.810032E-03 -1.282280E+01  1.805383E-03 -1.274586E+01  9.869142E-01 -3.345839E+01 
3.115906E+02  9.875911E-01 -3.485719E+01  1.753828E-03 -1.547857E+01  1.751878E-03 -1.546722E+01  9.867901E-01 -3.345538E+01 
3.115938E+02  9.877771E-01 -3.486324E+01  1.690226E-03 -1.760795E+01  1.684705E-03 -1.798995E+01  9.868636E-01 -3.345324E+01 
3.115969E+02  9.876925E-01 -3.485950E+01  1.623118E-03 -2.025408E+01  1.630552E-03 -2.010102E+01  9.870138E-01 -3.345480E+01 
3.116000E+02  9.878820E-01 -3.486219E+01  1.559522E-03 -2.302395E+01  1.563070E-03 -2.266840E+01  9.869896E-01 -3.344524E+01 
3.116031E+02  9.880160E-01 -3.485479E+01  1.512003E-03 -2.479042E+01  1.497131E-03 -2.488464E+01  9.870138E-01 -3.345417E+01 
3.116063E+02  9.879950E-01 -3.486992E+01  1.436683E-03 -2.706007E+01  1.432082E-03 -2.715008E+01  9.871274E-01 -3.344824E+01 
3.116094E+02  9.880671E-01 -3.485964E+01  1.364083E-03 -2.932393E+01  1.377559E-03 -2.927153E+01  9.872444E-01 -3.345513E+01 
3.116125E+02  9.882382E-01 -3.486674E+01  1.308433E-03 -3.094843E+01  1.305357E-03 -3.088362E+01  9.871956E-01 -3.345183E+01 
3.116156E+02  9.881488E-01 -3.486885E+01  1.247869E-03 -3.312337E+01  1.239867E-03 -3.276167E+01  9.873887E-01 -3.345358E+01 
3.116188E+02  9.883761E-01 -3.487540E+01  1.183695E-03 -3.517882E+01  1.178161E-03 -3.500896E+01  9.872884E-01 -3.345813E+01 
3.116219E+02  9.882961E-01 -3.487505E+01  1.121442E-03 -3.663236E+01  1.116789E-03 -3.636829E+01  9.873807E-01 -3.345854E+01 
3.116250E+02  9.884440E-01 -3.486746E+01  1.060996E-03 -3.824332E+01  1.060809E-03 -3.821542E+01  9.874982E-01 -3.345415E+01 
3.116281E+02  9.885661E-01 -3.488237E+01  1.001961E-03 -3.973659E+01  1.000402E-03 -3.977774E+01  9.876111E-01 -3.346707E+01 
3.116313E+02  9.885540E-01 -3.488008E+01  9.424177E-04 -4.060887E+01  9.461466E-04 -4.074694E+01  9.876608E-01 -3.346393E+01 
3.116344E+02  9.887000E-01 -3.488435E+01  8.935097E-04 -4.215099E+01  8.920908E-04 -4.211518E+01  9.877869E-01 -3.347723E+01 
3.116375E+02  9.887024E-01 -3.488830E+01  8.388492E-04 -4.330093E+01  8.398487E-04 -4.320623E+01  9.878387E-01 -3.347369E+01 
3.116406E+02  9.886952E-01 -3.488669E+01  7.921699E-04 -4.438083E+01  7.927920E-04 -4.327813E+01  9.877702E-01 -3.348481E+01 
3.116438E+02  9.888827E-01 -3.490527E+01  7.458627E-04 -4.502665E+01  7.466006E-04 -4.496221E+01  9.877855E-01 -3.348306E+01 
3.116469E+02  9.886882E-01 -3.489940E+01  7.008413E-04 -4.625690E+01  6.995327E-04 -4.536314E+01  9.878878E-01 -3.348849E+01 
3.116500E+02  9.887976E-01 -3.490016E+01  6.550892E-04 -4.651527E+01  6.589385E-04 -4.594663E+01  9.880667E-01 -3.349047E+01 
3.116531E+02  9.889091E-01 -3.490629E+01  6.158331E-04 -4.595826E+01  6.197913E-04 -4.696904E+01  9.880213E-01 -3.349459E+01 
3.116562E+02  9.889198E-01 -3.490712E+01  5.812716E-04 -4.711876E+01  5.789389E-04 -4.613221E+01  9.880306E-01 -3.349937E+01 
3.116594E+02  9.889839E-01 -3.491231E+01  5.475647E-04 -4.597057E+01  5.339213E-04 -4.660249E+01  9.880489E-01 -3.350557E+01 
3.116625E+02  9.890231E-01 -3.491317E+01  5.135879E-04 -4.741006E+01  5.093375E-04 -4.712261E+01  9.881634E-01 -3.350494E+01 
3.116656E+02  9.890897E-01 -3.492670E+01  4.724146E-04 -4.662967E+01  4.698777E-04 -4.598827E+01  9.880612E-01 -3.351886E+01 
3.116688E+02  9.890925E-01 -3.492564E+01  4.421935E-04 -4.574344E+01  4.397876E-04 -4.576402E+01  9.880046E-01 -3.351744E+01 
3.116719E+02  9.892315E-01 -3.492864E+01  4.219393E-04 -4.542528E+01  4.113435E-04 -4.502700E+01  9.881450E-01 -3.352440E+01 
3.116750E+02  9.891788E-01 -3.493390E+01  3.884935E-04 -4.460015E+01  3.945230E-04 -4.391180E+01  9.882539E-01 -3.352544E+01 
3.116781E+02  9.891794E-01 -3.494065E+01  3.597061E-04 -4.321300E+01  3.636400E-04 -4.388090E+01  9.881570E-01 -3.352764E+01 
3.116813E+02  9.892177E-01 -3.494681E+01  3.423752E-04 -4.244816E+01  3.402900E-04 -4.184220E+01  9.881817E-01 -3.353313E+01 
3.116844E+02  9.892675E-01 -3.494529E+01  3.116102E-04 -4.198270E+01  3.142731E-04 -4.033967E+01  9.881669E-01 -3.354003E+01 
3.116875E+02  9.891991E-01 -3.495480E+01  2.933889E-04 -4.030014E+01  2.951453E-04 -3.979637E+01  9.883225E-01 -3.353726E+01 
3.116906E+02  9.893216E-01 -3.495366E+01  2.803965E-04 -3.615375E+01  2.800488E-04 -3.608766E+01  9.882110E-01 -3.355060E+01 
3.116938E+02  9.893250E-01 -3.495377E+01  2.670200E-04 -3.451271E+01  2.651240E-04 -3.450737E+01  9.882258E-01 -3.355134E+01 
3.116969E+02  9.892357E-01 -3.497100E+01  2.485998E-04 -3.248814E+01  2.528733E-04 -3.208910E+01  9.881797E-01 -3.355389E+01 
3.117000E+02  9.893141E-01 -3.496791E+01  2.367393E-04 -2.988387E+01  2.368510E-04 -2.894721E+01  9.883737E-01 -3.355977E+01 
3.117031E+02  9.894581E-01 -3.497089E+01  2.246712E-04 -2.711434E+01  2.229655E-04 -2.646984E+01  9.882261E-01 -3.356141E+01 
3.117063E+02  9.893547E-01 -3.498141E+01  2.139021E-04 -2.335413E+01  2.155095E-04 -2.531727E+01  9.883423E-01 -3.356516E+01 
3.117094E+02  9.894087E-01 -3.498418E+01  2.076839E-04 -2.097638E+01  2.056485E-04 -2.041112E+01  9.883296E-01 -3.356711E+01 
3.117125E+02  9.893812E-01 -3.498179E+01  1.861640E-04 -1.635666E+01  1.927858E-04 -1.642310E+01  9.884106E-01 -3.357360E+01 
3.117156E+02  9.894981E-01 -3.499736E+01  1.962874E-04 -1.341669E+01  1.933649E-04 -1.343550E+01  9.883836E-01 -3.358616E+01 
3.117188E+02  9.892931E-01 -3.499612E+01  1.851181E-04 -1.014869E+01  1.784918E-04 -1.039507E+01  9.884442E-01 -3.359214E+01 
3.117219E+02  9.895074E-01 -3.500721E+01  1.862560E-04 -6.246307E+00  1.891434E-04 -7.064169E+00  9.883660E-01 -3.359171E+01 
3.117250E+02  9.895088E-01 -3.501665E+01  1.742513E-04 -1.926940E+00  1.814105E-04 -1.200465E+00  9.882780E-01 -3.358887E+01 
3.117281E+02  9.894762E-01 -3.500783E+01  1.728920E-04 2.039494E+00  1.710567E-04 1.349589E+00  9.883186E-01 -3.360115E+01 
3.117313E+02  9.893261E-01 -3.502329E+01  1.756401E-04 3.068698E+00  1.724383E-04 6.786842E+00  9.882787E-01 -3.360126E+01 
3.117344E+02  9.894452E-01 -3.502040E+01  1.734636E-04 9.223722E+00  1.681709E-04 9.862995E+00  9.884190E-01 -3.360434E+01 
3.117375E+02  9.895235E-01 -3.502310E+01  1.731676E-04 1.226388E+01  1.680710E-04 1.268577E+01  9.883605E-01 -3.360804E+01 
3.117406E+02  9.894017E-01 -3.503485E+01  1.733413E-04 1.592634E+01  1.765652E-04 1.532225E+01  9.883790E-01 -3.361366E+01 
3.117438E+02  9.894294E-01 -3.503228E+01  1.850779E-04 1.978385E+01  1.783274E-04 1.921156E+01  9.884244E-01 -3.361827E+01 
3.117469E+02  9.894642E-01 -3.504161E+01  1.799453E-04 2.101023E+01  1.759761E-04 2.158358E+01  9.883235E-01 -3.361887E+01 
3.117500E+02  9.894913E-01 -3.504112E+01  1.832098E-04 2.378492E+01  1.816282E-04 2.328806E+01  9.882398E-01 -3.362638E+01 
3.117531E+02  9.895899E-01 -3.503753E+01  1.886372E-04 2.543593E+01  1.856686E-04 2.618436E+01  9.883079E-01 -3.362830E+01 
3.117563E+02  9.894469E-01 -3.505210E+01  1.879040E-04 2.996903E+01  1.923951E-04 2.972986E+01  9.884527E-01 -3.363348E+01 
3.117594E+02  9.894908E-01 -3.504814E+01  2.003305E-04 2.918534E+01  1.869871E-04 3.041321E+01  9.884237E-01 -3.363326E+01 
3.117625E+02  9.895203E-01 -3.506443E+01  2.006452E-04 3.248862E+01  1.946621E-04 3.351111E+01  9.883367E-01 -3.363713E+01 
3.117656E+02  9.894882E-01 -3.506794E+01  1.995124E-04 3.145913E+01  1.905236E-04 3.264487E+01  9.884497E-01 -3.364485E+01 
3.117688E+02  9.895401E-01 -3.505713E+01  2.084867E-04 3.540844E+01  2.039990E-04 3.560587E+01  9.883699E-01 -3.364489E+01 
3.117719E+02  9.895059E-01 -3.506758E+01  2.083920E-04 3.749937E+01  2.076035E-04 3.660415E+01  9.883152E-01 -3.364741E+01 
3.117750E+02  9.894906E-01 -3.507501E+01  2.138115E-04 3.867620E+01  2.116599E-04 3.980440E+01  9.883171E-01 -3.365436E+01 
3.117781E+02  9.894274E-01 -3.507519E+01  2.203420E-04 3.862056E+01  2.108533E-04 3.987203E+01  9.884504E-01 -3.365788E+01 
3.117812E+02  9.894333E-01 -3.507899E+01  2.233042E-04 4.078854E+01  2.156483E-04 4.110172E+01  9.883295E-01 -3.366810E+01 
3.117844E+02  9.894995E-01 -3.508828E+01  2.222695E-04 4.121759E+01  2.291645E-04 4.184975E+01  9.884240E-01 -3.366487E+01 
3.117875E+02  9.895603E-01 -3.508363E+01  2.262646E-04 4.268281E+01  2.333147E-04 4.308562E+01  9.883880E-01 -3.366768E+01 
3.117906E+02  9.895030E-01 -3.508805E+01  2.318490E-04 4.412587E+01  2.337663E-04 4.403232E+01  9.884081E-01 -3.367482E+01 
3.117938E+02  9.895457E-01 -3.509673E+01  2.445901E-04 4.486939E+01  2.418797E-04 4.431683E+01  9.884186E-01 -3.368219E+01 
3.117969E+02  9.896091E-01 -3.510301E+01  2.407386E-04 4.488040E+01  2.411729E-04 4.528457E+01  9.884156E-01 -3.368379E+01 
3.118000E+02  9.896217E-01 -3.510160E+01  2.348778E-04 4.651870E+01  2.437924E-04 4.581939E+01  9.884741E-01 -3.368691E+01 
3.118031E+02  9.895176E-01 -3.511394E+01  2.417247E-04 4.600123E+01  2.443970E-04 4.650636E+01  9.884527E-01 -3.369161E+01 
3.118063E+02  9.895211E-01 -3.511125E+01  2.467181E-04 4.792424E+01  2.460718E-04 4.687253E+01  9.884967E-01 -3.369753E+01 
3.118094E+02  9.896123E-01 -3.511373E+01  2.546221E-04 4.760637E+01  2.609815E-04 4.918839E+01  9.885533E-01 -3.370136E+01 
3.118125E+02  9.895221E-01 -3.511871E+01  2.595131E-04 4.711398E+01  2.581501E-04 4.944055E+01  9.883201E-01 -3.370277E+01 
3.118156E+02  9.895525E-01 -3.512741E+01  2.639241E-04 4.836279E+01  2.593437E-04 4.806991E+01  9.884137E-01 -3.370663E+01 
3.118188E+02  9.894606E-01 -3.512479E+01  2.632906E-04 4.830528E+01  2.600365E-04 5.125126E+01  9.885014E-01 -3.370211E+01 
3.118219E+02  9.894511E-01 -3.513603E+01  2.746238E-04 5.032446E+01  2.629181E-04 4.884723E+01  9.884992E-01 -3.371208E+01 
3.118250E+02  9.895181E-01 -3.512648E+01  2.651445E-04 5.098248E+01  2.615046E-04 5.021116E+01  9.884503E-01 -3.371678E+01 
3.118281E+02  9.895508E-01 -3.513574E+01  2.769396E-04 5.001208E+01  2.756217E-04 5.100433E+01  9.885247E-01 -3.372128E+01 
3.118313E+02  9.894658E-01 -3.513667E+01  2.751021E-04 5.163077E+01  2.770681E-04 5.088243E+01  9.885958E-01 -3.372099E+01 
3.118344E+02  9.893536E-01 -3.514293E+01  2.759954E-04 5.129349E+01  2.781561E-04 5.143029E+01  9.883823E-01 -3.372122E+01 
3.118375E+02  9.895189E-01 -3.515128E+01  2.791833E-04 5.159927E+01  2.870641E-04 5.208687E+01  9.884992E-01 -3.373286E+01 
