! S-Parameter for B3761 in Touchstone format with Magnitude (lin) and Phase 
! Normalised impedance: 50 Ohm. Measurement system: 50 Ohm. Ta=20°C
! B3761_5.S2P not matched. Measurement full 2-port calibrated incl. Port.Ext. 
! Start: 312.50MHz, Stop: 317.50MHz, Span 5MHz, 1601Pts., Step 3.125kHz.   
! Date: 14/12/04 - EPCOS SAW CE AE PD; AB
! Pinning according data sheet recommendation: IN P2, OUT P5, other GND
!
# MHz  S  MA  R  50
!
! Freq			  S11                	      S21	                 S12	                    S22
3.125000E+02  9.881181E-01 -3.418271E+01  1.275415E-03 1.335752E+02  1.275405E-03 1.338899E+02  9.860082E-01 -3.306678E+01 
3.125031E+02  9.879406E-01 -3.417605E+01  1.333218E-03 1.331087E+02  1.333463E-03 1.332960E+02  9.859331E-01 -3.306552E+01 
3.125063E+02  9.880825E-01 -3.418324E+01  1.407203E-03 1.321234E+02  1.393201E-03 1.322253E+02  9.859216E-01 -3.306785E+01 
3.125094E+02  9.878185E-01 -3.418664E+01  1.464392E-03 1.308693E+02  1.461752E-03 1.307838E+02  9.858840E-01 -3.306257E+01 
3.125125E+02  9.878407E-01 -3.418173E+01  1.530434E-03 1.292834E+02  1.528312E-03 1.295095E+02  9.858310E-01 -3.307034E+01 
3.125156E+02  9.877453E-01 -3.418078E+01  1.609360E-03 1.278256E+02  1.606405E-03 1.280259E+02  9.856735E-01 -3.306739E+01 
3.125188E+02  9.876438E-01 -3.417662E+01  1.679905E-03 1.261246E+02  1.678335E-03 1.263009E+02  9.856380E-01 -3.306143E+01 
3.125219E+02  9.874939E-01 -3.417274E+01  1.750157E-03 1.242153E+02  1.747086E-03 1.246014E+02  9.855960E-01 -3.305769E+01 
3.125250E+02  9.875139E-01 -3.417100E+01  1.826920E-03 1.222070E+02  1.827505E-03 1.221900E+02  9.855843E-01 -3.305520E+01 
3.125281E+02  9.875111E-01 -3.417299E+01  1.904822E-03 1.200917E+02  1.896546E-03 1.200916E+02  9.856168E-01 -3.305550E+01 
3.125312E+02  9.872648E-01 -3.416649E+01  1.967517E-03 1.176952E+02  1.961332E-03 1.176709E+02  9.855911E-01 -3.304974E+01 
3.125344E+02  9.873098E-01 -3.415704E+01  2.039513E-03 1.148177E+02  2.032081E-03 1.149802E+02  9.855205E-01 -3.304569E+01 
3.125375E+02  9.874113E-01 -3.415934E+01  2.099104E-03 1.123131E+02  2.097369E-03 1.122647E+02  9.854965E-01 -3.304659E+01 
3.125406E+02  9.873890E-01 -3.415557E+01  2.163383E-03 1.094006E+02  2.154740E-03 1.094162E+02  9.855130E-01 -3.303732E+01 
3.125437E+02  9.873535E-01 -3.414740E+01  2.208883E-03 1.066597E+02  2.207162E-03 1.066769E+02  9.854166E-01 -3.303833E+01 
3.125469E+02  9.875535E-01 -3.414627E+01  2.256112E-03 1.038046E+02  2.258189E-03 1.038160E+02  9.854248E-01 -3.303515E+01 
3.125500E+02  9.873755E-01 -3.414463E+01  2.294594E-03 1.005694E+02  2.289718E-03 1.008699E+02  9.855192E-01 -3.302953E+01 
3.125531E+02  9.875562E-01 -3.414457E+01  2.320083E-03 9.763974E+01  2.317528E-03 9.801174E+01  9.855988E-01 -3.302750E+01 
3.125562E+02  9.875609E-01 -3.414058E+01  2.353077E-03 9.469698E+01  2.344175E-03 9.484783E+01  9.856367E-01 -3.302601E+01 
3.125594E+02  9.876558E-01 -3.413378E+01  2.365298E-03 9.187977E+01  2.359346E-03 9.192891E+01  9.856388E-01 -3.303620E+01 
3.125625E+02  9.878238E-01 -3.413277E+01  2.376980E-03 8.906135E+01  2.373343E-03 8.898339E+01  9.856971E-01 -3.302070E+01 
3.125656E+02  9.877867E-01 -3.413077E+01  2.379995E-03 8.606562E+01  2.375201E-03 8.625538E+01  9.857490E-01 -3.302321E+01 
3.125688E+02  9.879468E-01 -3.413608E+01  2.373999E-03 8.339232E+01  2.374801E-03 8.351473E+01  9.858968E-01 -3.302005E+01 
3.125719E+02  9.879088E-01 -3.413929E+01  2.371660E-03 8.055772E+01  2.367015E-03 8.078670E+01  9.859237E-01 -3.302497E+01 
3.125750E+02  9.881259E-01 -3.413616E+01  2.360114E-03 7.805511E+01  2.359531E-03 7.823869E+01  9.860384E-01 -3.303122E+01 
3.125781E+02  9.879922E-01 -3.413949E+01  2.354897E-03 7.558494E+01  2.339649E-03 7.577419E+01  9.861319E-01 -3.302630E+01 
3.125813E+02  9.881929E-01 -3.413696E+01  2.333236E-03 7.318071E+01  2.324048E-03 7.333114E+01  9.861316E-01 -3.302415E+01 
3.125844E+02  9.882939E-01 -3.413781E+01  2.312866E-03 7.095319E+01  2.308747E-03 7.102162E+01  9.861840E-01 -3.302607E+01 
3.125875E+02  9.884487E-01 -3.414707E+01  2.287296E-03 6.854393E+01  2.277650E-03 6.883165E+01  9.862380E-01 -3.302743E+01 
3.125906E+02  9.884616E-01 -3.414135E+01  2.266229E-03 6.627798E+01  2.256989E-03 6.672746E+01  9.864468E-01 -3.303193E+01 
3.125938E+02  9.884498E-01 -3.415247E+01  2.236368E-03 6.447782E+01  2.233532E-03 6.449663E+01  9.863993E-01 -3.303779E+01 
3.125969E+02  9.885969E-01 -3.414405E+01  2.208655E-03 6.244019E+01  2.211467E-03 6.237886E+01  9.864450E-01 -3.303751E+01 
3.126000E+02  9.885171E-01 -3.414496E+01  2.176166E-03 6.036774E+01  2.176679E-03 6.046009E+01  9.865439E-01 -3.304411E+01 
3.126031E+02  9.887193E-01 -3.415714E+01  2.155212E-03 5.846110E+01  2.151690E-03 5.875801E+01  9.865580E-01 -3.304622E+01 
3.126062E+02  9.886606E-01 -3.415543E+01  2.127852E-03 5.694393E+01  2.126277E-03 5.687954E+01  9.866256E-01 -3.305201E+01 
3.126094E+02  9.888215E-01 -3.416240E+01  2.106008E-03 5.516442E+01  2.104308E-03 5.495459E+01  9.866847E-01 -3.306059E+01 
3.126125E+02  9.889121E-01 -3.416637E+01  2.079686E-03 5.323447E+01  2.078843E-03 5.325350E+01  9.864641E-01 -3.306933E+01 
3.126156E+02  9.888646E-01 -3.416685E+01  2.052579E-03 5.183144E+01  2.044909E-03 5.157347E+01  9.865349E-01 -3.306847E+01 
3.126187E+02  9.889063E-01 -3.417733E+01  2.027942E-03 4.994850E+01  2.028125E-03 4.993722E+01  9.867890E-01 -3.307184E+01 
3.126219E+02  9.889730E-01 -3.417778E+01  2.010910E-03 4.877100E+01  1.994040E-03 4.866207E+01  9.867369E-01 -3.307576E+01 
3.126250E+02  9.889153E-01 -3.418305E+01  1.973070E-03 4.679172E+01  1.973095E-03 4.701444E+01  9.867281E-01 -3.308121E+01 
3.126281E+02  9.890312E-01 -3.419077E+01  1.953349E-03 4.539275E+01  1.954442E-03 4.532391E+01  9.866864E-01 -3.308435E+01 
3.126313E+02  9.890075E-01 -3.418743E+01  1.920526E-03 4.367279E+01  1.926020E-03 4.371416E+01  9.867139E-01 -3.309166E+01 
3.126344E+02  9.889734E-01 -3.418928E+01  1.905676E-03 4.242942E+01  1.901610E-03 4.265633E+01  9.867437E-01 -3.308659E+01 
3.126375E+02  9.889634E-01 -3.419821E+01  1.881253E-03 4.096562E+01  1.876151E-03 4.094685E+01  9.867837E-01 -3.309524E+01 
3.126406E+02  9.889346E-01 -3.420198E+01  1.863570E-03 3.930176E+01  1.852979E-03 3.936234E+01  9.868417E-01 -3.309766E+01 
3.126438E+02  9.890415E-01 -3.419472E+01  1.845043E-03 3.805522E+01  1.833449E-03 3.828554E+01  9.867958E-01 -3.309727E+01 
3.126469E+02  9.889656E-01 -3.420931E+01  1.814847E-03 3.678247E+01  1.818188E-03 3.667686E+01  9.867975E-01 -3.310062E+01 
3.126500E+02  9.888966E-01 -3.420778E+01  1.794651E-03 3.517070E+01  1.789534E-03 3.525000E+01  9.868527E-01 -3.310638E+01 
3.126531E+02  9.889589E-01 -3.420960E+01  1.778619E-03 3.394158E+01  1.769012E-03 3.391244E+01  9.867922E-01 -3.310702E+01 
3.126562E+02  9.889107E-01 -3.421192E+01  1.752111E-03 3.235972E+01  1.755484E-03 3.237549E+01  9.868739E-01 -3.311582E+01 
3.126594E+02  9.889835E-01 -3.421645E+01  1.735313E-03 3.088579E+01  1.733761E-03 3.097452E+01  9.868040E-01 -3.311705E+01 
3.126625E+02  9.889135E-01 -3.421750E+01  1.713462E-03 2.938364E+01  1.710573E-03 2.932279E+01  9.868050E-01 -3.311732E+01 
3.126656E+02  9.889385E-01 -3.422062E+01  1.693162E-03 2.804918E+01  1.686288E-03 2.823132E+01  9.868171E-01 -3.312152E+01 
3.126687E+02  9.888738E-01 -3.422375E+01  1.671465E-03 2.658938E+01  1.669831E-03 2.697919E+01  9.868146E-01 -3.312394E+01 
3.126719E+02  9.889017E-01 -3.423179E+01  1.651038E-03 2.511308E+01  1.649530E-03 2.554408E+01  9.869264E-01 -3.312270E+01 
3.126750E+02  9.888818E-01 -3.423730E+01  1.637120E-03 2.360398E+01  1.621793E-03 2.377306E+01  9.868468E-01 -3.312341E+01 
3.126781E+02  9.889004E-01 -3.423714E+01  1.614767E-03 2.209402E+01  1.610356E-03 2.232904E+01  9.869094E-01 -3.313014E+01 
3.126812E+02  9.888985E-01 -3.423410E+01  1.592970E-03 2.064204E+01  1.589037E-03 2.095209E+01  9.869085E-01 -3.313041E+01 
3.126844E+02  9.889682E-01 -3.423840E+01  1.572376E-03 1.943938E+01  1.566287E-03 1.924309E+01  9.868703E-01 -3.312653E+01 
3.126875E+02  9.889693E-01 -3.424744E+01  1.546063E-03 1.757276E+01  1.539722E-03 1.761524E+01  9.869314E-01 -3.312830E+01 
3.126906E+02  9.888293E-01 -3.423726E+01  1.525614E-03 1.605105E+01  1.519104E-03 1.639513E+01  9.867953E-01 -3.313761E+01 
3.126938E+02  9.889203E-01 -3.424533E+01  1.504468E-03 1.455636E+01  1.506758E-03 1.470054E+01  9.869282E-01 -3.313528E+01 
3.126969E+02  9.889935E-01 -3.425448E+01  1.475051E-03 1.289063E+01  1.479096E-03 1.277024E+01  9.869474E-01 -3.313798E+01 
3.127000E+02  9.889503E-01 -3.424713E+01  1.453996E-03 1.129459E+01  1.457961E-03 1.157044E+01  9.868357E-01 -3.313770E+01 
3.127031E+02  9.889836E-01 -3.425320E+01  1.432483E-03 9.611936E+00  1.430711E-03 9.735315E+00  9.867368E-01 -3.314083E+01 
3.127063E+02  9.888927E-01 -3.425571E+01  1.403675E-03 7.979272E+00  1.405870E-03 8.062809E+00  9.867312E-01 -3.314077E+01 
3.127094E+02  9.887775E-01 -3.425084E+01  1.384564E-03 6.463729E+00  1.375621E-03 6.632088E+00  9.869266E-01 -3.313975E+01 
3.127125E+02  9.890079E-01 -3.426243E+01  1.355564E-03 4.731401E+00  1.358235E-03 4.880219E+00  9.867521E-01 -3.315033E+01 
3.127156E+02  9.889171E-01 -3.425822E+01  1.330114E-03 3.029127E+00  1.327339E-03 3.263697E+00  9.867706E-01 -3.314345E+01 
3.127188E+02  9.889670E-01 -3.426084E+01  1.304541E-03 1.626454E+00  1.298132E-03 1.582412E+00  9.867804E-01 -3.314011E+01 
3.127219E+02  9.889447E-01 -3.426460E+01  1.267479E-03 -1.718840E-01  1.271211E-03 -1.806195E-01  9.868923E-01 -3.314955E+01 
3.127250E+02  9.888710E-01 -3.426673E+01  1.244659E-03 -1.826785E+00  1.241937E-03 -1.781773E+00  9.868418E-01 -3.315484E+01 
3.127281E+02  9.891031E-01 -3.426695E+01  1.210257E-03 -3.402393E+00  1.206304E-03 -3.351231E+00  9.868379E-01 -3.315768E+01 
3.127312E+02  9.890372E-01 -3.426970E+01  1.181704E-03 -5.321278E+00  1.179577E-03 -5.201338E+00  9.869659E-01 -3.315192E+01 
3.127344E+02  9.891014E-01 -3.427021E+01  1.152071E-03 -6.790253E+00  1.149310E-03 -6.812015E+00  9.868377E-01 -3.315765E+01 
3.127375E+02  9.890423E-01 -3.427545E+01  1.117381E-03 -8.616969E+00  1.112957E-03 -8.422677E+00  9.869517E-01 -3.315479E+01 
3.127406E+02  9.890058E-01 -3.427760E+01  1.080162E-03 -1.006189E+01  1.080218E-03 -1.008977E+01  9.870637E-01 -3.316371E+01 
3.127437E+02  9.891707E-01 -3.428528E+01  1.048784E-03 -1.160891E+01  1.042560E-03 -1.195057E+01  9.869546E-01 -3.316716E+01 
3.127469E+02  9.891190E-01 -3.427918E+01  1.009573E-03 -1.325407E+01  1.004036E-03 -1.308992E+01  9.870115E-01 -3.316503E+01 
3.127500E+02  9.893440E-01 -3.428445E+01  9.735232E-04 -1.457864E+01  9.745561E-04 -1.469621E+01  9.870664E-01 -3.317674E+01 
3.127531E+02  9.891620E-01 -3.428868E+01  9.398111E-04 -1.589206E+01  9.448840E-04 -1.627180E+01  9.870548E-01 -3.316130E+01 
3.127563E+02  9.892201E-01 -3.428445E+01  9.112337E-04 -1.746797E+01  9.059506E-04 -1.758747E+01  9.872219E-01 -3.316715E+01 
3.127594E+02  9.893091E-01 -3.429607E+01  8.734575E-04 -1.882887E+01  8.638782E-04 -1.864485E+01  9.871554E-01 -3.317849E+01 
3.127625E+02  9.892447E-01 -3.429622E+01  8.311279E-04 -2.008187E+01  8.366788E-04 -2.022794E+01  9.871449E-01 -3.317434E+01 
3.127656E+02  9.892815E-01 -3.429664E+01  8.045841E-04 -2.066690E+01  7.988950E-04 -2.113290E+01  9.870896E-01 -3.317714E+01 
3.127688E+02  9.892887E-01 -3.430503E+01  7.637712E-04 -2.175021E+01  7.672305E-04 -2.232349E+01  9.871521E-01 -3.318036E+01 
3.127719E+02  9.892391E-01 -3.430459E+01  7.370337E-04 -2.279314E+01  7.354849E-04 -2.339754E+01  9.872014E-01 -3.318759E+01 
3.127750E+02  9.893328E-01 -3.430484E+01  7.058602E-04 -2.441719E+01  7.063932E-04 -2.399024E+01  9.872984E-01 -3.318749E+01 
3.127781E+02  9.892788E-01 -3.431182E+01  6.678541E-04 -2.527300E+01  6.708848E-04 -2.492394E+01  9.874193E-01 -3.318382E+01 
3.127812E+02  9.893540E-01 -3.430605E+01  6.418501E-04 -2.584804E+01  6.376802E-04 -2.619211E+01  9.873290E-01 -3.319029E+01 
3.127844E+02  9.894560E-01 -3.431547E+01  6.157696E-04 -2.666826E+01  6.159029E-04 -2.679736E+01  9.873938E-01 -3.319378E+01 
3.127875E+02  9.895529E-01 -3.431717E+01  5.838284E-04 -2.681442E+01  5.794764E-04 -2.701700E+01  9.874047E-01 -3.319397E+01 
3.127906E+02  9.894522E-01 -3.432337E+01  5.550476E-04 -2.763984E+01  5.528306E-04 -2.794842E+01  9.874441E-01 -3.319840E+01 
3.127937E+02  9.894386E-01 -3.432038E+01  5.305204E-04 -2.768814E+01  5.285946E-04 -2.743853E+01  9.874512E-01 -3.319853E+01 
3.127969E+02  9.895583E-01 -3.432359E+01  4.992823E-04 -2.780769E+01  5.048035E-04 -2.831621E+01  9.874619E-01 -3.321135E+01 
3.128000E+02  9.895774E-01 -3.432755E+01  4.772428E-04 -2.717286E+01  4.703820E-04 -2.809114E+01  9.875565E-01 -3.320789E+01 
3.128031E+02  9.896207E-01 -3.433698E+01  4.583671E-04 -2.835702E+01  4.581732E-04 -2.781027E+01  9.875078E-01 -3.321449E+01 
3.128062E+02  9.895055E-01 -3.433851E+01  4.247006E-04 -2.780181E+01  4.288890E-04 -2.747985E+01  9.875914E-01 -3.321354E+01 
3.128094E+02  9.894986E-01 -3.435041E+01  4.096669E-04 -2.755683E+01  4.026058E-04 -2.690780E+01  9.876548E-01 -3.321482E+01 
3.128125E+02  9.897994E-01 -3.434761E+01  3.885854E-04 -2.594867E+01  3.902580E-04 -2.740202E+01  9.876229E-01 -3.322428E+01 
3.128156E+02  9.896047E-01 -3.434162E+01  3.680755E-04 -2.550261E+01  3.625370E-04 -2.534752E+01  9.877192E-01 -3.322252E+01 
3.128188E+02  9.896946E-01 -3.435407E+01  3.554622E-04 -2.466847E+01  3.428257E-04 -2.440665E+01  9.876360E-01 -3.323107E+01 
3.128219E+02  9.897634E-01 -3.435349E+01  3.343976E-04 -2.507249E+01  3.331664E-04 -2.449062E+01  9.876730E-01 -3.323364E+01 
3.128250E+02  9.897424E-01 -3.436229E+01  3.177451E-04 -2.277443E+01  3.074460E-04 -2.387426E+01  9.877044E-01 -3.324162E+01 
3.128281E+02  9.897856E-01 -3.435785E+01  2.947184E-04 -2.281347E+01  2.955436E-04 -2.305919E+01  9.878206E-01 -3.324606E+01 
3.128313E+02  9.896857E-01 -3.436474E+01  2.854221E-04 -1.981097E+01  2.815075E-04 -2.009260E+01  9.878832E-01 -3.324641E+01 
3.128344E+02  9.898251E-01 -3.436586E+01  2.668815E-04 -1.769708E+01  2.692357E-04 -2.050731E+01  9.877757E-01 -3.325153E+01 
3.128375E+02  9.898355E-01 -3.436775E+01  2.528517E-04 -1.818438E+01  2.617712E-04 -1.772786E+01  9.878216E-01 -3.325938E+01 
3.128406E+02  9.898533E-01 -3.437331E+01  2.451063E-04 -1.567464E+01  2.448550E-04 -1.480982E+01  9.878886E-01 -3.326173E+01 
3.128438E+02  9.899361E-01 -3.437366E+01  2.392812E-04 -1.370939E+01  2.348404E-04 -1.341783E+01  9.878842E-01 -3.326738E+01 
3.128469E+02  9.898158E-01 -3.438177E+01  2.186871E-04 -1.225108E+01  2.234772E-04 -1.108345E+01  9.878642E-01 -3.327069E+01 
3.128500E+02  9.898277E-01 -3.439211E+01  2.161565E-04 -9.063070E+00  2.216730E-04 -9.399196E+00  9.878332E-01 -3.327842E+01 
3.128531E+02  9.899620E-01 -3.439948E+01  2.100957E-04 -6.029714E+00  2.027290E-04 -5.812788E+00  9.879431E-01 -3.327924E+01 
3.128562E+02  9.900027E-01 -3.439439E+01  2.022115E-04 -5.036921E+00  2.016483E-04 -4.563105E+00  9.878159E-01 -3.328191E+01 
3.128594E+02  9.899801E-01 -3.440567E+01  1.959971E-04 -6.545707E-01  1.878630E-04 -9.910627E-01  9.878974E-01 -3.328413E+01 
3.128625E+02  9.898179E-01 -3.441376E+01  1.876553E-04 1.499150E+00  1.889352E-04 1.777935E+00  9.878897E-01 -3.328440E+01 
3.128656E+02  9.898610E-01 -3.441128E+01  1.910999E-04 4.130378E+00  1.923505E-04 6.509189E+00  9.878901E-01 -3.329479E+01 
3.128687E+02  9.898915E-01 -3.441688E+01  1.920127E-04 9.609948E+00  1.736509E-04 7.432996E+00  9.877755E-01 -3.329522E+01 
3.128719E+02  9.899344E-01 -3.442515E+01  1.822988E-04 1.257563E+01  1.813486E-04 1.186141E+01  9.878689E-01 -3.329465E+01 
3.128750E+02  9.898736E-01 -3.442587E+01  1.777303E-04 1.432947E+01  1.764605E-04 1.440818E+01  9.879842E-01 -3.330227E+01 
3.128781E+02  9.898527E-01 -3.442889E+01  1.700598E-04 1.432229E+01  1.739345E-04 1.751921E+01  9.878425E-01 -3.330887E+01 
3.128813E+02  9.899207E-01 -3.442577E+01  1.710290E-04 1.776719E+01  1.721265E-04 1.916909E+01  9.878927E-01 -3.331206E+01 
3.128844E+02  9.899800E-01 -3.443847E+01  1.836285E-04 2.244320E+01  1.830336E-04 2.217336E+01  9.879733E-01 -3.332034E+01 
3.128875E+02  9.898943E-01 -3.443462E+01  1.821751E-04 2.545571E+01  1.809789E-04 2.726936E+01  9.879217E-01 -3.332003E+01 
3.128906E+02  9.898438E-01 -3.444012E+01  1.871935E-04 2.703203E+01  1.758497E-04 2.697173E+01  9.878693E-01 -3.332091E+01 
3.128938E+02  9.898140E-01 -3.444615E+01  1.811978E-04 2.968527E+01  1.798037E-04 2.981029E+01  9.879887E-01 -3.333179E+01 
3.128969E+02  9.898982E-01 -3.445093E+01  1.871259E-04 3.212611E+01  1.881004E-04 3.162259E+01  9.879733E-01 -3.333197E+01 
3.129000E+02  9.898245E-01 -3.445026E+01  1.821298E-04 3.390683E+01  1.871163E-04 3.583067E+01  9.879124E-01 -3.334068E+01 
3.129031E+02  9.898686E-01 -3.444811E+01  1.844071E-04 3.745414E+01  1.881242E-04 3.761131E+01  9.879238E-01 -3.333996E+01 
3.129062E+02  9.900194E-01 -3.446433E+01  1.954245E-04 3.812984E+01  1.991089E-04 3.819833E+01  9.878990E-01 -3.334385E+01 
3.129094E+02  9.899431E-01 -3.446658E+01  1.955164E-04 3.999386E+01  1.959191E-04 4.207868E+01  9.878883E-01 -3.334851E+01 
3.129125E+02  9.899543E-01 -3.446401E+01  2.014946E-04 4.077030E+01  1.891990E-04 4.262041E+01  9.879261E-01 -3.334632E+01 
3.129156E+02  9.899131E-01 -3.447629E+01  1.943667E-04 4.311689E+01  2.069932E-04 4.260896E+01  9.879566E-01 -3.335456E+01 
3.129187E+02  9.900124E-01 -3.447449E+01  2.081311E-04 4.312005E+01  2.070560E-04 4.612746E+01  9.878964E-01 -3.335832E+01 
3.129219E+02  9.900232E-01 -3.447635E+01  2.082461E-04 4.514108E+01  2.114328E-04 4.352683E+01  9.878617E-01 -3.336160E+01 
3.129250E+02  9.899976E-01 -3.447888E+01  2.174004E-04 4.856171E+01  2.068878E-04 4.621318E+01  9.879805E-01 -3.336367E+01 
3.129281E+02  9.899662E-01 -3.448518E+01  2.174262E-04 4.893448E+01  2.161573E-04 4.827189E+01  9.879676E-01 -3.337244E+01 
3.129312E+02  9.898541E-01 -3.448675E+01  2.226894E-04 4.947530E+01  2.145009E-04 4.932041E+01  9.880706E-01 -3.337331E+01 
3.129344E+02  9.900429E-01 -3.449101E+01  2.268096E-04 4.900682E+01  2.287383E-04 4.889639E+01  9.879499E-01 -3.337492E+01 
3.129375E+02  9.898621E-01 -3.450022E+01  2.278282E-04 4.950425E+01  2.278148E-04 5.041930E+01  9.879439E-01 -3.338156E+01 
3.129406E+02  9.899521E-01 -3.449952E+01  2.371185E-04 5.109830E+01  2.227265E-04 5.089242E+01  9.879921E-01 -3.338845E+01 
3.129438E+02  9.900283E-01 -3.450709E+01  2.302196E-04 5.346100E+01  2.328471E-04 5.123244E+01  9.879476E-01 -3.338900E+01 
3.129469E+02  9.899873E-01 -3.451216E+01  2.400033E-04 5.171144E+01  2.307276E-04 5.196258E+01  9.879113E-01 -3.339207E+01 
3.129500E+02  9.901201E-01 -3.451592E+01  2.452436E-04 5.341160E+01  2.386549E-04 5.291009E+01  9.880143E-01 -3.340003E+01 
3.129531E+02  9.900327E-01 -3.452098E+01  2.410668E-04 5.445400E+01  2.438584E-04 5.405995E+01  9.879719E-01 -3.339669E+01 
3.129563E+02  9.900277E-01 -3.452407E+01  2.486276E-04 5.513046E+01  2.471029E-04 5.468928E+01  9.879294E-01 -3.340585E+01 
3.129594E+02  9.901016E-01 -3.452699E+01  2.514271E-04 5.536748E+01  2.517047E-04 5.622528E+01  9.880391E-01 -3.340849E+01 
3.129625E+02  9.900107E-01 -3.452561E+01  2.537486E-04 5.517345E+01  2.544777E-04 5.492951E+01  9.879603E-01 -3.340752E+01 
3.129656E+02  9.901235E-01 -3.453034E+01  2.589972E-04 5.445504E+01  2.583770E-04 5.624489E+01  9.878999E-01 -3.342476E+01 
3.129688E+02  9.900867E-01 -3.453760E+01  2.617708E-04 5.584549E+01  2.611049E-04 5.517768E+01  9.879264E-01 -3.342476E+01 
3.129719E+02  9.900183E-01 -3.454081E+01  2.625771E-04 5.508941E+01  2.644319E-04 5.717251E+01  9.879118E-01 -3.342554E+01 
3.129750E+02  9.901166E-01 -3.454478E+01  2.732719E-04 5.551343E+01  2.743768E-04 5.788553E+01  9.880274E-01 -3.343350E+01 
3.129781E+02  9.900653E-01 -3.454255E+01  2.704642E-04 5.739435E+01  2.678119E-04 5.647673E+01  9.879974E-01 -3.342637E+01 
3.129812E+02  9.900447E-01 -3.455140E+01  2.758854E-04 5.894997E+01  2.694158E-04 5.761727E+01  9.880012E-01 -3.343589E+01 
