! Matrix data file written by TouchstoneData, EPCOS AG
! FILENAME: "newformat_B3769_WB.s2p"
! COMMENT: "16 Nov 2004 S11-NoP:1601;Caltype:FULL2PORT;P"
! INFO: nport=2, nfreq=1601
! DATE: "Wed Sep 19 15:23:16 2012"
! USER: "Wilfried Schott"
!
! port | pin | signal
! -----|-----|--------
!   1  |  2  |  IN
!   2  |  5  |  OUT
! --------------------
! 
# MHZ S MA R 50
! freq  magS11 angS11  magS21 angS21  magS12 angS12  magS22 angS22
2.900000E+02  9.913593E-01 -3.063312E+01  3.123319E-04 5.933767E+01  3.219088E-04 5.980777E+01  9.913815E-01 -2.789489E+01 
2.900312E+02  9.914412E-01 -3.062988E+01  3.212071E-04 6.069168E+01  3.125619E-04 5.966288E+01  9.912917E-01 -2.789034E+01 
2.900625E+02  9.914680E-01 -3.064412E+01  3.134111E-04 5.892085E+01  3.178696E-04 6.002332E+01  9.912973E-01 -2.789551E+01 
2.900938E+02  9.914691E-01 -3.064339E+01  3.158146E-04 5.807736E+01  3.049860E-04 5.877079E+01  9.914078E-01 -2.790140E+01 
2.901250E+02  9.915646E-01 -3.065427E+01  3.096880E-04 5.694234E+01  3.128989E-04 5.715246E+01  9.912962E-01 -2.790313E+01 
2.901562E+02  9.915347E-01 -3.065327E+01  3.021675E-04 5.842973E+01  3.017304E-04 5.718845E+01  9.913714E-01 -2.790809E+01 
2.901875E+02  9.914165E-01 -3.065339E+01  2.915261E-04 5.779302E+01  3.037541E-04 5.738054E+01  9.913531E-01 -2.790197E+01 
2.902188E+02  9.915198E-01 -3.064869E+01  2.972570E-04 5.795610E+01  2.962709E-04 5.809651E+01  9.914540E-01 -2.790750E+01 
2.902500E+02  9.915242E-01 -3.065773E+01  2.907231E-04 5.658394E+01  2.851485E-04 5.874733E+01  9.914289E-01 -2.791000E+01 
2.902812E+02  9.915242E-01 -3.065870E+01  2.827693E-04 5.788373E+01  2.844308E-04 5.965812E+01  9.914219E-01 -2.791657E+01 
2.903125E+02  9.914683E-01 -3.066729E+01  2.819941E-04 6.000433E+01  2.726248E-04 5.851106E+01  9.914208E-01 -2.791273E+01 
2.903438E+02  9.914076E-01 -3.066799E+01  2.762752E-04 6.060897E+01  2.805392E-04 6.077978E+01  9.913385E-01 -2.792840E+01 
2.903750E+02  9.913456E-01 -3.066364E+01  2.736930E-04 6.162145E+01  2.749862E-04 6.295658E+01  9.913946E-01 -2.791813E+01 
2.904062E+02  9.914550E-01 -3.067415E+01  2.690483E-04 6.149776E+01  2.651732E-04 6.162564E+01  9.913472E-01 -2.791488E+01 
2.904375E+02  9.913806E-01 -3.067320E+01  2.679416E-04 6.283709E+01  2.722915E-04 6.247255E+01  9.914354E-01 -2.793276E+01 
2.904688E+02  9.915271E-01 -3.067269E+01  2.799252E-04 6.539080E+01  2.694213E-04 6.350269E+01  9.915092E-01 -2.793857E+01 
2.905000E+02  9.914408E-01 -3.067802E+01  2.731516E-04 6.453206E+01  2.644881E-04 6.741609E+01  9.913611E-01 -2.793870E+01 
2.905312E+02  9.915251E-01 -3.068524E+01  2.786838E-04 6.658849E+01  2.704660E-04 6.519026E+01  9.914165E-01 -2.794219E+01 
2.905625E+02  9.912933E-01 -3.069097E+01  2.741654E-04 6.658099E+01  2.718043E-04 6.497938E+01  9.914423E-01 -2.794314E+01 
2.905938E+02  9.914692E-01 -3.068807E+01  2.799029E-04 6.734184E+01  2.727815E-04 6.737219E+01  9.914954E-01 -2.794207E+01 
2.906250E+02  9.914790E-01 -3.068977E+01  2.771574E-04 6.713854E+01  2.767476E-04 6.733127E+01  9.913818E-01 -2.794984E+01 
2.906562E+02  9.915268E-01 -3.070065E+01  2.763449E-04 6.710180E+01  2.865165E-04 6.734938E+01  9.914293E-01 -2.795340E+01 
2.906875E+02  9.916084E-01 -3.070392E+01  2.846125E-04 6.785016E+01  2.830270E-04 7.031712E+01  9.912533E-01 -2.796214E+01 
2.907188E+02  9.916073E-01 -3.070607E+01  2.809879E-04 6.927856E+01  2.864168E-04 6.887363E+01  9.914924E-01 -2.796267E+01 
2.907500E+02  9.913610E-01 -3.070528E+01  2.908865E-04 6.846421E+01  2.875536E-04 6.784926E+01  9.913486E-01 -2.796421E+01 
2.907812E+02  9.915288E-01 -3.071338E+01  2.968141E-04 6.819985E+01  2.915758E-04 6.856800E+01  9.914203E-01 -2.796904E+01 
2.908125E+02  9.916255E-01 -3.071268E+01  2.993143E-04 6.924748E+01  2.901996E-04 6.919771E+01  9.914695E-01 -2.797035E+01 
2.908438E+02  9.911589E-01 -3.071944E+01  2.986306E-04 6.955659E+01  2.917886E-04 6.789511E+01  9.913940E-01 -2.797251E+01 
2.908750E+02  9.916129E-01 -3.073095E+01  3.042157E-04 6.903991E+01  3.020877E-04 7.005727E+01  9.914817E-01 -2.798107E+01 
2.909062E+02  9.914947E-01 -3.072946E+01  3.029298E-04 6.811152E+01  3.050912E-04 6.905242E+01  9.914932E-01 -2.797594E+01 
2.909375E+02  9.914925E-01 -3.072922E+01  3.055872E-04 6.860537E+01  3.071367E-04 7.007804E+01  9.916129E-01 -2.798282E+01 
2.909688E+02  9.915923E-01 -3.073610E+01  3.081666E-04 6.793165E+01  3.012163E-04 6.921323E+01  9.914318E-01 -2.798489E+01 
2.910000E+02  9.913939E-01 -3.074251E+01  3.030922E-04 6.912166E+01  3.051620E-04 6.910608E+01  9.914836E-01 -2.798016E+01 
2.910312E+02  9.914972E-01 -3.074015E+01  3.166271E-04 6.739953E+01  3.089061E-04 6.702987E+01  9.913692E-01 -2.799365E+01 
2.910625E+02  9.914147E-01 -3.074896E+01  3.143824E-04 6.800242E+01  3.056181E-04 6.724893E+01  9.913173E-01 -2.798843E+01 
2.910938E+02  9.914091E-01 -3.075065E+01  3.215283E-04 6.823992E+01  3.213649E-04 6.709565E+01  9.914168E-01 -2.799443E+01 
2.911250E+02  9.915986E-01 -3.075620E+01  3.084082E-04 6.684854E+01  3.072522E-04 6.696845E+01  9.915229E-01 -2.800555E+01 
2.911562E+02  9.915959E-01 -3.076139E+01  3.119110E-04 6.693979E+01  3.147232E-04 6.739119E+01  9.915576E-01 -2.800862E+01 
2.911875E+02  9.914591E-01 -3.076983E+01  3.060803E-04 6.612166E+01  3.178662E-04 6.645978E+01  9.915622E-01 -2.800801E+01 
2.912188E+02  9.916677E-01 -3.075854E+01  3.144462E-04 6.564784E+01  3.098285E-04 6.576172E+01  9.915352E-01 -2.801134E+01 
2.912500E+02  9.913224E-01 -3.076256E+01  3.215406E-04 6.614504E+01  3.111913E-04 6.534112E+01  9.913607E-01 -2.801142E+01 
2.912812E+02  9.914609E-01 -3.076839E+01  3.045300E-04 6.494334E+01  3.056876E-04 6.542204E+01  9.914070E-01 -2.801524E+01 
2.913125E+02  9.914442E-01 -3.077832E+01  3.182766E-04 6.606267E+01  3.148508E-04 6.573786E+01  9.915624E-01 -2.802304E+01 
2.913438E+02  9.914808E-01 -3.077564E+01  3.123343E-04 6.492943E+01  3.157566E-04 6.544382E+01  9.914766E-01 -2.802709E+01 
2.913750E+02  9.914772E-01 -3.078515E+01  3.179507E-04 6.662106E+01  3.131957E-04 6.596397E+01  9.914371E-01 -2.803436E+01 
2.914062E+02  9.915278E-01 -3.079191E+01  3.153116E-04 6.480820E+01  3.128258E-04 6.461150E+01  9.914496E-01 -2.803014E+01 
2.914375E+02  9.914802E-01 -3.078610E+01  3.187338E-04 6.454147E+01  3.123694E-04 6.516216E+01  9.913553E-01 -2.803647E+01 
2.914688E+02  9.915446E-01 -3.079853E+01  3.166535E-04 6.460029E+01  3.124268E-04 6.486173E+01  9.914382E-01 -2.804399E+01 
2.915000E+02  9.915082E-01 -3.079569E+01  3.105155E-04 6.449108E+01  3.148248E-04 6.472934E+01  9.915644E-01 -2.803938E+01 
2.915312E+02  9.914733E-01 -3.080422E+01  3.083846E-04 6.203412E+01  3.052674E-04 6.367710E+01  9.914340E-01 -2.804623E+01 
2.915625E+02  9.916142E-01 -3.080644E+01  3.087105E-04 6.321334E+01  3.038615E-04 6.359020E+01  9.914589E-01 -2.804769E+01 
2.915938E+02  9.914110E-01 -3.080174E+01  3.048570E-04 6.320262E+01  3.015647E-04 6.331292E+01  9.915419E-01 -2.804916E+01 
2.916250E+02  9.914623E-01 -3.080238E+01  3.062076E-04 6.345842E+01  2.981859E-04 6.364105E+01  9.913422E-01 -2.805573E+01 
2.916562E+02  9.915374E-01 -3.081425E+01  3.021532E-04 6.308458E+01  2.988310E-04 6.430953E+01  9.914989E-01 -2.805840E+01 
2.916875E+02  9.914402E-01 -3.082962E+01  3.053963E-04 6.413999E+01  2.943150E-04 6.373941E+01  9.914979E-01 -2.806232E+01 
2.917188E+02  9.913304E-01 -3.081646E+01  2.978571E-04 6.291202E+01  2.946934E-04 6.269010E+01  9.914962E-01 -2.806895E+01 
2.917500E+02  9.914144E-01 -3.083138E+01  2.968533E-04 6.381607E+01  2.923002E-04 6.393699E+01  9.915700E-01 -2.807125E+01 
2.917812E+02  9.916422E-01 -3.081875E+01  2.957770E-04 6.331044E+01  2.920006E-04 6.370009E+01  9.914039E-01 -2.807696E+01 
2.918125E+02  9.913952E-01 -3.082888E+01  2.953915E-04 6.320788E+01  2.885810E-04 6.392683E+01  9.915087E-01 -2.807783E+01 
2.918438E+02  9.914646E-01 -3.083889E+01  2.945727E-04 6.367120E+01  2.910242E-04 6.422380E+01  9.914155E-01 -2.807835E+01 
2.918750E+02  9.915113E-01 -3.083721E+01  2.909662E-04 6.441189E+01  2.868940E-04 6.474531E+01  9.913044E-01 -2.809155E+01 
2.919062E+02  9.914535E-01 -3.084838E+01  2.850040E-04 6.385692E+01  2.929539E-04 6.459980E+01  9.914850E-01 -2.808119E+01 
2.919375E+02  9.915573E-01 -3.084573E+01  2.898584E-04 6.629130E+01  2.827069E-04 6.408330E+01  9.914506E-01 -2.808985E+01 
2.919688E+02  9.914808E-01 -3.084936E+01  2.866802E-04 6.576478E+01  2.831728E-04 6.532361E+01  9.913848E-01 -2.809522E+01 
2.920000E+02  9.914493E-01 -3.085814E+01  2.801188E-04 6.443964E+01  2.821830E-04 6.578229E+01  9.914043E-01 -2.809398E+01 
2.920312E+02  9.915093E-01 -3.086078E+01  2.773548E-04 6.548456E+01  2.766898E-04 6.722652E+01  9.914403E-01 -2.809673E+01 
2.920625E+02  9.914706E-01 -3.086048E+01  2.781228E-04 6.605806E+01  2.821879E-04 6.741613E+01  9.913284E-01 -2.810841E+01 
2.920938E+02  9.915616E-01 -3.086703E+01  2.781445E-04 6.828995E+01  2.812147E-04 6.763314E+01  9.912608E-01 -2.810580E+01 
2.921250E+02  9.913789E-01 -3.086812E+01  2.835070E-04 6.706319E+01  2.764946E-04 6.954525E+01  9.912870E-01 -2.810817E+01 
2.921562E+02  9.915191E-01 -3.086352E+01  2.874976E-04 6.919121E+01  2.859235E-04 6.950499E+01  9.913644E-01 -2.811878E+01 
2.921875E+02  9.914326E-01 -3.087777E+01  2.865467E-04 7.038200E+01  2.898374E-04 6.981568E+01  9.914545E-01 -2.812154E+01 
2.922188E+02  9.914002E-01 -3.087877E+01  2.815759E-04 7.018290E+01  2.846977E-04 6.980993E+01  9.914570E-01 -2.812112E+01 
2.922500E+02  9.915163E-01 -3.088695E+01  2.912951E-04 6.980080E+01  2.861959E-04 6.989741E+01  9.913058E-01 -2.812458E+01 
2.922812E+02  9.915851E-01 -3.088386E+01  2.918922E-04 7.037696E+01  2.992668E-04 7.047480E+01  9.913622E-01 -2.812929E+01 
2.923125E+02  9.914405E-01 -3.089305E+01  2.981824E-04 7.198439E+01  2.934738E-04 7.190464E+01  9.912838E-01 -2.813294E+01 
2.923438E+02  9.914528E-01 -3.089147E+01  3.036698E-04 7.186319E+01  2.957411E-04 7.153015E+01  9.912502E-01 -2.813998E+01 
2.923750E+02  9.915083E-01 -3.089460E+01  3.029718E-04 7.130144E+01  3.043609E-04 7.001607E+01  9.911979E-01 -2.814732E+01 
2.924062E+02  9.913461E-01 -3.090665E+01  3.146578E-04 7.112709E+01  3.063261E-04 7.103841E+01  9.912905E-01 -2.814280E+01 
2.924375E+02  9.913921E-01 -3.090832E+01  3.092774E-04 7.179906E+01  3.112953E-04 7.076858E+01  9.912817E-01 -2.813691E+01 
2.924688E+02  9.914102E-01 -3.090971E+01  3.183562E-04 7.000599E+01  3.204479E-04 7.047530E+01  9.912778E-01 -2.815194E+01 
2.925000E+02  9.914690E-01 -3.090704E+01  3.208657E-04 7.008554E+01  3.147230E-04 6.966691E+01  9.911626E-01 -2.815108E+01 
2.925312E+02  9.913563E-01 -3.092035E+01  3.158843E-04 6.912208E+01  3.226531E-04 6.989469E+01  9.914374E-01 -2.815390E+01 
2.925625E+02  9.915173E-01 -3.091855E+01  3.192285E-04 6.891182E+01  3.215969E-04 6.979917E+01  9.913814E-01 -2.815745E+01 
2.925938E+02  9.912622E-01 -3.092933E+01  3.249305E-04 6.789547E+01  3.172297E-04 6.897647E+01  9.914011E-01 -2.815686E+01 
2.926250E+02  9.914892E-01 -3.092843E+01  3.251156E-04 6.756508E+01  3.249608E-04 6.835951E+01  9.913068E-01 -2.815750E+01 
2.926562E+02  9.913937E-01 -3.093094E+01  3.275137E-04 6.609379E+01  3.270788E-04 6.724260E+01  9.912646E-01 -2.817033E+01 
2.926875E+02  9.913676E-01 -3.094044E+01  3.228219E-04 6.584775E+01  3.241708E-04 6.665832E+01  9.912256E-01 -2.817624E+01 
2.927188E+02  9.913471E-01 -3.093552E+01  3.239410E-04 6.583174E+01  3.234857E-04 6.587979E+01  9.913664E-01 -2.817846E+01 
2.927500E+02  9.914674E-01 -3.093235E+01  3.173823E-04 6.559010E+01  3.179584E-04 6.574368E+01  9.913211E-01 -2.818223E+01 
2.927812E+02  9.912844E-01 -3.094558E+01  3.212746E-04 6.525715E+01  3.201347E-04 6.587633E+01  9.912468E-01 -2.818395E+01 
2.928125E+02  9.914609E-01 -3.094952E+01  3.140331E-04 6.481213E+01  3.192733E-04 6.537285E+01  9.913798E-01 -2.818676E+01 
2.928438E+02  9.915177E-01 -3.095185E+01  3.154294E-04 6.444452E+01  3.112021E-04 6.427130E+01  9.912156E-01 -2.819134E+01 
2.928750E+02  9.913700E-01 -3.095603E+01  3.109643E-04 6.458367E+01  3.127909E-04 6.507701E+01  9.912483E-01 -2.818619E+01 
2.929062E+02  9.913745E-01 -3.095892E+01  3.172502E-04 6.478298E+01  3.110925E-04 6.511133E+01  9.912304E-01 -2.819088E+01 
2.929375E+02  9.914287E-01 -3.095796E+01  3.118317E-04 6.433260E+01  3.116059E-04 6.416741E+01  9.913632E-01 -2.819113E+01 
2.929688E+02  9.915095E-01 -3.096110E+01  3.141389E-04 6.396281E+01  3.033206E-04 6.362132E+01  9.912052E-01 -2.820020E+01 
2.930000E+02  9.913616E-01 -3.096882E+01  3.074231E-04 6.307427E+01  3.120937E-04 6.328957E+01  9.912611E-01 -2.820923E+01 
2.930312E+02  9.913142E-01 -3.097539E+01  3.056039E-04 6.331627E+01  2.971359E-04 6.438796E+01  9.912438E-01 -2.820959E+01 
2.930625E+02  9.912964E-01 -3.098674E+01  2.981335E-04 6.314018E+01  3.000012E-04 6.450362E+01  9.912966E-01 -2.821254E+01 
2.930938E+02  9.914005E-01 -3.098435E+01  3.019822E-04 6.381590E+01  2.937206E-04 6.343658E+01  9.911981E-01 -2.820711E+01 
2.931250E+02  9.911244E-01 -3.098230E+01  3.012967E-04 6.362090E+01  2.998555E-04 6.431577E+01  9.911915E-01 -2.821383E+01 
2.931562E+02  9.913378E-01 -3.098521E+01  2.925280E-04 6.464036E+01  2.921708E-04 6.460035E+01  9.911902E-01 -2.822393E+01 
2.931875E+02  9.913069E-01 -3.099402E+01  2.892375E-04 6.435676E+01  2.813321E-04 6.550359E+01  9.910432E-01 -2.822657E+01 
2.932188E+02  9.913492E-01 -3.099935E+01  2.919341E-04 6.512898E+01  2.852472E-04 6.417340E+01  9.912606E-01 -2.822032E+01 
2.932500E+02  9.913860E-01 -3.100400E+01  2.797123E-04 6.589186E+01  2.782387E-04 6.632266E+01  9.911921E-01 -2.823445E+01 
2.932812E+02  9.911660E-01 -3.100326E+01  2.827401E-04 6.651692E+01  2.789151E-04 6.797355E+01  9.911838E-01 -2.822589E+01 
2.933125E+02  9.913409E-01 -3.100627E+01  2.844658E-04 6.814575E+01  2.814585E-04 6.951836E+01  9.911708E-01 -2.823811E+01 
2.933438E+02  9.912497E-01 -3.100812E+01  2.802235E-04 6.983303E+01  2.856924E-04 7.051431E+01  9.911845E-01 -2.824475E+01 
2.933750E+02  9.912383E-01 -3.101249E+01  2.957065E-04 7.166860E+01  2.886454E-04 7.188851E+01  9.912336E-01 -2.824307E+01 
2.934062E+02  9.912435E-01 -3.102018E+01  2.868932E-04 7.217449E+01  2.957958E-04 7.294795E+01  9.912405E-01 -2.825141E+01 
2.934375E+02  9.912580E-01 -3.101851E+01  2.993988E-04 7.337862E+01  2.981337E-04 7.379292E+01  9.911090E-01 -2.825511E+01 
2.934688E+02  9.913232E-01 -3.102921E+01  2.970066E-04 7.409552E+01  3.056532E-04 7.506753E+01  9.911253E-01 -2.825386E+01 
2.935000E+02  9.912652E-01 -3.102443E+01  3.106697E-04 7.404175E+01  3.121787E-04 7.407777E+01  9.911695E-01 -2.825436E+01 
2.935312E+02  9.912789E-01 -3.103529E+01  3.257529E-04 7.411865E+01  3.172716E-04 7.581326E+01  9.910861E-01 -2.826571E+01 
2.935625E+02  9.911953E-01 -3.103822E+01  3.324853E-04 7.387448E+01  3.260538E-04 7.411954E+01  9.913433E-01 -2.825866E+01 
2.935938E+02  9.911912E-01 -3.104439E+01  3.367164E-04 7.393934E+01  3.352622E-04 7.411876E+01  9.910922E-01 -2.826166E+01 
2.936250E+02  9.910849E-01 -3.103866E+01  3.447609E-04 7.300086E+01  3.429739E-04 7.315105E+01  9.912800E-01 -2.826459E+01 
2.936562E+02  9.912697E-01 -3.103725E+01  3.516491E-04 7.222039E+01  3.542128E-04 7.250887E+01  9.911317E-01 -2.826287E+01 
2.936875E+02  9.911454E-01 -3.104610E+01  3.670985E-04 7.110396E+01  3.619915E-04 7.158384E+01  9.910745E-01 -2.827446E+01 
2.937188E+02  9.913251E-01 -3.105203E+01  3.542624E-04 6.875135E+01  3.526457E-04 6.954641E+01  9.909540E-01 -2.827280E+01 
2.937500E+02  9.910733E-01 -3.105469E+01  3.627358E-04 6.850479E+01  3.567592E-04 6.831014E+01  9.911172E-01 -2.828072E+01 
2.937812E+02  9.911517E-01 -3.105601E+01  3.654224E-04 6.751607E+01  3.636831E-04 6.730686E+01  9.910887E-01 -2.828132E+01 
2.938125E+02  9.911557E-01 -3.106528E+01  3.651646E-04 6.680504E+01  3.650518E-04 6.622202E+01  9.909997E-01 -2.828710E+01 
2.938438E+02  9.910592E-01 -3.106583E+01  3.651485E-04 6.557398E+01  3.576403E-04 6.511879E+01  9.912875E-01 -2.829440E+01 
2.938750E+02  9.912114E-01 -3.106313E+01  3.669279E-04 6.398997E+01  3.580046E-04 6.381926E+01  9.910364E-01 -2.828064E+01 
2.939062E+02  9.914612E-01 -3.106787E+01  3.614407E-04 6.355589E+01  3.607316E-04 6.387573E+01  9.910307E-01 -2.828898E+01 
2.939375E+02  9.911601E-01 -3.107077E+01  3.653047E-04 6.192131E+01  3.639944E-04 6.234140E+01  9.911179E-01 -2.829847E+01 
2.939688E+02  9.912414E-01 -3.108027E+01  3.622114E-04 6.077797E+01  3.615696E-04 6.135588E+01  9.911137E-01 -2.829462E+01 
2.940000E+02  9.911895E-01 -3.108121E+01  3.561008E-04 6.099881E+01  3.574306E-04 5.952982E+01  9.911883E-01 -2.829829E+01 
2.940312E+02  9.911354E-01 -3.108466E+01  3.654612E-04 5.961452E+01  3.542630E-04 5.804685E+01  9.910269E-01 -2.830608E+01 
2.940625E+02  9.911867E-01 -3.108460E+01  3.522246E-04 5.685697E+01  3.454365E-04 5.701557E+01  9.910897E-01 -2.830764E+01 
2.940938E+02  9.913863E-01 -3.108803E+01  3.411856E-04 5.586218E+01  3.389164E-04 5.561754E+01  9.911197E-01 -2.831282E+01 
2.941250E+02  9.911991E-01 -3.109524E+01  3.315675E-04 5.639109E+01  3.365879E-04 5.533403E+01  9.912210E-01 -2.831743E+01 
2.941562E+02  9.911985E-01 -3.109844E+01  3.293128E-04 5.436587E+01  3.229395E-04 5.562511E+01  9.910762E-01 -2.831680E+01 
2.941875E+02  9.911483E-01 -3.109307E+01  3.192299E-04 5.400153E+01  3.163050E-04 5.381587E+01  9.912344E-01 -2.832455E+01 
2.942188E+02  9.912960E-01 -3.110729E+01  3.066571E-04 5.339117E+01  3.094760E-04 5.406171E+01  9.911946E-01 -2.833106E+01 
2.942500E+02  9.911838E-01 -3.110969E+01  2.968509E-04 5.481229E+01  2.993670E-04 5.353412E+01  9.909835E-01 -2.832229E+01 
2.942812E+02  9.911307E-01 -3.111290E+01  2.841484E-04 5.337770E+01  2.890959E-04 5.368876E+01  9.911628E-01 -2.832688E+01 
2.943125E+02  9.912290E-01 -3.111922E+01  2.754502E-04 5.363986E+01  2.764175E-04 5.496598E+01  9.910912E-01 -2.833994E+01 
2.943438E+02  9.912746E-01 -3.111889E+01  2.678819E-04 5.641130E+01  2.674689E-04 5.605840E+01  9.909401E-01 -2.832654E+01 
2.943750E+02  9.912802E-01 -3.111570E+01  2.575062E-04 5.869880E+01  2.616642E-04 5.953042E+01  9.911203E-01 -2.833756E+01 
2.944062E+02  9.912311E-01 -3.112069E+01  2.610683E-04 6.040361E+01  2.591544E-04 6.187367E+01  9.912139E-01 -2.834457E+01 
2.944375E+02  9.912281E-01 -3.112349E+01  2.570421E-04 6.216137E+01  2.530003E-04 6.351927E+01  9.911329E-01 -2.833944E+01 
2.944688E+02  9.912388E-01 -3.113479E+01  2.630990E-04 6.527852E+01  2.600276E-04 6.453545E+01  9.911317E-01 -2.834808E+01 
2.945000E+02  9.912977E-01 -3.113325E+01  2.652674E-04 6.687300E+01  2.541243E-04 6.670330E+01  9.911777E-01 -2.835653E+01 
2.945312E+02  9.913326E-01 -3.113834E+01  2.679955E-04 6.864194E+01  2.617542E-04 6.846773E+01  9.911785E-01 -2.834588E+01 
2.945625E+02  9.914104E-01 -3.114328E+01  2.672752E-04 6.895628E+01  2.659625E-04 7.018215E+01  9.911721E-01 -2.836455E+01 
2.945938E+02  9.913461E-01 -3.114516E+01  2.696985E-04 7.023540E+01  2.740380E-04 7.002886E+01  9.910298E-01 -2.835845E+01 
2.946250E+02  9.913889E-01 -3.115110E+01  2.791762E-04 7.060472E+01  2.776581E-04 6.932555E+01  9.911290E-01 -2.836520E+01 
2.946562E+02  9.911677E-01 -3.115658E+01  2.865236E-04 7.122757E+01  2.897538E-04 7.165501E+01  9.910004E-01 -2.836999E+01 
2.946875E+02  9.913448E-01 -3.116247E+01  2.897642E-04 7.105288E+01  2.905591E-04 7.124939E+01  9.910786E-01 -2.836622E+01 
2.947188E+02  9.912755E-01 -3.116134E+01  2.914461E-04 7.020216E+01  2.892820E-04 7.129615E+01  9.911302E-01 -2.837436E+01 
2.947500E+02  9.912763E-01 -3.116194E+01  2.931043E-04 7.165471E+01  2.962773E-04 7.124164E+01  9.911650E-01 -2.837777E+01 
2.947812E+02  9.913683E-01 -3.116879E+01  2.999077E-04 7.009143E+01  3.025416E-04 7.111594E+01  9.911851E-01 -2.838484E+01 
2.948125E+02  9.912196E-01 -3.117247E+01  2.937442E-04 7.098544E+01  3.054299E-04 7.238101E+01  9.911903E-01 -2.838654E+01 
2.948438E+02  9.913640E-01 -3.117827E+01  3.100634E-04 7.117792E+01  3.126932E-04 7.017801E+01  9.911546E-01 -2.839005E+01 
2.948750E+02  9.912259E-01 -3.118202E+01  3.134051E-04 7.102380E+01  3.124298E-04 7.130661E+01  9.912256E-01 -2.839057E+01 
