! S-Parameter for B3760 in Touchstone format with Magnitude (lin) and Phase 
! Normalised impedance: 50 Ohm. Measurement system: 50 Ohm. Ta=20°C
! B3760_5.S2P not matched. Measurement full 2-port calibrated incl. Port.Ext. 
! Start: 431.420MHz, Stop: 436.420MHz, Span 5MHz 401 Pts., Step 0.0125MHz.   
! Date: 01/02/04 - EPCOS SAW CE AE PD; AGL
! Pinning according data sheet recommendation: IN P2, OUT P5, other GND
!
# MHz  S  MA  R  50
!
!  Freq          S11                S21               S12               S22
431.4200 9.785E-01  -39.70 3.675E-04   53.69 3.675E-04   53.69 9.777E-01  -38.11
431.4325 9.792E-01  -39.73 4.377E-04   49.97 4.377E-04   49.97 9.780E-01  -38.14
431.4450 9.793E-01  -39.73 4.048E-04   57.14 4.048E-04   57.14 9.778E-01  -38.14
431.4575 9.783E-01  -39.75 4.063E-04   52.21 4.063E-04   52.21 9.782E-01  -38.15
431.4700 9.794E-01  -39.76 4.323E-04   57.05 4.323E-04   57.05 9.777E-01  -38.18
431.4825 9.785E-01  -39.77 4.264E-04   59.10 4.264E-04   59.10 9.782E-01  -38.22
431.4950 9.791E-01  -39.76 4.279E-04   57.19 4.279E-04   57.19 9.779E-01  -38.21
431.5075 9.784E-01  -39.84 4.171E-04   68.54 4.171E-04   68.54 9.782E-01  -38.25
431.5200 9.786E-01  -39.83 4.475E-04   63.37 4.475E-04   63.37 9.775E-01  -38.24
431.5325 9.795E-01  -39.79 4.621E-04   60.25 4.621E-04   60.25 9.775E-01  -38.21
431.5450 9.784E-01  -39.84 4.952E-04   58.79 4.952E-04   58.79 9.779E-01  -38.28
431.5575 9.788E-01  -39.86 4.795E-04   66.64 4.795E-04   66.64 9.772E-01  -38.29
431.5700 9.790E-01  -39.86 5.032E-04   60.15 5.032E-04   60.15 9.776E-01  -38.28
431.5825 9.786E-01  -39.86 4.583E-04   69.09 4.583E-04   69.09 9.781E-01  -38.28
431.5950 9.785E-01  -39.88 5.199E-04   64.47 5.199E-04   64.47 9.772E-01  -38.31
431.6075 9.784E-01  -39.87 5.023E-04   65.91 5.023E-04   65.91 9.778E-01  -38.34
431.6200 9.788E-01  -39.91 5.546E-04   58.81 5.546E-04   58.81 9.774E-01  -38.34
431.6325 9.787E-01  -39.96 6.523E-04   61.69 6.523E-04   61.69 9.774E-01  -38.37
431.6450 9.788E-01  -39.92 6.021E-04   66.31 6.021E-04   66.31 9.775E-01  -38.37
431.6575 9.783E-01  -40.01 6.247E-04   63.17 6.247E-04   63.17 9.776E-01  -38.42
431.6700 9.785E-01  -39.97 6.665E-04   61.34 6.665E-04   61.34 9.777E-01  -38.42
431.6825 9.783E-01  -39.98 5.991E-04   60.36 5.991E-04   60.36 9.773E-01  -38.46
431.6950 9.787E-01  -40.03 7.127E-04   60.36 7.127E-04   60.36 9.772E-01  -38.44
431.7075 9.784E-01  -39.99 7.253E-04   61.82 7.253E-04   61.82 9.770E-01  -38.47
431.7200 9.778E-01  -40.05 7.752E-04   57.92 7.752E-04   57.92 9.772E-01  -38.51
431.7325 9.780E-01  -40.04 8.052E-04   56.84 8.052E-04   56.84 9.777E-01  -38.51
431.7450 9.787E-01  -40.04 8.028E-04   52.38 8.028E-04   52.38 9.773E-01  -38.54
431.7575 9.782E-01  -40.09 7.685E-04   56.87 7.685E-04   56.87 9.773E-01  -38.53
431.7700 9.783E-01  -40.13 7.368E-04   52.79 7.368E-04   52.79 9.770E-01  -38.56
431.7825 9.779E-01  -40.10 8.556E-04   50.72 8.556E-04   50.72 9.768E-01  -38.58
431.7950 9.779E-01  -40.09 8.020E-04   52.88 8.020E-04   52.88 9.776E-01  -38.57
431.8075 9.782E-01  -40.17 8.288E-04   50.48 8.288E-04   50.48 9.768E-01  -38.62
431.8200 9.779E-01  -40.18 8.717E-04   52.93 8.717E-04   52.93 9.773E-01  -38.64
431.8325 9.783E-01  -40.20 8.168E-04   51.39 8.168E-04   51.39 9.775E-01  -38.65
431.8450 9.783E-01  -40.20 8.382E-04   47.36 8.382E-04   47.36 9.771E-01  -38.69
431.8575 9.778E-01  -40.18 8.935E-04   46.85 8.935E-04   46.85 9.770E-01  -38.69
431.8700 9.777E-01  -40.24 9.110E-04   49.23 9.110E-04   49.23 9.773E-01  -38.75
431.8825 9.782E-01  -40.25 8.561E-04   51.15 8.561E-04   51.15 9.769E-01  -38.75
431.8950 9.782E-01  -40.26 9.234E-04   47.70 9.234E-04   47.70 9.768E-01  -38.75
431.9075 9.777E-01  -40.26 8.937E-04   47.87 8.937E-04   47.87 9.764E-01  -38.79
431.9200 9.775E-01  -40.28 9.393E-04   48.44 9.393E-04   48.44 9.773E-01  -38.77
431.9325 9.779E-01  -40.33 9.357E-04   47.24 9.357E-04   47.24 9.764E-01  -38.83
431.9450 9.777E-01  -40.34 9.568E-04   48.82 9.568E-04   48.82 9.770E-01  -38.82
431.9575 9.779E-01  -40.38 1.004E-03   47.23 1.004E-03   47.23 9.769E-01  -38.86
431.9700 9.785E-01  -40.39 1.031E-03   47.49 1.031E-03   47.49 9.769E-01  -38.90
431.9825 9.774E-01  -40.43 1.066E-03   45.02 1.066E-03   45.02 9.766E-01  -38.92
431.9950 9.780E-01  -40.46 1.164E-03   46.29 1.164E-03   46.29 9.771E-01  -38.94
432.0075 9.781E-01  -40.47 1.220E-03   45.40 1.220E-03   45.40 9.771E-01  -39.00
432.0200 9.775E-01  -40.49 1.236E-03   45.77 1.236E-03   45.77 9.765E-01  -38.99
432.0325 9.785E-01  -40.51 1.312E-03   47.93 1.312E-03   47.93 9.771E-01  -39.01
432.0450 9.782E-01  -40.56 1.382E-03   44.21 1.382E-03   44.21 9.771E-01  -39.02
432.0575 9.780E-01  -40.56 1.496E-03   42.75 1.496E-03   42.75 9.764E-01  -39.04
432.0700 9.780E-01  -40.58 1.525E-03   41.13 1.525E-03   41.13 9.764E-01  -39.08
432.0825 9.781E-01  -40.60 1.627E-03   40.99 1.627E-03   40.99 9.761E-01  -39.10
432.0950 9.768E-01  -40.64 1.722E-03   43.27 1.722E-03   43.27 9.761E-01  -39.13
432.1075 9.773E-01  -40.67 1.853E-03   39.09 1.853E-03   39.09 9.757E-01  -39.20
432.1200 9.771E-01  -40.70 1.963E-03   38.13 1.963E-03   38.13 9.761E-01  -39.23
432.1325 9.770E-01  -40.73 2.119E-03   34.35 2.119E-03   34.35 9.757E-01  -39.25
432.1450 9.767E-01  -40.78 2.342E-03   32.99 2.342E-03   32.99 9.754E-01  -39.29
432.1575 9.768E-01  -40.78 2.544E-03   30.78 2.544E-03   30.78 9.753E-01  -39.31
432.1700 9.763E-01  -40.86 2.851E-03   27.88 2.851E-03   27.88 9.750E-01  -39.36
432.1825 9.756E-01  -40.89 3.185E-03   23.55 3.185E-03   23.55 9.746E-01  -39.39
432.1950 9.754E-01  -40.94 3.577E-03   18.47 3.577E-03   18.47 9.736E-01  -39.46
432.2075 9.752E-01  -40.93 4.054E-03   11.23 4.054E-03   11.23 9.731E-01  -39.48
432.2200 9.741E-01  -40.99 4.583E-03    4.03 4.583E-03    4.03 9.723E-01  -39.53
432.2325 9.738E-01  -41.02 5.183E-03   -6.08 5.183E-03   -6.08 9.714E-01  -39.52
432.2450 9.725E-01  -40.95 5.706E-03  -18.24 5.706E-03  -18.24 9.702E-01  -39.49
432.2575 9.715E-01  -40.96 6.029E-03  -31.88 6.029E-03  -31.88 9.694E-01  -39.45
432.2700 9.721E-01  -40.90 6.005E-03  -46.67 6.005E-03  -46.67 9.692E-01  -39.38
432.2825 9.723E-01  -40.84 5.718E-03  -59.64 5.718E-03  -59.64 9.696E-01  -39.32
432.2950 9.729E-01  -40.85 5.271E-03  -71.75 5.271E-03  -71.75 9.707E-01  -39.32
432.3075 9.742E-01  -40.89 4.756E-03  -81.56 4.756E-03  -81.56 9.717E-01  -39.29
432.3200 9.742E-01  -40.90 4.298E-03  -89.49 4.298E-03  -89.49 9.724E-01  -39.37
432.3325 9.750E-01  -40.92 3.852E-03  -94.93 3.852E-03  -94.93 9.728E-01  -39.38
432.3450 9.748E-01  -41.01 3.597E-03 -100.88 3.597E-03 -100.88 9.732E-01  -39.42
432.3575 9.759E-01  -41.04 3.422E-03 -105.97 3.422E-03 -105.97 9.737E-01  -39.46
432.3700 9.756E-01  -41.06 3.242E-03 -110.53 3.242E-03 -110.53 9.736E-01  -39.49
432.3825 9.758E-01  -41.10 3.049E-03 -114.73 3.049E-03 -114.73 9.739E-01  -39.53
432.3950 9.753E-01  -41.16 3.025E-03 -118.65 3.025E-03 -118.65 9.740E-01  -39.61
432.4075 9.759E-01  -41.22 2.937E-03 -123.09 2.937E-03 -123.09 9.741E-01  -39.65
432.4200 9.759E-01  -41.25 3.024E-03 -124.89 3.024E-03 -124.89 9.738E-01  -39.69
432.4325 9.759E-01  -41.29 3.023E-03 -131.66 3.023E-03 -131.66 9.740E-01  -39.75
432.4450 9.755E-01  -41.35 3.070E-03 -137.04 3.070E-03 -137.04 9.737E-01  -39.81
432.4575 9.753E-01  -41.42 3.302E-03 -143.33 3.302E-03 -143.33 9.732E-01  -39.82
432.4700 9.744E-01  -41.45 3.450E-03 -149.99 3.450E-03 -149.99 9.734E-01  -39.89
432.4825 9.740E-01  -41.50 3.688E-03 -159.26 3.688E-03 -159.26 9.725E-01  -39.93
432.4950 9.735E-01  -41.55 3.889E-03 -168.41 3.889E-03 -168.41 9.716E-01  -39.97
432.5075 9.730E-01  -41.55 4.148E-03  178.71 4.148E-03  178.71 9.707E-01  -39.96
432.5200 9.728E-01  -41.54 4.309E-03  165.32 4.309E-03  165.32 9.708E-01  -40.00
432.5325 9.719E-01  -41.54 4.225E-03  151.28 4.225E-03  151.28 9.699E-01  -39.96
432.5450 9.719E-01  -41.56 3.927E-03  136.92 3.927E-03  136.92 9.699E-01  -39.93
432.5575 9.729E-01  -41.55 3.484E-03  125.23 3.484E-03  125.23 9.705E-01  -39.94
432.5700 9.730E-01  -41.57 3.107E-03  115.99 3.107E-03  115.99 9.712E-01  -39.96
432.5825 9.736E-01  -41.61 2.711E-03  110.04 2.711E-03  110.04 9.715E-01  -40.02
432.5950 9.736E-01  -41.68 2.416E-03  105.73 2.416E-03  105.73 9.718E-01  -40.03
432.6075 9.734E-01  -41.72 2.126E-03  102.31 2.126E-03  102.31 9.723E-01  -40.09
432.6200 9.740E-01  -41.78 1.868E-03   99.99 1.868E-03   99.99 9.729E-01  -40.21
432.6325 9.741E-01  -41.85 1.709E-03  102.40 1.709E-03  102.40 9.727E-01  -40.27
432.6450 9.745E-01  -41.88 1.527E-03  105.20 1.527E-03  105.20 9.725E-01  -40.37
432.6575 9.742E-01  -41.97 1.391E-03  110.26 1.391E-03  110.26 9.727E-01  -40.47
432.6700 9.745E-01  -42.06 1.339E-03  114.33 1.339E-03  114.33 9.730E-01  -40.54
432.6825 9.739E-01  -42.08 1.382E-03  127.68 1.382E-03  127.68 9.726E-01  -40.63
432.6950 9.733E-01  -42.20 1.438E-03  135.05 1.438E-03  135.05 9.728E-01  -40.72
432.7075 9.736E-01  -42.21 1.675E-03  143.88 1.675E-03  143.88 9.722E-01  -40.84
432.7200 9.727E-01  -42.32 2.047E-03  153.67 2.047E-03  153.67 9.722E-01  -40.94
432.7325 9.723E-01  -42.44 2.578E-03  158.24 2.578E-03  158.24 9.713E-01  -41.07
432.7450 9.715E-01  -42.49 3.394E-03  162.17 3.394E-03  162.17 9.710E-01  -41.18
432.7575 9.700E-01  -42.59 4.594E-03  161.45 4.594E-03  161.45 9.702E-01  -41.29
432.7700 9.678E-01  -42.68 6.298E-03  156.96 6.298E-03  156.96 9.680E-01  -41.02
432.7825 9.658E-01  -42.72 8.651E-03  148.17 8.651E-03  148.17 9.662E-01  -41.05
432.7950 9.620E-01  -42.66 1.146E-02  134.69 1.146E-02  134.69 9.629E-01  -40.99
432.8075 9.605E-01  -42.40 1.399E-02  115.75 1.399E-02  115.75 9.617E-01  -40.82
432.8200 9.616E-01  -42.19 1.498E-02   95.77 1.498E-02   95.77 9.633E-01  -40.62
432.8325 9.657E-01  -42.14 1.419E-02   79.37 1.419E-02   79.37 9.661E-01  -40.61
432.8450 9.685E-01  -42.21 1.304E-02   67.69 1.304E-02   67.69 9.689E-01  -40.67
432.8575 9.706E-01  -42.31 1.195E-02   60.06 1.195E-02   60.06 9.702E-01  -40.78
432.8700 9.718E-01  -42.39 1.116E-02   55.21 1.116E-02   55.21 9.715E-01  -40.89
432.8825 9.727E-01  -42.53 1.069E-02   51.35 1.069E-02   51.35 9.717E-01  -41.04
432.8950 9.726E-01  -42.65 1.027E-02   48.71 1.027E-02   48.71 9.727E-01  -41.15
432.9075 9.726E-01  -42.77 1.011E-02   46.35 1.011E-02   46.35 9.718E-01  -41.22
432.9200 9.736E-01  -42.86 1.003E-02   44.59 1.003E-02   44.59 9.720E-01  -41.34
432.9325 9.728E-01  -42.99 1.002E-02   42.60 1.002E-02   42.60 9.726E-01  -41.44
432.9450 9.725E-01  -43.11 1.014E-02   41.52 1.014E-02   41.52 9.725E-01  -41.53
432.9575 9.727E-01  -43.22 1.038E-02   39.64 1.038E-02   39.64 9.717E-01  -41.62
432.9700 9.720E-01  -43.32 1.068E-02   38.42 1.068E-02   38.42 9.721E-01  -41.73
432.9825 9.728E-01  -43.42 1.099E-02   36.74 1.099E-02   36.74 9.709E-01  -41.83
432.9950 9.718E-01  -43.55 1.156E-02   35.04 1.156E-02   35.04 9.710E-01  -41.95
433.0075 9.711E-01  -43.70 1.224E-02   32.78 1.224E-02   32.78 9.700E-01  -42.09
433.0200 9.704E-01  -43.77 1.307E-02   30.51 1.307E-02   30.51 9.692E-01  -42.22
433.0325 9.686E-01  -43.97 1.418E-02   27.28 1.418E-02   27.28 9.686E-01  -42.35
433.0450 9.670E-01  -44.12 1.538E-02   22.69 1.538E-02   22.69 9.670E-01  -42.44
433.0575 9.648E-01  -44.25 1.706E-02   16.23 1.706E-02   16.23 9.648E-01  -42.58
433.0700 9.603E-01  -44.34 1.882E-02    6.78 1.882E-02    6.78 9.624E-01  -42.66
433.0825 9.559E-01  -44.24 1.996E-02   -7.21 1.996E-02   -7.21 9.586E-01  -42.59
433.0950 9.540E-01  -43.95 1.894E-02  -25.00 1.894E-02  -25.00 9.566E-01  -42.37
433.1075 9.570E-01  -43.70 1.535E-02  -41.59 1.535E-02  -41.59 9.591E-01  -42.22
433.1200 9.619E-01  -43.67 1.088E-02  -50.79 1.088E-02  -50.79 9.631E-01  -42.25
433.1325 9.659E-01  -43.79 7.342E-03  -50.59 7.342E-03  -50.59 9.654E-01  -42.35
433.1450 9.686E-01  -43.98 5.088E-03  -39.25 5.088E-03  -39.25 9.678E-01  -42.55
433.1575 9.701E-01  -44.16 4.187E-03  -18.66 4.187E-03  -18.66 9.689E-01  -42.71
433.1700 9.708E-01  -44.39 4.324E-03    1.74 4.324E-03    1.74 9.690E-01  -42.89
433.1825 9.707E-01  -44.58 5.036E-03   15.36 5.036E-03   15.36 9.699E-01  -43.09
433.1950 9.708E-01  -44.78 5.926E-03   22.88 5.926E-03   22.88 9.695E-01  -43.26
433.2075 9.708E-01  -44.94 6.836E-03   27.52 6.836E-03   27.52 9.695E-01  -43.43
433.2200 9.713E-01  -45.13 7.785E-03   29.82 7.785E-03   29.82 9.691E-01  -43.61
433.2325 9.712E-01  -45.33 8.792E-03   31.54 8.792E-03   31.54 9.690E-01  -43.76
433.2450 9.704E-01  -45.52 9.740E-03   32.73 9.740E-03   32.73 9.684E-01  -43.93
433.2575 9.703E-01  -45.72 1.090E-02   33.45 1.090E-02   33.45 9.685E-01  -44.11
433.2700 9.698E-01  -45.91 1.195E-02   33.48 1.195E-02   33.48 9.673E-01  -44.33
433.2825 9.694E-01  -46.13 1.305E-02   33.98 1.305E-02   33.98 9.674E-01  -44.50
433.2950 9.698E-01  -46.37 1.430E-02   34.05 1.430E-02   34.05 9.670E-01  -44.73
433.3075 9.686E-01  -46.59 1.561E-02   33.80 1.561E-02   33.80 9.670E-01  -44.94
433.3200 9.683E-01  -46.81 1.703E-02   33.60 1.703E-02   33.60 9.659E-01  -45.20
433.3325 9.677E-01  -47.11 1.859E-02   33.15 1.859E-02   33.15 9.656E-01  -45.42
433.3450 9.672E-01  -47.38 2.019E-02   33.01 2.019E-02   33.01 9.645E-01  -45.69
433.3575 9.660E-01  -47.66 2.211E-02   32.57 2.211E-02   32.57 9.638E-01  -45.95
433.3700 9.651E-01  -47.96 2.407E-02   32.14 2.407E-02   32.14 9.630E-01  -46.23
433.3825 9.644E-01  -48.30 2.642E-02   31.51 2.642E-02   31.51 9.619E-01  -46.57
433.3950 9.639E-01  -48.62 2.887E-02   31.18 2.887E-02   31.18 9.611E-01  -46.87
433.4075 9.624E-01  -49.03 3.168E-02   30.46 3.168E-02   30.46 9.597E-01  -47.22
433.4200 9.609E-01  -49.42 3.488E-02   29.80 3.488E-02   29.80 9.580E-01  -47.62
433.4325 9.597E-01  -49.84 3.851E-02   28.98 3.851E-02   28.98 9.565E-01  -48.05
433.4450 9.580E-01  -50.35 4.266E-02   28.13 4.266E-02   28.13 9.552E-01  -48.50
433.4575 9.574E-01  -50.88 4.729E-02   27.20 4.729E-02   27.20 9.519E-01  -48.86
433.4700 9.536E-01  -51.46 5.271E-02   26.13 5.271E-02   26.13 9.506E-01  -49.52
433.4825 9.503E-01  -52.12 5.907E-02   24.94 5.907E-02   24.94 9.475E-01  -50.16
433.4950 9.470E-01  -52.82 6.656E-02   23.62 6.656E-02   23.62 9.441E-01  -50.84
433.5075 9.425E-01  -53.63 7.538E-02   22.05 7.538E-02   22.05 9.404E-01  -51.59
433.5200 9.371E-01  -54.60 8.584E-02   20.31 8.584E-02   20.31 9.348E-01  -52.44
433.5325 9.296E-01  -55.62 9.852E-02   18.27 9.852E-02   18.27 9.279E-01  -53.48
433.5450 9.200E-01  -56.88 1.141E-01   15.83 1.141E-01   15.83 9.190E-01  -54.57
433.5575 9.072E-01  -58.30 1.332E-01   12.85 1.332E-01   12.85 9.070E-01  -55.93
433.5700 8.903E-01  -60.02 1.576E-01    9.22 1.576E-01    9.22 8.904E-01  -57.52
433.5825 8.643E-01  -62.03 1.876E-01    4.72 1.876E-01    4.72 8.669E-01  -59.33
433.5950 8.278E-01  -64.29 2.261E-01   -1.08 2.261E-01   -1.08 8.334E-01  -61.39
433.6075 7.742E-01  -66.78 2.748E-01   -8.77 2.748E-01   -8.77 7.826E-01  -63.64
433.6200 6.949E-01  -68.62 3.331E-01  -18.65 3.331E-01  -18.65 7.101E-01  -65.21
433.6325 5.936E-01  -67.79 3.946E-01  -31.21 3.946E-01  -31.21 6.160E-01  -64.33
433.6450 4.975E-01  -60.84 4.488E-01  -45.75 4.488E-01  -45.75 5.281E-01  -58.07
433.6575 4.603E-01  -46.03 4.849E-01  -61.57 4.849E-01  -61.57 4.926E-01  -45.41
433.6700 5.252E-01  -33.01 4.882E-01  -77.51 4.882E-01  -77.51 5.475E-01  -33.83
433.6825 6.274E-01  -29.34 4.636E-01  -91.14 4.636E-01  -91.14 6.397E-01  -30.01
433.6950 7.104E-01  -30.24 4.301E-01 -101.70 4.301E-01 -101.70 7.178E-01  -30.52
433.7075 7.689E-01  -32.34 3.991E-01 -109.78 3.991E-01 -109.78 7.731E-01  -32.45
433.7200 8.076E-01  -34.67 3.734E-01 -116.12 3.734E-01 -116.12 8.086E-01  -34.53
433.7325 8.326E-01  -36.89 3.545E-01 -121.28 3.545E-01 -121.28 8.325E-01  -36.57
433.7450 8.495E-01  -38.89 3.407E-01 -125.56 3.407E-01 -125.56 8.486E-01  -38.46
433.7575 8.595E-01  -40.68 3.313E-01 -129.15 3.313E-01 -129.15 8.579E-01  -40.18
433.7700 8.656E-01  -42.45 3.253E-01 -132.45 3.253E-01 -132.45 8.633E-01  -41.83
433.7825 8.679E-01  -44.08 3.243E-01 -135.51 3.243E-01 -135.51 8.655E-01  -43.41
433.7950 8.672E-01  -45.72 3.261E-01 -138.43 3.261E-01 -138.43 8.649E-01  -44.97
433.8075 8.634E-01  -47.35 3.309E-01 -141.29 3.309E-01 -141.29 8.608E-01  -46.60
433.8200 8.573E-01  -49.00 3.390E-01 -144.18 3.390E-01 -144.18 8.541E-01  -48.22
433.8325 8.476E-01  -50.73 3.507E-01 -147.23 3.507E-01 -147.23 8.445E-01  -49.97
433.8450 8.350E-01  -52.59 3.655E-01 -150.47 3.655E-01 -150.47 8.309E-01  -51.84
433.8575 8.166E-01  -54.60 3.845E-01 -154.04 3.845E-01 -154.04 8.130E-01  -53.83
433.8700 7.930E-01  -56.75 4.083E-01 -157.90 4.083E-01 -157.90 7.900E-01  -56.03
433.8825 7.617E-01  -59.07 4.364E-01 -162.37 4.364E-01 -162.37 7.584E-01  -58.44
433.8950 7.210E-01  -61.56 4.696E-01 -167.51 4.696E-01 -167.51 7.175E-01  -61.00
433.9075 6.669E-01  -64.00 5.076E-01 -173.57 5.076E-01 -173.57 6.626E-01  -63.63
433.9200 5.978E-01  -66.04 5.492E-01  179.21 5.492E-01  179.21 5.914E-01  -65.84
433.9325 5.126E-01  -66.57 5.893E-01  170.84 5.893E-01  170.84 5.027E-01  -66.41
433.9450 4.218E-01  -63.05 6.206E-01  161.35 6.206E-01  161.35 4.076E-01  -62.72
433.9575 3.471E-01  -53.64 6.415E-01  151.71 6.415E-01  151.71 3.334E-01  -51.90
433.9700 3.080E-01  -35.93 6.558E-01  141.41 6.558E-01  141.41 3.033E-01  -32.92
433.9825 3.464E-01  -16.60 6.533E-01  130.59 6.533E-01  130.59 3.469E-01  -14.61
433.9950 4.407E-01   -7.37 6.298E-01  119.94 6.298E-01  119.94 4.401E-01   -5.98
434.0075 5.416E-01   -5.83 5.937E-01  110.36 5.937E-01  110.36 5.400E-01   -4.53
434.0200 6.284E-01   -7.43 5.519E-01  102.10 5.519E-01  102.10 6.259E-01   -6.08
434.0325 6.959E-01  -10.01 5.104E-01   95.09 5.104E-01   95.09 6.934E-01   -8.75
434.0450 7.474E-01  -12.76 4.721E-01   89.24 4.721E-01   89.24 7.447E-01  -11.54
434.0575 7.860E-01  -15.43 4.394E-01   84.12 4.394E-01   84.12 7.836E-01  -14.26
434.0700 8.151E-01  -17.87 4.112E-01   79.74 4.112E-01   79.74 8.129E-01  -16.74
434.0825 8.369E-01  -20.08 3.883E-01   75.96 3.883E-01   75.96 8.344E-01  -18.97
434.0950 8.525E-01  -22.11 3.693E-01   72.54 3.693E-01   72.54 8.505E-01  -21.04
434.1075 8.643E-01  -23.86 3.537E-01   69.47 3.537E-01   69.47 8.620E-01  -22.96
434.1200 8.728E-01  -25.60 3.423E-01   66.61 3.423E-01   66.61 8.707E-01  -24.73
434.1325 8.784E-01  -27.20 3.340E-01   63.79 3.340E-01   63.79 8.762E-01  -26.39
434.1450 8.817E-01  -28.78 3.283E-01   61.23 3.283E-01   61.23 8.792E-01  -28.01
434.1575 8.819E-01  -30.29 3.260E-01   58.53 3.260E-01   58.53 8.796E-01  -29.57
434.1700 8.804E-01  -31.74 3.264E-01   55.84 3.264E-01   55.84 8.771E-01  -31.16
434.1825 8.762E-01  -33.30 3.305E-01   53.04 3.305E-01   53.04 8.729E-01  -32.82
434.1950 8.683E-01  -34.93 3.380E-01   49.90 3.380E-01   49.90 8.644E-01  -34.57
434.2075 8.565E-01  -36.58 3.498E-01   46.44 3.498E-01   46.44 8.515E-01  -36.43
434.2200 8.392E-01  -38.45 3.660E-01   42.42 3.660E-01   42.42 8.331E-01  -38.43
434.2325 8.127E-01  -40.42 3.882E-01   37.78 3.882E-01   37.78 8.053E-01  -40.66
434.2450 7.751E-01  -42.55 4.167E-01   31.81 4.167E-01   31.81 7.649E-01  -43.09
434.2575 7.193E-01  -44.49 4.523E-01   24.34 4.523E-01   24.34 7.043E-01  -45.48
434.2700 6.402E-01  -45.34 4.916E-01   14.58 4.916E-01   14.58 6.178E-01  -46.83
434.2825 5.410E-01  -42.40 5.275E-01    2.00 5.275E-01    2.00 5.065E-01  -44.17
434.2950 4.653E-01  -31.08 5.417E-01  -13.11 5.417E-01  -13.11 4.161E-01  -31.03
434.3075 4.822E-01  -14.19 5.240E-01  -29.72 5.240E-01  -29.72 4.339E-01  -10.38
434.3200 5.938E-01   -5.28 4.687E-01  -46.20 4.687E-01  -46.20 5.595E-01   -0.17
434.3325 7.123E-01   -5.07 3.945E-01  -59.91 3.945E-01  -59.91 6.912E-01   -0.27
434.3450 7.984E-01   -7.65 3.245E-01  -70.41 3.245E-01  -70.41 7.852E-01   -3.44
434.3575 8.542E-01  -10.56 2.670E-01  -78.29 2.670E-01  -78.29 8.473E-01   -6.80
434.3700 8.902E-01  -13.19 2.216E-01  -84.22 2.216E-01  -84.22 8.867E-01   -9.82
