! S-Parameter for B3761 in Touchstone format with Magnitude (lin) and Phase 
! Normalised impedance: 50 Ohm. Measurement system: 50 Ohm. Ta=20°C
! B3761_50.S2P not matched. Measurement full 2-port calibrated incl. Port.Ext. 
! Start: 290MHz, Stop: 340MHz, Span 50MHz, 1601Pts., Step 31.25kHz.   
! Date: 14/12/04 - EPCOS SAW CE AE PD; AB
! Pinning according data sheet recommendation: IN P2, OUT P5, other GND
!
# MHz  S  MA  R  50
!
! Freq			  S11                	      S21	                 S12	                    S22
2.900000E+02  9.909698E-01 -3.062644E+01  3.748139E-04 6.728232E+01  3.757126E-04 6.692069E+01  9.893197E-01 -2.956657E+01 
2.900312E+02  9.909800E-01 -3.062498E+01  3.734351E-04 6.686817E+01  3.679672E-04 6.693380E+01  9.892035E-01 -2.957005E+01 
2.900625E+02  9.909266E-01 -3.062514E+01  3.727898E-04 6.464680E+01  3.761861E-04 6.483368E+01  9.891956E-01 -2.957412E+01 
2.900938E+02  9.909024E-01 -3.063589E+01  3.699850E-04 6.469717E+01  3.706845E-04 6.481234E+01  9.893474E-01 -2.957727E+01 
2.901250E+02  9.909822E-01 -3.063960E+01  3.755551E-04 6.308149E+01  3.752433E-04 6.392711E+01  9.892711E-01 -2.957806E+01 
2.901562E+02  9.907521E-01 -3.063180E+01  3.668811E-04 6.259372E+01  3.707832E-04 6.250048E+01  9.894224E-01 -2.958331E+01 
2.901875E+02  9.908353E-01 -3.064022E+01  3.673595E-04 6.192377E+01  3.665777E-04 6.189251E+01  9.892891E-01 -2.959052E+01 
2.902188E+02  9.909991E-01 -3.064312E+01  3.696121E-04 6.179750E+01  3.702055E-04 6.120096E+01  9.892665E-01 -2.958242E+01 
2.902500E+02  9.909260E-01 -3.064923E+01  3.691447E-04 6.070495E+01  3.619907E-04 6.016268E+01  9.893186E-01 -2.958975E+01 
2.902812E+02  9.909909E-01 -3.065632E+01  3.661466E-04 5.973504E+01  3.554292E-04 5.954269E+01  9.893710E-01 -2.959178E+01 
2.903125E+02  9.910186E-01 -3.066618E+01  3.605229E-04 5.986891E+01  3.568524E-04 6.045688E+01  9.892763E-01 -2.960077E+01 
2.903438E+02  9.909735E-01 -3.065310E+01  3.527271E-04 5.895702E+01  3.540625E-04 5.827423E+01  9.893163E-01 -2.960215E+01 
2.903750E+02  9.908816E-01 -3.066165E+01  3.510123E-04 5.823615E+01  3.413607E-04 5.888956E+01  9.892123E-01 -2.960175E+01 
2.904062E+02  9.908846E-01 -3.066719E+01  3.486704E-04 5.870772E+01  3.531196E-04 5.896092E+01  9.892387E-01 -2.961157E+01 
2.904375E+02  9.910287E-01 -3.066873E+01  3.484383E-04 5.896392E+01  3.458332E-04 5.826100E+01  9.893815E-01 -2.961141E+01 
2.904688E+02  9.909422E-01 -3.067244E+01  3.381986E-04 5.758990E+01  3.409968E-04 5.775427E+01  9.891565E-01 -2.961670E+01 
2.905000E+02  9.910315E-01 -3.067935E+01  3.291655E-04 5.817956E+01  3.368851E-04 5.707881E+01  9.893818E-01 -2.962242E+01 
2.905312E+02  9.908838E-01 -3.067247E+01  3.269043E-04 5.798164E+01  3.256726E-04 5.731762E+01  9.892364E-01 -2.963006E+01 
2.905625E+02  9.910018E-01 -3.068149E+01  3.216278E-04 5.844146E+01  3.195587E-04 5.933084E+01  9.893697E-01 -2.962326E+01 
2.905938E+02  9.910442E-01 -3.068524E+01  3.156417E-04 5.842416E+01  3.182851E-04 5.914369E+01  9.893664E-01 -2.962297E+01 
2.906250E+02  9.909852E-01 -3.069153E+01  3.027143E-04 5.927149E+01  3.032378E-04 5.973338E+01  9.893406E-01 -2.963074E+01 
2.906562E+02  9.908342E-01 -3.068357E+01  3.135829E-04 6.076114E+01  3.087814E-04 6.030749E+01  9.892385E-01 -2.963598E+01 
2.906875E+02  9.910221E-01 -3.069970E+01  3.020631E-04 6.257945E+01  3.032893E-04 6.277177E+01  9.893467E-01 -2.963512E+01 
2.907188E+02  9.909978E-01 -3.070106E+01  3.044947E-04 6.201882E+01  3.043984E-04 6.338248E+01  9.894232E-01 -2.964426E+01 
2.907500E+02  9.910225E-01 -3.069697E+01  3.084960E-04 6.520064E+01  3.083674E-04 6.468797E+01  9.894103E-01 -2.963915E+01 
2.907812E+02  9.911531E-01 -3.071200E+01  3.114217E-04 6.576260E+01  3.056745E-04 6.546584E+01  9.892682E-01 -2.963868E+01 
2.908125E+02  9.908864E-01 -3.072005E+01  3.112654E-04 6.532064E+01  3.114078E-04 6.387742E+01  9.892728E-01 -2.964526E+01 
2.908438E+02  9.909842E-01 -3.070655E+01  3.185603E-04 6.561660E+01  3.186962E-04 6.657307E+01  9.893338E-01 -2.965508E+01 
2.908750E+02  9.909274E-01 -3.071321E+01  3.185103E-04 6.539666E+01  3.116307E-04 6.604083E+01  9.894923E-01 -2.966695E+01 
2.909062E+02  9.911493E-01 -3.071664E+01  3.286010E-04 6.679790E+01  3.181441E-04 6.715814E+01  9.891634E-01 -2.965761E+01 
2.909375E+02  9.910446E-01 -3.072362E+01  3.215782E-04 6.711807E+01  3.182545E-04 6.613317E+01  9.893122E-01 -2.966869E+01 
2.909688E+02  9.909369E-01 -3.072596E+01  3.192521E-04 6.812017E+01  3.239409E-04 6.591510E+01  9.893274E-01 -2.966978E+01 
2.910000E+02  9.909519E-01 -3.074117E+01  3.264718E-04 6.782529E+01  3.235461E-04 6.746512E+01  9.893559E-01 -2.966977E+01 
2.910312E+02  9.910980E-01 -3.073332E+01  3.325350E-04 6.682057E+01  3.288795E-04 6.784788E+01  9.894046E-01 -2.967407E+01 
2.910625E+02  9.909682E-01 -3.073686E+01  3.339334E-04 6.698882E+01  3.331031E-04 6.780447E+01  9.893770E-01 -2.968158E+01 
2.910938E+02  9.909136E-01 -3.074408E+01  3.313378E-04 6.739084E+01  3.341018E-04 6.634382E+01  9.893069E-01 -2.968911E+01 
2.911250E+02  9.910342E-01 -3.074347E+01  3.374055E-04 6.556776E+01  3.309508E-04 6.674620E+01  9.893513E-01 -2.968500E+01 
2.911562E+02  9.909061E-01 -3.075073E+01  3.456836E-04 6.713839E+01  3.405330E-04 6.677407E+01  9.892906E-01 -2.968967E+01 
2.911875E+02  9.910951E-01 -3.075060E+01  3.395787E-04 6.582149E+01  3.474827E-04 6.648884E+01  9.892817E-01 -2.969098E+01 
2.912188E+02  9.910382E-01 -3.076194E+01  3.391217E-04 6.535744E+01  3.410246E-04 6.748375E+01  9.892660E-01 -2.969568E+01 
2.912500E+02  9.909554E-01 -3.075587E+01  3.480147E-04 6.648721E+01  3.384431E-04 6.638984E+01  9.893129E-01 -2.969842E+01 
2.912812E+02  9.910667E-01 -3.075997E+01  3.479158E-04 6.677401E+01  3.471692E-04 6.707250E+01  9.893686E-01 -2.970429E+01 
2.913125E+02  9.910179E-01 -3.076105E+01  3.428085E-04 6.544409E+01  3.534463E-04 6.512817E+01  9.893589E-01 -2.970816E+01 
2.913438E+02  9.909793E-01 -3.076623E+01  3.495404E-04 6.505381E+01  3.392888E-04 6.504091E+01  9.893114E-01 -2.970539E+01 
2.913750E+02  9.909374E-01 -3.077369E+01  3.496056E-04 6.577697E+01  3.432647E-04 6.534145E+01  9.893533E-01 -2.971951E+01 
2.914062E+02  9.910562E-01 -3.077655E+01  3.495617E-04 6.491363E+01  3.425197E-04 6.466448E+01  9.892636E-01 -2.971998E+01 
2.914375E+02  9.909492E-01 -3.078218E+01  3.399594E-04 6.311147E+01  3.440373E-04 6.462343E+01  9.893565E-01 -2.972441E+01 
2.914688E+02  9.909047E-01 -3.077669E+01  3.551290E-04 6.381951E+01  3.522384E-04 6.401936E+01  9.892506E-01 -2.971995E+01 
2.915000E+02  9.909591E-01 -3.078878E+01  3.455611E-04 6.375428E+01  3.484133E-04 6.364172E+01  9.892994E-01 -2.973231E+01 
2.915312E+02  9.909457E-01 -3.078935E+01  3.431288E-04 6.394231E+01  3.412619E-04 6.277153E+01  9.893957E-01 -2.973569E+01 
2.915625E+02  9.909923E-01 -3.080122E+01  3.428618E-04 6.331738E+01  3.458336E-04 6.269295E+01  9.892414E-01 -2.974376E+01 
2.915938E+02  9.910986E-01 -3.080011E+01  3.441188E-04 6.222553E+01  3.421538E-04 6.319889E+01  9.893493E-01 -2.974054E+01 
2.916250E+02  9.910035E-01 -3.079371E+01  3.434968E-04 6.349718E+01  3.446019E-04 6.241081E+01  9.893773E-01 -2.974834E+01 
2.916562E+02  9.910123E-01 -3.081236E+01  3.398296E-04 6.233039E+01  3.421498E-04 6.245256E+01  9.893534E-01 -2.974096E+01 
2.916875E+02  9.909766E-01 -3.081367E+01  3.350963E-04 6.353383E+01  3.419937E-04 6.299451E+01  9.893379E-01 -2.974643E+01 
2.917188E+02  9.909792E-01 -3.081422E+01  3.384506E-04 6.179916E+01  3.324020E-04 6.213321E+01  9.893315E-01 -2.975005E+01 
2.917500E+02  9.909805E-01 -3.081152E+01  3.379811E-04 6.351376E+01  3.384546E-04 6.204123E+01  9.893627E-01 -2.975550E+01 
2.917812E+02  9.909616E-01 -3.081960E+01  3.296530E-04 6.246585E+01  3.358238E-04 6.260965E+01  9.891584E-01 -2.976198E+01 
2.918125E+02  9.910050E-01 -3.082296E+01  3.385538E-04 6.230015E+01  3.304651E-04 6.186659E+01  9.893698E-01 -2.976453E+01 
2.918438E+02  9.911543E-01 -3.082604E+01  3.272051E-04 6.113466E+01  3.353420E-04 6.304435E+01  9.891934E-01 -2.977250E+01 
2.918750E+02  9.910056E-01 -3.083257E+01  3.312248E-04 6.146967E+01  3.304454E-04 6.225769E+01  9.892737E-01 -2.976869E+01 
2.919062E+02  9.910281E-01 -3.083554E+01  3.327202E-04 6.142023E+01  3.207969E-04 6.241603E+01  9.894705E-01 -2.978137E+01 
2.919375E+02  9.909639E-01 -3.083214E+01  3.245729E-04 6.112965E+01  3.297860E-04 6.088421E+01  9.893748E-01 -2.977909E+01 
2.919688E+02  9.910678E-01 -3.083550E+01  3.206464E-04 6.180994E+01  3.193563E-04 6.137219E+01  9.893292E-01 -2.978276E+01 
2.920000E+02  9.910788E-01 -3.084731E+01  3.294840E-04 6.182244E+01  3.146953E-04 6.158542E+01  9.893050E-01 -2.979549E+01 
2.920312E+02  9.910519E-01 -3.084603E+01  3.176354E-04 6.320130E+01  3.193362E-04 6.269374E+01  9.892856E-01 -2.979365E+01 
2.920625E+02  9.908003E-01 -3.086412E+01  3.238476E-04 6.168148E+01  3.131061E-04 6.243403E+01  9.891990E-01 -2.979242E+01 
2.920938E+02  9.909422E-01 -3.086290E+01  3.117032E-04 6.321336E+01  3.102156E-04 6.383434E+01  9.893645E-01 -2.979616E+01 
2.921250E+02  9.908935E-01 -3.086437E+01  3.100608E-04 6.345857E+01  3.160800E-04 6.484814E+01  9.892901E-01 -2.979888E+01 
2.921562E+02  9.909211E-01 -3.086036E+01  3.105972E-04 6.300470E+01  3.079721E-04 6.388591E+01  9.893531E-01 -2.980970E+01 
2.921875E+02  9.910197E-01 -3.087236E+01  3.081682E-04 6.408884E+01  3.070707E-04 6.425663E+01  9.892733E-01 -2.980481E+01 
2.922188E+02  9.909377E-01 -3.086713E+01  3.154042E-04 6.475809E+01  3.047132E-04 6.535198E+01  9.893520E-01 -2.982406E+01 
2.922500E+02  9.910109E-01 -3.087792E+01  3.093259E-04 6.587632E+01  3.002632E-04 6.499651E+01  9.892694E-01 -2.981574E+01 
2.922812E+02  9.910623E-01 -3.088183E+01  3.049050E-04 6.581915E+01  3.033140E-04 6.566075E+01  9.892139E-01 -2.982395E+01 
2.923125E+02  9.908387E-01 -3.088721E+01  3.019905E-04 6.771444E+01  3.055461E-04 6.704375E+01  9.893343E-01 -2.982215E+01 
2.923438E+02  9.910264E-01 -3.089623E+01  3.099793E-04 6.749119E+01  3.090465E-04 6.747308E+01  9.892066E-01 -2.983303E+01 
2.923750E+02  9.908993E-01 -3.088753E+01  3.015266E-04 6.879667E+01  3.061629E-04 6.797584E+01  9.892832E-01 -2.983549E+01 
2.924062E+02  9.907358E-01 -3.089619E+01  3.103263E-04 6.922926E+01  3.080567E-04 6.986986E+01  9.891956E-01 -2.983749E+01 
2.924375E+02  9.908939E-01 -3.089374E+01  3.183100E-04 7.057972E+01  3.118714E-04 7.044996E+01  9.893142E-01 -2.984372E+01 
2.924688E+02  9.910417E-01 -3.090004E+01  3.170441E-04 7.125612E+01  3.188687E-04 7.178033E+01  9.892552E-01 -2.984525E+01 
2.925000E+02  9.909719E-01 -3.090702E+01  3.243187E-04 7.153173E+01  3.207604E-04 7.183606E+01  9.891901E-01 -2.984262E+01 
2.925312E+02  9.909756E-01 -3.090892E+01  3.340685E-04 7.278754E+01  3.305889E-04 7.223239E+01  9.891642E-01 -2.985000E+01 
2.925625E+02  9.908431E-01 -3.091337E+01  3.395239E-04 7.299502E+01  3.352500E-04 7.267503E+01  9.890976E-01 -2.985167E+01 
2.925938E+02  9.909834E-01 -3.091811E+01  3.534808E-04 7.267117E+01  3.470390E-04 7.353669E+01  9.891774E-01 -2.985484E+01 
2.926250E+02  9.907211E-01 -3.092890E+01  3.616917E-04 7.187082E+01  3.554575E-04 7.282812E+01  9.892270E-01 -2.986691E+01 
2.926562E+02  9.909470E-01 -3.092090E+01  3.671117E-04 7.215251E+01  3.613465E-04 7.098257E+01  9.892376E-01 -2.985670E+01 
2.926875E+02  9.908445E-01 -3.091732E+01  3.689864E-04 7.050098E+01  3.655418E-04 7.150474E+01  9.891174E-01 -2.986453E+01 
2.927188E+02  9.908473E-01 -3.092956E+01  3.726118E-04 7.044427E+01  3.625254E-04 7.005851E+01  9.892347E-01 -2.987037E+01 
2.927500E+02  9.908982E-01 -3.092752E+01  3.740228E-04 6.944464E+01  3.690791E-04 7.012629E+01  9.891362E-01 -2.986727E+01 
2.927812E+02  9.908776E-01 -3.093420E+01  3.741817E-04 6.898819E+01  3.794712E-04 6.853468E+01  9.892030E-01 -2.987602E+01 
2.928125E+02  9.909584E-01 -3.093811E+01  3.824170E-04 6.787271E+01  3.740024E-04 6.798791E+01  9.891965E-01 -2.987857E+01 
2.928438E+02  9.908713E-01 -3.094870E+01  3.768717E-04 6.695254E+01  3.741051E-04 6.680672E+01  9.892536E-01 -2.988871E+01 
2.928750E+02  9.909264E-01 -3.094597E+01  3.768637E-04 6.620040E+01  3.812873E-04 6.659793E+01  9.891987E-01 -2.988235E+01 
2.929062E+02  9.908537E-01 -3.095056E+01  3.821487E-04 6.475672E+01  3.819033E-04 6.445541E+01  9.891116E-01 -2.988617E+01 
2.929375E+02  9.908548E-01 -3.095543E+01  3.812928E-04 6.334069E+01  3.772302E-04 6.382339E+01  9.891540E-01 -2.990011E+01 
2.929688E+02  9.909309E-01 -3.096293E+01  3.817265E-04 6.326950E+01  3.794492E-04 6.408381E+01  9.890382E-01 -2.990010E+01 
2.930000E+02  9.909295E-01 -3.095973E+01  3.852636E-04 6.351148E+01  3.756798E-04 6.382972E+01  9.891478E-01 -2.989909E+01 
2.930312E+02  9.909327E-01 -3.096722E+01  3.819750E-04 6.292955E+01  3.758824E-04 6.122474E+01  9.891970E-01 -2.990520E+01 
2.930625E+02  9.907709E-01 -3.096937E+01  3.781173E-04 6.231610E+01  3.766197E-04 6.029352E+01  9.893456E-01 -2.991257E+01 
2.930938E+02  9.909076E-01 -3.097090E+01  3.720669E-04 6.157000E+01  3.786999E-04 6.049751E+01  9.891798E-01 -2.991129E+01 
2.931250E+02  9.909265E-01 -3.097254E+01  3.704224E-04 6.003194E+01  3.670669E-04 6.041884E+01  9.891395E-01 -2.991075E+01 
2.931562E+02  9.907706E-01 -3.097747E+01  3.682989E-04 5.971597E+01  3.573582E-04 5.939228E+01  9.890230E-01 -2.991555E+01 
2.931875E+02  9.907619E-01 -3.098883E+01  3.624447E-04 5.732273E+01  3.581937E-04 5.951559E+01  9.890749E-01 -2.991975E+01 
2.932188E+02  9.908499E-01 -3.099204E+01  3.531694E-04 5.817202E+01  3.505734E-04 5.808712E+01  9.892340E-01 -2.992485E+01 
2.932500E+02  9.907861E-01 -3.098958E+01  3.446967E-04 5.708139E+01  3.472483E-04 5.658132E+01  9.891404E-01 -2.993272E+01 
2.932812E+02  9.907892E-01 -3.099300E+01  3.303826E-04 5.710092E+01  3.434102E-04 5.732348E+01  9.891813E-01 -2.992706E+01 
2.933125E+02  9.907314E-01 -3.099102E+01  3.232667E-04 5.918840E+01  3.225757E-04 5.717023E+01  9.890699E-01 -2.993493E+01 
2.933438E+02  9.909252E-01 -3.100453E+01  3.189562E-04 5.770165E+01  3.211129E-04 5.770036E+01  9.890550E-01 -2.994075E+01 
2.933750E+02  9.907101E-01 -3.100090E+01  3.124791E-04 5.864186E+01  3.113364E-04 5.813241E+01  9.890226E-01 -2.993931E+01 
2.934062E+02  9.907474E-01 -3.100643E+01  3.089118E-04 5.997973E+01  3.100750E-04 6.042629E+01  9.890019E-01 -2.994704E+01 
2.934375E+02  9.908842E-01 -3.101152E+01  3.092257E-04 6.012501E+01  2.991631E-04 6.048481E+01  9.890847E-01 -2.994600E+01 
2.934688E+02  9.908323E-01 -3.101785E+01  3.070360E-04 6.247710E+01  2.954110E-04 6.306143E+01  9.890667E-01 -2.994865E+01 
2.935000E+02  9.907984E-01 -3.101812E+01  3.016086E-04 6.315672E+01  2.984646E-04 6.190360E+01  9.890526E-01 -2.995574E+01 
2.935312E+02  9.906928E-01 -3.102138E+01  3.019284E-04 6.338618E+01  2.986943E-04 6.492488E+01  9.891727E-01 -2.995796E+01 
2.935625E+02  9.906098E-01 -3.102447E+01  2.977121E-04 6.485669E+01  2.993502E-04 6.572498E+01  9.891701E-01 -2.996131E+01 
2.935938E+02  9.907110E-01 -3.102247E+01  2.948425E-04 6.663197E+01  2.999015E-04 6.597687E+01  9.890741E-01 -2.995971E+01 
2.936250E+02  9.909368E-01 -3.103370E+01  3.002421E-04 6.868097E+01  2.964906E-04 6.853383E+01  9.890817E-01 -2.997188E+01 
2.936562E+02  9.907889E-01 -3.103090E+01  3.020137E-04 7.045135E+01  2.986397E-04 6.869709E+01  9.890503E-01 -2.996766E+01 
2.936875E+02  9.907996E-01 -3.104113E+01  3.020338E-04 7.046236E+01  3.160144E-04 7.175752E+01  9.890058E-01 -2.997662E+01 
2.937188E+02  9.907780E-01 -3.104119E+01  3.160554E-04 7.340295E+01  3.104519E-04 7.308366E+01  9.889842E-01 -2.997927E+01 
2.937500E+02  9.907494E-01 -3.104424E+01  3.181889E-04 7.465024E+01  3.259700E-04 7.525761E+01  9.890048E-01 -2.998842E+01 
2.937812E+02  9.907326E-01 -3.104950E+01  3.434492E-04 7.537310E+01  3.379868E-04 7.559305E+01  9.889882E-01 -2.998490E+01 
2.938125E+02  9.907254E-01 -3.104831E+01  3.547851E-04 7.531723E+01  3.497085E-04 7.497744E+01  9.890963E-01 -2.998894E+01 
2.938438E+02  9.907647E-01 -3.105465E+01  3.629855E-04 7.516856E+01  3.668697E-04 7.386231E+01  9.889862E-01 -2.998170E+01 
2.938750E+02  9.908220E-01 -3.106224E+01  3.791117E-04 7.474541E+01  3.782364E-04 7.379630E+01  9.888590E-01 -2.999349E+01 
2.939062E+02  9.907389E-01 -3.105936E+01  3.863589E-04 7.288446E+01  3.842994E-04 7.199040E+01  9.890014E-01 -2.998869E+01 
2.939375E+02  9.908892E-01 -3.106822E+01  3.927712E-04 7.026464E+01  3.903371E-04 7.090195E+01  9.890629E-01 -3.000002E+01 
2.939688E+02  9.906934E-01 -3.106740E+01  4.008265E-04 6.917035E+01  4.067153E-04 6.973041E+01  9.889234E-01 -3.000585E+01 
2.940000E+02  9.906713E-01 -3.106319E+01  4.035090E-04 6.759149E+01  4.002237E-04 6.749032E+01  9.890316E-01 -3.000747E+01 
2.940312E+02  9.905235E-01 -3.107447E+01  4.057300E-04 6.587267E+01  3.959705E-04 6.620370E+01  9.889659E-01 -3.001349E+01 
2.940625E+02  9.907364E-01 -3.107676E+01  4.029666E-04 6.463130E+01  4.020044E-04 6.590791E+01  9.891022E-01 -3.000670E+01 
2.940938E+02  9.908419E-01 -3.107576E+01  4.050531E-04 6.244203E+01  3.998293E-04 6.397371E+01  9.891587E-01 -3.001692E+01 
2.941250E+02  9.909304E-01 -3.107868E+01  4.037868E-04 6.184329E+01  3.993405E-04 6.187868E+01  9.890414E-01 -3.002159E+01 
2.941562E+02  9.906765E-01 -3.108662E+01  4.005893E-04 6.158575E+01  3.975239E-04 6.161386E+01  9.890511E-01 -3.002555E+01 
2.941875E+02  9.906754E-01 -3.109050E+01  4.028869E-04 6.040174E+01  4.038984E-04 6.014485E+01  9.889230E-01 -3.003197E+01 
2.942188E+02  9.906763E-01 -3.109604E+01  3.893835E-04 6.051837E+01  3.855693E-04 5.913805E+01  9.890803E-01 -3.003115E+01 
2.942500E+02  9.908628E-01 -3.109816E+01  3.945717E-04 5.855016E+01  3.870689E-04 5.824592E+01  9.890069E-01 -3.003582E+01 
2.942812E+02  9.907758E-01 -3.110458E+01  3.857344E-04 5.756956E+01  3.819789E-04 5.723412E+01  9.889049E-01 -3.003219E+01 
2.943125E+02  9.908471E-01 -3.110669E+01  3.824040E-04 5.754521E+01  3.874305E-04 5.597485E+01  9.890579E-01 -3.004282E+01 
2.943438E+02  9.907653E-01 -3.111760E+01  3.729037E-04 5.484006E+01  3.778755E-04 5.497700E+01  9.890980E-01 -3.003867E+01 
2.943750E+02  9.907778E-01 -3.111739E+01  3.656624E-04 5.354498E+01  3.731568E-04 5.370227E+01  9.890508E-01 -3.004299E+01 
2.944062E+02  9.906982E-01 -3.111125E+01  3.569590E-04 5.405109E+01  3.657056E-04 5.248748E+01  9.890406E-01 -3.005687E+01 
2.944375E+02  9.907554E-01 -3.110951E+01  3.531452E-04 5.105831E+01  3.489292E-04 5.124426E+01  9.890096E-01 -3.005271E+01 
2.944688E+02  9.907118E-01 -3.112370E+01  3.414283E-04 5.064876E+01  3.411706E-04 5.108183E+01  9.889806E-01 -3.004924E+01 
2.945000E+02  9.907783E-01 -3.112699E+01  3.282781E-04 5.134144E+01  3.255038E-04 5.103226E+01  9.891108E-01 -3.005418E+01 
2.945312E+02  9.906733E-01 -3.112496E+01  3.113477E-04 5.127262E+01  3.078387E-04 5.098790E+01  9.889779E-01 -3.005910E+01 
2.945625E+02  9.908376E-01 -3.112890E+01  2.940936E-04 5.248391E+01  3.031528E-04 5.253410E+01  9.891443E-01 -3.006615E+01 
2.945938E+02  9.907153E-01 -3.112521E+01  2.821769E-04 5.370878E+01  2.856884E-04 5.555267E+01  9.889724E-01 -3.006424E+01 
2.946250E+02  9.906827E-01 -3.113708E+01  2.838812E-04 5.627228E+01  2.807105E-04 5.798163E+01  9.890154E-01 -3.006908E+01 
2.946562E+02  9.907605E-01 -3.114219E+01  2.768420E-04 5.835819E+01  2.770268E-04 5.916433E+01  9.891253E-01 -3.007426E+01 
2.946875E+02  9.907412E-01 -3.113707E+01  2.820934E-04 6.110646E+01  2.751509E-04 6.130737E+01  9.890344E-01 -3.007967E+01 
2.947188E+02  9.907747E-01 -3.114185E+01  2.843129E-04 6.267513E+01  2.794946E-04 6.219439E+01  9.890091E-01 -3.007694E+01 
2.947500E+02  9.910263E-01 -3.114993E+01  2.814851E-04 6.547280E+01  2.812722E-04 6.533545E+01  9.890915E-01 -3.008505E+01 
2.947812E+02  9.907747E-01 -3.115763E+01  2.967340E-04 6.715092E+01  2.965750E-04 6.628139E+01  9.891585E-01 -3.008437E+01 
2.948125E+02  9.909397E-01 -3.116527E+01  2.973120E-04 6.763392E+01  2.927437E-04 6.794170E+01  9.891849E-01 -3.008992E+01 
