! Matrix data file written by TouchstoneData, EPCOS AG
! FILENAME: "B3770_WB.s2p"
! COMMENT: "AUF PLATINE QCC8C 2/5 12 Nov 2004 S11-KEIN K"
! INFO: nport=2, nfreq=1601
! DATE: "Thu Sep 20 11:27:03 2012"
! USER: "Wilfried Schott"
!
! port | pin | signal
! -----|-----|--------
!   1  |  2  |  IN
!   2  |  5  |  OUT
! --------------------
! 
# MHZ S MA R 50
! freq  magS11 angS11  magS21 angS21  magS12 angS12  magS22 angS22
4.010750E+02  9.835835E-01 -3.555909E+01  3.951178E-04 6.113447E+01  3.886413E-04 6.167553E+01  9.820884E-01 -3.638935E+01 
4.011062E+02  9.834867E-01 -3.555985E+01  3.929699E-04 6.031656E+01  3.883259E-04 6.163941E+01  9.820750E-01 -3.639365E+01 
4.011375E+02  9.836074E-01 -3.556290E+01  3.870472E-04 6.117246E+01  3.902825E-04 6.060467E+01  9.819676E-01 -3.640416E+01 
4.011687E+02  9.835820E-01 -3.556173E+01  3.871919E-04 5.992062E+01  3.915071E-04 6.032574E+01  9.819957E-01 -3.640907E+01 
4.012000E+02  9.834825E-01 -3.557061E+01  3.952396E-04 6.080380E+01  3.874012E-04 6.114083E+01  9.821070E-01 -3.640602E+01 
4.012312E+02  9.837542E-01 -3.557516E+01  3.903644E-04 6.019663E+01  3.869805E-04 5.956742E+01  9.820503E-01 -3.641889E+01 
4.012625E+02  9.836111E-01 -3.557367E+01  3.908403E-04 5.960580E+01  3.820123E-04 6.054305E+01  9.820382E-01 -3.641669E+01 
4.012937E+02  9.835406E-01 -3.558114E+01  3.867145E-04 5.962071E+01  3.816288E-04 6.010894E+01  9.821000E-01 -3.641758E+01 
4.013250E+02  9.835107E-01 -3.557859E+01  3.846614E-04 6.050499E+01  3.817842E-04 5.978370E+01  9.820654E-01 -3.642187E+01 
4.013562E+02  9.834615E-01 -3.558642E+01  3.809329E-04 6.218420E+01  3.864178E-04 6.105269E+01  9.821544E-01 -3.642269E+01 
4.013875E+02  9.835506E-01 -3.558861E+01  3.837196E-04 6.056323E+01  3.733129E-04 6.094164E+01  9.819703E-01 -3.642838E+01 
4.014187E+02  9.835404E-01 -3.559912E+01  3.855725E-04 6.117431E+01  3.759120E-04 6.170533E+01  9.822181E-01 -3.642986E+01 
4.014500E+02  9.835326E-01 -3.559151E+01  3.824227E-04 6.111343E+01  3.815092E-04 6.223199E+01  9.821622E-01 -3.643455E+01 
4.014812E+02  9.835830E-01 -3.559657E+01  3.838362E-04 6.136985E+01  3.833833E-04 6.099222E+01  9.820514E-01 -3.643490E+01 
4.015125E+02  9.834505E-01 -3.560451E+01  3.880604E-04 6.227698E+01  3.791193E-04 6.219916E+01  9.820955E-01 -3.643640E+01 
4.015437E+02  9.834417E-01 -3.559782E+01  3.850150E-04 6.298316E+01  3.843141E-04 6.269771E+01  9.819130E-01 -3.644560E+01 
4.015750E+02  9.834070E-01 -3.560715E+01  3.915735E-04 6.225700E+01  3.825227E-04 6.314563E+01  9.820506E-01 -3.645077E+01 
4.016062E+02  9.836463E-01 -3.561285E+01  3.844660E-04 6.270102E+01  3.859732E-04 6.227094E+01  9.820654E-01 -3.644739E+01 
4.016375E+02  9.833713E-01 -3.561287E+01  3.913549E-04 6.249511E+01  3.806738E-04 6.315200E+01  9.821408E-01 -3.646060E+01 
4.016687E+02  9.835001E-01 -3.561968E+01  3.876454E-04 6.291087E+01  3.887227E-04 6.330794E+01  9.820949E-01 -3.645452E+01 
4.017000E+02  9.835021E-01 -3.562123E+01  3.995010E-04 6.286094E+01  3.973122E-04 6.357595E+01  9.819419E-01 -3.645777E+01 
4.017312E+02  9.833067E-01 -3.562568E+01  3.897794E-04 6.356118E+01  3.908957E-04 6.352505E+01  9.819972E-01 -3.646274E+01 
4.017625E+02  9.834073E-01 -3.562856E+01  3.931477E-04 6.174314E+01  3.977124E-04 6.275807E+01  9.820278E-01 -3.646855E+01 
4.017937E+02  9.834784E-01 -3.563577E+01  4.058651E-04 6.354588E+01  3.921358E-04 6.276724E+01  9.821411E-01 -3.646643E+01 
4.018250E+02  9.834315E-01 -3.563152E+01  3.991724E-04 6.300819E+01  3.996654E-04 6.368254E+01  9.819515E-01 -3.647500E+01 
4.018562E+02  9.833941E-01 -3.564142E+01  4.020637E-04 6.299851E+01  3.980988E-04 6.362317E+01  9.820502E-01 -3.646865E+01 
4.018875E+02  9.834718E-01 -3.564257E+01  3.997725E-04 6.306593E+01  4.048524E-04 6.295577E+01  9.820432E-01 -3.648728E+01 
4.019187E+02  9.834451E-01 -3.563376E+01  4.025554E-04 6.357376E+01  4.019833E-04 6.371183E+01  9.820046E-01 -3.647777E+01 
4.019500E+02  9.834564E-01 -3.563800E+01  4.116974E-04 6.383433E+01  4.100613E-04 6.340245E+01  9.820336E-01 -3.648881E+01 
4.019812E+02  9.833302E-01 -3.565489E+01  4.127152E-04 6.423303E+01  4.069827E-04 6.368866E+01  9.818928E-01 -3.648995E+01 
4.020125E+02  9.834211E-01 -3.564856E+01  4.130822E-04 6.353771E+01  4.137467E-04 6.430330E+01  9.819406E-01 -3.648417E+01 
4.020437E+02  9.835353E-01 -3.565645E+01  4.093499E-04 6.290952E+01  4.171713E-04 6.323862E+01  9.820676E-01 -3.649843E+01 
4.020750E+02  9.835134E-01 -3.565862E+01  4.203745E-04 6.316935E+01  4.128668E-04 6.221483E+01  9.819823E-01 -3.649617E+01 
4.021062E+02  9.835450E-01 -3.565690E+01  4.235577E-04 6.229428E+01  4.209917E-04 6.239272E+01  9.819024E-01 -3.649631E+01 
4.021375E+02  9.834443E-01 -3.565712E+01  4.227841E-04 6.213590E+01  4.321160E-04 6.218515E+01  9.818582E-01 -3.649694E+01 
4.021687E+02  9.833836E-01 -3.566661E+01  4.358310E-04 6.154645E+01  4.355796E-04 6.176626E+01  9.819388E-01 -3.650176E+01 
4.022000E+02  9.833284E-01 -3.566663E+01  4.360742E-04 6.069704E+01  4.327439E-04 6.148411E+01  9.819138E-01 -3.651339E+01 
4.022312E+02  9.834535E-01 -3.567253E+01  4.384014E-04 6.021347E+01  4.413278E-04 6.059505E+01  9.819815E-01 -3.650632E+01 
4.022625E+02  9.834508E-01 -3.566765E+01  4.420714E-04 5.955052E+01  4.382414E-04 5.906356E+01  9.819819E-01 -3.651027E+01 
4.022937E+02  9.833884E-01 -3.568019E+01  4.374456E-04 5.810360E+01  4.304129E-04 5.810023E+01  9.819958E-01 -3.651086E+01 
4.023250E+02  9.833710E-01 -3.567978E+01  4.355802E-04 5.786434E+01  4.364430E-04 5.785202E+01  9.819161E-01 -3.651529E+01 
4.023562E+02  9.833185E-01 -3.568089E+01  4.351028E-04 5.708091E+01  4.336939E-04 5.605434E+01  9.819089E-01 -3.651078E+01 
4.023875E+02  9.834342E-01 -3.568863E+01  4.263443E-04 5.521634E+01  4.250869E-04 5.609418E+01  9.819847E-01 -3.652109E+01 
4.024187E+02  9.834159E-01 -3.568511E+01  4.207449E-04 5.490598E+01  4.192176E-04 5.534775E+01  9.819001E-01 -3.652871E+01 
4.024500E+02  9.833881E-01 -3.569685E+01  4.151109E-04 5.576370E+01  4.127894E-04 5.558662E+01  9.820193E-01 -3.652805E+01 
4.024812E+02  9.834672E-01 -3.569013E+01  4.165387E-04 5.398055E+01  4.149297E-04 5.442537E+01  9.818808E-01 -3.652871E+01 
4.025125E+02  9.832610E-01 -3.570953E+01  4.093683E-04 5.421928E+01  4.044945E-04 5.469392E+01  9.818775E-01 -3.654227E+01 
4.025437E+02  9.833817E-01 -3.570131E+01  4.042890E-04 5.436054E+01  3.975869E-04 5.499177E+01  9.819185E-01 -3.653561E+01 
4.025750E+02  9.834200E-01 -3.570543E+01  3.947181E-04 5.430682E+01  3.900550E-04 5.473192E+01  9.819429E-01 -3.654531E+01 
4.026062E+02  9.833748E-01 -3.570974E+01  3.854833E-04 5.443012E+01  3.939385E-04 5.479942E+01  9.819242E-01 -3.654527E+01 
4.026375E+02  9.833139E-01 -3.571222E+01  3.824491E-04 5.460700E+01  3.831653E-04 5.553276E+01  9.818122E-01 -3.654204E+01 
4.026687E+02  9.833700E-01 -3.571498E+01  3.785643E-04 5.582821E+01  3.847551E-04 5.655191E+01  9.818913E-01 -3.654698E+01 
4.027000E+02  9.833726E-01 -3.571580E+01  3.832454E-04 5.632121E+01  3.756106E-04 5.703933E+01  9.819100E-01 -3.655527E+01 
4.027312E+02  9.834683E-01 -3.572053E+01  3.783072E-04 5.690440E+01  3.770754E-04 5.586169E+01  9.819256E-01 -3.655063E+01 
4.027625E+02  9.834901E-01 -3.572111E+01  3.716894E-04 5.662867E+01  3.743392E-04 5.708269E+01  9.819149E-01 -3.655454E+01 
4.027937E+02  9.832340E-01 -3.572684E+01  3.757540E-04 5.709222E+01  3.774568E-04 5.667225E+01  9.818399E-01 -3.656288E+01 
4.028250E+02  9.832787E-01 -3.572546E+01  3.705112E-04 5.704162E+01  3.762520E-04 5.735832E+01  9.818313E-01 -3.656195E+01 
4.028562E+02  9.832596E-01 -3.572770E+01  3.713865E-04 5.749156E+01  3.690389E-04 5.768546E+01  9.819234E-01 -3.656589E+01 
4.028875E+02  9.833775E-01 -3.573086E+01  3.697999E-04 5.844358E+01  3.637633E-04 5.760521E+01  9.820076E-01 -3.656627E+01 
4.029187E+02  9.833630E-01 -3.573126E+01  3.648775E-04 5.971896E+01  3.673230E-04 5.880338E+01  9.819213E-01 -3.657033E+01 
4.029500E+02  9.834632E-01 -3.573762E+01  3.603378E-04 6.122014E+01  3.598514E-04 6.044441E+01  9.819023E-01 -3.657327E+01 
4.029812E+02  9.832160E-01 -3.574050E+01  3.695791E-04 6.048939E+01  3.654161E-04 5.995876E+01  9.817836E-01 -3.657550E+01 
4.030125E+02  9.833384E-01 -3.574100E+01  3.715574E-04 6.146617E+01  3.727622E-04 6.239326E+01  9.817812E-01 -3.658258E+01 
4.030437E+02  9.834078E-01 -3.574608E+01  3.764717E-04 6.300470E+01  3.749648E-04 6.196759E+01  9.818682E-01 -3.659037E+01 
4.030750E+02  9.834160E-01 -3.575308E+01  3.792542E-04 6.358356E+01  3.795433E-04 6.253170E+01  9.818876E-01 -3.658358E+01 
4.031062E+02  9.833508E-01 -3.575024E+01  3.883736E-04 6.329473E+01  3.829989E-04 6.292848E+01  9.819333E-01 -3.658950E+01 
4.031375E+02  9.834397E-01 -3.574756E+01  3.887262E-04 6.409996E+01  3.883886E-04 6.428067E+01  9.818875E-01 -3.659146E+01 
4.031687E+02  9.834332E-01 -3.576613E+01  3.879710E-04 6.390777E+01  3.966603E-04 6.296286E+01  9.819669E-01 -3.659486E+01 
4.032000E+02  9.835252E-01 -3.575615E+01  3.980194E-04 6.324893E+01  3.969502E-04 6.239525E+01  9.819135E-01 -3.660174E+01 
4.032312E+02  9.835829E-01 -3.577117E+01  4.016791E-04 6.208970E+01  3.982467E-04 6.283079E+01  9.819048E-01 -3.660380E+01 
4.032625E+02  9.835282E-01 -3.576191E+01  4.104240E-04 6.219209E+01  4.069014E-04 6.183872E+01  9.820729E-01 -3.659988E+01 
4.032937E+02  9.834228E-01 -3.576730E+01  4.099200E-04 6.070800E+01  4.059232E-04 6.160438E+01  9.818712E-01 -3.660893E+01 
4.033250E+02  9.834989E-01 -3.577121E+01  4.085049E-04 6.105290E+01  4.163060E-04 6.075362E+01  9.819675E-01 -3.661935E+01 
4.033562E+02  9.834124E-01 -3.577317E+01  4.154061E-04 6.021814E+01  4.137144E-04 6.079465E+01  9.819283E-01 -3.661139E+01 
4.033875E+02  9.834397E-01 -3.577540E+01  4.128876E-04 5.927000E+01  4.125212E-04 5.900957E+01  9.818714E-01 -3.661696E+01 
4.034187E+02  9.834935E-01 -3.578290E+01  4.070069E-04 5.841582E+01  4.154495E-04 5.983754E+01  9.820044E-01 -3.662132E+01 
4.034500E+02  9.833749E-01 -3.578120E+01  4.082510E-04 5.884224E+01  4.090642E-04 5.792357E+01  9.820336E-01 -3.662586E+01 
4.034812E+02  9.834447E-01 -3.579172E+01  4.119391E-04 5.794451E+01  4.058911E-04 5.813647E+01  9.818999E-01 -3.663013E+01 
4.035125E+02  9.835177E-01 -3.579415E+01  4.016796E-04 5.739223E+01  3.996201E-04 5.805477E+01  9.820368E-01 -3.663648E+01 
4.035437E+02  9.833876E-01 -3.580104E+01  3.993748E-04 5.678552E+01  3.977255E-04 5.788306E+01  9.819952E-01 -3.663487E+01 
4.035750E+02  9.834625E-01 -3.579797E+01  3.982977E-04 5.759029E+01  3.941568E-04 5.775873E+01  9.820269E-01 -3.663318E+01 
4.036062E+02  9.835775E-01 -3.580162E+01  3.937781E-04 5.630459E+01  3.958053E-04 5.782980E+01  9.820018E-01 -3.664906E+01 
4.036375E+02  9.834173E-01 -3.581440E+01  3.836459E-04 5.811199E+01  3.874352E-04 5.755173E+01  9.820158E-01 -3.664288E+01 
4.036687E+02  9.834980E-01 -3.581321E+01  3.937900E-04 5.801559E+01  3.888907E-04 5.810255E+01  9.818414E-01 -3.665043E+01 
4.037000E+02  9.834172E-01 -3.581284E+01  3.896034E-04 5.871834E+01  3.837491E-04 5.884331E+01  9.820379E-01 -3.665910E+01 
4.037312E+02  9.835509E-01 -3.582086E+01  3.857243E-04 5.819864E+01  3.852908E-04 5.908740E+01  9.821322E-01 -3.665323E+01 
4.037625E+02  9.835353E-01 -3.581318E+01  3.842402E-04 5.880780E+01  3.771226E-04 5.819179E+01  9.819142E-01 -3.665871E+01 
4.037937E+02  9.835278E-01 -3.582263E+01  3.792143E-04 5.977596E+01  3.813816E-04 5.881355E+01  9.819529E-01 -3.666578E+01 
4.038250E+02  9.835020E-01 -3.583358E+01  3.867861E-04 6.026067E+01  3.858432E-04 5.988539E+01  9.820242E-01 -3.667005E+01 
4.038562E+02  9.834843E-01 -3.582839E+01  3.862811E-04 5.933063E+01  3.836725E-04 6.092157E+01  9.820947E-01 -3.666597E+01 
4.038875E+02  9.834000E-01 -3.583155E+01  3.975865E-04 5.979000E+01  3.784558E-04 6.042099E+01  9.821052E-01 -3.667137E+01 
4.039187E+02  9.834677E-01 -3.583447E+01  3.859081E-04 5.997770E+01  3.896609E-04 6.022357E+01  9.819927E-01 -3.666771E+01 
4.039500E+02  9.835947E-01 -3.583391E+01  3.878327E-04 5.961075E+01  3.881059E-04 5.956134E+01  9.820705E-01 -3.667460E+01 
4.039812E+02  9.835326E-01 -3.584232E+01  3.853476E-04 6.055602E+01  3.889661E-04 6.060128E+01  9.818582E-01 -3.668352E+01 
4.040125E+02  9.834151E-01 -3.584731E+01  3.899601E-04 6.090998E+01  3.930326E-04 6.014035E+01  9.820028E-01 -3.668824E+01 
4.040437E+02  9.834856E-01 -3.584564E+01  3.930083E-04 6.009727E+01  3.932211E-04 6.044795E+01  9.820480E-01 -3.668887E+01 
4.040750E+02  9.835045E-01 -3.585834E+01  3.907542E-04 6.033334E+01  3.860811E-04 6.037656E+01  9.820771E-01 -3.669445E+01 
4.041062E+02  9.835300E-01 -3.585752E+01  3.966738E-04 6.053982E+01  3.926291E-04 6.091080E+01  9.819412E-01 -3.669907E+01 
4.041375E+02  9.834730E-01 -3.585860E+01  3.986821E-04 5.990819E+01  3.943516E-04 5.947446E+01  9.819942E-01 -3.670747E+01 
4.041687E+02  9.834969E-01 -3.585911E+01  3.968311E-04 6.016912E+01  3.939997E-04 6.065398E+01  9.820300E-01 -3.670310E+01 
4.042000E+02  9.836174E-01 -3.586196E+01  3.950536E-04 6.049878E+01  3.968822E-04 6.054898E+01  9.819807E-01 -3.670966E+01 
4.042312E+02  9.834479E-01 -3.586909E+01  4.009191E-04 6.044837E+01  3.955316E-04 5.976467E+01  9.819114E-01 -3.670800E+01 
4.042625E+02  9.835104E-01 -3.586960E+01  3.996711E-04 6.047306E+01  4.038763E-04 6.030288E+01  9.819568E-01 -3.670775E+01 
4.042937E+02  9.835708E-01 -3.586840E+01  3.971947E-04 5.951620E+01  4.056318E-04 6.039602E+01  9.820287E-01 -3.672045E+01 
4.043250E+02  9.834503E-01 -3.588159E+01  4.071421E-04 5.931389E+01  4.015967E-04 5.936268E+01  9.820370E-01 -3.672658E+01 
4.043562E+02  9.834909E-01 -3.587491E+01  4.101239E-04 5.935321E+01  3.944843E-04 5.912711E+01  9.820156E-01 -3.672375E+01 
4.043875E+02  9.836134E-01 -3.588055E+01  4.035442E-04 5.893005E+01  4.024710E-04 5.878425E+01  9.821135E-01 -3.672752E+01 
4.044187E+02  9.834602E-01 -3.589337E+01  4.007143E-04 5.897679E+01  4.006762E-04 5.936736E+01  9.820450E-01 -3.673173E+01 
4.044500E+02  9.835492E-01 -3.589371E+01  4.013319E-04 5.863371E+01  4.073097E-04 5.833944E+01  9.820302E-01 -3.672777E+01 
4.044812E+02  9.835752E-01 -3.589123E+01  4.016602E-04 5.800934E+01  4.053025E-04 5.784490E+01  9.821475E-01 -3.674205E+01 
4.045125E+02  9.835606E-01 -3.589924E+01  4.027625E-04 5.836751E+01  4.033567E-04 5.827225E+01  9.820882E-01 -3.673622E+01 
4.045437E+02  9.836973E-01 -3.590134E+01  3.977247E-04 5.907238E+01  3.954671E-04 5.841250E+01  9.821299E-01 -3.674262E+01 
4.045750E+02  9.835252E-01 -3.590773E+01  3.988727E-04 5.664379E+01  4.011191E-04 5.791291E+01  9.819751E-01 -3.674849E+01 
4.046062E+02  9.836243E-01 -3.590819E+01  4.003519E-04 5.750767E+01  3.990333E-04 5.742529E+01  9.821062E-01 -3.674879E+01 
4.046375E+02  9.834681E-01 -3.592239E+01  3.971132E-04 5.756825E+01  3.951107E-04 5.737150E+01  9.820010E-01 -3.675474E+01 
4.046687E+02  9.835011E-01 -3.591527E+01  3.887442E-04 5.781112E+01  3.901015E-04 5.703365E+01  9.821338E-01 -3.676577E+01 
4.047000E+02  9.836098E-01 -3.591746E+01  3.937672E-04 5.855033E+01  3.931477E-04 5.675460E+01  9.820710E-01 -3.676568E+01 
4.047312E+02  9.836191E-01 -3.593073E+01  3.882660E-04 5.797674E+01  3.910166E-04 5.810157E+01  9.822302E-01 -3.677091E+01 
4.047625E+02  9.835408E-01 -3.592945E+01  3.891620E-04 5.770737E+01  3.869141E-04 5.728179E+01  9.821559E-01 -3.677238E+01 
4.047937E+02  9.835050E-01 -3.593737E+01  3.836667E-04 5.703014E+01  3.833987E-04 5.769523E+01  9.820737E-01 -3.677130E+01 
4.048250E+02  9.835161E-01 -3.593832E+01  3.878214E-04 5.664539E+01  3.775740E-04 5.774570E+01  9.821083E-01 -3.677308E+01 
4.048562E+02  9.835053E-01 -3.594429E+01  3.876472E-04 5.761221E+01  3.861472E-04 5.824689E+01  9.820731E-01 -3.678686E+01 
4.048875E+02  9.834861E-01 -3.594313E+01  3.873149E-04 5.678323E+01  3.856619E-04 5.752455E+01  9.821211E-01 -3.679371E+01 
4.049187E+02  9.836359E-01 -3.594912E+01  3.835619E-04 5.710915E+01  3.830976E-04 5.773365E+01  9.820130E-01 -3.679190E+01 
4.049500E+02  9.835856E-01 -3.594370E+01  3.831676E-04 5.780890E+01  3.839611E-04 5.853161E+01  9.822068E-01 -3.679642E+01 
4.049812E+02  9.836728E-01 -3.595726E+01  3.791207E-04 5.860683E+01  3.786479E-04 5.861243E+01  9.822323E-01 -3.679398E+01 
4.050125E+02  9.835664E-01 -3.595593E+01  3.832632E-04 5.863442E+01  3.823484E-04 5.747022E+01  9.821304E-01 -3.680049E+01 
4.050437E+02  9.835031E-01 -3.596401E+01  3.812937E-04 5.865171E+01  3.860140E-04 5.878382E+01  9.821188E-01 -3.680786E+01 
4.050750E+02  9.834991E-01 -3.596309E+01  3.827015E-04 5.864131E+01  3.742251E-04 5.936530E+01  9.821757E-01 -3.681627E+01 
4.051062E+02  9.835256E-01 -3.596441E+01  3.787385E-04 5.901988E+01  3.728865E-04 5.844287E+01  9.820400E-01 -3.681658E+01 
4.051375E+02  9.835956E-01 -3.597125E+01  3.787236E-04 5.873883E+01  3.793418E-04 5.891987E+01  9.820551E-01 -3.681811E+01 
4.051687E+02  9.835112E-01 -3.597391E+01  3.670308E-04 5.795438E+01  3.775524E-04 5.986659E+01  9.820670E-01 -3.681828E+01 
4.052000E+02  9.835621E-01 -3.597706E+01  3.756344E-04 5.943678E+01  3.804359E-04 5.957944E+01  9.821427E-01 -3.682699E+01 
4.052312E+02  9.833678E-01 -3.597923E+01  3.800128E-04 5.937094E+01  3.763369E-04 5.831438E+01  9.821020E-01 -3.683402E+01 
4.052625E+02  9.833827E-01 -3.598469E+01  3.775472E-04 5.960945E+01  3.752859E-04 5.953380E+01  9.820317E-01 -3.682877E+01 
4.052937E+02  9.835740E-01 -3.598555E+01  3.814123E-04 5.958150E+01  3.795019E-04 5.936242E+01  9.820169E-01 -3.684046E+01 
4.053250E+02  9.834863E-01 -3.598858E+01  3.804918E-04 5.929607E+01  3.786654E-04 5.949722E+01  9.821115E-01 -3.684231E+01 
4.053562E+02  9.836155E-01 -3.599413E+01  3.733862E-04 6.009997E+01  3.754581E-04 6.043135E+01  9.820688E-01 -3.684267E+01 
4.053875E+02  9.835566E-01 -3.599988E+01  3.696286E-04 5.923359E+01  3.790506E-04 6.036995E+01  9.819600E-01 -3.684976E+01 
4.054187E+02  9.835708E-01 -3.599988E+01  3.742024E-04 5.887289E+01  3.785502E-04 5.940668E+01  9.820471E-01 -3.685735E+01 
4.054500E+02  9.834468E-01 -3.600433E+01  3.774584E-04 6.013390E+01  3.739448E-04 6.030918E+01  9.820950E-01 -3.685467E+01 
4.054812E+02  9.833158E-01 -3.600520E+01  3.730762E-04 6.085683E+01  3.719083E-04 6.035508E+01  9.820738E-01 -3.685780E+01 
4.055125E+02  9.835138E-01 -3.601430E+01  3.759906E-04 6.089510E+01  3.740104E-04 6.100357E+01  9.820670E-01 -3.686751E+01 
4.055437E+02  9.834093E-01 -3.600968E+01  3.760433E-04 6.101624E+01  3.762928E-04 6.069152E+01  9.820680E-01 -3.687083E+01 
4.055750E+02  9.834370E-01 -3.602300E+01  3.789311E-04 6.119189E+01  3.702783E-04 6.119082E+01  9.821042E-01 -3.687434E+01 
4.056062E+02  9.834799E-01 -3.602349E+01  3.813210E-04 6.058974E+01  3.781935E-04 6.182578E+01  9.820878E-01 -3.687618E+01 
4.056375E+02  9.835284E-01 -3.602731E+01  3.766565E-04 6.157419E+01  3.751072E-04 6.187068E+01  9.820742E-01 -3.687552E+01 
4.056687E+02  9.835975E-01 -3.602900E+01  3.777281E-04 6.147639E+01  3.759536E-04 6.210204E+01  9.820665E-01 -3.687423E+01 
4.057000E+02  9.834765E-01 -3.604215E+01  3.753526E-04 6.123565E+01  3.787026E-04 6.183652E+01  9.820693E-01 -3.689019E+01 
4.057312E+02  9.834649E-01 -3.604048E+01  3.832568E-04 6.147283E+01  3.767818E-04 6.202705E+01  9.819714E-01 -3.689360E+01 
4.057625E+02  9.834796E-01 -3.604718E+01  3.820748E-04 6.112524E+01  3.816759E-04 6.153309E+01  9.820528E-01 -3.689486E+01 
4.057937E+02  9.834718E-01 -3.605027E+01  3.812332E-04 6.197389E+01  3.804322E-04 6.153177E+01  9.819550E-01 -3.689632E+01 
4.058250E+02  9.833115E-01 -3.604729E+01  3.885392E-04 6.264413E+01  3.854272E-04 6.203035E+01  9.819603E-01 -3.689407E+01 
4.058562E+02  9.834078E-01 -3.605831E+01  3.913622E-04 6.195806E+01  3.803460E-04 6.341307E+01  9.819506E-01 -3.690841E+01 
4.058875E+02  9.834788E-01 -3.605635E+01  3.917567E-04 6.284699E+01  3.855135E-04 6.197007E+01  9.821198E-01 -3.691476E+01 
4.059187E+02  9.833290E-01 -3.606008E+01  4.005736E-04 6.308792E+01  3.883077E-04 6.353006E+01  9.820295E-01 -3.691141E+01 
4.059500E+02  9.833996E-01 -3.606094E+01  3.909854E-04 6.222633E+01  3.923721E-04 6.306131E+01  9.819907E-01 -3.691405E+01 
