! Matrix data file written by TouchstoneData, EPCOS AG
! FILENAME: "B3770_SB.s2p"
! COMMENT: "AUF PLATINE QCC8C 2/5 12 Nov 2004 S11-KEIN K"
! INFO: nport=2, nfreq=801
! DATE: "Thu Sep 20 11:26:52 2012"
! USER: "Wilfried Schott"
!
! port | pin | signal
! -----|-----|--------
!   1  |  2  |  IN
!   2  |  5  |  OUT
! --------------------
! 
# MHZ S MA R 50
! freq  magS11 angS11  magS21 angS21  magS12 angS12  magS22 angS22
4.235750E+02  9.814386E-01 -3.941478E+01  5.292912E-04 4.792664E+01  5.264394E-04 4.785546E+01  9.799209E-01 -4.030794E+01 
4.235813E+02  9.813816E-01 -3.942607E+01  5.262128E-04 4.735321E+01  5.225319E-04 4.775242E+01  9.799160E-01 -4.031192E+01 
4.235875E+02  9.813569E-01 -3.942913E+01  5.205403E-04 4.847172E+01  5.091205E-04 4.826180E+01  9.798552E-01 -4.032108E+01 
4.235938E+02  9.812584E-01 -3.942749E+01  5.160708E-04 4.792700E+01  5.129636E-04 4.842042E+01  9.798849E-01 -4.031878E+01 
4.236000E+02  9.813233E-01 -3.944271E+01  5.065644E-04 4.840280E+01  5.183458E-04 4.890387E+01  9.797780E-01 -4.033754E+01 
4.236062E+02  9.812770E-01 -3.944428E+01  5.131003E-04 4.927577E+01  5.045210E-04 4.936463E+01  9.798165E-01 -4.034226E+01 
4.236125E+02  9.812054E-01 -3.945808E+01  5.033540E-04 5.001840E+01  4.993386E-04 4.965582E+01  9.798653E-01 -4.035152E+01 
4.236187E+02  9.813365E-01 -3.946242E+01  5.056748E-04 4.940105E+01  5.019238E-04 4.951853E+01  9.797513E-01 -4.035683E+01 
4.236250E+02  9.813156E-01 -3.946862E+01  5.037095E-04 5.059610E+01  5.006156E-04 5.121102E+01  9.798378E-01 -4.036271E+01 
4.236312E+02  9.813930E-01 -3.948173E+01  5.085766E-04 5.197770E+01  5.015776E-04 5.208416E+01  9.797711E-01 -4.036275E+01 
4.236375E+02  9.813442E-01 -3.948887E+01  5.050021E-04 5.197664E+01  4.950312E-04 5.265660E+01  9.797739E-01 -4.036661E+01 
4.236438E+02  9.813425E-01 -3.950119E+01  5.036901E-04 5.288871E+01  5.041935E-04 5.256455E+01  9.797901E-01 -4.038479E+01 
4.236500E+02  9.812804E-01 -3.950368E+01  5.064707E-04 5.306608E+01  5.014347E-04 5.391033E+01  9.798041E-01 -4.039193E+01 
4.236562E+02  9.811783E-01 -3.951138E+01  5.132510E-04 5.339365E+01  5.070889E-04 5.297896E+01  9.797546E-01 -4.039950E+01 
4.236625E+02  9.812609E-01 -3.951655E+01  5.132296E-04 5.444842E+01  5.137943E-04 5.448913E+01  9.798371E-01 -4.041004E+01 
4.236687E+02  9.811227E-01 -3.952324E+01  5.140503E-04 5.452987E+01  5.205847E-04 5.455105E+01  9.797562E-01 -4.041296E+01 
4.236750E+02  9.811850E-01 -3.953029E+01  5.185967E-04 5.548112E+01  5.201111E-04 5.552136E+01  9.797637E-01 -4.042311E+01 
4.236812E+02  9.811849E-01 -3.953659E+01  5.204562E-04 5.522786E+01  5.213682E-04 5.559033E+01  9.798373E-01 -4.043064E+01 
4.236875E+02  9.812088E-01 -3.954926E+01  5.247047E-04 5.557275E+01  5.231173E-04 5.539741E+01  9.798452E-01 -4.043348E+01 
4.236937E+02  9.812345E-01 -3.955588E+01  5.322677E-04 5.606849E+01  5.290086E-04 5.629745E+01  9.797616E-01 -4.044515E+01 
4.237000E+02  9.811541E-01 -3.956529E+01  5.321235E-04 5.614515E+01  5.341738E-04 5.661106E+01  9.798728E-01 -4.044927E+01 
4.237063E+02  9.811944E-01 -3.957170E+01  5.371811E-04 5.720534E+01  5.392445E-04 5.743941E+01  9.798379E-01 -4.045280E+01 
4.237125E+02  9.810896E-01 -3.957501E+01  5.376772E-04 5.658972E+01  5.420752E-04 5.714949E+01  9.799648E-01 -4.046605E+01 
4.237188E+02  9.811794E-01 -3.958415E+01  5.489115E-04 5.620942E+01  5.454641E-04 5.695177E+01  9.797577E-01 -4.046899E+01 
4.237250E+02  9.811770E-01 -3.959291E+01  5.568773E-04 5.721243E+01  5.492930E-04 5.714500E+01  9.798106E-01 -4.048082E+01 
4.237312E+02  9.811352E-01 -3.960512E+01  5.584278E-04 5.730491E+01  5.626480E-04 5.775487E+01  9.798582E-01 -4.048514E+01 
4.237375E+02  9.811869E-01 -3.960606E+01  5.694608E-04 5.741707E+01  5.614867E-04 5.805568E+01  9.797471E-01 -4.049871E+01 
4.237437E+02  9.812520E-01 -3.961697E+01  5.710153E-04 5.801512E+01  5.757184E-04 5.867494E+01  9.797813E-01 -4.050296E+01 
4.237500E+02  9.811450E-01 -3.962491E+01  5.772478E-04 5.813484E+01  5.799908E-04 5.787931E+01  9.796910E-01 -4.051305E+01 
4.237562E+02  9.811951E-01 -3.963747E+01  5.844191E-04 5.818388E+01  5.873840E-04 5.855681E+01  9.797554E-01 -4.052068E+01 
4.237625E+02  9.812246E-01 -3.963957E+01  5.952403E-04 5.838523E+01  5.860040E-04 5.787979E+01  9.797716E-01 -4.052446E+01 
4.237688E+02  9.811854E-01 -3.965380E+01  6.047080E-04 5.792367E+01  5.980375E-04 5.893579E+01  9.796652E-01 -4.053625E+01 
4.237750E+02  9.810927E-01 -3.966363E+01  6.109825E-04 5.752010E+01  6.091817E-04 5.902104E+01  9.797706E-01 -4.053999E+01 
4.237812E+02  9.811426E-01 -3.967080E+01  6.159348E-04 5.856154E+01  6.120436E-04 5.835204E+01  9.796373E-01 -4.054963E+01 
4.237875E+02  9.810972E-01 -3.967563E+01  6.244976E-04 5.797598E+01  6.212067E-04 5.788049E+01  9.797371E-01 -4.055753E+01 
4.237937E+02  9.811766E-01 -3.968846E+01  6.338415E-04 5.840174E+01  6.359999E-04 5.876531E+01  9.796666E-01 -4.056578E+01 
4.238000E+02  9.811029E-01 -3.969894E+01  6.425265E-04 5.845423E+01  6.369566E-04 5.843322E+01  9.796627E-01 -4.057595E+01 
4.238062E+02  9.810092E-01 -3.970359E+01  6.568355E-04 5.753948E+01  6.525142E-04 5.808742E+01  9.796800E-01 -4.058062E+01 
4.238125E+02  9.810783E-01 -3.970577E+01  6.595648E-04 5.826235E+01  6.600662E-04 5.861042E+01  9.797457E-01 -4.059011E+01 
4.238187E+02  9.810695E-01 -3.971473E+01  6.738439E-04 5.775524E+01  6.743079E-04 5.772143E+01  9.796772E-01 -4.060154E+01 
4.238250E+02  9.810600E-01 -3.972722E+01  6.765534E-04 5.719730E+01  6.882791E-04 5.790833E+01  9.796400E-01 -4.061013E+01 
4.238313E+02  9.809527E-01 -3.973105E+01  6.927890E-04 5.746978E+01  6.890473E-04 5.692256E+01  9.797185E-01 -4.061374E+01 
4.238375E+02  9.810299E-01 -3.974015E+01  6.996314E-04 5.687136E+01  7.031790E-04 5.678403E+01  9.796858E-01 -4.062575E+01 
4.238438E+02  9.809684E-01 -3.975097E+01  7.084964E-04 5.704075E+01  7.113294E-04 5.636779E+01  9.796624E-01 -4.063319E+01 
4.238500E+02  9.808859E-01 -3.976193E+01  7.234968E-04 5.593256E+01  7.214869E-04 5.629226E+01  9.796888E-01 -4.064031E+01 
4.238562E+02  9.808632E-01 -3.977353E+01  7.352322E-04 5.542550E+01  7.349559E-04 5.563684E+01  9.797595E-01 -4.064777E+01 
4.238625E+02  9.809473E-01 -3.977421E+01  7.427758E-04 5.480792E+01  7.423517E-04 5.533392E+01  9.796544E-01 -4.065944E+01 
4.238687E+02  9.810067E-01 -3.978724E+01  7.537017E-04 5.449490E+01  7.544309E-04 5.445979E+01  9.796807E-01 -4.067479E+01 
4.238750E+02  9.809463E-01 -3.979280E+01  7.543865E-04 5.421778E+01  7.601332E-04 5.463905E+01  9.796857E-01 -4.067850E+01 
4.238812E+02  9.808685E-01 -3.980566E+01  7.752334E-04 5.367840E+01  7.705372E-04 5.369625E+01  9.796929E-01 -4.068997E+01 
4.238875E+02  9.809598E-01 -3.980576E+01  7.818333E-04 5.333047E+01  7.834895E-04 5.263208E+01  9.795998E-01 -4.069824E+01 
4.238938E+02  9.809388E-01 -3.981905E+01  7.869238E-04 5.259479E+01  7.871575E-04 5.228622E+01  9.796530E-01 -4.070883E+01 
4.239000E+02  9.809231E-01 -3.982689E+01  7.920574E-04 5.101089E+01  7.889028E-04 5.224380E+01  9.795356E-01 -4.071576E+01 
4.239062E+02  9.808488E-01 -3.983668E+01  8.011262E-04 5.136892E+01  8.010447E-04 5.081805E+01  9.795593E-01 -4.072276E+01 
4.239125E+02  9.807876E-01 -3.984157E+01  8.087363E-04 5.034654E+01  8.073361E-04 5.040865E+01  9.794714E-01 -4.073484E+01 
4.239187E+02  9.808470E-01 -3.985625E+01  8.118305E-04 4.981861E+01  8.050919E-04 5.023321E+01  9.795145E-01 -4.074428E+01 
4.239250E+02  9.807680E-01 -3.986911E+01  8.180336E-04 4.941348E+01  8.154270E-04 4.945204E+01  9.794358E-01 -4.074747E+01 
4.239312E+02  9.807973E-01 -3.987776E+01  8.260290E-04 4.911174E+01  8.229593E-04 4.882768E+01  9.794090E-01 -4.076228E+01 
4.239375E+02  9.807791E-01 -3.988524E+01  8.241879E-04 4.828839E+01  8.283391E-04 4.859344E+01  9.794078E-01 -4.076479E+01 
4.239437E+02  9.808279E-01 -3.989241E+01  8.308604E-04 4.793032E+01  8.332300E-04 4.778291E+01  9.793657E-01 -4.077691E+01 
4.239500E+02  9.808381E-01 -3.990206E+01  8.355450E-04 4.685827E+01  8.331030E-04 4.734024E+01  9.794266E-01 -4.077874E+01 
4.239563E+02  9.807327E-01 -3.991314E+01  8.376205E-04 4.719420E+01  8.345423E-04 4.716513E+01  9.794295E-01 -4.079010E+01 
4.239625E+02  9.808213E-01 -3.991899E+01  8.387460E-04 4.655112E+01  8.387375E-04 4.659366E+01  9.793423E-01 -4.080364E+01 
4.239688E+02  9.808253E-01 -3.992616E+01  8.433834E-04 4.649111E+01  8.446392E-04 4.642073E+01  9.794676E-01 -4.080951E+01 
4.239750E+02  9.808268E-01 -3.993886E+01  8.568305E-04 4.615488E+01  8.476009E-04 4.607192E+01  9.793947E-01 -4.081535E+01 
4.239812E+02  9.808325E-01 -3.995011E+01  8.576269E-04 4.533988E+01  8.486535E-04 4.599029E+01  9.794315E-01 -4.082721E+01 
4.239875E+02  9.808465E-01 -3.995586E+01  8.594199E-04 4.545766E+01  8.592228E-04 4.584299E+01  9.793320E-01 -4.083401E+01 
4.239937E+02  9.807837E-01 -3.996628E+01  8.688648E-04 4.537304E+01  8.539788E-04 4.578054E+01  9.794026E-01 -4.085306E+01 
4.240000E+02  9.807464E-01 -3.997347E+01  8.741413E-04 4.480654E+01  8.737647E-04 4.533523E+01  9.793653E-01 -4.085480E+01 
4.240062E+02  9.806420E-01 -3.998681E+01  8.726683E-04 4.485164E+01  8.696603E-04 4.467836E+01  9.793194E-01 -4.086416E+01 
4.240125E+02  9.806175E-01 -3.997970E+01  8.782808E-04 4.478811E+01  8.773095E-04 4.435576E+01  9.793199E-01 -4.087438E+01 
4.240188E+02  9.807181E-01 -3.999530E+01  8.879318E-04 4.443402E+01  8.908137E-04 4.452648E+01  9.792799E-01 -4.088460E+01 
4.240250E+02  9.806812E-01 -4.000752E+01  8.899803E-04 4.464247E+01  8.941302E-04 4.448944E+01  9.793544E-01 -4.089658E+01 
4.240312E+02  9.807142E-01 -4.002145E+01  9.018672E-04 4.396573E+01  8.974485E-04 4.436724E+01  9.793120E-01 -4.090279E+01 
4.240375E+02  9.806496E-01 -4.002796E+01  9.060752E-04 4.418415E+01  9.091889E-04 4.421165E+01  9.792847E-01 -4.091047E+01 
4.240437E+02  9.807426E-01 -4.004027E+01  9.194219E-04 4.382557E+01  9.098239E-04 4.415315E+01  9.794073E-01 -4.092470E+01 
4.240500E+02  9.806543E-01 -4.005445E+01  9.260788E-04 4.401807E+01  9.257119E-04 4.408261E+01  9.791989E-01 -4.093334E+01 
4.240562E+02  9.806468E-01 -4.005943E+01  9.327699E-04 4.385951E+01  9.375716E-04 4.381649E+01  9.793626E-01 -4.094104E+01 
4.240625E+02  9.806413E-01 -4.007819E+01  9.450716E-04 4.408792E+01  9.442494E-04 4.385506E+01  9.792149E-01 -4.094716E+01 
4.240687E+02  9.806060E-01 -4.008369E+01  9.534318E-04 4.403465E+01  9.643990E-04 4.432643E+01  9.792131E-01 -4.096102E+01 
4.240750E+02  9.806152E-01 -4.009811E+01  9.682526E-04 4.436758E+01  9.679249E-04 4.391295E+01  9.793977E-01 -4.097000E+01 
4.240813E+02  9.805596E-01 -4.010554E+01  9.817981E-04 4.352120E+01  9.817595E-04 4.395402E+01  9.792492E-01 -4.098186E+01 
4.240875E+02  9.805904E-01 -4.011886E+01  9.954908E-04 4.356595E+01  9.897801E-04 4.387799E+01  9.792144E-01 -4.098559E+01 
4.240938E+02  9.806435E-01 -4.012828E+01  1.007042E-03 4.375749E+01  1.010295E-03 4.377418E+01  9.791945E-01 -4.100297E+01 
4.241000E+02  9.805390E-01 -4.014112E+01  1.024239E-03 4.309909E+01  1.024158E-03 4.383937E+01  9.792572E-01 -4.101299E+01 
4.241062E+02  9.805202E-01 -4.015296E+01  1.029615E-03 4.363577E+01  1.038287E-03 4.376006E+01  9.792576E-01 -4.101983E+01 
4.241125E+02  9.805973E-01 -4.016186E+01  1.057215E-03 4.287146E+01  1.050073E-03 4.373669E+01  9.791679E-01 -4.103637E+01 
4.241187E+02  9.805103E-01 -4.017434E+01  1.070130E-03 4.317579E+01  1.063255E-03 4.364894E+01  9.791796E-01 -4.104319E+01 
4.241250E+02  9.804347E-01 -4.018190E+01  1.087241E-03 4.338680E+01  1.087326E-03 4.312546E+01  9.789934E-01 -4.105657E+01 
4.241312E+02  9.805343E-01 -4.019094E+01  1.100231E-03 4.315266E+01  1.110504E-03 4.351268E+01  9.790925E-01 -4.106573E+01 
4.241375E+02  9.804979E-01 -4.020463E+01  1.133018E-03 4.307766E+01  1.120011E-03 4.308018E+01  9.789930E-01 -4.108005E+01 
4.241438E+02  9.805009E-01 -4.021363E+01  1.146460E-03 4.284763E+01  1.151702E-03 4.292223E+01  9.790391E-01 -4.109392E+01 
4.241500E+02  9.804682E-01 -4.022786E+01  1.169862E-03 4.259812E+01  1.167350E-03 4.287689E+01  9.790475E-01 -4.110530E+01 
4.241562E+02  9.805182E-01 -4.024002E+01  1.191067E-03 4.251914E+01  1.198623E-03 4.278289E+01  9.790281E-01 -4.111570E+01 
4.241625E+02  9.804822E-01 -4.025836E+01  1.219637E-03 4.237871E+01  1.216353E-03 4.248804E+01  9.790084E-01 -4.112686E+01 
4.241687E+02  9.803765E-01 -4.026393E+01  1.248357E-03 4.253202E+01  1.248046E-03 4.262267E+01  9.790246E-01 -4.114193E+01 
4.241750E+02  9.804648E-01 -4.027759E+01  1.276868E-03 4.206235E+01  1.275391E-03 4.199428E+01  9.789955E-01 -4.115097E+01 
4.241812E+02  9.804439E-01 -4.028767E+01  1.306737E-03 4.182376E+01  1.308141E-03 4.196817E+01  9.789480E-01 -4.116267E+01 
4.241875E+02  9.803099E-01 -4.029867E+01  1.341295E-03 4.162401E+01  1.336452E-03 4.165857E+01  9.789171E-01 -4.117728E+01 
4.241937E+02  9.803109E-01 -4.031348E+01  1.371866E-03 4.110864E+01  1.376351E-03 4.158353E+01  9.789713E-01 -4.119086E+01 
4.242000E+02  9.804247E-01 -4.033367E+01  1.404626E-03 4.097389E+01  1.400599E-03 4.126284E+01  9.788312E-01 -4.120216E+01 
4.242063E+02  9.803721E-01 -4.033756E+01  1.439143E-03 4.076102E+01  1.446123E-03 4.076369E+01  9.789563E-01 -4.122083E+01 
4.242125E+02  9.802290E-01 -4.035232E+01  1.492161E-03 4.032484E+01  1.487763E-03 4.037179E+01  9.788682E-01 -4.122859E+01 
4.242188E+02  9.803859E-01 -4.036409E+01  1.529284E-03 3.993796E+01  1.535704E-03 4.013016E+01  9.787677E-01 -4.124214E+01 
4.242250E+02  9.802767E-01 -4.038294E+01  1.581325E-03 3.949416E+01  1.573236E-03 3.960502E+01  9.787549E-01 -4.125923E+01 
4.242312E+02  9.802746E-01 -4.039319E+01  1.623924E-03 3.916691E+01  1.624111E-03 3.929926E+01  9.787355E-01 -4.126822E+01 
4.242375E+02  9.801607E-01 -4.041205E+01  1.688559E-03 3.863857E+01  1.681266E-03 3.875662E+01  9.787205E-01 -4.127947E+01 
4.242437E+02  9.801925E-01 -4.042752E+01  1.742003E-03 3.798077E+01  1.738042E-03 3.813221E+01  9.786526E-01 -4.129361E+01 
4.242500E+02  9.801073E-01 -4.044520E+01  1.809592E-03 3.744202E+01  1.800439E-03 3.737522E+01  9.786170E-01 -4.131553E+01 
4.242562E+02  9.800441E-01 -4.045602E+01  1.865467E-03 3.700129E+01  1.869285E-03 3.697944E+01  9.784713E-01 -4.132881E+01 
4.242625E+02  9.799722E-01 -4.047652E+01  1.945160E-03 3.600133E+01  1.942773E-03 3.613437E+01  9.784525E-01 -4.134523E+01 
4.242688E+02  9.799434E-01 -4.049074E+01  2.025093E-03 3.513363E+01  2.021266E-03 3.539614E+01  9.784865E-01 -4.135560E+01 
4.242750E+02  9.799268E-01 -4.050870E+01  2.114810E-03 3.434705E+01  2.108116E-03 3.449703E+01  9.783407E-01 -4.137956E+01 
4.242812E+02  9.797683E-01 -4.052896E+01  2.204351E-03 3.330496E+01  2.203799E-03 3.344038E+01  9.782614E-01 -4.139113E+01 
4.242875E+02  9.797330E-01 -4.054793E+01  2.301819E-03 3.244197E+01  2.301761E-03 3.263040E+01  9.782529E-01 -4.141364E+01 
4.242937E+02  9.796510E-01 -4.056406E+01  2.415697E-03 3.098529E+01  2.407853E-03 3.133303E+01  9.781299E-01 -4.142639E+01 
4.243000E+02  9.794050E-01 -4.058130E+01  2.541116E-03 2.977558E+01  2.532657E-03 3.000059E+01  9.780203E-01 -4.144478E+01 
4.243062E+02  9.792586E-01 -4.060310E+01  2.665418E-03 2.839889E+01  2.664688E-03 2.846104E+01  9.778249E-01 -4.146661E+01 
4.243125E+02  9.792779E-01 -4.062130E+01  2.821342E-03 2.663522E+01  2.808549E-03 2.670677E+01  9.778381E-01 -4.148286E+01 
4.243187E+02  9.789213E-01 -4.064403E+01  2.966928E-03 2.482653E+01  2.960473E-03 2.505323E+01  9.775524E-01 -4.149678E+01 
4.243250E+02  9.787642E-01 -4.065736E+01  3.149913E-03 2.286320E+01  3.136240E-03 2.302092E+01  9.773832E-01 -4.152078E+01 
4.243313E+02  9.786021E-01 -4.068563E+01  3.332130E-03 2.046860E+01  3.333907E-03 2.066169E+01  9.771838E-01 -4.153318E+01 
4.243375E+02  9.784367E-01 -4.070493E+01  3.545845E-03 1.786433E+01  3.544797E-03 1.813935E+01  9.770118E-01 -4.156432E+01 
4.243438E+02  9.780326E-01 -4.072549E+01  3.784472E-03 1.497602E+01  3.777497E-03 1.519324E+01  9.766978E-01 -4.157637E+01 
4.243500E+02  9.777333E-01 -4.073654E+01  4.031850E-03 1.172549E+01  4.038067E-03 1.192490E+01  9.763674E-01 -4.159762E+01 
4.243562E+02  9.772816E-01 -4.075416E+01  4.298368E-03 8.037191E+00  4.298458E-03 8.128061E+00  9.760237E-01 -4.161519E+01 
4.243625E+02  9.768216E-01 -4.076895E+01  4.594598E-03 3.809629E+00  4.579469E-03 3.954280E+00  9.756346E-01 -4.162822E+01 
4.243687E+02  9.762755E-01 -4.077568E+01  4.880091E-03 -1.008253E+00  4.875490E-03 -8.484188E-01  9.751311E-01 -4.163801E+01 
4.243750E+02  9.756337E-01 -4.077324E+01  5.173225E-03 -6.372810E+00  5.163551E-03 -6.283067E+00  9.747294E-01 -4.163349E+01 
4.243812E+02  9.750900E-01 -4.076576E+01  5.443085E-03 -1.236939E+01  5.432857E-03 -1.219715E+01  9.742165E-01 -4.162995E+01 
4.243875E+02  9.745008E-01 -4.075210E+01  5.688808E-03 -1.880310E+01  5.680038E-03 -1.868471E+01  9.738481E-01 -4.161673E+01 
4.243938E+02  9.739678E-01 -4.073207E+01  5.864768E-03 -2.573297E+01  5.855393E-03 -2.561974E+01  9.733541E-01 -4.159730E+01 
4.244000E+02  9.738555E-01 -4.069418E+01  5.967748E-03 -3.297034E+01  5.956638E-03 -3.278814E+01  9.730876E-01 -4.157832E+01 
4.244062E+02  9.736982E-01 -4.066256E+01  5.985657E-03 -4.003891E+01  5.972842E-03 -3.996114E+01  9.730187E-01 -4.155701E+01 
4.244125E+02  9.737777E-01 -4.062970E+01  5.918924E-03 -4.728109E+01  5.910600E-03 -4.717584E+01  9.729874E-01 -4.153513E+01 
4.244187E+02  9.739873E-01 -4.060872E+01  5.780896E-03 -5.405695E+01  5.768962E-03 -5.387725E+01  9.733875E-01 -4.151217E+01 
4.244250E+02  9.744041E-01 -4.058873E+01  5.581499E-03 -6.031453E+01  5.571790E-03 -6.018280E+01  9.735675E-01 -4.149543E+01 
4.244312E+02  9.748224E-01 -4.057975E+01  5.361066E-03 -6.614787E+01  5.345350E-03 -6.601870E+01  9.739921E-01 -4.148433E+01 
4.244375E+02  9.753015E-01 -4.057773E+01  5.121437E-03 -7.140381E+01  5.118721E-03 -7.130813E+01  9.742570E-01 -4.148938E+01 
4.244437E+02  9.757560E-01 -4.058271E+01  4.883804E-03 -7.622349E+01  4.867714E-03 -7.602724E+01  9.746428E-01 -4.149576E+01 
4.244500E+02  9.761467E-01 -4.059303E+01  4.640389E-03 -8.048277E+01  4.639233E-03 -8.040629E+01  9.749294E-01 -4.150039E+01 
4.244563E+02  9.766441E-01 -4.060479E+01  4.423666E-03 -8.445714E+01  4.411150E-03 -8.428273E+01  9.752418E-01 -4.152400E+01 
4.244625E+02  9.768639E-01 -4.062293E+01  4.221027E-03 -8.797043E+01  4.207651E-03 -8.781262E+01  9.754909E-01 -4.153069E+01 
4.244688E+02  9.771321E-01 -4.063943E+01  4.027855E-03 -9.128571E+01  4.022146E-03 -9.109841E+01  9.757244E-01 -4.154890E+01 
4.244750E+02  9.773970E-01 -4.065827E+01  3.857663E-03 -9.410001E+01  3.854749E-03 -9.399988E+01  9.758786E-01 -4.156351E+01 
4.244812E+02  9.775819E-01 -4.067233E+01  3.704616E-03 -9.688976E+01  3.701645E-03 -9.674453E+01  9.760214E-01 -4.158543E+01 
4.244875E+02  9.777333E-01 -4.069595E+01  3.569455E-03 -9.943342E+01  3.563210E-03 -9.930106E+01  9.762175E-01 -4.160556E+01 
4.244937E+02  9.778699E-01 -4.071360E+01  3.444478E-03 -1.017342E+02  3.446469E-03 -1.017482E+02  9.763103E-01 -4.162222E+01 
4.245000E+02  9.780418E-01 -4.073577E+01  3.352095E-03 -1.042390E+02  3.341904E-03 -1.040862E+02  9.764298E-01 -4.164991E+01 
4.245062E+02  9.780088E-01 -4.075667E+01  3.258294E-03 -1.064116E+02  3.243724E-03 -1.062163E+02  9.765914E-01 -4.165927E+01 
4.245125E+02  9.781480E-01 -4.078458E+01  3.178850E-03 -1.084246E+02  3.166482E-03 -1.082361E+02  9.766252E-01 -4.168938E+01 
4.245188E+02  9.781996E-01 -4.080478E+01  3.102269E-03 -1.106326E+02  3.099677E-03 -1.104494E+02  9.765969E-01 -4.170413E+01 
4.245250E+02  9.783121E-01 -4.082351E+01  3.045562E-03 -1.126351E+02  3.047569E-03 -1.123467E+02  9.765864E-01 -4.173523E+01 
4.245312E+02  9.783798E-01 -4.084555E+01  3.003599E-03 -1.145429E+02  2.993868E-03 -1.144388E+02  9.767304E-01 -4.175372E+01 
4.245375E+02  9.784500E-01 -4.086182E+01  2.966164E-03 -1.167184E+02  2.957665E-03 -1.166372E+02  9.766957E-01 -4.176984E+01 
4.245437E+02  9.785093E-01 -4.088920E+01  2.939276E-03 -1.189435E+02  2.938268E-03 -1.184849E+02  9.766617E-01 -4.179450E+01 
4.245500E+02  9.783959E-01 -4.091564E+01  2.928384E-03 -1.207159E+02  2.918117E-03 -1.206555E+02  9.766340E-01 -4.182331E+01 
