! Matrix data file written by TouchstoneData, EPCOS AG
! FILENAME: "newformat_B3774_WB.s2p"
! COMMENT: "(B3774_WB.s2p)"
! INFO: nport=2, nfreq=1601
! DATE: "Fri Sep 21 11:08:54 2012"
! USER: "Wilfried Schott"
!
! port | pin | signal
! -----|-----|--------
!   1  |  2  |  IN
!   2  |  5  |  OUT
! --------------------
! 
# MHZ S MA R 50
! freq  magS11 angS11  magS21 angS21  magS12 angS12  magS22 angS22
4.089200E+02  9.682676E-01 -4.476632E+01  3.836397E-04 5.079440E+01  3.395501E-04 5.050754E+01  9.848551E-01 -4.375938E+01 
4.089513E+02  9.682406E-01 -4.475142E+01  3.274625E-04 5.885914E+01  3.378557E-04 5.230515E+01  9.851831E-01 -4.373577E+01 
4.089825E+02  9.682965E-01 -4.478550E+01  3.656052E-04 5.675826E+01  3.081414E-04 5.457298E+01  9.852504E-01 -4.375656E+01 
4.090138E+02  9.685831E-01 -4.479014E+01  3.402941E-04 5.623497E+01  3.434249E-04 5.387106E+01  9.849712E-01 -4.377250E+01 
4.090450E+02  9.686928E-01 -4.478794E+01  3.334033E-04 5.545681E+01  3.537040E-04 5.282347E+01  9.853480E-01 -4.375737E+01 
4.090763E+02  9.685355E-01 -4.479884E+01  2.975689E-04 4.994874E+01  3.470507E-04 4.872430E+01  9.852812E-01 -4.377863E+01 
4.091075E+02  9.687750E-01 -4.478178E+01  3.260008E-04 5.492592E+01  3.263023E-04 5.505670E+01  9.852472E-01 -4.376885E+01 
4.091388E+02  9.684970E-01 -4.479943E+01  3.716762E-04 5.493271E+01  3.255110E-04 4.989835E+01  9.856466E-01 -4.376825E+01 
4.091700E+02  9.688768E-01 -4.482264E+01  3.610403E-04 5.243663E+01  3.234083E-04 5.379571E+01  9.852992E-01 -4.378861E+01 
4.092013E+02  9.687173E-01 -4.480272E+01  3.286020E-04 5.075162E+01  3.546064E-04 5.038565E+01  9.855224E-01 -4.377145E+01 
4.092325E+02  9.687751E-01 -4.481707E+01  3.472237E-04 5.358482E+01  3.294414E-04 5.804335E+01  9.856057E-01 -4.380418E+01 
4.092638E+02  9.687554E-01 -4.481990E+01  3.518411E-04 5.310370E+01  3.597667E-04 5.441074E+01  9.856824E-01 -4.380249E+01 
4.092950E+02  9.685582E-01 -4.483757E+01  3.636474E-04 4.923651E+01  3.362836E-04 5.025275E+01  9.855433E-01 -4.378918E+01 
4.093263E+02  9.688597E-01 -4.482977E+01  3.168381E-04 5.770613E+01  3.196536E-04 5.674434E+01  9.856850E-01 -4.381868E+01 
4.093575E+02  9.689102E-01 -4.483927E+01  3.485163E-04 5.288793E+01  3.552495E-04 4.769285E+01  9.859629E-01 -4.381056E+01 
4.093888E+02  9.687800E-01 -4.483467E+01  3.328767E-04 5.583393E+01  3.436532E-04 5.171827E+01  9.857510E-01 -4.383055E+01 
4.094200E+02  9.686508E-01 -4.483064E+01  2.886757E-04 5.442890E+01  3.317663E-04 5.404086E+01  9.855112E-01 -4.381240E+01 
4.094513E+02  9.687931E-01 -4.485559E+01  3.089061E-04 5.456140E+01  3.326696E-04 5.315646E+01  9.858988E-01 -4.382661E+01 
4.094825E+02  9.688987E-01 -4.486771E+01  3.376415E-04 5.161442E+01  3.445406E-04 4.981800E+01  9.859792E-01 -4.382395E+01 
4.095138E+02  9.689011E-01 -4.484961E+01  3.166856E-04 5.506329E+01  3.199271E-04 5.033463E+01  9.858580E-01 -4.382881E+01 
4.095450E+02  9.690966E-01 -4.486412E+01  3.414782E-04 4.686617E+01  3.046572E-04 5.582354E+01  9.859471E-01 -4.383301E+01 
4.095763E+02  9.690047E-01 -4.486552E+01  3.418369E-04 5.334716E+01  3.089828E-04 5.990915E+01  9.861092E-01 -4.383704E+01 
4.096075E+02  9.687143E-01 -4.486287E+01  3.077473E-04 5.123822E+01  3.165154E-04 5.480240E+01  9.860476E-01 -4.383678E+01 
4.096388E+02  9.688036E-01 -4.489379E+01  3.259911E-04 5.624387E+01  3.460764E-04 5.346933E+01  9.859794E-01 -4.385362E+01 
4.096700E+02  9.689521E-01 -4.487797E+01  3.518247E-04 5.413680E+01  3.311166E-04 5.585275E+01  9.859561E-01 -4.385588E+01 
4.097013E+02  9.687857E-01 -4.489375E+01  3.234624E-04 5.447101E+01  3.328589E-04 5.255193E+01  9.859147E-01 -4.386414E+01 
4.097325E+02  9.691565E-01 -4.489278E+01  3.192840E-04 5.042029E+01  3.538960E-04 5.384591E+01  9.862395E-01 -4.386061E+01 
4.097638E+02  9.689146E-01 -4.490174E+01  3.343576E-04 5.639517E+01  3.594427E-04 5.729665E+01  9.861781E-01 -4.386097E+01 
4.097950E+02  9.688297E-01 -4.488274E+01  3.182627E-04 5.354294E+01  3.316267E-04 5.632512E+01  9.863382E-01 -4.385269E+01 
4.098263E+02  9.689046E-01 -4.489719E+01  3.302715E-04 5.553713E+01  3.316423E-04 5.246067E+01  9.859436E-01 -4.387894E+01 
4.098575E+02  9.687870E-01 -4.490071E+01  3.195192E-04 5.701853E+01  3.370883E-04 5.476024E+01  9.863911E-01 -4.385340E+01 
4.098888E+02  9.689171E-01 -4.492103E+01  3.303449E-04 5.490407E+01  3.319524E-04 5.627382E+01  9.862814E-01 -4.389254E+01 
4.099200E+02  9.685483E-01 -4.490364E+01  3.334893E-04 5.644361E+01  3.452711E-04 5.552917E+01  9.865867E-01 -4.387565E+01 
4.099513E+02  9.691394E-01 -4.490797E+01  3.283626E-04 6.016872E+01  3.537558E-04 5.742157E+01  9.864005E-01 -4.387910E+01 
4.099825E+02  9.690894E-01 -4.491961E+01  3.107885E-04 5.418919E+01  3.468385E-04 5.223756E+01  9.863179E-01 -4.387383E+01 
4.100138E+02  9.689245E-01 -4.491291E+01  3.247648E-04 5.762577E+01  3.400301E-04 5.580276E+01  9.863664E-01 -4.390131E+01 
4.100450E+02  9.687294E-01 -4.491014E+01  3.389662E-04 5.454416E+01  3.056126E-04 5.609198E+01  9.865411E-01 -4.389951E+01 
4.100763E+02  9.690400E-01 -4.493328E+01  3.098041E-04 5.617042E+01  3.181652E-04 5.937300E+01  9.862753E-01 -4.390034E+01 
4.101075E+02  9.686566E-01 -4.494316E+01  3.467437E-04 5.406666E+01  3.531017E-04 5.607382E+01  9.862240E-01 -4.390116E+01 
4.101388E+02  9.687454E-01 -4.495185E+01  3.420592E-04 5.809882E+01  3.484889E-04 5.474233E+01  9.864956E-01 -4.390840E+01 
4.101700E+02  9.686829E-01 -4.492468E+01  3.270067E-04 5.672088E+01  3.425774E-04 5.564748E+01  9.866238E-01 -4.392328E+01 
4.102013E+02  9.691851E-01 -4.494568E+01  3.616137E-04 5.742581E+01  3.395349E-04 5.776213E+01  9.864552E-01 -4.393078E+01 
4.102325E+02  9.690717E-01 -4.494542E+01  3.437024E-04 5.416638E+01  3.572019E-04 5.652827E+01  9.864871E-01 -4.390665E+01 
4.102638E+02  9.691647E-01 -4.495087E+01  3.392930E-04 5.358957E+01  3.426209E-04 5.805661E+01  9.864727E-01 -4.393587E+01 
4.102950E+02  9.696456E-01 -4.495659E+01  3.469410E-04 5.643402E+01  3.286204E-04 5.872655E+01  9.865852E-01 -4.391457E+01 
4.103263E+02  9.689202E-01 -4.495577E+01  3.272812E-04 5.809101E+01  3.762851E-04 5.895227E+01  9.867177E-01 -4.393748E+01 
4.103575E+02  9.692830E-01 -4.496711E+01  3.319023E-04 5.484527E+01  3.302751E-04 5.605010E+01  9.867499E-01 -4.392684E+01 
4.103888E+02  9.690178E-01 -4.496827E+01  3.441093E-04 6.090941E+01  3.367860E-04 5.950194E+01  9.866761E-01 -4.394387E+01 
4.104200E+02  9.689448E-01 -4.497046E+01  3.344250E-04 5.268666E+01  3.212781E-04 5.564584E+01  9.870633E-01 -4.395897E+01 
4.104513E+02  9.694946E-01 -4.497303E+01  3.453402E-04 5.239076E+01  3.339070E-04 5.460178E+01  9.865997E-01 -4.393993E+01 
4.104825E+02  9.693220E-01 -4.498539E+01  3.444449E-04 6.378592E+01  3.185621E-04 5.723695E+01  9.867070E-01 -4.396685E+01 
4.105138E+02  9.691492E-01 -4.496623E+01  3.453737E-04 5.793246E+01  3.657707E-04 5.634484E+01  9.867097E-01 -4.394719E+01 
4.105450E+02  9.690126E-01 -4.498201E+01  3.182415E-04 6.250870E+01  3.346215E-04 5.277427E+01  9.865795E-01 -4.396194E+01 
4.105763E+02  9.690591E-01 -4.500137E+01  3.526617E-04 6.241488E+01  3.299657E-04 5.351761E+01  9.867453E-01 -4.395172E+01 
4.106075E+02  9.689890E-01 -4.499836E+01  3.546002E-04 5.370909E+01  3.776207E-04 5.582050E+01  9.867499E-01 -4.396945E+01 
4.106388E+02  9.690996E-01 -4.502000E+01  3.324295E-04 5.308327E+01  3.518389E-04 6.178278E+01  9.869776E-01 -4.396858E+01 
4.106700E+02  9.693816E-01 -4.500129E+01  3.151704E-04 5.709412E+01  3.422963E-04 6.323866E+01  9.869597E-01 -4.396244E+01 
4.107013E+02  9.691349E-01 -4.500940E+01  3.381952E-04 5.436596E+01  3.605347E-04 5.662124E+01  9.868774E-01 -4.398502E+01 
4.107325E+02  9.692274E-01 -4.502751E+01  3.281858E-04 5.538295E+01  3.868509E-04 5.433031E+01  9.867365E-01 -4.399191E+01 
4.107638E+02  9.692632E-01 -4.500977E+01  3.461830E-04 5.689955E+01  3.436146E-04 5.889604E+01  9.868878E-01 -4.399731E+01 
4.107950E+02  9.692641E-01 -4.502344E+01  3.695118E-04 5.568528E+01  3.259769E-04 6.024564E+01  9.866909E-01 -4.400252E+01 
4.108263E+02  9.688484E-01 -4.503087E+01  3.563420E-04 6.013435E+01  3.377429E-04 5.940903E+01  9.868700E-01 -4.399506E+01 
4.108575E+02  9.693104E-01 -4.503052E+01  3.502524E-04 5.426696E+01  3.569893E-04 5.858052E+01  9.867887E-01 -4.398004E+01 
4.108888E+02  9.691588E-01 -4.503068E+01  3.499026E-04 5.894555E+01  3.668745E-04 5.725407E+01  9.872964E-01 -4.401170E+01 
4.109200E+02  9.689566E-01 -4.502943E+01  3.825654E-04 6.305005E+01  3.593924E-04 5.485077E+01  9.869158E-01 -4.401473E+01 
4.109513E+02  9.692949E-01 -4.503644E+01  3.658342E-04 5.942793E+01  3.440332E-04 5.710728E+01  9.870541E-01 -4.400750E+01 
4.109825E+02  9.691177E-01 -4.504975E+01  3.425425E-04 5.670680E+01  3.780021E-04 5.869351E+01  9.870386E-01 -4.402840E+01 
4.110138E+02  9.691813E-01 -4.504275E+01  3.673898E-04 5.545002E+01  3.708733E-04 5.577168E+01  9.871817E-01 -4.401856E+01 
4.110450E+02  9.690232E-01 -4.503020E+01  3.376950E-04 5.593544E+01  3.783800E-04 5.710710E+01  9.867635E-01 -4.402024E+01 
4.110763E+02  9.688760E-01 -4.506113E+01  3.573054E-04 5.619782E+01  3.842430E-04 5.579657E+01  9.869447E-01 -4.404447E+01 
4.111075E+02  9.689329E-01 -4.505069E+01  3.981933E-04 5.543350E+01  3.655236E-04 5.714871E+01  9.870787E-01 -4.401567E+01 
4.111388E+02  9.695029E-01 -4.508122E+01  3.963683E-04 5.418806E+01  4.105052E-04 5.702998E+01  9.869414E-01 -4.400779E+01 
4.111700E+02  9.693050E-01 -4.507389E+01  3.902428E-04 5.951243E+01  4.048065E-04 5.825963E+01  9.870466E-01 -4.403605E+01 
4.112013E+02  9.691196E-01 -4.505176E+01  3.701673E-04 5.135494E+01  3.931756E-04 5.381142E+01  9.870141E-01 -4.403133E+01 
4.112325E+02  9.689970E-01 -4.505519E+01  3.734674E-04 5.643223E+01  3.755670E-04 5.199440E+01  9.870864E-01 -4.402926E+01 
4.112638E+02  9.692935E-01 -4.506821E+01  3.681624E-04 5.373072E+01  3.829611E-04 5.723527E+01  9.870982E-01 -4.404297E+01 
4.112950E+02  9.695632E-01 -4.507633E+01  3.789714E-04 5.322248E+01  3.892951E-04 4.696352E+01  9.872124E-01 -4.405645E+01 
4.113263E+02  9.691985E-01 -4.509163E+01  3.953902E-04 5.096222E+01  3.748913E-04 5.288584E+01  9.868715E-01 -4.404896E+01 
4.113575E+02  9.692600E-01 -4.506737E+01  4.020921E-04 5.102356E+01  3.665272E-04 5.250385E+01  9.871173E-01 -4.404046E+01 
4.113888E+02  9.696472E-01 -4.509988E+01  3.680597E-04 4.826732E+01  3.905948E-04 4.902265E+01  9.868570E-01 -4.406742E+01 
4.114200E+02  9.692376E-01 -4.508426E+01  4.049436E-04 5.089970E+01  3.765012E-04 5.037503E+01  9.869108E-01 -4.407940E+01 
4.114513E+02  9.694601E-01 -4.511227E+01  3.700292E-04 4.855168E+01  3.845989E-04 4.633201E+01  9.870210E-01 -4.405338E+01 
4.114825E+02  9.691557E-01 -4.509949E+01  3.469934E-04 4.485710E+01  3.810735E-04 4.795869E+01  9.869470E-01 -4.407660E+01 
4.115138E+02  9.697194E-01 -4.508415E+01  3.915527E-04 4.776183E+01  3.610249E-04 4.394202E+01  9.873940E-01 -4.408582E+01 
4.115450E+02  9.692875E-01 -4.510782E+01  3.713687E-04 4.881406E+01  3.660042E-04 4.565802E+01  9.870469E-01 -4.408005E+01 
4.115763E+02  9.694931E-01 -4.510065E+01  3.481907E-04 4.657416E+01  3.627931E-04 4.645461E+01  9.868426E-01 -4.410566E+01 
4.116075E+02  9.692438E-01 -4.509538E+01  3.464487E-04 4.937630E+01  3.340070E-04 4.509126E+01  9.871620E-01 -4.408253E+01 
4.116388E+02  9.692767E-01 -4.510866E+01  3.576531E-04 4.470615E+01  3.660249E-04 4.349211E+01  9.873217E-01 -4.408535E+01 
4.116700E+02  9.692322E-01 -4.513173E+01  3.700565E-04 4.563142E+01  3.275966E-04 4.462773E+01  9.870958E-01 -4.407795E+01 
4.117013E+02  9.697909E-01 -4.513512E+01  3.281260E-04 4.280347E+01  3.654612E-04 4.490178E+01  9.872999E-01 -4.409198E+01 
4.117325E+02  9.695421E-01 -4.512812E+01  3.373903E-04 4.549730E+01  3.490344E-04 4.595684E+01  9.871878E-01 -4.409933E+01 
4.117638E+02  9.693823E-01 -4.512460E+01  3.434265E-04 4.564539E+01  3.385253E-04 4.350952E+01  9.871014E-01 -4.410497E+01 
4.117950E+02  9.693155E-01 -4.513313E+01  3.751324E-04 4.500890E+01  3.364915E-04 4.498674E+01  9.866902E-01 -4.408788E+01 
4.118263E+02  9.699153E-01 -4.515866E+01  3.128089E-04 4.413334E+01  3.111419E-04 4.295236E+01  9.868426E-01 -4.410892E+01 
4.118575E+02  9.693712E-01 -4.516002E+01  3.294085E-04 4.716591E+01  3.356076E-04 4.857764E+01  9.871204E-01 -4.408003E+01 
4.118888E+02  9.695039E-01 -4.515752E+01  3.137230E-04 4.550319E+01  3.255638E-04 4.445712E+01  9.871654E-01 -4.411007E+01 
4.119200E+02  9.692185E-01 -4.515701E+01  3.040578E-04 4.258003E+01  3.167248E-04 4.357712E+01  9.870714E-01 -4.411249E+01 
4.119513E+02  9.695163E-01 -4.514973E+01  3.187484E-04 4.748892E+01  3.085338E-04 4.224736E+01  9.872157E-01 -4.413731E+01 
4.119825E+02  9.699959E-01 -4.516853E+01  3.122870E-04 4.790411E+01  3.328037E-04 4.837789E+01  9.869775E-01 -4.413915E+01 
4.120138E+02  9.693202E-01 -4.518884E+01  3.250304E-04 4.957686E+01  2.826532E-04 4.676750E+01  9.869786E-01 -4.413839E+01 
4.120450E+02  9.693428E-01 -4.518617E+01  2.992349E-04 4.519306E+01  2.898969E-04 4.875941E+01  9.867973E-01 -4.413012E+01 
4.120763E+02  9.692381E-01 -4.517183E+01  2.683054E-04 4.795527E+01  2.993957E-04 4.240554E+01  9.871197E-01 -4.412907E+01 
4.121075E+02  9.696785E-01 -4.517489E+01  2.810671E-04 5.629013E+01  2.790369E-04 4.902420E+01  9.869828E-01 -4.413410E+01 
4.121388E+02  9.692832E-01 -4.518241E+01  2.388395E-04 6.130172E+01  2.818872E-04 4.882679E+01  9.867890E-01 -4.415627E+01 
4.121700E+02  9.696097E-01 -4.519519E+01  2.639525E-04 5.177378E+01  2.714568E-04 4.927709E+01  9.871696E-01 -4.416134E+01 
4.122013E+02  9.694636E-01 -4.520396E+01  2.540002E-04 5.409076E+01  2.721775E-04 4.877402E+01  9.872181E-01 -4.414235E+01 
4.122325E+02  9.695584E-01 -4.522134E+01  2.783775E-04 5.283712E+01  2.503255E-04 5.435780E+01  9.867815E-01 -4.416103E+01 
4.122638E+02  9.693646E-01 -4.520961E+01  2.805191E-04 5.528084E+01  2.906971E-04 5.724213E+01  9.869308E-01 -4.416249E+01 
4.122950E+02  9.699500E-01 -4.521074E+01  2.989803E-04 5.599752E+01  2.565268E-04 5.629011E+01  9.869524E-01 -4.417666E+01 
4.123263E+02  9.696734E-01 -4.523392E+01  2.884199E-04 5.548112E+01  2.648769E-04 5.299513E+01  9.869967E-01 -4.416026E+01 
4.123575E+02  9.695971E-01 -4.520482E+01  2.600239E-04 5.604503E+01  2.951854E-04 5.761510E+01  9.871923E-01 -4.415975E+01 
4.123888E+02  9.693687E-01 -4.523963E+01  2.893044E-04 5.940740E+01  2.934578E-04 5.889686E+01  9.871642E-01 -4.419938E+01 
4.124200E+02  9.696091E-01 -4.524929E+01  2.961210E-04 6.166570E+01  2.639133E-04 5.992816E+01  9.867257E-01 -4.419081E+01 
4.124513E+02  9.696592E-01 -4.522600E+01  2.835671E-04 6.235152E+01  2.537940E-04 5.694085E+01  9.869778E-01 -4.418544E+01 
4.124825E+02  9.695112E-01 -4.525715E+01  2.657864E-04 6.164467E+01  2.775606E-04 6.293973E+01  9.870869E-01 -4.417689E+01 
4.125138E+02  9.695414E-01 -4.524270E+01  2.860003E-04 5.999609E+01  2.758519E-04 6.611525E+01  9.869031E-01 -4.420929E+01 
4.125450E+02  9.698074E-01 -4.525027E+01  2.996978E-04 6.140184E+01  2.996418E-04 6.086691E+01  9.868210E-01 -4.419862E+01 
4.125763E+02  9.694325E-01 -4.524315E+01  3.049873E-04 6.464533E+01  2.945867E-04 6.032786E+01  9.868838E-01 -4.420640E+01 
4.126075E+02  9.694197E-01 -4.528046E+01  3.023117E-04 6.265785E+01  3.089060E-04 6.331575E+01  9.870524E-01 -4.421365E+01 
4.126388E+02  9.695783E-01 -4.526988E+01  2.948419E-04 6.354970E+01  3.223366E-04 6.387955E+01  9.870520E-01 -4.422516E+01 
4.126700E+02  9.693588E-01 -4.526180E+01  3.170207E-04 6.544127E+01  3.239086E-04 6.503765E+01  9.870277E-01 -4.421816E+01 
4.127013E+02  9.696001E-01 -4.526857E+01  2.818057E-04 6.250145E+01  3.538400E-04 6.596099E+01  9.872864E-01 -4.422238E+01 
4.127325E+02  9.695381E-01 -4.526953E+01  2.977448E-04 6.061573E+01  3.536692E-04 6.856889E+01  9.872852E-01 -4.421792E+01 
4.127638E+02  9.693087E-01 -4.526902E+01  2.956294E-04 6.489562E+01  3.169152E-04 6.365333E+01  9.871652E-01 -4.420953E+01 
4.127950E+02  9.697294E-01 -4.527690E+01  3.228466E-04 6.296635E+01  3.267369E-04 6.598154E+01  9.871575E-01 -4.423332E+01 
4.128263E+02  9.698905E-01 -4.528825E+01  3.486566E-04 6.158638E+01  3.479303E-04 7.086892E+01  9.870262E-01 -4.421662E+01 
4.128575E+02  9.696240E-01 -4.529492E+01  3.441178E-04 6.341841E+01  3.435147E-04 6.048411E+01  9.869529E-01 -4.423363E+01 
4.128888E+02  9.693910E-01 -4.528941E+01  3.541249E-04 6.057562E+01  3.413442E-04 6.240353E+01  9.874656E-01 -4.423508E+01 
4.129200E+02  9.697330E-01 -4.529838E+01  3.640903E-04 6.443817E+01  3.359007E-04 6.231168E+01  9.870954E-01 -4.424309E+01 
4.129513E+02  9.695925E-01 -4.530116E+01  3.503820E-04 5.995558E+01  3.693215E-04 6.312934E+01  9.874090E-01 -4.423334E+01 
4.129825E+02  9.695457E-01 -4.530509E+01  3.844544E-04 6.169607E+01  3.445576E-04 6.269697E+01  9.874739E-01 -4.423928E+01 
4.130138E+02  9.696714E-01 -4.530397E+01  3.679379E-04 6.725274E+01  3.678357E-04 5.864445E+01  9.871867E-01 -4.424475E+01 
4.130450E+02  9.699348E-01 -4.530247E+01  3.317990E-04 6.386443E+01  3.356470E-04 5.852651E+01  9.871307E-01 -4.426134E+01 
4.130763E+02  9.697185E-01 -4.531569E+01  3.698248E-04 6.260399E+01  3.614872E-04 6.092517E+01  9.871000E-01 -4.427260E+01 
4.131075E+02  9.699677E-01 -4.532657E+01  3.547851E-04 6.113332E+01  3.549487E-04 6.056429E+01  9.872188E-01 -4.424462E+01 
4.131388E+02  9.694974E-01 -4.533207E+01  3.955867E-04 6.041651E+01  3.770842E-04 5.604559E+01  9.868934E-01 -4.427393E+01 
4.131700E+02  9.696253E-01 -4.531941E+01  4.068146E-04 5.711466E+01  3.971595E-04 5.694140E+01  9.870851E-01 -4.426346E+01 
4.132013E+02  9.695516E-01 -4.532521E+01  3.698183E-04 6.000940E+01  3.900311E-04 5.734726E+01  9.868510E-01 -4.429721E+01 
4.132325E+02  9.698140E-01 -4.534841E+01  3.639310E-04 5.842227E+01  3.678181E-04 5.566415E+01  9.871952E-01 -4.428244E+01 
4.132638E+02  9.697345E-01 -4.532978E+01  3.612536E-04 5.813064E+01  3.544715E-04 6.271560E+01  9.870385E-01 -4.428225E+01 
4.132950E+02  9.699457E-01 -4.535421E+01  3.726132E-04 5.582886E+01  3.811868E-04 6.079178E+01  9.873106E-01 -4.429628E+01 
4.133263E+02  9.697790E-01 -4.534356E+01  3.629553E-04 5.137477E+01  3.980087E-04 5.766776E+01  9.877215E-01 -4.430237E+01 
4.133575E+02  9.700547E-01 -4.534512E+01  3.966598E-04 5.176756E+01  3.705066E-04 5.547729E+01  9.873578E-01 -4.428146E+01 
4.133888E+02  9.696243E-01 -4.534642E+01  3.426574E-04 5.159010E+01  3.656310E-04 5.493442E+01  9.869728E-01 -4.429206E+01 
4.134200E+02  9.696131E-01 -4.536834E+01  3.855026E-04 5.330104E+01  3.593028E-04 5.331968E+01  9.869429E-01 -4.428684E+01 
4.134513E+02  9.698602E-01 -4.536060E+01  3.705057E-04 5.778709E+01  3.809610E-04 5.371260E+01  9.866242E-01 -4.431826E+01 
4.134825E+02  9.702196E-01 -4.538244E+01  3.569710E-04 5.258453E+01  3.491984E-04 5.523526E+01  9.870310E-01 -4.431276E+01 
4.135138E+02  9.697939E-01 -4.537688E+01  3.771029E-04 5.388463E+01  3.817488E-04 5.658797E+01  9.873891E-01 -4.429464E+01 
4.135450E+02  9.697763E-01 -4.537273E+01  3.394148E-04 5.100246E+01  3.436100E-04 4.870629E+01  9.869121E-01 -4.431274E+01 
4.135763E+02  9.696828E-01 -4.536332E+01  3.607732E-04 5.425825E+01  3.714490E-04 5.231145E+01  9.866330E-01 -4.433543E+01 
4.136075E+02  9.699515E-01 -4.540971E+01  3.465055E-04 5.620500E+01  3.486330E-04 5.683915E+01  9.868628E-01 -4.434428E+01 
4.136388E+02  9.696750E-01 -4.538074E+01  3.655734E-04 4.935811E+01  3.620065E-04 5.435906E+01  9.875833E-01 -4.433991E+01 
4.136700E+02  9.699643E-01 -4.540781E+01  3.524094E-04 5.634292E+01  3.429844E-04 5.360884E+01  9.871847E-01 -4.434091E+01 
4.137013E+02  9.695458E-01 -4.538218E+01  3.742618E-04 5.696153E+01  3.408491E-04 5.124909E+01  9.871987E-01 -4.435355E+01 
4.137325E+02  9.699565E-01 -4.539618E+01  3.872501E-04 5.825205E+01  3.419598E-04 5.224964E+01  9.870768E-01 -4.435532E+01 
4.137638E+02  9.699004E-01 -4.540882E+01  3.498486E-04 5.342973E+01  3.296709E-04 5.207621E+01  9.873508E-01 -4.434993E+01 
4.137950E+02  9.694066E-01 -4.541549E+01  3.396979E-04 4.918951E+01  3.406149E-04 5.288899E+01  9.869465E-01 -4.438135E+01 
4.138263E+02  9.701793E-01 -4.542368E+01  3.655334E-04 5.090439E+01  3.691776E-04 5.275448E+01  9.872250E-01 -4.437978E+01 
