! Matrix data file written by TouchstoneData, EPCOS AG
! FILENAME: "newformat_B3774_SB.s2p"
! COMMENT: "(B3774_SB.s2p)"
! INFO: nport=2, nfreq=1601
! DATE: "Fri Sep 21 11:09:01 2012"
! USER: "Wilfried Schott"
!
! port | pin | signal
! -----|-----|--------
!   1  |  2  |  IN
!   2  |  5  |  OUT
! --------------------
! 
# MHZ S MA R 50
! freq  magS11 angS11  magS21 angS21  magS12 angS12  magS22 angS22
4.314200E+02  9.662527E-01 -4.937705E+01  3.265369E-04 3.921591E+01  2.181398E-04 4.986949E+01  9.832632E-01 -4.832332E+01 
4.314231E+02  9.665272E-01 -4.937843E+01  3.248102E-04 4.605655E+01  2.948527E-04 5.185885E+01  9.830045E-01 -4.830100E+01 
4.314263E+02  9.664384E-01 -4.940302E+01  2.891538E-04 5.937236E+01  2.612794E-04 5.111095E+01  9.829831E-01 -4.830955E+01 
4.314294E+02  9.663697E-01 -4.940639E+01  2.864024E-04 5.810910E+01  3.403819E-04 4.760816E+01  9.829761E-01 -4.830643E+01 
4.314325E+02  9.664041E-01 -4.941086E+01  3.294441E-04 5.794848E+01  2.749677E-04 5.336408E+01  9.830442E-01 -4.833142E+01 
4.314356E+02  9.662295E-01 -4.944192E+01  2.145659E-04 5.444389E+01  2.913598E-04 3.613739E+01  9.832309E-01 -4.834745E+01 
4.314388E+02  9.662605E-01 -4.944259E+01  2.438569E-04 5.452775E+01  2.793718E-04 3.889274E+01  9.833087E-01 -4.834485E+01 
4.314419E+02  9.663225E-01 -4.941604E+01  2.657566E-04 5.190204E+01  3.109460E-04 6.250819E+01  9.832511E-01 -4.833282E+01 
4.314450E+02  9.665239E-01 -4.940524E+01  3.266943E-04 5.787131E+01  2.629935E-04 6.085931E+01  9.827120E-01 -4.835308E+01 
4.314481E+02  9.666031E-01 -4.942497E+01  3.016255E-04 4.881241E+01  2.382093E-04 4.736763E+01  9.830410E-01 -4.837053E+01 
4.314513E+02  9.664675E-01 -4.942397E+01  2.761216E-04 4.417174E+01  2.774525E-04 4.606132E+01  9.829443E-01 -4.836206E+01 
4.314544E+02  9.668502E-01 -4.942641E+01  3.727771E-04 6.162672E+01  3.003844E-04 5.726521E+01  9.831306E-01 -4.833350E+01 
4.314575E+02  9.662618E-01 -4.943964E+01  2.892099E-04 5.141512E+01  3.031508E-04 5.658218E+01  9.830234E-01 -4.835358E+01 
4.314606E+02  9.666560E-01 -4.944698E+01  2.967455E-04 6.722664E+01  2.360878E-04 4.061037E+01  9.830491E-01 -4.836805E+01 
4.314638E+02  9.664450E-01 -4.946358E+01  2.859406E-04 5.950889E+01  3.264860E-04 5.885794E+01  9.831999E-01 -4.836125E+01 
4.314669E+02  9.669025E-01 -4.945453E+01  3.158654E-04 5.326461E+01  3.560212E-04 4.785226E+01  9.834310E-01 -4.835962E+01 
4.314700E+02  9.665052E-01 -4.944226E+01  3.033435E-04 5.896875E+01  3.444083E-04 5.358510E+01  9.831893E-01 -4.838165E+01 
4.314731E+02  9.661984E-01 -4.944266E+01  2.612257E-04 5.981259E+01  2.399907E-04 5.943766E+01  9.829709E-01 -4.839081E+01 
4.314762E+02  9.668062E-01 -4.946297E+01  3.305770E-04 4.349630E+01  3.624007E-04 4.333638E+01  9.834757E-01 -4.836392E+01 
4.314794E+02  9.668500E-01 -4.945795E+01  3.653425E-04 4.435253E+01  3.101682E-04 4.993875E+01  9.834448E-01 -4.840534E+01 
4.314825E+02  9.669232E-01 -4.948126E+01  2.960951E-04 5.326947E+01  3.257575E-04 5.030058E+01  9.832358E-01 -4.839140E+01 
4.314856E+02  9.664552E-01 -4.948406E+01  2.885335E-04 5.023623E+01  3.595445E-04 4.519882E+01  9.831340E-01 -4.838957E+01 
4.314888E+02  9.661943E-01 -4.946877E+01  3.141087E-04 6.501944E+01  3.080826E-04 5.085822E+01  9.830324E-01 -4.837321E+01 
4.314919E+02  9.667090E-01 -4.950055E+01  2.978393E-04 4.765992E+01  3.457640E-04 5.536828E+01  9.829630E-01 -4.839977E+01 
4.314950E+02  9.666903E-01 -4.950738E+01  3.211569E-04 4.424164E+01  2.963748E-04 5.215630E+01  9.832559E-01 -4.842590E+01 
4.314981E+02  9.667162E-01 -4.950532E+01  3.409982E-04 5.777782E+01  3.154504E-04 5.629064E+01  9.833795E-01 -4.841658E+01 
4.315013E+02  9.665815E-01 -4.948616E+01  2.854831E-04 4.898459E+01  3.601688E-04 6.191602E+01  9.829650E-01 -4.839609E+01 
4.315044E+02  9.666058E-01 -4.950299E+01  3.107831E-04 5.491780E+01  3.380942E-04 6.104195E+01  9.829738E-01 -4.841130E+01 
4.315075E+02  9.666458E-01 -4.949086E+01  3.394538E-04 4.911643E+01  2.975131E-04 4.002324E+01  9.830934E-01 -4.844214E+01 
4.315106E+02  9.668072E-01 -4.952646E+01  3.847196E-04 4.944114E+01  3.456885E-04 5.109030E+01  9.829839E-01 -4.843783E+01 
4.315138E+02  9.670243E-01 -4.951005E+01  3.737486E-04 4.808969E+01  3.155582E-04 4.613795E+01  9.828868E-01 -4.845363E+01 
4.315169E+02  9.667440E-01 -4.953114E+01  3.215282E-04 4.406983E+01  2.663569E-04 5.188650E+01  9.832125E-01 -4.842599E+01 
4.315200E+02  9.666992E-01 -4.948763E+01  3.899286E-04 5.654353E+01  2.916726E-04 4.823638E+01  9.829923E-01 -4.843825E+01 
4.315231E+02  9.669069E-01 -4.953180E+01  3.353581E-04 5.193417E+01  3.257233E-04 4.574855E+01  9.832637E-01 -4.846945E+01 
4.315263E+02  9.668546E-01 -4.953739E+01  3.658524E-04 5.495608E+01  2.903237E-04 5.837972E+01  9.831116E-01 -4.847036E+01 
4.315294E+02  9.671891E-01 -4.953743E+01  3.767157E-04 4.458323E+01  2.967077E-04 5.455604E+01  9.832224E-01 -4.847772E+01 
4.315325E+02  9.671086E-01 -4.954794E+01  3.373355E-04 4.829366E+01  3.453565E-04 5.285792E+01  9.833524E-01 -4.845617E+01 
4.315356E+02  9.671234E-01 -4.956560E+01  3.296942E-04 4.555157E+01  3.810478E-04 5.149733E+01  9.834876E-01 -4.845789E+01 
4.315387E+02  9.665982E-01 -4.958960E+01  2.833805E-04 4.597913E+01  2.732041E-04 4.057821E+01  9.828532E-01 -4.849574E+01 
4.315419E+02  9.667436E-01 -4.957393E+01  2.869981E-04 5.726183E+01  3.567627E-04 5.336297E+01  9.830288E-01 -4.845951E+01 
4.315450E+02  9.671035E-01 -4.957174E+01  3.197512E-04 5.603634E+01  3.309593E-04 5.035590E+01  9.831754E-01 -4.846057E+01 
4.315481E+02  9.668836E-01 -4.958494E+01  3.414243E-04 4.889829E+01  3.465588E-04 4.883125E+01  9.833009E-01 -4.849603E+01 
4.315513E+02  9.671977E-01 -4.960132E+01  4.215829E-04 3.956111E+01  3.262413E-04 5.934907E+01  9.831084E-01 -4.848917E+01 
4.315544E+02  9.671630E-01 -4.958511E+01  3.426627E-04 5.499424E+01  3.460286E-04 4.917744E+01  9.830817E-01 -4.851756E+01 
4.315575E+02  9.666167E-01 -4.956518E+01  2.997724E-04 6.375580E+01  3.277032E-04 5.634456E+01  9.831515E-01 -4.849027E+01 
4.315606E+02  9.670147E-01 -4.958612E+01  3.373134E-04 4.981904E+01  3.114463E-04 4.464320E+01  9.830875E-01 -4.852116E+01 
4.315638E+02  9.670169E-01 -4.959126E+01  3.574210E-04 4.804679E+01  3.315776E-04 4.803384E+01  9.833799E-01 -4.850384E+01 
4.315669E+02  9.667901E-01 -4.959268E+01  3.182192E-04 4.320751E+01  3.625327E-04 5.742406E+01  9.832367E-01 -4.851945E+01 
4.315700E+02  9.668249E-01 -4.960949E+01  3.026434E-04 5.256917E+01  3.829077E-04 4.924476E+01  9.833127E-01 -4.850723E+01 
4.315731E+02  9.668085E-01 -4.962286E+01  3.185995E-04 5.491061E+01  3.148272E-04 5.058041E+01  9.832440E-01 -4.851881E+01 
4.315763E+02  9.667659E-01 -4.960965E+01  3.236002E-04 5.450881E+01  2.932295E-04 5.335488E+01  9.824574E-01 -4.851923E+01 
4.315794E+02  9.668868E-01 -4.961108E+01  3.338658E-04 5.775845E+01  3.689754E-04 5.546270E+01  9.831636E-01 -4.851963E+01 
4.315825E+02  9.675132E-01 -4.963597E+01  4.048119E-04 5.252348E+01  3.483234E-04 5.225605E+01  9.832149E-01 -4.854408E+01 
4.315856E+02  9.672566E-01 -4.963975E+01  3.441385E-04 5.009951E+01  3.486891E-04 5.859542E+01  9.826577E-01 -4.851553E+01 
4.315888E+02  9.669029E-01 -4.962310E+01  3.355895E-04 5.803415E+01  3.979198E-04 4.322235E+01  9.833749E-01 -4.855689E+01 
4.315919E+02  9.670135E-01 -4.961772E+01  3.435453E-04 5.341204E+01  3.964910E-04 4.379906E+01  9.835136E-01 -4.853968E+01 
4.315950E+02  9.667055E-01 -4.961210E+01  2.904979E-04 5.912174E+01  2.724074E-04 5.616780E+01  9.827485E-01 -4.854587E+01 
4.315981E+02  9.670085E-01 -4.962180E+01  3.772104E-04 5.080422E+01  3.325213E-04 4.700434E+01  9.833671E-01 -4.855374E+01 
4.316012E+02  9.676521E-01 -4.964921E+01  3.853411E-04 5.598053E+01  2.801561E-04 5.784491E+01  9.827036E-01 -4.856078E+01 
4.316044E+02  9.668832E-01 -4.966183E+01  3.730193E-04 4.252893E+01  3.420951E-04 5.122387E+01  9.830826E-01 -4.857276E+01 
4.316075E+02  9.670098E-01 -4.964027E+01  3.306870E-04 5.544443E+01  3.698322E-04 5.617959E+01  9.828781E-01 -4.855630E+01 
4.316106E+02  9.669109E-01 -4.964718E+01  3.073270E-04 5.509373E+01  3.733558E-04 4.458040E+01  9.832833E-01 -4.858529E+01 
4.316138E+02  9.669523E-01 -4.966424E+01  3.496950E-04 5.573233E+01  3.238848E-04 5.805444E+01  9.827326E-01 -4.858715E+01 
4.316169E+02  9.671401E-01 -4.965822E+01  3.610817E-04 6.421069E+01  3.659745E-04 4.558961E+01  9.831676E-01 -4.856674E+01 
4.316200E+02  9.669233E-01 -4.971454E+01  3.894705E-04 4.517997E+01  3.377149E-04 4.893464E+01  9.829369E-01 -4.859463E+01 
4.316231E+02  9.669445E-01 -4.967016E+01  3.405868E-04 4.448202E+01  3.805024E-04 5.978421E+01  9.830470E-01 -4.858359E+01 
4.316263E+02  9.673040E-01 -4.969729E+01  3.862855E-04 5.293067E+01  3.996799E-04 4.704649E+01  9.827838E-01 -4.860312E+01 
4.316294E+02  9.669173E-01 -4.968893E+01  3.267644E-04 4.808364E+01  3.484053E-04 4.311311E+01  9.829814E-01 -4.861910E+01 
4.316325E+02  9.672449E-01 -4.967912E+01  3.610087E-04 5.658266E+01  4.231264E-04 5.598588E+01  9.830912E-01 -4.860557E+01 
4.316356E+02  9.671126E-01 -4.968889E+01  3.566934E-04 5.991212E+01  4.047670E-04 5.682409E+01  9.827950E-01 -4.858858E+01 
4.316388E+02  9.674194E-01 -4.970577E+01  3.822305E-04 4.975117E+01  3.599844E-04 4.440607E+01  9.829983E-01 -4.863005E+01 
4.316419E+02  9.672252E-01 -4.972235E+01  4.069118E-04 4.805011E+01  3.163189E-04 5.399906E+01  9.829892E-01 -4.862138E+01 
4.316450E+02  9.672260E-01 -4.970442E+01  4.008046E-04 5.692957E+01  3.150655E-04 4.436099E+01  9.831265E-01 -4.863944E+01 
4.316481E+02  9.671465E-01 -4.973593E+01  3.706480E-04 3.955620E+01  3.791317E-04 5.375015E+01  9.830682E-01 -4.862546E+01 
4.316513E+02  9.673270E-01 -4.971962E+01  3.809078E-04 6.566651E+01  3.892819E-04 5.414060E+01  9.828789E-01 -4.861672E+01 
4.316544E+02  9.667992E-01 -4.972863E+01  3.454935E-04 3.925826E+01  3.265142E-04 4.995204E+01  9.830534E-01 -4.862333E+01 
4.316575E+02  9.671542E-01 -4.973224E+01  4.291402E-04 4.803607E+01  3.558695E-04 5.235163E+01  9.830286E-01 -4.863753E+01 
4.316606E+02  9.674906E-01 -4.973996E+01  4.544523E-04 4.676147E+01  3.996829E-04 4.767848E+01  9.825855E-01 -4.868090E+01 
4.316637E+02  9.675768E-01 -4.973227E+01  3.995965E-04 6.027806E+01  5.000932E-04 5.484093E+01  9.832065E-01 -4.865199E+01 
4.316669E+02  9.670272E-01 -4.973562E+01  3.622452E-04 4.794407E+01  3.490868E-04 5.334925E+01  9.825041E-01 -4.864975E+01 
4.316700E+02  9.669888E-01 -4.975122E+01  3.647800E-04 5.739175E+01  3.838473E-04 5.348886E+01  9.830357E-01 -4.866361E+01 
4.316731E+02  9.678187E-01 -4.974996E+01  4.904694E-04 4.759681E+01  4.218496E-04 4.110787E+01  9.830152E-01 -4.868488E+01 
4.316763E+02  9.671601E-01 -4.975677E+01  3.895661E-04 3.915039E+01  3.765014E-04 5.691418E+01  9.831532E-01 -4.863705E+01 
4.316794E+02  9.677805E-01 -4.975946E+01  4.678360E-04 5.541434E+01  3.958305E-04 5.807493E+01  9.832400E-01 -4.865180E+01 
4.316825E+02  9.674952E-01 -4.975409E+01  3.983571E-04 4.074891E+01  4.051874E-04 5.084177E+01  9.827535E-01 -4.868681E+01 
4.316856E+02  9.672105E-01 -4.977784E+01  3.602782E-04 4.325456E+01  3.777990E-04 3.801828E+01  9.824141E-01 -4.868514E+01 
4.316888E+02  9.675279E-01 -4.978485E+01  3.980542E-04 4.528997E+01  4.349184E-04 4.801129E+01  9.827294E-01 -4.869072E+01 
4.316919E+02  9.669915E-01 -4.978560E+01  3.460543E-04 4.931296E+01  4.579586E-04 4.764732E+01  9.826804E-01 -4.871100E+01 
4.316950E+02  9.672104E-01 -4.977064E+01  4.269193E-04 4.165566E+01  4.645960E-04 5.671300E+01  9.833243E-01 -4.869784E+01 
4.316981E+02  9.673623E-01 -4.979969E+01  4.015774E-04 4.101020E+01  2.781798E-04 4.886987E+01  9.828213E-01 -4.868298E+01 
4.317013E+02  9.675182E-01 -4.979052E+01  4.475857E-04 5.156542E+01  4.023387E-04 4.559026E+01  9.829594E-01 -4.872297E+01 
4.317044E+02  9.670068E-01 -4.981729E+01  4.139788E-04 4.322142E+01  4.232838E-04 5.487150E+01  9.831569E-01 -4.872255E+01 
4.317075E+02  9.667297E-01 -4.982838E+01  4.782526E-04 3.607322E+01  3.748175E-04 5.220246E+01  9.824214E-01 -4.871301E+01 
4.317106E+02  9.672169E-01 -4.982548E+01  4.500964E-04 4.770918E+01  4.980356E-04 5.664306E+01  9.827641E-01 -4.871965E+01 
4.317138E+02  9.669220E-01 -4.980254E+01  3.546603E-04 4.882730E+01  3.420205E-04 4.388661E+01  9.827819E-01 -4.871952E+01 
4.317169E+02  9.673195E-01 -4.978250E+01  4.264728E-04 5.084918E+01  4.424213E-04 4.651051E+01  9.828132E-01 -4.875706E+01 
4.317200E+02  9.675311E-01 -4.986241E+01  6.005972E-04 4.607028E+01  4.329986E-04 4.801388E+01  9.827964E-01 -4.874540E+01 
4.317231E+02  9.677568E-01 -4.982681E+01  4.294808E-04 5.553373E+01  3.577900E-04 5.108017E+01  9.822878E-01 -4.874783E+01 
4.317262E+02  9.673082E-01 -4.985018E+01  5.103648E-04 4.787893E+01  3.825682E-04 5.139917E+01  9.828377E-01 -4.874311E+01 
4.317294E+02  9.671622E-01 -4.984835E+01  4.468016E-04 5.922361E+01  4.784341E-04 5.751208E+01  9.827901E-01 -4.874977E+01 
4.317325E+02  9.673086E-01 -4.985522E+01  5.039320E-04 4.736435E+01  5.237782E-04 5.047141E+01  9.830136E-01 -4.877564E+01 
4.317356E+02  9.671636E-01 -4.987312E+01  5.130018E-04 4.433155E+01  5.591492E-04 5.251540E+01  9.829153E-01 -4.878649E+01 
4.317388E+02  9.669334E-01 -4.987598E+01  4.640612E-04 4.368229E+01  4.414242E-04 6.081825E+01  9.829724E-01 -4.875831E+01 
4.317419E+02  9.670823E-01 -4.986717E+01  4.958254E-04 3.172407E+01  5.454236E-04 5.579981E+01  9.829278E-01 -4.877547E+01 
4.317450E+02  9.674003E-01 -4.988186E+01  4.101700E-04 4.839166E+01  4.683349E-04 4.721422E+01  9.828184E-01 -4.876277E+01 
4.317481E+02  9.674205E-01 -4.988287E+01  4.329809E-04 5.003086E+01  4.590230E-04 3.940282E+01  9.825197E-01 -4.877794E+01 
4.317513E+02  9.673398E-01 -4.986667E+01  4.471787E-04 5.022587E+01  6.261172E-04 4.357819E+01  9.828341E-01 -4.883406E+01 
4.317544E+02  9.670387E-01 -4.989534E+01  5.806219E-04 4.213426E+01  4.252673E-04 4.631895E+01  9.827451E-01 -4.879427E+01 
4.317575E+02  9.677912E-01 -4.992218E+01  5.467488E-04 5.133772E+01  5.414997E-04 4.074925E+01  9.827873E-01 -4.882027E+01 
4.317606E+02  9.675065E-01 -4.988947E+01  4.802002E-04 5.468725E+01  5.063138E-04 5.269788E+01  9.825912E-01 -4.881031E+01 
4.317638E+02  9.674492E-01 -4.989489E+01  4.507978E-04 3.939119E+01  4.264832E-04 4.198985E+01  9.832429E-01 -4.879495E+01 
4.317669E+02  9.671503E-01 -4.990514E+01  5.144275E-04 4.159474E+01  4.991172E-04 3.772984E+01  9.826247E-01 -4.881217E+01 
4.317700E+02  9.675575E-01 -4.990831E+01  4.975489E-04 3.793700E+01  4.648674E-04 3.616070E+01  9.819966E-01 -4.882439E+01 
4.317731E+02  9.671498E-01 -4.992328E+01  4.758825E-04 3.787999E+01  5.783575E-04 4.012194E+01  9.824924E-01 -4.883830E+01 
4.317763E+02  9.675588E-01 -4.992274E+01  4.566220E-04 4.580628E+01  4.834508E-04 4.664053E+01  9.831020E-01 -4.882556E+01 
4.317794E+02  9.675737E-01 -4.994894E+01  5.430453E-04 4.990156E+01  4.659303E-04 4.540952E+01  9.829990E-01 -4.884937E+01 
4.317825E+02  9.670606E-01 -4.993303E+01  5.143986E-04 3.161790E+01  5.528556E-04 3.619782E+01  9.825835E-01 -4.883628E+01 
4.317856E+02  9.671138E-01 -4.994211E+01  5.632277E-04 3.989092E+01  4.647772E-04 4.296727E+01  9.828875E-01 -4.883667E+01 
4.317887E+02  9.673806E-01 -4.995598E+01  5.872960E-04 4.010119E+01  5.439439E-04 3.697060E+01  9.826543E-01 -4.886862E+01 
4.317919E+02  9.676301E-01 -4.996740E+01  5.363484E-04 3.914463E+01  5.314164E-04 3.828813E+01  9.825175E-01 -4.885999E+01 
4.317950E+02  9.672156E-01 -4.997224E+01  5.803856E-04 3.464109E+01  5.536019E-04 3.684991E+01  9.826743E-01 -4.886542E+01 
4.317981E+02  9.678145E-01 -4.995865E+01  5.246721E-04 3.886811E+01  5.804669E-04 2.673957E+01  9.824517E-01 -4.885967E+01 
4.318013E+02  9.672487E-01 -4.995375E+01  5.647470E-04 2.960945E+01  5.872247E-04 3.485601E+01  9.822345E-01 -4.889518E+01 
4.318044E+02  9.671062E-01 -4.997303E+01  6.367158E-04 3.099476E+01  5.703840E-04 3.636127E+01  9.825509E-01 -4.888164E+01 
4.318075E+02  9.675031E-01 -4.999147E+01  5.927627E-04 2.884422E+01  4.874327E-04 3.509764E+01  9.826605E-01 -4.888869E+01 
4.318106E+02  9.674040E-01 -4.998053E+01  5.943902E-04 2.580458E+01  6.395354E-04 3.506830E+01  9.823695E-01 -4.893744E+01 
4.318138E+02  9.673934E-01 -4.999610E+01  5.593204E-04 3.107288E+01  6.322743E-04 2.878265E+01  9.820627E-01 -4.892431E+01 
4.318169E+02  9.676717E-01 -5.001143E+01  6.110155E-04 2.262226E+01  5.634683E-04 3.040377E+01  9.823510E-01 -4.887991E+01 
4.318200E+02  9.671850E-01 -5.000312E+01  5.802451E-04 1.679909E+01  6.971259E-04 2.599264E+01  9.822515E-01 -4.892919E+01 
4.318231E+02  9.672590E-01 -4.999000E+01  5.706971E-04 1.164924E+01  5.675959E-04 1.576255E+01  9.823151E-01 -4.890845E+01 
4.318263E+02  9.670120E-01 -5.003104E+01  6.102136E-04 2.230419E+01  6.734953E-04 1.464462E+01  9.822924E-01 -4.891763E+01 
4.318294E+02  9.668361E-01 -5.002104E+01  6.580429E-04 1.568172E+01  5.991609E-04 2.153856E+01  9.826781E-01 -4.892891E+01 
4.318325E+02  9.672680E-01 -5.001961E+01  6.371144E-04 1.996407E+01  6.801758E-04 1.398101E+01  9.824613E-01 -4.895575E+01 
4.318356E+02  9.671277E-01 -5.006316E+01  5.686382E-04 2.167993E+01  6.863907E-04 1.960839E+01  9.818322E-01 -4.892901E+01 
4.318388E+02  9.668261E-01 -5.003378E+01  6.961607E-04 9.140620E+00  6.452294E-04 1.259640E+01  9.821157E-01 -4.893525E+01 
4.318419E+02  9.672296E-01 -5.002501E+01  6.778995E-04 5.712085E+00  6.786625E-04 1.099627E+01  9.817648E-01 -4.896168E+01 
4.318450E+02  9.675202E-01 -5.002701E+01  6.230999E-04 -2.247103E-01  6.226876E-04 9.716041E+00  9.821780E-01 -4.897521E+01 
4.318481E+02  9.667271E-01 -5.005596E+01  6.721513E-04 8.853116E-01  6.634639E-04 -7.015971E+00  9.819306E-01 -4.892282E+01 
4.318512E+02  9.664532E-01 -5.005737E+01  6.952303E-04 -2.958974E-01  5.841362E-04 -4.800148E+00  9.822763E-01 -4.895976E+01 
4.318544E+02  9.670403E-01 -5.005167E+01  5.950344E-04 -5.392968E+00  6.266287E-04 2.758697E+00  9.819705E-01 -4.896694E+01 
4.318575E+02  9.667695E-01 -5.004540E+01  6.069773E-04 -6.038501E+00  5.430202E-04 -9.113317E+00  9.823008E-01 -4.896120E+01 
4.318606E+02  9.670088E-01 -5.003698E+01  5.837300E-04 -1.403657E+01  5.246492E-04 -7.308744E+00  9.820164E-01 -4.896701E+01 
4.318638E+02  9.668398E-01 -5.007537E+01  5.361002E-04 -1.202671E+01  5.856895E-04 -1.338366E+01  9.817934E-01 -4.897517E+01 
4.318669E+02  9.669562E-01 -5.006539E+01  5.557946E-04 -1.566695E+01  5.583024E-04 -5.373662E+00  9.818110E-01 -4.899304E+01 
4.318700E+02  9.670979E-01 -5.008200E+01  4.662299E-04 -1.605518E+01  5.211708E-04 -1.645009E+01  9.816153E-01 -4.899011E+01 
4.318731E+02  9.668602E-01 -5.005262E+01  5.305815E-04 -2.183851E+01  5.196824E-04 -1.733706E+01  9.816294E-01 -4.900149E+01 
4.318763E+02  9.672001E-01 -5.007002E+01  4.466053E-04 -1.683454E+01  4.793892E-04 -2.489324E+01  9.818932E-01 -4.898714E+01 
4.318794E+02  9.665018E-01 -5.008860E+01  3.930505E-04 -1.420922E+01  4.436664E-04 -2.314316E+01  9.814857E-01 -4.897853E+01 
4.318825E+02  9.665655E-01 -5.010803E+01  4.741162E-04 -1.653963E+01  4.375513E-04 -2.937674E+01  9.819883E-01 -4.898414E+01 
4.318856E+02  9.670327E-01 -5.009280E+01  3.811354E-04 -2.407906E+01  3.669304E-04 -3.368476E+01  9.818719E-01 -4.900434E+01 
4.318888E+02  9.667866E-01 -5.011973E+01  3.500211E-04 -2.894970E+01  3.594912E-04 -3.001387E+01  9.822373E-01 -4.900171E+01 
4.318919E+02  9.672105E-01 -5.012021E+01  3.205032E-04 -2.696764E+01  3.643457E-04 -3.782194E+01  9.818502E-01 -4.899732E+01 
4.318950E+02  9.669597E-01 -5.011227E+01  3.543987E-04 -3.354077E+01  3.289968E-04 -2.815149E+01  9.820318E-01 -4.902935E+01 
4.318981E+02  9.664020E-01 -5.010718E+01  3.649547E-04 -2.138539E+01  3.621032E-04 -2.916523E+01  9.817880E-01 -4.903492E+01 
4.319013E+02  9.667465E-01 -5.012608E+01  3.872538E-04 -3.700020E+01  3.319249E-04 -4.138861E+01  9.820049E-01 -4.902347E+01 
4.319044E+02  9.667239E-01 -5.011537E+01  3.240750E-04 -3.318676E+01  2.695714E-04 -3.745863E+01  9.818340E-01 -4.903774E+01 
4.319075E+02  9.669536E-01 -5.012113E+01  2.631144E-04 -3.525355E+01  2.224846E-04 -3.595720E+01  9.816896E-01 -4.907689E+01 
