! Matrix data file written by TouchstoneData, EPCOS AG
! FILENAME: "B3784_NB.s2p"
! COMMENT: "PCB: 2009; PINNING: 25; PORTEXT1: 97ps; PORT"
! INFO: nport=2, nfreq=1601
! DATE: "Wed Jul  2 16:30:17 2008"
! USER: "Thomas Telgmann"
!
! port | pin | signal
! -----|-----|--------
!   1  |  2  |  in
!   2  |  5  |  out
! --------------------
! 
# MHZ S MA R 50
! freq  magS11 angS11  magS21 angS21  magS12 angS12  magS22 angS22
3.120000E+02  9.871586E-01 -3.540929E+01  1.210707E-03 5.880407E+01  1.214063E-03 5.873753E+01  9.861128E-01 -3.446782E+01 
3.120031E+02  9.870727E-01 -3.541642E+01  1.208419E-03 5.861529E+01  1.206547E-03 5.852148E+01  9.861010E-01 -3.447478E+01 
3.120063E+02  9.871110E-01 -3.542010E+01  1.205472E-03 5.816366E+01  1.195187E-03 5.855172E+01  9.860667E-01 -3.447409E+01 
3.120094E+02  9.873473E-01 -3.542605E+01  1.194171E-03 5.821788E+01  1.188905E-03 5.792811E+01  9.859916E-01 -3.447620E+01 
3.120125E+02  9.871942E-01 -3.542766E+01  1.192493E-03 5.787632E+01  1.185379E-03 5.773702E+01  9.861203E-01 -3.447272E+01 
3.120156E+02  9.872825E-01 -3.543727E+01  1.180385E-03 5.778366E+01  1.183995E-03 5.802866E+01  9.861259E-01 -3.448004E+01 
3.120188E+02  9.871961E-01 -3.544180E+01  1.176565E-03 5.771863E+01  1.182572E-03 5.757676E+01  9.860261E-01 -3.448842E+01 
3.120219E+02  9.871160E-01 -3.544322E+01  1.168200E-03 5.731268E+01  1.174517E-03 5.736772E+01  9.860140E-01 -3.449306E+01 
3.120250E+02  9.872210E-01 -3.544332E+01  1.165633E-03 5.712737E+01  1.171180E-03 5.721545E+01  9.859979E-01 -3.449586E+01 
3.120281E+02  9.871769E-01 -3.545573E+01  1.165187E-03 5.691069E+01  1.160880E-03 5.708150E+01  9.860581E-01 -3.450006E+01 
3.120312E+02  9.872252E-01 -3.545731E+01  1.150630E-03 5.649466E+01  1.149360E-03 5.678512E+01  9.860537E-01 -3.450519E+01 
3.120344E+02  9.871568E-01 -3.545250E+01  1.152628E-03 5.708545E+01  1.146445E-03 5.662311E+01  9.859909E-01 -3.451428E+01 
3.120375E+02  9.871440E-01 -3.546629E+01  1.153885E-03 5.572958E+01  1.141943E-03 5.668558E+01  9.860042E-01 -3.450973E+01 
3.120406E+02  9.871682E-01 -3.546175E+01  1.141717E-03 5.611693E+01  1.136327E-03 5.638555E+01  9.860927E-01 -3.452114E+01 
3.120437E+02  9.872049E-01 -3.547032E+01  1.134221E-03 5.606193E+01  1.130859E-03 5.597097E+01  9.859995E-01 -3.451353E+01 
3.120469E+02  9.872740E-01 -3.547434E+01  1.137074E-03 5.585075E+01  1.138669E-03 5.595332E+01  9.860426E-01 -3.452811E+01 
3.120500E+02  9.872012E-01 -3.547690E+01  1.131127E-03 5.577270E+01  1.130726E-03 5.580723E+01  9.860841E-01 -3.453325E+01 
3.120531E+02  9.871854E-01 -3.548278E+01  1.123183E-03 5.555120E+01  1.119475E-03 5.593654E+01  9.860788E-01 -3.452542E+01 
3.120562E+02  9.872049E-01 -3.548400E+01  1.117421E-03 5.530777E+01  1.116837E-03 5.527996E+01  9.860709E-01 -3.453568E+01 
3.120594E+02  9.871659E-01 -3.548752E+01  1.115396E-03 5.515071E+01  1.117252E-03 5.514797E+01  9.861032E-01 -3.453040E+01 
3.120625E+02  9.872780E-01 -3.548989E+01  1.109770E-03 5.480771E+01  1.106900E-03 5.497743E+01  9.861079E-01 -3.454614E+01 
3.120656E+02  9.870821E-01 -3.550023E+01  1.111690E-03 5.436263E+01  1.100993E-03 5.497324E+01  9.860732E-01 -3.454122E+01 
3.120688E+02  9.871478E-01 -3.550165E+01  1.106834E-03 5.433912E+01  1.099159E-03 5.463012E+01  9.861516E-01 -3.454354E+01 
3.120719E+02  9.872962E-01 -3.550507E+01  1.102529E-03 5.430715E+01  1.095604E-03 5.421530E+01  9.859886E-01 -3.454324E+01 
3.120750E+02  9.871110E-01 -3.549820E+01  1.099095E-03 5.425998E+01  1.090850E-03 5.398604E+01  9.861046E-01 -3.454920E+01 
3.120781E+02  9.871919E-01 -3.551238E+01  1.090702E-03 5.401693E+01  1.084950E-03 5.373534E+01  9.860395E-01 -3.455177E+01 
3.120813E+02  9.872035E-01 -3.551096E+01  1.090450E-03 5.371457E+01  1.079083E-03 5.343173E+01  9.860254E-01 -3.455592E+01 
3.120844E+02  9.872111E-01 -3.552240E+01  1.080731E-03 5.298914E+01  1.084145E-03 5.304124E+01  9.860325E-01 -3.456965E+01 
3.120875E+02  9.872834E-01 -3.552138E+01  1.069358E-03 5.353691E+01  1.079235E-03 5.326701E+01  9.859887E-01 -3.456405E+01 
3.120906E+02  9.871947E-01 -3.552373E+01  1.073226E-03 5.310729E+01  1.075475E-03 5.301721E+01  9.860616E-01 -3.456756E+01 
3.120938E+02  9.871853E-01 -3.552630E+01  1.074155E-03 5.273644E+01  1.071954E-03 5.257540E+01  9.860294E-01 -3.456887E+01 
3.120969E+02  9.870590E-01 -3.552862E+01  1.063688E-03 5.229732E+01  1.063921E-03 5.242791E+01  9.859595E-01 -3.457570E+01 
3.121000E+02  9.870873E-01 -3.554046E+01  1.066712E-03 5.258614E+01  1.056484E-03 5.256384E+01  9.859698E-01 -3.458414E+01 
3.121031E+02  9.870933E-01 -3.553418E+01  1.058216E-03 5.209525E+01  1.062033E-03 5.248160E+01  9.859359E-01 -3.457739E+01 
3.121062E+02  9.871625E-01 -3.554333E+01  1.055813E-03 5.210477E+01  1.054125E-03 5.169032E+01  9.860502E-01 -3.458813E+01 
3.121094E+02  9.870150E-01 -3.554764E+01  1.046532E-03 5.137442E+01  1.048219E-03 5.132536E+01  9.858903E-01 -3.458716E+01 
3.121125E+02  9.869225E-01 -3.554622E+01  1.052624E-03 5.120457E+01  1.040506E-03 5.112162E+01  9.859743E-01 -3.458963E+01 
3.121156E+02  9.870783E-01 -3.555477E+01  1.043516E-03 5.109982E+01  1.041389E-03 5.116633E+01  9.860202E-01 -3.460191E+01 
3.121187E+02  9.871610E-01 -3.555270E+01  1.036048E-03 5.081769E+01  1.040357E-03 5.078675E+01  9.859237E-01 -3.459048E+01 
3.121219E+02  9.870193E-01 -3.556323E+01  1.038338E-03 5.007688E+01  1.039887E-03 5.072112E+01  9.859617E-01 -3.459627E+01 
3.121250E+02  9.869819E-01 -3.556271E+01  1.042058E-03 5.006039E+01  1.031722E-03 4.999756E+01  9.859503E-01 -3.460174E+01 
3.121281E+02  9.869097E-01 -3.557089E+01  1.035501E-03 5.001530E+01  1.032740E-03 5.014620E+01  9.859737E-01 -3.459915E+01 
3.121313E+02  9.870445E-01 -3.557605E+01  1.029790E-03 4.992703E+01  1.026858E-03 4.974475E+01  9.859637E-01 -3.461656E+01 
3.121344E+02  9.870093E-01 -3.557433E+01  1.022316E-03 4.931198E+01  1.020091E-03 4.926609E+01  9.859118E-01 -3.461513E+01 
3.121375E+02  9.870028E-01 -3.557992E+01  1.020921E-03 4.931101E+01  1.019408E-03 4.914958E+01  9.859075E-01 -3.461303E+01 
3.121406E+02  9.870719E-01 -3.558546E+01  1.016206E-03 4.857277E+01  1.012377E-03 4.917057E+01  9.859273E-01 -3.461936E+01 
3.121438E+02  9.869757E-01 -3.559066E+01  1.016826E-03 4.853921E+01  1.017502E-03 4.860411E+01  9.858782E-01 -3.462886E+01 
3.121469E+02  9.869582E-01 -3.559426E+01  1.010207E-03 4.832384E+01  1.012931E-03 4.785078E+01  9.859039E-01 -3.463153E+01 
3.121500E+02  9.871062E-01 -3.559174E+01  1.005071E-03 4.785139E+01  1.000137E-03 4.752526E+01  9.859344E-01 -3.464123E+01 
3.121531E+02  9.868929E-01 -3.559493E+01  1.012886E-03 4.720171E+01  9.973750E-04 4.785009E+01  9.860776E-01 -3.464186E+01 
3.121562E+02  9.871109E-01 -3.560082E+01  1.002898E-03 4.733818E+01  1.003546E-03 4.728482E+01  9.859145E-01 -3.464697E+01 
3.121594E+02  9.869943E-01 -3.561318E+01  1.001767E-03 4.695120E+01  1.001075E-03 4.716278E+01  9.859189E-01 -3.464850E+01 
3.121625E+02  9.869542E-01 -3.561161E+01  9.876542E-04 4.630537E+01  9.923014E-04 4.655294E+01  9.858981E-01 -3.464723E+01 
3.121656E+02  9.870895E-01 -3.561433E+01  9.929648E-04 4.611767E+01  9.842681E-04 4.647691E+01  9.858983E-01 -3.465891E+01 
3.121687E+02  9.868905E-01 -3.561780E+01  9.876489E-04 4.582869E+01  9.818964E-04 4.618310E+01  9.859218E-01 -3.465657E+01 
3.121719E+02  9.869527E-01 -3.561809E+01  9.844287E-04 4.556709E+01  9.839179E-04 4.553557E+01  9.858897E-01 -3.466007E+01 
3.121750E+02  9.868950E-01 -3.562677E+01  9.797434E-04 4.489394E+01  9.826200E-04 4.526400E+01  9.859512E-01 -3.467200E+01 
3.121781E+02  9.869839E-01 -3.563663E+01  9.768701E-04 4.468146E+01  9.687292E-04 4.513229E+01  9.858093E-01 -3.466929E+01 
3.121812E+02  9.869161E-01 -3.563162E+01  9.759334E-04 4.411198E+01  9.724828E-04 4.435829E+01  9.858386E-01 -3.466513E+01 
3.121844E+02  9.869009E-01 -3.564142E+01  9.642965E-04 4.382246E+01  9.616628E-04 4.402478E+01  9.858939E-01 -3.467788E+01 
3.121875E+02  9.870678E-01 -3.564350E+01  9.702143E-04 4.331685E+01  9.623010E-04 4.349015E+01  9.858202E-01 -3.468154E+01 
3.121906E+02  9.869252E-01 -3.564725E+01  9.684058E-04 4.324756E+01  9.627087E-04 4.322958E+01  9.858764E-01 -3.469140E+01 
3.121938E+02  9.868440E-01 -3.565130E+01  9.549380E-04 4.252488E+01  9.556649E-04 4.288342E+01  9.857750E-01 -3.469347E+01 
3.121969E+02  9.868813E-01 -3.565445E+01  9.548649E-04 4.200579E+01  9.489981E-04 4.170553E+01  9.858156E-01 -3.469209E+01 
3.122000E+02  9.869536E-01 -3.566180E+01  9.553572E-04 4.151844E+01  9.496524E-04 4.169412E+01  9.857513E-01 -3.469528E+01 
3.122031E+02  9.870441E-01 -3.566052E+01  9.395420E-04 4.056010E+01  9.452674E-04 4.131947E+01  9.857938E-01 -3.469049E+01 
3.122063E+02  9.868983E-01 -3.566404E+01  9.402221E-04 4.059188E+01  9.411454E-04 4.065203E+01  9.858631E-01 -3.470469E+01 
3.122094E+02  9.868056E-01 -3.567690E+01  9.336595E-04 3.997356E+01  9.324850E-04 4.033611E+01  9.857951E-01 -3.470604E+01 
3.122125E+02  9.869922E-01 -3.567002E+01  9.322995E-04 3.943279E+01  9.357124E-04 3.911203E+01  9.858369E-01 -3.471854E+01 
3.122156E+02  9.869295E-01 -3.568230E+01  9.199189E-04 3.901274E+01  9.249572E-04 3.922629E+01  9.858127E-01 -3.471030E+01 
3.122188E+02  9.869452E-01 -3.568105E+01  9.173232E-04 3.871019E+01  9.175173E-04 3.864500E+01  9.858349E-01 -3.471325E+01 
3.122219E+02  9.867961E-01 -3.568518E+01  9.125042E-04 3.810871E+01  9.122201E-04 3.785944E+01  9.857715E-01 -3.472523E+01 
3.122250E+02  9.867791E-01 -3.569182E+01  9.013162E-04 3.736407E+01  9.023858E-04 3.691446E+01  9.858714E-01 -3.472929E+01 
3.122281E+02  9.868576E-01 -3.569142E+01  9.036171E-04 3.636568E+01  8.968386E-04 3.668752E+01  9.857782E-01 -3.472731E+01 
3.122312E+02  9.867962E-01 -3.569337E+01  8.960114E-04 3.602020E+01  8.931384E-04 3.607787E+01  9.858034E-01 -3.473286E+01 
3.122344E+02  9.869475E-01 -3.569937E+01  8.919915E-04 3.528593E+01  8.899860E-04 3.540686E+01  9.858148E-01 -3.473097E+01 
3.122375E+02  9.867794E-01 -3.570165E+01  8.805205E-04 3.490494E+01  8.769129E-04 3.482465E+01  9.857911E-01 -3.474099E+01 
3.122406E+02  9.868244E-01 -3.570204E+01  8.706922E-04 3.407050E+01  8.781879E-04 3.392379E+01  9.857497E-01 -3.473965E+01 
3.122437E+02  9.866472E-01 -3.570912E+01  8.655030E-04 3.371214E+01  8.622215E-04 3.383842E+01  9.858017E-01 -3.475538E+01 
3.122469E+02  9.866970E-01 -3.571492E+01  8.560727E-04 3.275754E+01  8.659007E-04 3.246380E+01  9.857180E-01 -3.475055E+01 
3.122500E+02  9.868002E-01 -3.571559E+01  8.514065E-04 3.211498E+01  8.457576E-04 3.239954E+01  9.857527E-01 -3.475706E+01 
3.122531E+02  9.867107E-01 -3.571932E+01  8.396511E-04 3.180571E+01  8.396821E-04 3.129999E+01  9.856465E-01 -3.476571E+01 
3.122563E+02  9.865484E-01 -3.571952E+01  8.242331E-04 3.058463E+01  8.242747E-04 3.044015E+01  9.856234E-01 -3.476344E+01 
3.122594E+02  9.868774E-01 -3.572254E+01  8.295024E-04 3.022907E+01  8.180952E-04 3.055689E+01  9.857953E-01 -3.476730E+01 
3.122625E+02  9.867262E-01 -3.573071E+01  8.142694E-04 2.882561E+01  8.112825E-04 2.936950E+01  9.857466E-01 -3.476783E+01 
3.122656E+02  9.867182E-01 -3.572717E+01  7.981015E-04 2.919011E+01  7.941264E-04 2.864853E+01  9.856341E-01 -3.477942E+01 
3.122688E+02  9.866930E-01 -3.573135E+01  7.966287E-04 2.753936E+01  7.899053E-04 2.839878E+01  9.857018E-01 -3.477401E+01 
3.122719E+02  9.867416E-01 -3.574687E+01  7.806668E-04 2.731012E+01  7.778862E-04 2.680084E+01  9.856417E-01 -3.478070E+01 
3.122750E+02  9.867704E-01 -3.573776E+01  7.659014E-04 2.656576E+01  7.716822E-04 2.663842E+01  9.856728E-01 -3.476953E+01 
3.122781E+02  9.867574E-01 -3.574936E+01  7.527707E-04 2.608074E+01  7.502959E-04 2.628909E+01  9.856262E-01 -3.477904E+01 
3.122812E+02  9.868125E-01 -3.574692E+01  7.318141E-04 2.520397E+01  7.394053E-04 2.523446E+01  9.856440E-01 -3.478317E+01 
3.122844E+02  9.866773E-01 -3.574997E+01  7.314651E-04 2.494029E+01  7.258627E-04 2.449546E+01  9.855917E-01 -3.479015E+01 
3.122875E+02  9.866338E-01 -3.575793E+01  7.165071E-04 2.374796E+01  7.157294E-04 2.384857E+01  9.856202E-01 -3.479385E+01 
3.122906E+02  9.867484E-01 -3.575377E+01  7.011241E-04 2.302117E+01  7.000291E-04 2.352328E+01  9.856574E-01 -3.478587E+01 
3.122937E+02  9.866098E-01 -3.576173E+01  6.893818E-04 2.274275E+01  6.867041E-04 2.231513E+01  9.857551E-01 -3.479854E+01 
3.122969E+02  9.867100E-01 -3.575891E+01  6.746077E-04 2.194559E+01  6.704106E-04 2.252337E+01  9.857227E-01 -3.480348E+01 
3.123000E+02  9.867428E-01 -3.576924E+01  6.532688E-04 2.170448E+01  6.608849E-04 2.146523E+01  9.857694E-01 -3.480193E+01 
3.123031E+02  9.866825E-01 -3.576602E+01  6.455311E-04 2.120311E+01  6.396500E-04 2.102609E+01  9.858298E-01 -3.480920E+01 
3.123062E+02  9.867406E-01 -3.577094E+01  6.259428E-04 2.108686E+01  6.273737E-04 2.048658E+01  9.857257E-01 -3.480931E+01 
3.123094E+02  9.867451E-01 -3.576984E+01  6.189700E-04 2.034085E+01  6.049661E-04 1.999281E+01  9.857754E-01 -3.481692E+01 
3.123125E+02  9.866823E-01 -3.577446E+01  5.945694E-04 2.067436E+01  5.947417E-04 1.983149E+01  9.857536E-01 -3.482248E+01 
3.123156E+02  9.866489E-01 -3.577679E+01  5.706814E-04 1.979682E+01  5.786591E-04 1.998250E+01  9.857910E-01 -3.482606E+01 
3.123188E+02  9.867373E-01 -3.578140E+01  5.640210E-04 1.888803E+01  5.601928E-04 1.917183E+01  9.858324E-01 -3.483747E+01 
3.123219E+02  9.867544E-01 -3.578066E+01  5.455467E-04 1.923236E+01  5.426251E-04 1.879540E+01  9.856935E-01 -3.482393E+01 
3.123250E+02  9.866289E-01 -3.579030E+01  5.323845E-04 1.905815E+01  5.241973E-04 1.871520E+01  9.856952E-01 -3.483136E+01 
3.123281E+02  9.867904E-01 -3.578906E+01  5.079392E-04 1.951728E+01  5.128137E-04 1.918269E+01  9.856438E-01 -3.484159E+01 
3.123313E+02  9.867101E-01 -3.579849E+01  5.024355E-04 1.900406E+01  4.992366E-04 1.876042E+01  9.856846E-01 -3.484272E+01 
3.123344E+02  9.867288E-01 -3.580902E+01  4.881669E-04 1.920960E+01  4.806956E-04 1.940301E+01  9.856206E-01 -3.484781E+01 
3.123375E+02  9.867931E-01 -3.580864E+01  4.676180E-04 2.076830E+01  4.638595E-04 1.947603E+01  9.857498E-01 -3.485105E+01 
3.123406E+02  9.867796E-01 -3.580827E+01  4.579789E-04 1.973560E+01  4.485134E-04 1.947768E+01  9.857232E-01 -3.485273E+01 
3.123438E+02  9.869035E-01 -3.580922E+01  4.474978E-04 2.075414E+01  4.421021E-04 2.059564E+01  9.857592E-01 -3.486308E+01 
3.123469E+02  9.868503E-01 -3.581925E+01  4.355147E-04 2.122236E+01  4.284940E-04 2.132286E+01  9.857003E-01 -3.486536E+01 
3.123500E+02  9.867044E-01 -3.582581E+01  4.159731E-04 2.199112E+01  4.157568E-04 2.152754E+01  9.856073E-01 -3.486415E+01 
3.123531E+02  9.867460E-01 -3.582589E+01  4.071340E-04 2.289022E+01  4.061131E-04 2.253201E+01  9.856652E-01 -3.487699E+01 
3.123562E+02  9.867912E-01 -3.583584E+01  3.954115E-04 2.526506E+01  3.982000E-04 2.381695E+01  9.857209E-01 -3.487078E+01 
3.123594E+02  9.867685E-01 -3.583248E+01  3.894112E-04 2.477384E+01  3.868865E-04 2.472580E+01  9.857506E-01 -3.487973E+01 
3.123625E+02  9.867946E-01 -3.584507E+01  3.827680E-04 2.655967E+01  3.800461E-04 2.633291E+01  9.859127E-01 -3.488505E+01 
3.123656E+02  9.867465E-01 -3.584222E+01  3.745720E-04 2.684486E+01  3.647695E-04 2.709815E+01  9.858651E-01 -3.489260E+01 
3.123687E+02  9.868102E-01 -3.585202E+01  3.638349E-04 2.727805E+01  3.614338E-04 2.774857E+01  9.858394E-01 -3.488918E+01 
3.123719E+02  9.868268E-01 -3.585857E+01  3.576798E-04 2.860850E+01  3.564236E-04 2.937063E+01  9.857866E-01 -3.489886E+01 
3.123750E+02  9.869081E-01 -3.586722E+01  3.465051E-04 3.090976E+01  3.571750E-04 3.202335E+01  9.858325E-01 -3.489638E+01 
3.123781E+02  9.867704E-01 -3.586315E+01  3.459047E-04 3.033662E+01  3.445759E-04 3.194556E+01  9.858646E-01 -3.490911E+01 
3.123813E+02  9.866999E-01 -3.587095E+01  3.327737E-04 3.360882E+01  3.402870E-04 3.206135E+01  9.857687E-01 -3.491774E+01 
3.123844E+02  9.867793E-01 -3.587600E+01  3.356734E-04 3.317130E+01  3.406048E-04 3.429023E+01  9.857661E-01 -3.491572E+01 
3.123875E+02  9.867528E-01 -3.587961E+01  3.378255E-04 3.622039E+01  3.362581E-04 3.489243E+01  9.857705E-01 -3.492352E+01 
3.123906E+02  9.869573E-01 -3.588530E+01  3.286297E-04 3.660965E+01  3.188933E-04 3.583457E+01  9.858965E-01 -3.492528E+01 
3.123938E+02  9.866358E-01 -3.588776E+01  3.280778E-04 3.845650E+01  3.267366E-04 3.618770E+01  9.859165E-01 -3.492777E+01 
3.123969E+02  9.867682E-01 -3.589333E+01  3.253233E-04 3.824006E+01  3.158799E-04 3.712515E+01  9.857037E-01 -3.493598E+01 
3.124000E+02  9.867762E-01 -3.590532E+01  3.202630E-04 3.992348E+01  3.158814E-04 4.023883E+01  9.858202E-01 -3.494124E+01 
3.124031E+02  9.868220E-01 -3.590945E+01  3.101519E-04 3.877376E+01  3.173500E-04 4.017098E+01  9.857503E-01 -3.495056E+01 
3.124062E+02  9.868527E-01 -3.591017E+01  3.161895E-04 4.092349E+01  3.150632E-04 4.056166E+01  9.857080E-01 -3.494680E+01 
3.124094E+02  9.866954E-01 -3.591313E+01  3.122884E-04 4.116907E+01  3.103238E-04 4.221452E+01  9.859446E-01 -3.496370E+01 
3.124125E+02  9.868000E-01 -3.592083E+01  3.068438E-04 4.344906E+01  3.107342E-04 4.272246E+01  9.858229E-01 -3.496133E+01 
3.124156E+02  9.866916E-01 -3.591835E+01  3.149880E-04 4.276732E+01  3.041445E-04 4.300616E+01  9.858476E-01 -3.496027E+01 
3.124187E+02  9.867892E-01 -3.592707E+01  3.082732E-04 4.538839E+01  3.111591E-04 4.414645E+01  9.858612E-01 -3.496439E+01 
3.124219E+02  9.868529E-01 -3.594005E+01  3.092818E-04 4.359874E+01  3.079945E-04 4.513875E+01  9.858041E-01 -3.496810E+01 
3.124250E+02  9.868468E-01 -3.593962E+01  3.087105E-04 4.533530E+01  2.999479E-04 4.653236E+01  9.858452E-01 -3.498480E+01 
3.124281E+02  9.867079E-01 -3.594892E+01  3.047438E-04 4.657743E+01  3.056462E-04 4.548464E+01  9.857987E-01 -3.498264E+01 
3.124312E+02  9.868671E-01 -3.595063E+01  2.941015E-04 4.641687E+01  3.036515E-04 4.734824E+01  9.858660E-01 -3.498790E+01 
3.124344E+02  9.869131E-01 -3.595212E+01  3.024877E-04 4.681864E+01  2.988916E-04 4.826831E+01  9.858431E-01 -3.499513E+01 
3.124375E+02  9.869656E-01 -3.595991E+01  3.025180E-04 4.905356E+01  2.957397E-04 4.791724E+01  9.857688E-01 -3.500366E+01 
3.124406E+02  9.868031E-01 -3.596015E+01  2.877809E-04 4.842127E+01  2.928974E-04 4.761137E+01  9.857546E-01 -3.500250E+01 
3.124438E+02  9.867562E-01 -3.596321E+01  2.987761E-04 5.093129E+01  2.903762E-04 5.029317E+01  9.858252E-01 -3.501018E+01 
3.124469E+02  9.867923E-01 -3.596802E+01  2.890927E-04 4.975270E+01  2.970011E-04 5.022932E+01  9.858185E-01 -3.501177E+01 
3.124500E+02  9.868644E-01 -3.596894E+01  2.898388E-04 5.095260E+01  2.915439E-04 5.074360E+01  9.857526E-01 -3.501107E+01 
3.124531E+02  9.869047E-01 -3.597874E+01  2.904075E-04 5.186171E+01  2.966744E-04 5.061683E+01  9.857393E-01 -3.502160E+01 
3.124563E+02  9.869084E-01 -3.598127E+01  2.855224E-04 5.306553E+01  2.817387E-04 5.086579E+01  9.856830E-01 -3.502448E+01 
3.124594E+02  9.867539E-01 -3.598562E+01  2.773378E-04 5.074760E+01  2.894773E-04 5.285960E+01  9.857772E-01 -3.502481E+01 
3.124625E+02  9.869021E-01 -3.599594E+01  2.802062E-04 5.337959E+01  2.781582E-04 5.174837E+01  9.857386E-01 -3.503416E+01 
3.124656E+02  9.868947E-01 -3.599564E+01  2.785654E-04 5.485646E+01  2.837410E-04 5.352807E+01  9.857615E-01 -3.502727E+01 
3.124688E+02  9.868920E-01 -3.599899E+01  2.781728E-04 5.310079E+01  2.797897E-04 5.234946E+01  9.858783E-01 -3.504195E+01 
3.124719E+02  9.868787E-01 -3.601016E+01  2.750288E-04 5.503415E+01  2.813588E-04 5.330431E+01  9.858702E-01 -3.504847E+01 
3.124750E+02  9.868335E-01 -3.601005E+01  2.681559E-04 5.392916E+01  2.711350E-04 5.557052E+01  9.856832E-01 -3.504613E+01 
3.124781E+02  9.868611E-01 -3.601306E+01  2.753177E-04 5.616794E+01  2.687340E-04 5.555665E+01  9.857129E-01 -3.505324E+01 
3.124812E+02  9.867927E-01 -3.601934E+01  2.626146E-04 5.555875E+01  2.663708E-04 5.687546E+01  9.857529E-01 -3.506005E+01 
3.124844E+02  9.869004E-01 -3.602292E+01  2.642025E-04 5.747530E+01  2.655294E-04 5.662961E+01  9.857348E-01 -3.506834E+01 
