! Matrix data file written by TouchstoneData, EPCOS AG
! FILENAME: "B3784_WB.s2p"
! COMMENT: "PCB: 2009; PINNING: 25; PORTEXT1: 97ps; PORT"
! INFO: nport=2, nfreq=1601
! DATE: "Wed Jul  2 16:30:08 2008"
! USER: "Thomas Telgmann"
!
! port | pin | signal
! -----|-----|--------
!   1  |  2  |  in
!   2  |  5  |  out
! --------------------
! 
# MHZ S MA R 50
! freq  magS11 angS11  magS21 angS21  magS12 angS12  magS22 angS22
2.895000E+02  9.889499E-01 -3.162766E+01  3.840496E-04 7.916105E+01  3.880076E-04 8.138212E+01  9.882299E-01 -3.077523E+01 
2.895312E+02  9.889510E-01 -3.163224E+01  4.130807E-04 7.888925E+01  4.093677E-04 7.951478E+01  9.882628E-01 -3.077347E+01 
2.895625E+02  9.891150E-01 -3.162649E+01  4.316310E-04 7.832268E+01  4.255267E-04 7.726325E+01  9.882026E-01 -3.077951E+01 
2.895938E+02  9.889886E-01 -3.163567E+01  4.421810E-04 7.499193E+01  4.412031E-04 7.542729E+01  9.883442E-01 -3.078761E+01 
2.896250E+02  9.890173E-01 -3.162922E+01  4.500330E-04 7.308655E+01  4.563686E-04 7.277091E+01  9.883239E-01 -3.078874E+01 
2.896562E+02  9.890103E-01 -3.163468E+01  4.576531E-04 6.980796E+01  4.497538E-04 7.049447E+01  9.883043E-01 -3.078520E+01 
2.896875E+02  9.889469E-01 -3.163411E+01  4.542899E-04 6.816211E+01  4.529047E-04 6.836879E+01  9.882422E-01 -3.079023E+01 
2.897188E+02  9.890771E-01 -3.164431E+01  4.548251E-04 6.702494E+01  4.562013E-04 6.665697E+01  9.882275E-01 -3.079451E+01 
2.897500E+02  9.889633E-01 -3.165019E+01  4.554871E-04 6.577167E+01  4.546036E-04 6.524418E+01  9.882228E-01 -3.080123E+01 
2.897812E+02  9.890373E-01 -3.165423E+01  4.473851E-04 6.296407E+01  4.568001E-04 6.376982E+01  9.883621E-01 -3.080817E+01 
2.898125E+02  9.891702E-01 -3.165650E+01  4.489458E-04 6.289093E+01  4.400104E-04 6.217557E+01  9.884226E-01 -3.080760E+01 
2.898438E+02  9.890776E-01 -3.165919E+01  4.453100E-04 6.242560E+01  4.450328E-04 6.125237E+01  9.882479E-01 -3.080213E+01 
2.898750E+02  9.890864E-01 -3.166271E+01  4.403098E-04 6.135551E+01  4.300947E-04 6.088609E+01  9.883154E-01 -3.081924E+01 
2.899062E+02  9.890775E-01 -3.166295E+01  4.397789E-04 6.059209E+01  4.393053E-04 6.086063E+01  9.883149E-01 -3.082041E+01 
2.899375E+02  9.890071E-01 -3.166966E+01  4.335051E-04 5.976074E+01  4.312430E-04 5.863172E+01  9.884798E-01 -3.082681E+01 
2.899688E+02  9.889524E-01 -3.167730E+01  4.316886E-04 5.840439E+01  4.256609E-04 5.900517E+01  9.882490E-01 -3.082257E+01 
2.900000E+02  9.890716E-01 -3.167393E+01  4.283083E-04 5.746332E+01  4.270647E-04 5.820870E+01  9.883204E-01 -3.081931E+01 
2.900312E+02  9.891178E-01 -3.167769E+01  4.230342E-04 5.704008E+01  4.230973E-04 5.707840E+01  9.883543E-01 -3.083119E+01 
2.900625E+02  9.889463E-01 -3.168321E+01  4.142957E-04 5.556004E+01  4.166923E-04 5.663859E+01  9.883086E-01 -3.083010E+01 
2.900938E+02  9.890662E-01 -3.169320E+01  4.112018E-04 5.584305E+01  4.055869E-04 5.542382E+01  9.882737E-01 -3.083608E+01 
2.901250E+02  9.891566E-01 -3.168716E+01  3.967751E-04 5.386658E+01  4.011650E-04 5.547639E+01  9.882049E-01 -3.083715E+01 
2.901562E+02  9.891623E-01 -3.169872E+01  3.866065E-04 5.429326E+01  3.875341E-04 5.365295E+01  9.882811E-01 -3.084149E+01 
2.901875E+02  9.890486E-01 -3.169725E+01  3.764423E-04 5.421981E+01  3.766521E-04 5.516808E+01  9.882791E-01 -3.084572E+01 
2.902188E+02  9.890931E-01 -3.170107E+01  3.654845E-04 5.536373E+01  3.641245E-04 5.471086E+01  9.882498E-01 -3.084873E+01 
2.902500E+02  9.889121E-01 -3.170350E+01  3.497350E-04 5.740404E+01  3.580183E-04 5.627925E+01  9.882985E-01 -3.084993E+01 
2.902812E+02  9.890423E-01 -3.171307E+01  3.534535E-04 5.737977E+01  3.559509E-04 5.690785E+01  9.881574E-01 -3.085110E+01 
2.903125E+02  9.892469E-01 -3.171552E+01  3.550913E-04 5.864367E+01  3.480100E-04 5.741615E+01  9.881642E-01 -3.087051E+01 
2.903438E+02  9.891588E-01 -3.172122E+01  3.437441E-04 5.880097E+01  3.492980E-04 5.986445E+01  9.884050E-01 -3.085830E+01 
2.903750E+02  9.889290E-01 -3.171578E+01  3.464333E-04 6.041429E+01  3.467727E-04 6.059649E+01  9.882843E-01 -3.086417E+01 
2.904062E+02  9.890948E-01 -3.171766E+01  3.500756E-04 6.154872E+01  3.424668E-04 6.094909E+01  9.883697E-01 -3.087029E+01 
2.904375E+02  9.889591E-01 -3.171955E+01  3.429088E-04 6.223238E+01  3.381528E-04 6.100635E+01  9.883074E-01 -3.087543E+01 
2.904688E+02  9.890010E-01 -3.172731E+01  3.571127E-04 6.258145E+01  3.521490E-04 6.326725E+01  9.883834E-01 -3.087082E+01 
2.905000E+02  9.890417E-01 -3.173332E+01  3.457433E-04 6.464104E+01  3.479517E-04 6.396483E+01  9.882890E-01 -3.088424E+01 
2.905312E+02  9.891888E-01 -3.174299E+01  3.539287E-04 6.435105E+01  3.589280E-04 6.433111E+01  9.883899E-01 -3.088373E+01 
2.905625E+02  9.890054E-01 -3.174569E+01  3.562007E-04 6.586223E+01  3.525216E-04 6.602524E+01  9.882988E-01 -3.089015E+01 
2.905938E+02  9.890634E-01 -3.173706E+01  3.573549E-04 6.575179E+01  3.603091E-04 6.579068E+01  9.882592E-01 -3.089643E+01 
2.906250E+02  9.890547E-01 -3.174864E+01  3.560993E-04 6.555855E+01  3.626150E-04 6.602351E+01  9.882874E-01 -3.089442E+01 
2.906562E+02  9.890304E-01 -3.174385E+01  3.669172E-04 6.777687E+01  3.670218E-04 6.688786E+01  9.883015E-01 -3.090213E+01 
2.906875E+02  9.891636E-01 -3.175535E+01  3.715417E-04 6.682846E+01  3.718765E-04 6.710617E+01  9.882951E-01 -3.090028E+01 
2.907188E+02  9.891039E-01 -3.175695E+01  3.832579E-04 6.542477E+01  3.776344E-04 6.641567E+01  9.881668E-01 -3.090719E+01 
2.907500E+02  9.891331E-01 -3.176126E+01  3.965239E-04 6.629913E+01  3.811094E-04 6.688456E+01  9.882891E-01 -3.090635E+01 
2.907812E+02  9.892124E-01 -3.176147E+01  3.932262E-04 6.610715E+01  3.933560E-04 6.556465E+01  9.882859E-01 -3.090838E+01 
2.908125E+02  9.889963E-01 -3.177278E+01  3.933493E-04 6.482747E+01  3.986828E-04 6.535490E+01  9.882091E-01 -3.092135E+01 
2.908438E+02  9.889922E-01 -3.177262E+01  3.918261E-04 6.482609E+01  4.001434E-04 6.461968E+01  9.883169E-01 -3.091943E+01 
2.908750E+02  9.890780E-01 -3.176660E+01  3.956174E-04 6.333391E+01  3.917482E-04 6.345470E+01  9.882311E-01 -3.092716E+01 
2.909062E+02  9.890285E-01 -3.178445E+01  3.988792E-04 6.386015E+01  4.033026E-04 6.364832E+01  9.882382E-01 -3.092124E+01 
2.909375E+02  9.890482E-01 -3.177469E+01  3.967119E-04 6.222541E+01  3.981064E-04 6.239854E+01  9.882784E-01 -3.093126E+01 
2.909688E+02  9.891381E-01 -3.178823E+01  3.934431E-04 6.174006E+01  3.955141E-04 6.289387E+01  9.882559E-01 -3.093574E+01 
2.910000E+02  9.893100E-01 -3.178709E+01  3.940039E-04 6.087002E+01  3.910390E-04 6.191679E+01  9.883604E-01 -3.093519E+01 
2.910312E+02  9.890959E-01 -3.178773E+01  3.885459E-04 6.142351E+01  3.887223E-04 6.164608E+01  9.881962E-01 -3.093650E+01 
2.910625E+02  9.891897E-01 -3.179667E+01  3.916662E-04 6.157827E+01  3.953113E-04 6.159361E+01  9.883333E-01 -3.094418E+01 
2.910938E+02  9.891869E-01 -3.179716E+01  3.864589E-04 6.110967E+01  3.879345E-04 6.146347E+01  9.883383E-01 -3.094632E+01 
2.911250E+02  9.891049E-01 -3.180082E+01  3.879651E-04 6.112545E+01  3.917115E-04 6.156888E+01  9.882298E-01 -3.095206E+01 
2.911562E+02  9.888741E-01 -3.180097E+01  3.864634E-04 6.177313E+01  3.907995E-04 6.087186E+01  9.882887E-01 -3.095482E+01 
2.911875E+02  9.889967E-01 -3.181426E+01  3.929574E-04 6.218421E+01  3.890014E-04 6.220448E+01  9.882862E-01 -3.095427E+01 
2.912188E+02  9.890123E-01 -3.180923E+01  3.784265E-04 6.200464E+01  3.883591E-04 6.119749E+01  9.884499E-01 -3.095782E+01 
2.912500E+02  9.890776E-01 -3.181803E+01  3.903584E-04 6.182560E+01  3.812764E-04 6.015827E+01  9.883625E-01 -3.096301E+01 
2.912812E+02  9.890477E-01 -3.182488E+01  3.884862E-04 6.138450E+01  3.832142E-04 6.291179E+01  9.882993E-01 -3.096565E+01 
2.913125E+02  9.889427E-01 -3.183248E+01  3.846138E-04 6.222009E+01  3.810509E-04 6.133258E+01  9.881950E-01 -3.097077E+01 
2.913438E+02  9.891200E-01 -3.183215E+01  3.887448E-04 6.168630E+01  3.842468E-04 6.149972E+01  9.883324E-01 -3.097065E+01 
2.913750E+02  9.889788E-01 -3.182622E+01  3.852579E-04 6.172694E+01  3.833594E-04 6.132439E+01  9.883621E-01 -3.097639E+01 
2.914062E+02  9.889805E-01 -3.183580E+01  3.775089E-04 6.177710E+01  3.843075E-04 6.146934E+01  9.882362E-01 -3.097306E+01 
2.914375E+02  9.890742E-01 -3.184115E+01  3.868313E-04 6.101266E+01  3.798926E-04 6.215557E+01  9.882159E-01 -3.098602E+01 
2.914688E+02  9.890719E-01 -3.184415E+01  3.809649E-04 6.122833E+01  3.744999E-04 6.149265E+01  9.882692E-01 -3.099612E+01 
2.915000E+02  9.889848E-01 -3.185467E+01  3.740568E-04 6.141821E+01  3.884146E-04 6.037022E+01  9.881072E-01 -3.099375E+01 
2.915312E+02  9.889378E-01 -3.185355E+01  3.824253E-04 6.087112E+01  3.757898E-04 6.105422E+01  9.882137E-01 -3.099800E+01 
2.915625E+02  9.889836E-01 -3.185098E+01  3.837978E-04 6.064096E+01  3.728235E-04 6.148041E+01  9.883902E-01 -3.100128E+01 
2.915938E+02  9.891442E-01 -3.186081E+01  3.755853E-04 6.168172E+01  3.708036E-04 6.221047E+01  9.882863E-01 -3.100719E+01 
2.916250E+02  9.890207E-01 -3.186603E+01  3.803870E-04 6.138443E+01  3.694505E-04 6.061769E+01  9.883774E-01 -3.101319E+01 
2.916562E+02  9.890765E-01 -3.187380E+01  3.749331E-04 6.175939E+01  3.766801E-04 6.122301E+01  9.882538E-01 -3.100838E+01 
2.916875E+02  9.888850E-01 -3.186309E+01  3.820884E-04 6.147022E+01  3.635346E-04 6.131779E+01  9.883314E-01 -3.101227E+01 
2.917188E+02  9.890374E-01 -3.187875E+01  3.710148E-04 5.998472E+01  3.786531E-04 6.108678E+01  9.881169E-01 -3.101572E+01 
2.917500E+02  9.890265E-01 -3.187724E+01  3.701388E-04 6.096128E+01  3.691288E-04 5.969335E+01  9.882549E-01 -3.102381E+01 
2.917812E+02  9.890110E-01 -3.187863E+01  3.702354E-04 6.096136E+01  3.670698E-04 6.142480E+01  9.883237E-01 -3.103250E+01 
2.918125E+02  9.889693E-01 -3.189012E+01  3.653013E-04 6.139094E+01  3.676018E-04 6.226946E+01  9.882080E-01 -3.102253E+01 
2.918438E+02  9.888780E-01 -3.189300E+01  3.668365E-04 6.249233E+01  3.620099E-04 6.233585E+01  9.882619E-01 -3.103692E+01 
2.918750E+02  9.890766E-01 -3.189841E+01  3.565380E-04 6.225381E+01  3.599995E-04 6.311838E+01  9.882539E-01 -3.104186E+01 
2.919062E+02  9.889985E-01 -3.189221E+01  3.556004E-04 6.383170E+01  3.664724E-04 6.209899E+01  9.883513E-01 -3.104208E+01 
2.919375E+02  9.890573E-01 -3.190072E+01  3.527499E-04 6.268395E+01  3.598841E-04 6.361372E+01  9.882136E-01 -3.103638E+01 
2.919688E+02  9.889851E-01 -3.190713E+01  3.564290E-04 6.492521E+01  3.646679E-04 6.387237E+01  9.883009E-01 -3.104421E+01 
2.920000E+02  9.890309E-01 -3.191340E+01  3.609530E-04 6.578268E+01  3.615946E-04 6.516216E+01  9.882681E-01 -3.105369E+01 
2.920312E+02  9.888947E-01 -3.191783E+01  3.641230E-04 6.514740E+01  3.610261E-04 6.550574E+01  9.882781E-01 -3.106524E+01 
2.920625E+02  9.889044E-01 -3.191615E+01  3.696035E-04 6.665462E+01  3.688382E-04 6.591313E+01  9.882103E-01 -3.105752E+01 
2.920938E+02  9.891243E-01 -3.192424E+01  3.743567E-04 6.579439E+01  3.712042E-04 6.799041E+01  9.882581E-01 -3.106426E+01 
2.921250E+02  9.890295E-01 -3.192641E+01  3.781680E-04 6.797349E+01  3.780717E-04 6.687276E+01  9.881425E-01 -3.106415E+01 
2.921562E+02  9.890481E-01 -3.193329E+01  3.887851E-04 6.700543E+01  3.901320E-04 6.776356E+01  9.881919E-01 -3.106598E+01 
2.921875E+02  9.890163E-01 -3.192530E+01  3.983065E-04 6.680157E+01  3.979754E-04 6.641778E+01  9.883331E-01 -3.106718E+01 
2.922188E+02  9.891215E-01 -3.193995E+01  4.057420E-04 6.722099E+01  4.070490E-04 6.657206E+01  9.882877E-01 -3.107569E+01 
2.922500E+02  9.889761E-01 -3.193765E+01  4.122891E-04 6.595738E+01  4.104910E-04 6.629542E+01  9.882956E-01 -3.108459E+01 
2.922812E+02  9.890179E-01 -3.195329E+01  4.195599E-04 6.470871E+01  4.114062E-04 6.606922E+01  9.881260E-01 -3.108469E+01 
2.923125E+02  9.889699E-01 -3.195319E+01  4.154489E-04 6.447044E+01  4.124248E-04 6.410655E+01  9.882252E-01 -3.108921E+01 
2.923438E+02  9.890065E-01 -3.195627E+01  4.181498E-04 6.303093E+01  4.201888E-04 6.341960E+01  9.883202E-01 -3.109482E+01 
2.923750E+02  9.888988E-01 -3.196082E+01  4.220647E-04 6.343023E+01  4.239065E-04 6.291995E+01  9.880858E-01 -3.109373E+01 
2.924062E+02  9.889708E-01 -3.195571E+01  4.237657E-04 6.159807E+01  4.241814E-04 6.031129E+01  9.882866E-01 -3.109967E+01 
2.924375E+02  9.889834E-01 -3.196334E+01  4.256332E-04 6.080754E+01  4.198285E-04 6.015185E+01  9.881282E-01 -3.110184E+01 
2.924688E+02  9.888506E-01 -3.197693E+01  4.288152E-04 5.978518E+01  4.235859E-04 6.035200E+01  9.881043E-01 -3.110641E+01 
2.925000E+02  9.890519E-01 -3.197745E+01  4.274892E-04 5.857220E+01  4.285747E-04 5.898804E+01  9.880274E-01 -3.110592E+01 
2.925312E+02  9.891106E-01 -3.196662E+01  4.195585E-04 5.769037E+01  4.251581E-04 5.820588E+01  9.881890E-01 -3.112283E+01 
2.925625E+02  9.890595E-01 -3.197673E+01  4.295813E-04 5.672992E+01  4.245755E-04 5.749890E+01  9.881284E-01 -3.111419E+01 
2.925938E+02  9.888317E-01 -3.198100E+01  4.336101E-04 5.694069E+01  4.273557E-04 5.549607E+01  9.880421E-01 -3.112167E+01 
2.926250E+02  9.889991E-01 -3.198611E+01  4.218774E-04 5.498122E+01  4.288069E-04 5.349840E+01  9.881714E-01 -3.112094E+01 
2.926562E+02  9.889168E-01 -3.199714E+01  4.227049E-04 5.227249E+01  4.237175E-04 5.101786E+01  9.879366E-01 -3.113495E+01 
2.926875E+02  9.889669E-01 -3.199941E+01  4.139261E-04 4.974052E+01  4.109048E-04 4.949834E+01  9.880457E-01 -3.113621E+01 
2.927188E+02  9.889646E-01 -3.200631E+01  3.924415E-04 4.793778E+01  4.022179E-04 4.712347E+01  9.879947E-01 -3.113077E+01 
2.927500E+02  9.887734E-01 -3.199834E+01  3.815591E-04 4.702892E+01  3.784081E-04 4.590116E+01  9.879687E-01 -3.114055E+01 
2.927812E+02  9.889781E-01 -3.200357E+01  3.628558E-04 4.368014E+01  3.539818E-04 4.494769E+01  9.881371E-01 -3.114617E+01 
2.928125E+02  9.889934E-01 -3.200995E+01  3.382240E-04 4.488540E+01  3.326937E-04 4.458438E+01  9.879662E-01 -3.114839E+01 
2.928438E+02  9.888367E-01 -3.201068E+01  3.206253E-04 4.421259E+01  3.136255E-04 4.520194E+01  9.879276E-01 -3.114260E+01 
2.928750E+02  9.888149E-01 -3.201243E+01  2.965481E-04 4.697205E+01  3.026363E-04 4.635461E+01  9.879960E-01 -3.115406E+01 
2.929062E+02  9.888312E-01 -3.201428E+01  2.839201E-04 4.933261E+01  2.902467E-04 4.939760E+01  9.880349E-01 -3.115295E+01 
2.929375E+02  9.887904E-01 -3.202580E+01  2.752181E-04 5.258377E+01  2.708841E-04 5.345993E+01  9.879881E-01 -3.116581E+01 
2.929688E+02  9.888889E-01 -3.201815E+01  2.691706E-04 5.356646E+01  2.647992E-04 5.517784E+01  9.879610E-01 -3.116173E+01 
2.930000E+02  9.889079E-01 -3.202153E+01  2.632795E-04 5.848942E+01  2.680453E-04 5.750533E+01  9.877981E-01 -3.116705E+01 
2.930312E+02  9.887470E-01 -3.203793E+01  2.631927E-04 6.070914E+01  2.572757E-04 6.263511E+01  9.879799E-01 -3.116017E+01 
2.930625E+02  9.889712E-01 -3.203586E+01  2.580167E-04 6.281152E+01  2.609295E-04 6.399415E+01  9.881323E-01 -3.117147E+01 
2.930938E+02  9.888675E-01 -3.203803E+01  2.595816E-04 6.736274E+01  2.575640E-04 6.596198E+01  9.879505E-01 -3.117207E+01 
2.931250E+02  9.889081E-01 -3.204208E+01  2.654010E-04 7.039326E+01  2.552462E-04 7.089714E+01  9.880114E-01 -3.118054E+01 
2.931562E+02  9.889354E-01 -3.204594E+01  2.556769E-04 7.211870E+01  2.616676E-04 7.233241E+01  9.879976E-01 -3.117893E+01 
2.931875E+02  9.887417E-01 -3.205942E+01  2.667450E-04 7.675290E+01  2.633461E-04 7.681930E+01  9.880868E-01 -3.118342E+01 
2.932188E+02  9.888557E-01 -3.205276E+01  2.740530E-04 8.074990E+01  2.685431E-04 7.731056E+01  9.881142E-01 -3.119653E+01 
2.932500E+02  9.888148E-01 -3.206516E+01  2.695928E-04 8.133828E+01  2.773371E-04 8.262765E+01  9.878671E-01 -3.120068E+01 
2.932812E+02  9.888615E-01 -3.206550E+01  2.828855E-04 8.620446E+01  2.962206E-04 8.707478E+01  9.879102E-01 -3.120016E+01 
2.933125E+02  9.888908E-01 -3.206950E+01  3.173523E-04 8.961413E+01  3.067453E-04 9.037745E+01  9.879280E-01 -3.120743E+01 
2.933438E+02  9.886519E-01 -3.206615E+01  3.412407E-04 9.091614E+01  3.374849E-04 9.105470E+01  9.878557E-01 -3.121112E+01 
2.933750E+02  9.886087E-01 -3.207195E+01  3.687265E-04 9.290732E+01  3.641877E-04 9.287517E+01  9.879108E-01 -3.120724E+01 
2.934062E+02  9.887276E-01 -3.207742E+01  4.034604E-04 9.195130E+01  4.080290E-04 9.252927E+01  9.878999E-01 -3.120119E+01 
2.934375E+02  9.887163E-01 -3.207227E+01  4.504676E-04 9.011218E+01  4.466126E-04 8.981741E+01  9.877950E-01 -3.120912E+01 
2.934688E+02  9.887721E-01 -3.207739E+01  4.762192E-04 8.612536E+01  4.792380E-04 8.536429E+01  9.877296E-01 -3.120747E+01 
2.935000E+02  9.886746E-01 -3.207732E+01  5.059315E-04 8.339984E+01  5.084417E-04 8.304969E+01  9.878755E-01 -3.121100E+01 
2.935312E+02  9.886893E-01 -3.207679E+01  5.225388E-04 7.975652E+01  5.157052E-04 7.948659E+01  9.878830E-01 -3.120326E+01 
2.935625E+02  9.886029E-01 -3.209106E+01  5.170519E-04 7.591162E+01  5.169968E-04 7.577119E+01  9.879818E-01 -3.121823E+01 
2.935938E+02  9.887440E-01 -3.209187E+01  5.232246E-04 7.268636E+01  5.276229E-04 7.197463E+01  9.877978E-01 -3.122088E+01 
2.936250E+02  9.889213E-01 -3.209781E+01  5.245313E-04 6.953924E+01  5.169796E-04 7.001966E+01  9.878911E-01 -3.123534E+01 
2.936562E+02  9.886749E-01 -3.210100E+01  5.251084E-04 6.705162E+01  5.151247E-04 6.801418E+01  9.878656E-01 -3.123148E+01 
2.936875E+02  9.887028E-01 -3.209754E+01  5.189273E-04 6.600006E+01  5.088930E-04 6.626211E+01  9.879607E-01 -3.124049E+01 
2.937188E+02  9.886825E-01 -3.209821E+01  5.119757E-04 6.424848E+01  5.120105E-04 6.366237E+01  9.881092E-01 -3.123585E+01 
2.937500E+02  9.887846E-01 -3.210676E+01  5.147117E-04 6.204031E+01  5.031049E-04 6.224518E+01  9.877870E-01 -3.124598E+01 
2.937812E+02  9.887493E-01 -3.211255E+01  5.058024E-04 6.104287E+01  4.994797E-04 6.137555E+01  9.879553E-01 -3.124468E+01 
2.938125E+02  9.888562E-01 -3.211241E+01  4.907737E-04 5.992911E+01  4.990570E-04 5.999358E+01  9.879949E-01 -3.124811E+01 
2.938438E+02  9.887678E-01 -3.211721E+01  4.927527E-04 5.824414E+01  4.915723E-04 5.931663E+01  9.880655E-01 -3.124570E+01 
2.938750E+02  9.888272E-01 -3.212257E+01  4.834403E-04 5.735714E+01  4.854433E-04 5.809366E+01  9.878979E-01 -3.125190E+01 
2.939062E+02  9.886855E-01 -3.212872E+01  4.804981E-04 5.671112E+01  4.717289E-04 5.644445E+01  9.879590E-01 -3.125917E+01 
2.939375E+02  9.887941E-01 -3.213433E+01  4.730227E-04 5.478933E+01  4.752889E-04 5.437013E+01  9.878654E-01 -3.126694E+01 
2.939688E+02  9.886717E-01 -3.212659E+01  4.703629E-04 5.324361E+01  4.729951E-04 5.348990E+01  9.879866E-01 -3.127452E+01 
2.940000E+02  9.887239E-01 -3.214195E+01  4.621907E-04 5.210971E+01  4.621289E-04 5.103750E+01  9.879025E-01 -3.126742E+01 
2.940312E+02  9.886745E-01 -3.213852E+01  4.488719E-04 4.983777E+01  4.560344E-04 5.023711E+01  9.879182E-01 -3.127549E+01 
2.940625E+02  9.885815E-01 -3.214594E+01  4.433503E-04 4.712190E+01  4.409135E-04 4.691803E+01  9.881313E-01 -3.127880E+01 
2.940938E+02  9.888089E-01 -3.215227E+01  4.168855E-04 4.443150E+01  4.181557E-04 4.539427E+01  9.878122E-01 -3.127956E+01 
2.941250E+02  9.889071E-01 -3.215054E+01  3.892870E-04 4.431234E+01  3.798911E-04 4.414353E+01  9.878265E-01 -3.127440E+01 
2.941562E+02  9.887701E-01 -3.214715E+01  3.567753E-04 4.427966E+01  3.654733E-04 4.482566E+01  9.879312E-01 -3.128541E+01 
2.941875E+02  9.887020E-01 -3.215739E+01  3.389611E-04 4.634046E+01  3.393722E-04 4.595104E+01  9.879997E-01 -3.128513E+01 
2.942188E+02  9.887968E-01 -3.216238E+01  3.243953E-04 4.959363E+01  3.194452E-04 4.941477E+01  9.879586E-01 -3.129748E+01 
2.942500E+02  9.888959E-01 -3.215996E+01  3.133988E-04 5.392638E+01  3.147276E-04 5.244424E+01  9.879120E-01 -3.129517E+01 
2.942812E+02  9.888523E-01 -3.216510E+01  3.077154E-04 5.613733E+01  3.060939E-04 5.661071E+01  9.880121E-01 -3.129806E+01 
2.943125E+02  9.887149E-01 -3.217109E+01  3.108201E-04 5.905283E+01  3.124939E-04 5.804492E+01  9.879598E-01 -3.130958E+01 
2.943438E+02  9.887994E-01 -3.217362E+01  3.123683E-04 6.157133E+01  3.088938E-04 6.130834E+01  9.880014E-01 -3.130636E+01 
