! Matrix data file written by TouchstoneData, EPCOS AG
! FILENAME: "LU53A_WB.s2p"
! COMMENT: "(touchstone/LU53A_MB.s2p) EPCOS AG 30.06.201"
! INFO: nport=2, nfreq=801
! DATE: "Wed Jun 30 15:35:44 2010"
! USER: "Aleksander Breg"
!
! port | pin | signal
! -----|-----|--------
!   1  |  2  |  input
!   2  |  5  |  output
! --------------------
! 
# MHZ S MA R 50
! freq  magS11 angS11  magS21 angS21  magS12 angS12  magS22 angS22
2.895000E+02  9.855492E-01 -4.318504E+01  4.967108E-04 4.750247E+01  4.804638E-04 5.251258E+01  9.836388E-01 -4.288983E+01 
2.895625E+02  9.851440E-01 -4.319704E+01  5.244199E-04 5.228869E+01  5.214761E-04 5.168374E+01  9.836791E-01 -4.287505E+01 
2.896250E+02  9.850407E-01 -4.318878E+01  5.523737E-04 5.454500E+01  4.926639E-04 5.041820E+01  9.834115E-01 -4.288905E+01 
2.896875E+02  9.851904E-01 -4.319983E+01  4.341069E-04 4.966844E+01  4.973657E-04 4.573774E+01  9.833403E-01 -4.290773E+01 
2.897500E+02  9.852912E-01 -4.321286E+01  4.812635E-04 5.475884E+01  4.564389E-04 5.200934E+01  9.833248E-01 -4.292759E+01 
2.898125E+02  9.852416E-01 -4.324129E+01  4.782543E-04 5.109917E+01  4.936797E-04 5.201004E+01  9.837312E-01 -4.291883E+01 
2.898750E+02  9.849982E-01 -4.322703E+01  4.829521E-04 5.023733E+01  5.081633E-04 5.105340E+01  9.838275E-01 -4.295033E+01 
2.899375E+02  9.859466E-01 -4.322263E+01  4.981715E-04 4.708020E+01  4.906300E-04 5.428752E+01  9.836805E-01 -4.293565E+01 
2.900000E+02  9.857339E-01 -4.321562E+01  5.301323E-04 5.040810E+01  5.144312E-04 5.045690E+01  9.834411E-01 -4.295219E+01 
2.900625E+02  9.855635E-01 -4.325349E+01  4.733333E-04 4.461887E+01  4.707086E-04 5.410350E+01  9.834946E-01 -4.297121E+01 
2.901250E+02  9.853293E-01 -4.324475E+01  4.787161E-04 5.056691E+01  4.779821E-04 4.848698E+01  9.834398E-01 -4.298510E+01 
2.901875E+02  9.853439E-01 -4.325465E+01  4.925446E-04 5.765793E+01  4.146825E-04 5.731969E+01  9.830949E-01 -4.298848E+01 
2.902500E+02  9.855650E-01 -4.329250E+01  4.807758E-04 5.318526E+01  5.074114E-04 4.867708E+01  9.834988E-01 -4.301633E+01 
2.903125E+02  9.860061E-01 -4.329622E+01  5.247718E-04 5.390043E+01  4.867764E-04 4.833722E+01  9.833929E-01 -4.299357E+01 
2.903750E+02  9.853526E-01 -4.328946E+01  5.229486E-04 5.138891E+01  4.904209E-04 5.152451E+01  9.834367E-01 -4.302612E+01 
2.904375E+02  9.855646E-01 -4.329954E+01  5.136375E-04 4.943975E+01  5.316821E-04 4.797843E+01  9.833639E-01 -4.302463E+01 
2.905000E+02  9.856499E-01 -4.332971E+01  4.846054E-04 5.704379E+01  4.635358E-04 5.343697E+01  9.837558E-01 -4.304320E+01 
2.905625E+02  9.853264E-01 -4.333452E+01  4.669490E-04 4.717556E+01  4.886309E-04 4.366795E+01  9.833807E-01 -4.305682E+01 
2.906250E+02  9.855937E-01 -4.334864E+01  5.124168E-04 4.823170E+01  4.995570E-04 4.971907E+01  9.838378E-01 -4.306136E+01 
2.906875E+02  9.859563E-01 -4.334668E+01  4.586607E-04 5.043657E+01  4.900470E-04 5.341379E+01  9.835974E-01 -4.307648E+01 
2.907500E+02  9.858549E-01 -4.334226E+01  4.926770E-04 5.111454E+01  5.177269E-04 4.644003E+01  9.832780E-01 -4.309832E+01 
2.908125E+02  9.859390E-01 -4.338150E+01  4.569034E-04 4.548936E+01  5.048950E-04 4.659512E+01  9.832268E-01 -4.311014E+01 
2.908750E+02  9.853759E-01 -4.339482E+01  5.167256E-04 4.275398E+01  4.670575E-04 5.017540E+01  9.838919E-01 -4.312746E+01 
2.909375E+02  9.854647E-01 -4.340373E+01  4.926213E-04 4.392772E+01  4.356428E-04 4.433791E+01  9.834364E-01 -4.310192E+01 
2.910000E+02  9.855003E-01 -4.341799E+01  4.865965E-04 5.080632E+01  4.829578E-04 4.978385E+01  9.832838E-01 -4.313422E+01 
2.910625E+02  9.854782E-01 -4.339622E+01  4.884114E-04 4.615365E+01  4.951892E-04 4.798253E+01  9.835303E-01 -4.316117E+01 
2.911250E+02  9.858537E-01 -4.341523E+01  4.979119E-04 4.396618E+01  5.060899E-04 4.893874E+01  9.833960E-01 -4.316828E+01 
2.911875E+02  9.848289E-01 -4.343804E+01  4.938497E-04 4.823832E+01  4.732240E-04 4.514231E+01  9.833303E-01 -4.315837E+01 
2.912500E+02  9.856858E-01 -4.345510E+01  5.113752E-04 5.237225E+01  4.512187E-04 5.060455E+01  9.831230E-01 -4.315553E+01 
2.913125E+02  9.856707E-01 -4.345851E+01  4.595666E-04 5.023853E+01  4.772375E-04 4.800338E+01  9.833259E-01 -4.317499E+01 
2.913750E+02  9.856480E-01 -4.347807E+01  5.142530E-04 4.939094E+01  4.881343E-04 4.147404E+01  9.834562E-01 -4.319058E+01 
2.914375E+02  9.855874E-01 -4.348081E+01  4.801881E-04 4.275547E+01  4.531478E-04 4.928067E+01  9.834333E-01 -4.322754E+01 
2.915000E+02  9.858432E-01 -4.344332E+01  4.636433E-04 4.832129E+01  4.474065E-04 5.067195E+01  9.832829E-01 -4.320474E+01 
2.915625E+02  9.856143E-01 -4.350812E+01  4.601137E-04 4.525096E+01  4.600496E-04 4.934270E+01  9.834312E-01 -4.322770E+01 
2.916250E+02  9.854851E-01 -4.352416E+01  3.791439E-04 4.572565E+01  3.727800E-04 5.063866E+01  9.838924E-01 -4.322136E+01 
2.916875E+02  9.861567E-01 -4.352277E+01  4.736552E-04 4.860806E+01  3.972152E-04 5.106588E+01  9.831726E-01 -4.324199E+01 
2.917500E+02  9.862111E-01 -4.353037E+01  4.618117E-04 4.912675E+01  4.223416E-04 4.969657E+01  9.833957E-01 -4.324099E+01 
2.918125E+02  9.860382E-01 -4.352508E+01  4.550434E-04 5.584726E+01  4.211863E-04 4.693386E+01  9.834657E-01 -4.327606E+01 
2.918750E+02  9.858052E-01 -4.353705E+01  4.504393E-04 4.845240E+01  4.432467E-04 5.044014E+01  9.835796E-01 -4.329314E+01 
2.919375E+02  9.859450E-01 -4.355378E+01  3.985137E-04 4.570624E+01  4.462255E-04 5.162426E+01  9.836789E-01 -4.329191E+01 
2.920000E+02  9.857319E-01 -4.358283E+01  4.033424E-04 5.291517E+01  4.457767E-04 5.340110E+01  9.836482E-01 -4.330034E+01 
2.920625E+02  9.855256E-01 -4.356831E+01  3.798352E-04 5.466623E+01  4.271241E-04 5.271157E+01  9.837681E-01 -4.331090E+01 
2.921250E+02  9.860198E-01 -4.356970E+01  4.494581E-04 4.839884E+01  3.849979E-04 5.113357E+01  9.833029E-01 -4.331923E+01 
2.921875E+02  9.858009E-01 -4.360658E+01  4.424886E-04 5.262268E+01  4.187091E-04 5.403938E+01  9.832866E-01 -4.332526E+01 
2.922500E+02  9.858856E-01 -4.359836E+01  5.047650E-04 5.346871E+01  4.285198E-04 5.385168E+01  9.837992E-01 -4.336592E+01 
2.923125E+02  9.857349E-01 -4.359123E+01  4.076022E-04 6.938096E+01  4.244320E-04 5.886355E+01  9.834791E-01 -4.337103E+01 
2.923750E+02  9.853873E-01 -4.362466E+01  4.575290E-04 5.084319E+01  4.290197E-04 5.961373E+01  9.836342E-01 -4.337846E+01 
2.924375E+02  9.857496E-01 -4.365383E+01  4.791904E-04 4.384529E+01  4.268016E-04 5.875190E+01  9.835726E-01 -4.337686E+01 
2.925000E+02  9.858177E-01 -4.365471E+01  4.923393E-04 5.651398E+01  4.182447E-04 5.799705E+01  9.836072E-01 -4.338501E+01 
2.925625E+02  9.858739E-01 -4.368852E+01  4.395583E-04 5.363881E+01  4.706845E-04 5.760517E+01  9.834984E-01 -4.338314E+01 
2.926250E+02  9.860582E-01 -4.366689E+01  4.384815E-04 5.855954E+01  4.040466E-04 5.054922E+01  9.833796E-01 -4.342760E+01 
2.926875E+02  9.856280E-01 -4.365982E+01  4.742821E-04 5.406240E+01  4.885708E-04 5.655657E+01  9.829436E-01 -4.342111E+01 
2.927500E+02  9.856679E-01 -4.367629E+01  5.173914E-04 5.512374E+01  4.578284E-04 5.830862E+01  9.835423E-01 -4.344278E+01 
2.928125E+02  9.860509E-01 -4.370098E+01  5.186243E-04 5.304032E+01  4.887810E-04 5.453961E+01  9.836901E-01 -4.344199E+01 
2.928750E+02  9.862138E-01 -4.370794E+01  4.646099E-04 4.890118E+01  4.811669E-04 5.450007E+01  9.836038E-01 -4.344948E+01 
2.929375E+02  9.855007E-01 -4.371056E+01  5.163412E-04 5.390210E+01  4.974719E-04 5.475745E+01  9.835942E-01 -4.347274E+01 
2.930000E+02  9.855907E-01 -4.376271E+01  5.200177E-04 5.308337E+01  4.641438E-04 5.258244E+01  9.834530E-01 -4.348735E+01 
2.930625E+02  9.855786E-01 -4.375198E+01  4.491277E-04 5.174162E+01  4.688563E-04 4.492967E+01  9.831746E-01 -4.351179E+01 
2.931250E+02  9.862104E-01 -4.374486E+01  4.435266E-04 4.973043E+01  5.119914E-04 4.825254E+01  9.834844E-01 -4.350041E+01 
2.931875E+02  9.858358E-01 -4.377619E+01  4.971018E-04 5.458992E+01  4.825557E-04 5.215507E+01  9.835888E-01 -4.349740E+01 
2.932500E+02  9.854131E-01 -4.380278E+01  4.214275E-04 4.710329E+01  4.539530E-04 5.169829E+01  9.837139E-01 -4.350371E+01 
2.933125E+02  9.851143E-01 -4.377261E+01  4.545298E-04 4.726675E+01  4.148434E-04 4.893144E+01  9.839942E-01 -4.353450E+01 
2.933750E+02  9.855449E-01 -4.380479E+01  4.846359E-04 4.362957E+01  4.609891E-04 4.864535E+01  9.835736E-01 -4.354641E+01 
2.934375E+02  9.856564E-01 -4.381699E+01  4.864075E-04 4.856533E+01  4.541301E-04 5.076777E+01  9.838437E-01 -4.353133E+01 
2.935000E+02  9.855948E-01 -4.381367E+01  4.545494E-04 5.044005E+01  4.931240E-04 4.851451E+01  9.838064E-01 -4.355686E+01 
2.935625E+02  9.854900E-01 -4.382798E+01  4.723392E-04 4.678542E+01  4.290610E-04 5.367926E+01  9.838984E-01 -4.356846E+01 
2.936250E+02  9.854600E-01 -4.383767E+01  4.603301E-04 4.378145E+01  4.522611E-04 5.138655E+01  9.837708E-01 -4.358718E+01 
2.936875E+02  9.850312E-01 -4.386066E+01  4.513761E-04 5.136922E+01  4.512441E-04 5.107616E+01  9.841365E-01 -4.359170E+01 
2.937500E+02  9.852306E-01 -4.384436E+01  4.599040E-04 4.644877E+01  4.651666E-04 5.126618E+01  9.838646E-01 -4.361129E+01 
2.938125E+02  9.851825E-01 -4.386288E+01  4.566820E-04 4.903872E+01  4.809209E-04 4.804373E+01  9.836688E-01 -4.361213E+01 
2.938750E+02  9.851041E-01 -4.388219E+01  5.069070E-04 5.352684E+01  4.790059E-04 5.520266E+01  9.835188E-01 -4.362907E+01 
2.939375E+02  9.852774E-01 -4.388888E+01  4.926591E-04 4.953971E+01  4.356469E-04 5.762430E+01  9.840650E-01 -4.363110E+01 
2.940000E+02  9.850758E-01 -4.386842E+01  4.256336E-04 5.011611E+01  4.541969E-04 5.249460E+01  9.837290E-01 -4.363922E+01 
2.940625E+02  9.848472E-01 -4.389777E+01  4.973571E-04 5.275466E+01  4.854999E-04 5.052614E+01  9.838663E-01 -4.365825E+01 
2.941250E+02  9.853750E-01 -4.389161E+01  4.378825E-04 5.363098E+01  4.839205E-04 4.731767E+01  9.840091E-01 -4.368465E+01 
2.941875E+02  9.853410E-01 -4.391637E+01  5.034859E-04 5.216729E+01  4.702598E-04 4.556651E+01  9.840763E-01 -4.367211E+01 
2.942500E+02  9.848004E-01 -4.392974E+01  4.748588E-04 4.756826E+01  4.467037E-04 5.290347E+01  9.840979E-01 -4.369082E+01 
2.943125E+02  9.849161E-01 -4.392246E+01  4.810305E-04 4.557839E+01  5.145208E-04 5.306836E+01  9.838407E-01 -4.371143E+01 
2.943750E+02  9.851541E-01 -4.394290E+01  4.665496E-04 4.272483E+01  4.841875E-04 5.262711E+01  9.838771E-01 -4.372229E+01 
2.944375E+02  9.853989E-01 -4.394109E+01  4.853242E-04 5.028777E+01  4.717742E-04 5.401120E+01  9.836071E-01 -4.374715E+01 
2.945000E+02  9.849504E-01 -4.399042E+01  5.557748E-04 5.305265E+01  4.694364E-04 5.157836E+01  9.843088E-01 -4.374065E+01 
2.945625E+02  9.849770E-01 -4.400061E+01  4.540596E-04 4.987606E+01  4.938885E-04 5.126764E+01  9.837755E-01 -4.375720E+01 
2.946250E+02  9.851056E-01 -4.399244E+01  5.121563E-04 5.008692E+01  4.900109E-04 5.204073E+01  9.837830E-01 -4.377855E+01 
2.946875E+02  9.849213E-01 -4.397896E+01  4.589642E-04 5.462533E+01  4.379223E-04 4.793164E+01  9.839654E-01 -4.377915E+01 
2.947500E+02  9.846519E-01 -4.399229E+01  4.593776E-04 5.025459E+01  4.429005E-04 4.946799E+01  9.837472E-01 -4.380178E+01 
2.948125E+02  9.846414E-01 -4.400135E+01  5.210338E-04 4.322200E+01  4.629980E-04 4.843415E+01  9.835384E-01 -4.380665E+01 
2.948750E+02  9.846346E-01 -4.402558E+01  4.863827E-04 4.186532E+01  4.721706E-04 5.039958E+01  9.841009E-01 -4.378558E+01 
2.949375E+02  9.848544E-01 -4.400025E+01  5.226527E-04 4.885527E+01  5.008390E-04 4.340536E+01  9.836365E-01 -4.381988E+01 
2.950000E+02  9.844909E-01 -4.402247E+01  4.491292E-04 5.111381E+01  4.375425E-04 4.389624E+01  9.839551E-01 -4.380380E+01 
2.950625E+02  9.845977E-01 -4.405377E+01  5.338478E-04 5.117541E+01  4.631867E-04 4.615406E+01  9.841031E-01 -4.384257E+01 
2.951250E+02  9.845427E-01 -4.406577E+01  4.847690E-04 4.335270E+01  4.904720E-04 5.228365E+01  9.840758E-01 -4.382571E+01 
2.951875E+02  9.848072E-01 -4.406936E+01  4.710654E-04 4.542691E+01  4.377381E-04 4.667526E+01  9.838850E-01 -4.388602E+01 
2.952500E+02  9.846714E-01 -4.407060E+01  4.558465E-04 5.225398E+01  4.823023E-04 4.899780E+01  9.838623E-01 -4.386064E+01 
2.953125E+02  9.848117E-01 -4.409784E+01  5.407223E-04 4.532345E+01  4.437375E-04 3.818790E+01  9.839820E-01 -4.387652E+01 
2.953750E+02  9.847439E-01 -4.410234E+01  4.914993E-04 4.727050E+01  4.701103E-04 4.814369E+01  9.843132E-01 -4.388658E+01 
2.954375E+02  9.844699E-01 -4.410231E+01  4.840030E-04 4.487414E+01  4.095811E-04 4.354250E+01  9.839860E-01 -4.389520E+01 
2.955000E+02  9.846432E-01 -4.412297E+01  4.239052E-04 4.027190E+01  3.765570E-04 5.125926E+01  9.843327E-01 -4.391718E+01 
2.955625E+02  9.844456E-01 -4.415469E+01  4.205784E-04 4.881470E+01  4.504382E-04 4.406992E+01  9.841384E-01 -4.393361E+01 
2.956250E+02  9.844836E-01 -4.414046E+01  4.315989E-04 4.765278E+01  3.878542E-04 4.858551E+01  9.843113E-01 -4.392597E+01 
2.956875E+02  9.843515E-01 -4.413109E+01  4.161694E-04 5.522400E+01  4.389439E-04 4.348660E+01  9.836761E-01 -4.392679E+01 
2.957500E+02  9.844131E-01 -4.415250E+01  3.943709E-04 4.225298E+01  4.007034E-04 5.147243E+01  9.840739E-01 -4.396007E+01 
2.958125E+02  9.843395E-01 -4.415392E+01  4.288571E-04 5.394990E+01  4.267450E-04 4.592537E+01  9.838868E-01 -4.396834E+01 
2.958750E+02  9.844231E-01 -4.417138E+01  4.876645E-04 5.306453E+01  4.033834E-04 5.110989E+01  9.842168E-01 -4.397055E+01 
2.959375E+02  9.838380E-01 -4.418109E+01  4.560576E-04 5.227676E+01  3.789050E-04 4.877427E+01  9.839662E-01 -4.399039E+01 
2.960000E+02  9.844794E-01 -4.418915E+01  4.342191E-04 4.502175E+01  3.769704E-04 5.475942E+01  9.843098E-01 -4.398628E+01 
2.960625E+02  9.840196E-01 -4.418736E+01  4.244711E-04 5.322825E+01  4.097740E-04 5.418248E+01  9.839949E-01 -4.401247E+01 
2.961250E+02  9.837756E-01 -4.420936E+01  4.271205E-04 5.036079E+01  3.681491E-04 5.225079E+01  9.838480E-01 -4.401044E+01 
2.961875E+02  9.837420E-01 -4.420510E+01  4.936155E-04 5.353589E+01  4.156664E-04 5.527213E+01  9.841096E-01 -4.402628E+01 
2.962500E+02  9.842172E-01 -4.423394E+01  4.460576E-04 5.829472E+01  4.440173E-04 5.633568E+01  9.840289E-01 -4.404444E+01 
2.963125E+02  9.838533E-01 -4.421884E+01  4.551377E-04 5.201809E+01  4.560851E-04 5.773753E+01  9.841671E-01 -4.404699E+01 
2.963750E+02  9.839208E-01 -4.423784E+01  4.696825E-04 6.241779E+01  4.688025E-04 5.192468E+01  9.837088E-01 -4.406457E+01 
2.964375E+02  9.840457E-01 -4.423740E+01  4.675946E-04 5.279787E+01  4.954893E-04 5.293438E+01  9.839435E-01 -4.407268E+01 
2.965000E+02  9.835448E-01 -4.426981E+01  4.926075E-04 5.246824E+01  4.443345E-04 5.714980E+01  9.837462E-01 -4.411370E+01 
2.965625E+02  9.839462E-01 -4.430090E+01  4.733571E-04 5.585086E+01  4.593734E-04 5.767813E+01  9.843390E-01 -4.409081E+01 
2.966250E+02  9.841095E-01 -4.431563E+01  5.000230E-04 5.077570E+01  5.137793E-04 5.582166E+01  9.839625E-01 -4.409608E+01 
2.966875E+02  9.843016E-01 -4.428062E+01  6.178451E-04 4.959698E+01  4.706045E-04 5.210468E+01  9.840340E-01 -4.411150E+01 
2.967500E+02  9.841401E-01 -4.431218E+01  4.905575E-04 5.123204E+01  4.740914E-04 5.558929E+01  9.837535E-01 -4.413813E+01 
2.968125E+02  9.836829E-01 -4.431013E+01  4.937206E-04 5.182108E+01  4.697407E-04 4.626118E+01  9.836634E-01 -4.411258E+01 
2.968750E+02  9.840105E-01 -4.434354E+01  4.902597E-04 5.634015E+01  5.201629E-04 5.119811E+01  9.838784E-01 -4.413256E+01 
2.969375E+02  9.839006E-01 -4.433975E+01  5.495178E-04 4.233333E+01  4.597449E-04 5.362197E+01  9.838186E-01 -4.415122E+01 
2.970000E+02  9.838389E-01 -4.436391E+01  4.651405E-04 4.309673E+01  4.562101E-04 3.995316E+01  9.838085E-01 -4.416732E+01 
2.970625E+02  9.839992E-01 -4.438480E+01  5.155054E-04 5.096035E+01  4.082046E-04 4.351267E+01  9.838949E-01 -4.418354E+01 
2.971250E+02  9.840455E-01 -4.436213E+01  4.758637E-04 4.768749E+01  4.681453E-04 5.247546E+01  9.839815E-01 -4.417382E+01 
2.971875E+02  9.840726E-01 -4.438432E+01  4.840092E-04 4.834326E+01  4.449593E-04 4.352925E+01  9.837249E-01 -4.417416E+01 
2.972500E+02  9.842506E-01 -4.441649E+01  4.564234E-04 5.444950E+01  4.743268E-04 5.004542E+01  9.836382E-01 -4.419772E+01 
2.973125E+02  9.842551E-01 -4.442430E+01  4.882002E-04 4.248531E+01  4.328400E-04 4.929178E+01  9.833938E-01 -4.420218E+01 
2.973750E+02  9.839214E-01 -4.442386E+01  4.756803E-04 5.589679E+01  4.127802E-04 5.400321E+01  9.836322E-01 -4.418546E+01 
2.974375E+02  9.842137E-01 -4.442749E+01  4.250822E-04 4.495077E+01  5.054055E-04 5.129287E+01  9.837092E-01 -4.423142E+01 
2.975000E+02  9.840742E-01 -4.443089E+01  5.119984E-04 4.921000E+01  4.627512E-04 5.229191E+01  9.832082E-01 -4.423410E+01 
2.975625E+02  9.840872E-01 -4.445027E+01  4.633205E-04 4.131763E+01  4.366895E-04 5.130431E+01  9.836156E-01 -4.420005E+01 
2.976250E+02  9.838301E-01 -4.447365E+01  4.754636E-04 5.322248E+01  4.646071E-04 5.360355E+01  9.838379E-01 -4.426096E+01 
2.976875E+02  9.843060E-01 -4.445864E+01  4.706627E-04 5.407812E+01  4.718995E-04 5.878015E+01  9.838298E-01 -4.424936E+01 
2.977500E+02  9.842670E-01 -4.448710E+01  4.893492E-04 5.171341E+01  4.777115E-04 5.205834E+01  9.834391E-01 -4.424170E+01 
2.978125E+02  9.838550E-01 -4.450042E+01  5.194943E-04 5.114124E+01  4.740283E-04 5.024822E+01  9.838859E-01 -4.426925E+01 
2.978750E+02  9.839001E-01 -4.449054E+01  5.391073E-04 5.164018E+01  4.770106E-04 5.457105E+01  9.835778E-01 -4.427467E+01 
2.979375E+02  9.840819E-01 -4.452958E+01  5.451348E-04 4.945220E+01  4.394946E-04 4.829453E+01  9.833427E-01 -4.427043E+01 
2.980000E+02  9.839820E-01 -4.453499E+01  4.692998E-04 5.269339E+01  4.833530E-04 5.142222E+01  9.838116E-01 -4.430593E+01 
2.980625E+02  9.844841E-01 -4.454133E+01  4.942065E-04 4.807504E+01  4.577690E-04 4.771887E+01  9.836572E-01 -4.430102E+01 
2.981250E+02  9.838823E-01 -4.457193E+01  4.362069E-04 4.208519E+01  4.827583E-04 5.273496E+01  9.835529E-01 -4.432522E+01 
2.981875E+02  9.841060E-01 -4.458103E+01  4.397394E-04 4.636294E+01  4.615919E-04 4.604710E+01  9.835430E-01 -4.433329E+01 
2.982500E+02  9.839934E-01 -4.456790E+01  3.988491E-04 4.577330E+01  4.293657E-04 4.321996E+01  9.836251E-01 -4.433360E+01 
2.983125E+02  9.842739E-01 -4.458816E+01  4.522393E-04 5.058716E+01  4.471112E-04 4.212501E+01  9.834620E-01 -4.433726E+01 
2.983750E+02  9.843013E-01 -4.458052E+01  4.801227E-04 5.517154E+01  4.867904E-04 4.529449E+01  9.836184E-01 -4.434613E+01 
2.984375E+02  9.848477E-01 -4.458536E+01  4.701444E-04 5.100516E+01  4.690129E-04 4.556741E+01  9.834483E-01 -4.436452E+01 
2.985000E+02  9.844649E-01 -4.461652E+01  4.313025E-04 4.679509E+01  4.232594E-04 4.432702E+01  9.836179E-01 -4.436062E+01 
2.985625E+02  9.843856E-01 -4.462899E+01  4.315362E-04 5.184494E+01  4.368188E-04 4.724683E+01  9.834683E-01 -4.439246E+01 
2.986250E+02  9.843634E-01 -4.461866E+01  4.421017E-04 4.669877E+01  4.642275E-04 4.984719E+01  9.833384E-01 -4.437861E+01 
2.986875E+02  9.846477E-01 -4.466186E+01  5.211756E-04 5.674577E+01  4.874397E-04 4.905388E+01  9.830285E-01 -4.439224E+01 
2.987500E+02  9.842856E-01 -4.464863E+01  4.595320E-04 5.082422E+01  4.432493E-04 4.250228E+01  9.836292E-01 -4.440225E+01 
2.988125E+02  9.845308E-01 -4.464392E+01  4.193763E-04 4.720128E+01  4.271386E-04 4.666408E+01  9.832881E-01 -4.440059E+01 
2.988750E+02  9.847480E-01 -4.466778E+01  4.970402E-04 4.122508E+01  4.688748E-04 4.340034E+01  9.834765E-01 -4.442396E+01 
2.989375E+02  9.849436E-01 -4.468665E+01  4.699091E-04 4.833045E+01  4.589954E-04 5.131422E+01  9.837402E-01 -4.443314E+01 
2.990000E+02  9.847749E-01 -4.472010E+01  4.421510E-04 4.646168E+01  4.647403E-04 4.984181E+01  9.832438E-01 -4.441832E+01 
2.990625E+02  9.846781E-01 -4.469954E+01  4.431528E-04 4.539604E+01  4.753620E-04 3.971390E+01  9.832403E-01 -4.445176E+01 
2.991250E+02  9.846297E-01 -4.472193E+01  4.482581E-04 5.068531E+01  4.451017E-04 4.307839E+01  9.834079E-01 -4.447809E+01 
2.991875E+02  9.846564E-01 -4.475251E+01  4.275966E-04 5.092628E+01  4.294696E-04 4.831462E+01  9.838805E-01 -4.447509E+01 
2.992500E+02  9.843693E-01 -4.473949E+01  4.650800E-04 4.520198E+01  5.039695E-04 3.954955E+01  9.838882E-01 -4.449138E+01 
