! Matrix data file written by TouchstoneData, EPCOS AG
! FILENAME: "B3787_WB.s2p"
! COMMENT: "(LZ18A_1_MB.s2p) EPCOS AG 01.03.2011 09:52:5"
! INFO: nport=2, nfreq=1601
! DATE: "Fri Jan 13 08:56:37 2012"
! USER: "Wilfried Schott"
!
! port | pin | signal
! -----|-----|--------
!   1  |  2  |  IN
!   2  |  5  |  OUT
! --------------------
! 
# MHZ S MA R 50
! freq  magS11 angS11  magS21 angS21  magS12 angS12  magS22 angS22
2.895000E+02  9.862856E-01 -3.978495E+01  4.868225E-04 5.350501E+01  4.868225E-04 5.350501E+01  9.879283E-01 -3.912353E+01 
2.895312E+02  9.861476E-01 -3.979632E+01  4.899049E-04 5.179843E+01  4.899049E-04 5.179843E+01  9.878764E-01 -3.913397E+01 
2.895625E+02  9.861189E-01 -3.979354E+01  4.654959E-04 5.476871E+01  4.654959E-04 5.476871E+01  9.879553E-01 -3.913413E+01 
2.895938E+02  9.862675E-01 -3.978899E+01  4.773982E-04 5.402735E+01  4.773982E-04 5.402735E+01  9.879884E-01 -3.913505E+01 
2.896250E+02  9.862618E-01 -3.979620E+01  4.793503E-04 5.160712E+01  4.793503E-04 5.160712E+01  9.879634E-01 -3.915055E+01 
2.896562E+02  9.862430E-01 -3.979888E+01  4.744452E-04 5.501336E+01  4.744452E-04 5.501336E+01  9.880350E-01 -3.914948E+01 
2.896875E+02  9.862409E-01 -3.980189E+01  4.794935E-04 5.374662E+01  4.794935E-04 5.374662E+01  9.879076E-01 -3.915205E+01 
2.897188E+02  9.863331E-01 -3.980961E+01  4.979598E-04 5.194919E+01  4.979598E-04 5.194919E+01  9.878920E-01 -3.915683E+01 
2.897500E+02  9.862108E-01 -3.980502E+01  4.880150E-04 5.420380E+01  4.880150E-04 5.420380E+01  9.878380E-01 -3.916149E+01 
2.897812E+02  9.863325E-01 -3.980810E+01  4.995580E-04 5.272464E+01  4.995580E-04 5.272464E+01  9.879560E-01 -3.916972E+01 
2.898125E+02  9.862653E-01 -3.981291E+01  4.906540E-04 5.498263E+01  4.906540E-04 5.498263E+01  9.879453E-01 -3.916091E+01 
2.898438E+02  9.862002E-01 -3.981859E+01  4.962456E-04 5.398640E+01  4.962456E-04 5.398640E+01  9.879246E-01 -3.918075E+01 
2.898750E+02  9.863809E-01 -3.981915E+01  4.996121E-04 5.282547E+01  4.996121E-04 5.282547E+01  9.879492E-01 -3.918028E+01 
2.899062E+02  9.864138E-01 -3.984060E+01  4.888526E-04 5.313546E+01  4.888526E-04 5.313546E+01  9.880120E-01 -3.918442E+01 
2.899375E+02  9.863595E-01 -3.983444E+01  4.799349E-04 5.425655E+01  4.799349E-04 5.425655E+01  9.880482E-01 -3.919211E+01 
2.899688E+02  9.862941E-01 -3.983973E+01  4.952312E-04 5.296766E+01  4.952312E-04 5.296766E+01  9.880253E-01 -3.919264E+01 
2.900000E+02  9.863954E-01 -3.984651E+01  4.792109E-04 5.310905E+01  4.792109E-04 5.310905E+01  9.881872E-01 -3.920250E+01 
2.900312E+02  9.864977E-01 -3.983448E+01  4.963706E-04 5.124988E+01  4.963706E-04 5.124988E+01  9.881724E-01 -3.921275E+01 
2.900625E+02  9.864047E-01 -3.985376E+01  4.876527E-04 5.354916E+01  4.876527E-04 5.354916E+01  9.881244E-01 -3.921114E+01 
2.900938E+02  9.861377E-01 -3.985322E+01  4.890040E-04 5.269780E+01  4.890040E-04 5.269780E+01  9.881886E-01 -3.921628E+01 
2.901250E+02  9.863809E-01 -3.985737E+01  4.803465E-04 5.374589E+01  4.803465E-04 5.374589E+01  9.879149E-01 -3.922030E+01 
2.901562E+02  9.863027E-01 -3.986847E+01  4.849612E-04 5.162221E+01  4.849612E-04 5.162221E+01  9.880467E-01 -3.922598E+01 
2.901875E+02  9.862226E-01 -3.986855E+01  4.837138E-04 5.436977E+01  4.837138E-04 5.436977E+01  9.879909E-01 -3.924113E+01 
2.902188E+02  9.861640E-01 -3.987184E+01  4.884901E-04 5.205385E+01  4.884901E-04 5.205385E+01  9.877902E-01 -3.924187E+01 
2.902500E+02  9.862028E-01 -3.987445E+01  4.818570E-04 5.536819E+01  4.818570E-04 5.536819E+01  9.879502E-01 -3.924814E+01 
2.902812E+02  9.862090E-01 -3.988737E+01  4.843032E-04 5.314912E+01  4.843032E-04 5.314912E+01  9.880393E-01 -3.925322E+01 
2.903125E+02  9.863957E-01 -3.987746E+01  4.881414E-04 5.254373E+01  4.881414E-04 5.254373E+01  9.879523E-01 -3.927577E+01 
2.903438E+02  9.860891E-01 -3.987977E+01  4.727641E-04 5.284759E+01  4.727641E-04 5.284759E+01  9.880720E-01 -3.926425E+01 
2.903750E+02  9.862299E-01 -3.989346E+01  4.859831E-04 5.525780E+01  4.859831E-04 5.525780E+01  9.879753E-01 -3.928071E+01 
2.904062E+02  9.861717E-01 -3.990179E+01  4.839652E-04 5.564789E+01  4.839652E-04 5.564789E+01  9.879732E-01 -3.928458E+01 
2.904375E+02  9.862289E-01 -3.990060E+01  4.792834E-04 5.231984E+01  4.792834E-04 5.231984E+01  9.880661E-01 -3.929261E+01 
2.904688E+02  9.863634E-01 -3.990206E+01  4.803434E-04 5.338395E+01  4.803434E-04 5.338395E+01  9.879785E-01 -3.927797E+01 
2.905000E+02  9.861669E-01 -3.991385E+01  4.784486E-04 5.604288E+01  4.784486E-04 5.604288E+01  9.878900E-01 -3.929468E+01 
2.905312E+02  9.863095E-01 -3.991570E+01  4.784729E-04 5.496624E+01  4.784729E-04 5.496624E+01  9.879039E-01 -3.929731E+01 
2.905625E+02  9.862790E-01 -3.992003E+01  4.881996E-04 5.380193E+01  4.881996E-04 5.380193E+01  9.879793E-01 -3.929811E+01 
2.905938E+02  9.863827E-01 -3.993098E+01  4.856623E-04 5.238822E+01  4.856623E-04 5.238822E+01  9.880265E-01 -3.931860E+01 
2.906250E+02  9.861740E-01 -3.993165E+01  4.954031E-04 5.424083E+01  4.954031E-04 5.424083E+01  9.879277E-01 -3.931491E+01 
2.906562E+02  9.863406E-01 -3.993190E+01  4.978033E-04 5.274112E+01  4.978033E-04 5.274112E+01  9.879628E-01 -3.930818E+01 
2.906875E+02  9.864200E-01 -3.994277E+01  4.781564E-04 5.461881E+01  4.781564E-04 5.461881E+01  9.879192E-01 -3.933191E+01 
2.907188E+02  9.862275E-01 -3.995327E+01  4.747148E-04 5.349397E+01  4.747148E-04 5.349397E+01  9.879148E-01 -3.932572E+01 
2.907500E+02  9.863666E-01 -3.994274E+01  4.867373E-04 5.485637E+01  4.867373E-04 5.485637E+01  9.881191E-01 -3.933153E+01 
2.907812E+02  9.861774E-01 -3.995206E+01  4.635922E-04 5.596808E+01  4.635922E-04 5.596808E+01  9.878593E-01 -3.934547E+01 
2.908125E+02  9.864075E-01 -3.995970E+01  4.824301E-04 5.524670E+01  4.824301E-04 5.524670E+01  9.876696E-01 -3.934281E+01 
2.908438E+02  9.861780E-01 -3.996377E+01  4.691381E-04 5.623238E+01  4.691381E-04 5.623238E+01  9.880804E-01 -3.935908E+01 
2.908750E+02  9.862074E-01 -3.995360E+01  4.846497E-04 5.400399E+01  4.846497E-04 5.400399E+01  9.880006E-01 -3.936049E+01 
2.909062E+02  9.861181E-01 -3.995845E+01  4.970330E-04 5.394775E+01  4.970330E-04 5.394775E+01  9.879824E-01 -3.935999E+01 
2.909375E+02  9.861841E-01 -3.997366E+01  4.860684E-04 5.438743E+01  4.860684E-04 5.438743E+01  9.879292E-01 -3.936872E+01 
2.909688E+02  9.863515E-01 -3.997321E+01  4.761502E-04 5.575628E+01  4.761502E-04 5.575628E+01  9.880535E-01 -3.937637E+01 
2.910000E+02  9.862447E-01 -3.998009E+01  4.915841E-04 5.600361E+01  4.915841E-04 5.600361E+01  9.879979E-01 -3.938642E+01 
2.910312E+02  9.862253E-01 -3.997604E+01  4.742970E-04 5.448494E+01  4.742970E-04 5.448494E+01  9.879793E-01 -3.939202E+01 
2.910625E+02  9.862609E-01 -3.999068E+01  4.732331E-04 5.404624E+01  4.732331E-04 5.404624E+01  9.881081E-01 -3.940298E+01 
2.910938E+02  9.862614E-01 -3.999353E+01  4.929543E-04 5.397349E+01  4.929543E-04 5.397349E+01  9.879919E-01 -3.939682E+01 
2.911250E+02  9.862035E-01 -3.999411E+01  4.875480E-04 5.519375E+01  4.875480E-04 5.519375E+01  9.880584E-01 -3.940544E+01 
2.911562E+02  9.862009E-01 -4.000588E+01  4.849519E-04 5.501533E+01  4.849519E-04 5.501533E+01  9.878749E-01 -3.940931E+01 
2.911875E+02  9.861807E-01 -4.000564E+01  4.867998E-04 5.555095E+01  4.867998E-04 5.555095E+01  9.879355E-01 -3.941167E+01 
2.912188E+02  9.862072E-01 -4.001524E+01  4.942165E-04 5.503489E+01  4.942165E-04 5.503489E+01  9.880349E-01 -3.941735E+01 
2.912500E+02  9.862461E-01 -4.001308E+01  4.847156E-04 5.697159E+01  4.847156E-04 5.697159E+01  9.877596E-01 -3.941380E+01 
2.912812E+02  9.861111E-01 -4.001734E+01  4.862052E-04 5.708045E+01  4.862052E-04 5.708045E+01  9.879329E-01 -3.942951E+01 
2.913125E+02  9.860812E-01 -4.003734E+01  4.725640E-04 5.752273E+01  4.725640E-04 5.752273E+01  9.880106E-01 -3.943139E+01 
2.913438E+02  9.860790E-01 -4.003222E+01  4.795486E-04 5.508082E+01  4.795486E-04 5.508082E+01  9.878647E-01 -3.944577E+01 
2.913750E+02  9.862589E-01 -4.004403E+01  4.976394E-04 5.702868E+01  4.976394E-04 5.702868E+01  9.877855E-01 -3.945573E+01 
2.914062E+02  9.861126E-01 -4.004487E+01  4.849096E-04 5.765964E+01  4.849096E-04 5.765964E+01  9.879231E-01 -3.945120E+01 
2.914375E+02  9.862171E-01 -4.004737E+01  4.900680E-04 5.728639E+01  4.900680E-04 5.728639E+01  9.877824E-01 -3.945585E+01 
2.914688E+02  9.859280E-01 -4.003868E+01  5.009341E-04 6.101165E+01  5.009341E-04 6.101165E+01  9.877938E-01 -3.946074E+01 
2.915000E+02  9.858890E-01 -4.004222E+01  4.948511E-04 5.796438E+01  4.948511E-04 5.796438E+01  9.875895E-01 -3.946569E+01 
2.915312E+02  9.860909E-01 -4.005062E+01  4.995835E-04 5.746199E+01  4.995835E-04 5.746199E+01  9.876668E-01 -3.946185E+01 
2.915625E+02  9.861765E-01 -4.004949E+01  5.096042E-04 5.931519E+01  5.096042E-04 5.931519E+01  9.876090E-01 -3.947074E+01 
2.915938E+02  9.860620E-01 -4.005835E+01  5.159980E-04 5.704936E+01  5.159980E-04 5.704936E+01  9.875434E-01 -3.947725E+01 
2.916250E+02  9.860605E-01 -4.006884E+01  5.332790E-04 5.830550E+01  5.332790E-04 5.830550E+01  9.875962E-01 -3.948172E+01 
2.916562E+02  9.861849E-01 -4.006072E+01  5.367791E-04 5.821748E+01  5.367791E-04 5.821748E+01  9.876616E-01 -3.947855E+01 
2.916875E+02  9.861685E-01 -4.005999E+01  5.208024E-04 5.744431E+01  5.208024E-04 5.744431E+01  9.878063E-01 -3.947726E+01 
2.917188E+02  9.861617E-01 -4.006621E+01  5.156423E-04 5.745419E+01  5.156423E-04 5.745419E+01  9.879140E-01 -3.949339E+01 
2.917500E+02  9.859627E-01 -4.008027E+01  5.257764E-04 5.462196E+01  5.257764E-04 5.462196E+01  9.875035E-01 -3.949267E+01 
2.917812E+02  9.862159E-01 -4.009231E+01  5.195445E-04 5.517775E+01  5.195445E-04 5.517775E+01  9.877780E-01 -3.949218E+01 
2.918125E+02  9.860589E-01 -4.008419E+01  5.276169E-04 5.537049E+01  5.276169E-04 5.537049E+01  9.879205E-01 -3.950278E+01 
2.918438E+02  9.864006E-01 -4.009954E+01  5.215101E-04 5.747533E+01  5.215101E-04 5.747533E+01  9.879036E-01 -3.951464E+01 
2.918750E+02  9.862181E-01 -4.010910E+01  5.562384E-04 5.519662E+01  5.562384E-04 5.519662E+01  9.877961E-01 -3.951368E+01 
2.919062E+02  9.859714E-01 -4.010549E+01  5.116043E-04 5.477567E+01  5.116043E-04 5.477567E+01  9.877550E-01 -3.952200E+01 
2.919375E+02  9.861625E-01 -4.010323E+01  5.075572E-04 5.224244E+01  5.075572E-04 5.224244E+01  9.878864E-01 -3.952288E+01 
2.919688E+02  9.860052E-01 -4.011873E+01  5.115254E-04 5.726968E+01  5.115254E-04 5.726968E+01  9.877322E-01 -3.953058E+01 
2.920000E+02  9.860193E-01 -4.012218E+01  5.340584E-04 5.479245E+01  5.340584E-04 5.479245E+01  9.877299E-01 -3.954566E+01 
2.920312E+02  9.860237E-01 -4.012046E+01  5.390410E-04 5.572687E+01  5.390410E-04 5.572687E+01  9.878943E-01 -3.953923E+01 
2.920625E+02  9.857679E-01 -4.012574E+01  5.364680E-04 5.794588E+01  5.364680E-04 5.794588E+01  9.877655E-01 -3.954720E+01 
2.920938E+02  9.859216E-01 -4.012285E+01  5.325987E-04 5.631856E+01  5.325987E-04 5.631856E+01  9.878805E-01 -3.955534E+01 
2.921250E+02  9.859627E-01 -4.013488E+01  5.326339E-04 5.483347E+01  5.326339E-04 5.483347E+01  9.879463E-01 -3.956057E+01 
2.921562E+02  9.858561E-01 -4.013379E+01  5.278314E-04 5.394051E+01  5.278314E-04 5.394051E+01  9.879685E-01 -3.956782E+01 
2.921875E+02  9.857700E-01 -4.013989E+01  5.643367E-04 5.535085E+01  5.643367E-04 5.535085E+01  9.877243E-01 -3.957873E+01 
2.922188E+02  9.859343E-01 -4.012787E+01  5.698047E-04 5.232741E+01  5.698047E-04 5.232741E+01  9.879973E-01 -3.957520E+01 
2.922500E+02  9.858394E-01 -4.013939E+01  5.622412E-04 5.301825E+01  5.622412E-04 5.301825E+01  9.879097E-01 -3.957889E+01 
2.922812E+02  9.859507E-01 -4.014197E+01  5.711287E-04 5.233405E+01  5.711287E-04 5.233405E+01  9.876302E-01 -3.957775E+01 
2.923125E+02  9.861032E-01 -4.014197E+01  5.380955E-04 5.083446E+01  5.380955E-04 5.083446E+01  9.877610E-01 -3.958908E+01 
2.923438E+02  9.859878E-01 -4.014964E+01  5.272610E-04 5.187226E+01  5.272610E-04 5.187226E+01  9.877763E-01 -3.959633E+01 
2.923750E+02  9.860031E-01 -4.014546E+01  5.463501E-04 5.264548E+01  5.463501E-04 5.264548E+01  9.877519E-01 -3.959925E+01 
2.924062E+02  9.861803E-01 -4.015222E+01  5.408213E-04 5.028945E+01  5.408213E-04 5.028945E+01  9.876848E-01 -3.961025E+01 
2.924375E+02  9.859807E-01 -4.016344E+01  5.317846E-04 5.406971E+01  5.317846E-04 5.406971E+01  9.878527E-01 -3.961728E+01 
2.924688E+02  9.860950E-01 -4.016223E+01  5.373398E-04 5.078665E+01  5.373398E-04 5.078665E+01  9.877505E-01 -3.961538E+01 
2.925000E+02  9.862455E-01 -4.017263E+01  5.365096E-04 5.134287E+01  5.365096E-04 5.134287E+01  9.879474E-01 -3.962055E+01 
2.925312E+02  9.861303E-01 -4.018230E+01  5.286515E-04 5.113609E+01  5.286515E-04 5.113609E+01  9.876474E-01 -3.961754E+01 
2.925625E+02  9.861862E-01 -4.018617E+01  5.551715E-04 5.156032E+01  5.551715E-04 5.156032E+01  9.877130E-01 -3.962420E+01 
2.925938E+02  9.861982E-01 -4.019125E+01  5.397504E-04 5.170155E+01  5.397504E-04 5.170155E+01  9.874879E-01 -3.964015E+01 
2.926250E+02  9.862329E-01 -4.020057E+01  5.192181E-04 5.263698E+01  5.192181E-04 5.263698E+01  9.875186E-01 -3.964731E+01 
2.926562E+02  9.861266E-01 -4.020160E+01  5.661830E-04 5.105690E+01  5.661830E-04 5.105690E+01  9.877209E-01 -3.965848E+01 
2.926875E+02  9.863178E-01 -4.020927E+01  5.507264E-04 4.822753E+01  5.507264E-04 4.822753E+01  9.875284E-01 -3.964669E+01 
2.927188E+02  9.862562E-01 -4.022033E+01  5.491955E-04 4.804641E+01  5.491955E-04 4.804641E+01  9.878254E-01 -3.966102E+01 
2.927500E+02  9.862056E-01 -4.021982E+01  5.380174E-04 4.720507E+01  5.380174E-04 4.720507E+01  9.874687E-01 -3.965688E+01 
2.927812E+02  9.864103E-01 -4.021832E+01  5.386043E-04 4.713104E+01  5.386043E-04 4.713104E+01  9.874727E-01 -3.965727E+01 
2.928125E+02  9.862851E-01 -4.022939E+01  5.320556E-04 4.435811E+01  5.320556E-04 4.435811E+01  9.873963E-01 -3.965539E+01 
2.928438E+02  9.862729E-01 -4.022969E+01  5.284517E-04 4.371112E+01  5.284517E-04 4.371112E+01  9.876417E-01 -3.965469E+01 
2.928750E+02  9.862985E-01 -4.024622E+01  5.031309E-04 4.167871E+01  5.031309E-04 4.167871E+01  9.876830E-01 -3.966458E+01 
2.929062E+02  9.863092E-01 -4.024876E+01  5.057824E-04 4.436348E+01  5.057824E-04 4.436348E+01  9.876135E-01 -3.966018E+01 
2.929375E+02  9.863624E-01 -4.024932E+01  4.741400E-04 4.502994E+01  4.741400E-04 4.502994E+01  9.876577E-01 -3.966814E+01 
2.929688E+02  9.863252E-01 -4.025140E+01  4.765331E-04 4.584978E+01  4.765331E-04 4.584978E+01  9.878134E-01 -3.966580E+01 
2.930000E+02  9.866035E-01 -4.026615E+01  4.758354E-04 4.885650E+01  4.758354E-04 4.885650E+01  9.877321E-01 -3.967545E+01 
2.930312E+02  9.863905E-01 -4.026508E+01  4.811260E-04 4.968031E+01  4.811260E-04 4.968031E+01  9.877920E-01 -3.967740E+01 
2.930625E+02  9.864715E-01 -4.026779E+01  4.860975E-04 5.012875E+01  4.860975E-04 5.012875E+01  9.878179E-01 -3.968503E+01 
2.930938E+02  9.863702E-01 -4.027654E+01  4.769607E-04 4.946698E+01  4.769607E-04 4.946698E+01  9.877751E-01 -3.967667E+01 
2.931250E+02  9.866130E-01 -4.028759E+01  4.825432E-04 5.111744E+01  4.825432E-04 5.111744E+01  9.877540E-01 -3.969467E+01 
2.931562E+02  9.865030E-01 -4.029796E+01  4.857802E-04 5.093005E+01  4.857802E-04 5.093005E+01  9.877103E-01 -3.970240E+01 
2.931875E+02  9.865941E-01 -4.027745E+01  4.853939E-04 5.120340E+01  4.853939E-04 5.120340E+01  9.879565E-01 -3.970107E+01 
2.932188E+02  9.864137E-01 -4.030593E+01  4.897549E-04 5.150134E+01  4.897549E-04 5.150134E+01  9.880973E-01 -3.970719E+01 
2.932500E+02  9.866033E-01 -4.031149E+01  4.753314E-04 4.886338E+01  4.753314E-04 4.886338E+01  9.879381E-01 -3.971810E+01 
2.932812E+02  9.865856E-01 -4.029675E+01  5.103185E-04 4.992763E+01  5.103185E-04 4.992763E+01  9.878314E-01 -3.972708E+01 
2.933125E+02  9.864001E-01 -4.031951E+01  4.848186E-04 5.105747E+01  4.848186E-04 5.105747E+01  9.878507E-01 -3.973165E+01 
2.933438E+02  9.862868E-01 -4.032640E+01  5.082532E-04 4.679885E+01  5.082532E-04 4.679885E+01  9.879797E-01 -3.973548E+01 
2.933750E+02  9.864298E-01 -4.031942E+01  4.904143E-04 4.872571E+01  4.904143E-04 4.872571E+01  9.877688E-01 -3.975183E+01 
2.934062E+02  9.863478E-01 -4.033845E+01  4.811154E-04 4.723435E+01  4.811154E-04 4.723435E+01  9.878302E-01 -3.973674E+01 
2.934375E+02  9.863959E-01 -4.032982E+01  4.741599E-04 4.985367E+01  4.741599E-04 4.985367E+01  9.878379E-01 -3.974716E+01 
2.934688E+02  9.865038E-01 -4.032502E+01  4.726155E-04 5.042346E+01  4.726155E-04 5.042346E+01  9.878360E-01 -3.974700E+01 
2.935000E+02  9.864482E-01 -4.034093E+01  4.736758E-04 5.059878E+01  4.736758E-04 5.059878E+01  9.877755E-01 -3.974119E+01 
2.935312E+02  9.863060E-01 -4.033697E+01  4.585039E-04 4.954222E+01  4.585039E-04 4.954222E+01  9.878560E-01 -3.974624E+01 
2.935625E+02  9.865709E-01 -4.034667E+01  4.677488E-04 5.294648E+01  4.677488E-04 5.294648E+01  9.876951E-01 -3.976055E+01 
2.935938E+02  9.867286E-01 -4.035424E+01  4.549589E-04 5.239171E+01  4.549589E-04 5.239171E+01  9.878408E-01 -3.975064E+01 
2.936250E+02  9.868331E-01 -4.035794E+01  4.593080E-04 5.304269E+01  4.593080E-04 5.304269E+01  9.877820E-01 -3.977044E+01 
2.936562E+02  9.867554E-01 -4.036749E+01  4.795372E-04 5.187049E+01  4.795372E-04 5.187049E+01  9.880580E-01 -3.976626E+01 
2.936875E+02  9.866994E-01 -4.036794E+01  4.507382E-04 5.297046E+01  4.507382E-04 5.297046E+01  9.879766E-01 -3.977410E+01 
2.937188E+02  9.867493E-01 -4.038081E+01  4.704812E-04 5.333128E+01  4.704812E-04 5.333128E+01  9.879889E-01 -3.978580E+01 
2.937500E+02  9.868677E-01 -4.038559E+01  4.789854E-04 5.009796E+01  4.789854E-04 5.009796E+01  9.879351E-01 -3.978287E+01 
2.937812E+02  9.867302E-01 -4.038370E+01  4.819768E-04 5.212784E+01  4.819768E-04 5.212784E+01  9.879135E-01 -3.978282E+01 
2.938125E+02  9.868865E-01 -4.038494E+01  4.716290E-04 5.317343E+01  4.716290E-04 5.317343E+01  9.878146E-01 -3.979169E+01 
2.938438E+02  9.867183E-01 -4.040184E+01  4.712007E-04 5.250640E+01  4.712007E-04 5.250640E+01  9.881430E-01 -3.979529E+01 
2.938750E+02  9.869106E-01 -4.040296E+01  5.020494E-04 5.286634E+01  5.020494E-04 5.286634E+01  9.882255E-01 -3.979244E+01 
2.939062E+02  9.869061E-01 -4.040682E+01  4.872193E-04 5.266374E+01  4.872193E-04 5.266374E+01  9.880048E-01 -3.980306E+01 
2.939375E+02  9.866505E-01 -4.042327E+01  4.928736E-04 5.219489E+01  4.928736E-04 5.219489E+01  9.878337E-01 -3.980967E+01 
2.939688E+02  9.867917E-01 -4.041614E+01  4.837074E-04 5.106563E+01  4.837074E-04 5.106563E+01  9.880323E-01 -3.980014E+01 
2.940000E+02  9.867477E-01 -4.042862E+01  4.919632E-04 5.186205E+01  4.919632E-04 5.186205E+01  9.881173E-01 -3.982324E+01 
2.940312E+02  9.867142E-01 -4.041898E+01  4.797292E-04 5.157507E+01  4.797292E-04 5.157507E+01  9.878498E-01 -3.982334E+01 
2.940625E+02  9.868028E-01 -4.043269E+01  4.896690E-04 5.144014E+01  4.896690E-04 5.144014E+01  9.880599E-01 -3.982537E+01 
2.940938E+02  9.867979E-01 -4.043889E+01  4.942553E-04 5.196501E+01  4.942553E-04 5.196501E+01  9.880208E-01 -3.983185E+01 
2.941250E+02  9.867739E-01 -4.043772E+01  4.672285E-04 5.200219E+01  4.672285E-04 5.200219E+01  9.880801E-01 -3.983976E+01 
2.941562E+02  9.869312E-01 -4.044220E+01  4.628067E-04 5.150503E+01  4.628067E-04 5.150503E+01  9.880754E-01 -3.983897E+01 
2.941875E+02  9.867871E-01 -4.045053E+01  4.844104E-04 5.107607E+01  4.844104E-04 5.107607E+01  9.880485E-01 -3.983876E+01 
2.942188E+02  9.868143E-01 -4.045779E+01  4.796663E-04 5.223781E+01  4.796663E-04 5.223781E+01  9.877380E-01 -3.984450E+01 
2.942500E+02  9.869236E-01 -4.046271E+01  4.754051E-04 5.210966E+01  4.754051E-04 5.210966E+01  9.878567E-01 -3.985668E+01 
2.942812E+02  9.868356E-01 -4.045915E+01  4.732682E-04 5.245072E+01  4.732682E-04 5.245072E+01  9.878756E-01 -3.985253E+01 
2.943125E+02  9.868186E-01 -4.046572E+01  4.824048E-04 5.346776E+01  4.824048E-04 5.346776E+01  9.879929E-01 -3.986455E+01 
2.943438E+02  9.870692E-01 -4.047097E+01  4.767891E-04 5.369315E+01  4.767891E-04 5.369315E+01  9.881614E-01 -3.986681E+01 
2.943750E+02  9.870812E-01 -4.047788E+01  4.567497E-04 5.107280E+01  4.567497E-04 5.107280E+01  9.879251E-01 -3.987053E+01 
