! Matrix data file written by TouchstoneData, EPCOS AG
! FILENAME: "B3783_NB.s2p"
! COMMENT: "PCB=QCC8B 2/5 UM; PORTEX1 91PS; PORTEX2 189P"
! INFO: nport=2, nfreq=1601
! DATE: "Tue Aug 21 10:48:49 2007"
! USER: "Thomas Telgmann"
!
! port | pin | signal
! -----|-----|--------
!   1  |  2  |  input
!   2  |  5  |  output
! --------------------
!
# MHZ S MA R 50
! freq  magS11 angS11  magS21 angS21  magS12 angS12  magS22 angS22
3.125000E+02  9.890991E-01 -3.693069E+01  1.608794E-03 6.111269E+01  1.599501E-03 6.151963E+01  9.876989E-01 -3.379351E+01 
3.125031E+02  9.887606E-01 -3.694177E+01  1.583237E-03 6.074842E+01  1.587314E-03 6.111573E+01  9.876388E-01 -3.379711E+01 
3.125063E+02  9.887541E-01 -3.693902E+01  1.566816E-03 6.080891E+01  1.564671E-03 6.105433E+01  9.877261E-01 -3.380210E+01 
3.125094E+02  9.887403E-01 -3.694850E+01  1.552054E-03 6.082579E+01  1.544189E-03 6.084153E+01  9.875453E-01 -3.380806E+01 
3.125125E+02  9.886511E-01 -3.694958E+01  1.532933E-03 6.041351E+01  1.532175E-03 6.060859E+01  9.877035E-01 -3.381177E+01 
3.125156E+02  9.887411E-01 -3.695275E+01  1.516861E-03 6.058434E+01  1.515977E-03 6.056523E+01  9.877347E-01 -3.381415E+01 
3.125188E+02  9.888253E-01 -3.696010E+01  1.498822E-03 6.022808E+01  1.493519E-03 6.052676E+01  9.876750E-01 -3.382322E+01 
3.125219E+02  9.888249E-01 -3.695870E+01  1.476507E-03 6.025020E+01  1.477044E-03 6.031106E+01  9.876163E-01 -3.381939E+01 
3.125250E+02  9.888407E-01 -3.696400E+01  1.461031E-03 5.996206E+01  1.462597E-03 6.015624E+01  9.877877E-01 -3.382877E+01 
3.125281E+02  9.887093E-01 -3.696787E+01  1.455866E-03 6.000318E+01  1.448179E-03 5.998217E+01  9.876530E-01 -3.383359E+01 
3.125312E+02  9.888126E-01 -3.697188E+01  1.435057E-03 5.958963E+01  1.442721E-03 5.993831E+01  9.876383E-01 -3.383805E+01 
3.125344E+02  9.889768E-01 -3.697851E+01  1.422020E-03 5.966366E+01  1.418561E-03 6.004690E+01  9.876492E-01 -3.384883E+01 
3.125375E+02  9.888789E-01 -3.698437E+01  1.402495E-03 5.967059E+01  1.403275E-03 5.991008E+01  9.876273E-01 -3.384176E+01 
3.125406E+02  9.889349E-01 -3.698642E+01  1.385097E-03 5.956905E+01  1.385927E-03 5.971333E+01  9.877869E-01 -3.385004E+01 
3.125437E+02  9.888610E-01 -3.698640E+01  1.375313E-03 5.951502E+01  1.375093E-03 5.982606E+01  9.876962E-01 -3.385603E+01 
3.125469E+02  9.888952E-01 -3.699284E+01  1.360978E-03 5.930946E+01  1.359905E-03 5.979592E+01  9.876758E-01 -3.385502E+01 
3.125500E+02  9.889486E-01 -3.699307E+01  1.349803E-03 5.955653E+01  1.344689E-03 5.922736E+01  9.876385E-01 -3.386264E+01 
3.125531E+02  9.888054E-01 -3.700006E+01  1.329026E-03 5.938962E+01  1.335386E-03 5.919480E+01  9.877533E-01 -3.386156E+01 
3.125562E+02  9.886123E-01 -3.700997E+01  1.331029E-03 5.906414E+01  1.327942E-03 5.926438E+01  9.877695E-01 -3.386618E+01 
3.125594E+02  9.888895E-01 -3.700966E+01  1.311813E-03 5.906849E+01  1.311610E-03 5.916806E+01  9.877538E-01 -3.386975E+01 
3.125625E+02  9.888816E-01 -3.701292E+01  1.303138E-03 5.883385E+01  1.304123E-03 5.904905E+01  9.877553E-01 -3.387735E+01 
3.125656E+02  9.888804E-01 -3.701097E+01  1.299970E-03 5.948800E+01  1.284966E-03 5.924109E+01  9.877942E-01 -3.387712E+01 
3.125688E+02  9.889149E-01 -3.701992E+01  1.274219E-03 5.904561E+01  1.290118E-03 5.883779E+01  9.877328E-01 -3.388219E+01 
3.125719E+02  9.887491E-01 -3.702560E+01  1.269957E-03 5.866112E+01  1.274023E-03 5.877738E+01  9.877613E-01 -3.387978E+01 
3.125750E+02  9.889841E-01 -3.702494E+01  1.262411E-03 5.892568E+01  1.254574E-03 5.899566E+01  9.875820E-01 -3.389431E+01 
3.125781E+02  9.888939E-01 -3.703625E+01  1.250302E-03 5.850839E+01  1.246185E-03 5.909834E+01  9.877358E-01 -3.388763E+01 
3.125813E+02  9.888228E-01 -3.703591E+01  1.239369E-03 5.883606E+01  1.239998E-03 5.881175E+01  9.877659E-01 -3.389505E+01 
3.125844E+02  9.889199E-01 -3.704267E+01  1.234957E-03 5.831280E+01  1.227207E-03 5.880396E+01  9.877293E-01 -3.389413E+01 
3.125875E+02  9.887708E-01 -3.703971E+01  1.221143E-03 5.836897E+01  1.209057E-03 5.857051E+01  9.876476E-01 -3.390271E+01 
3.125906E+02  9.888581E-01 -3.705252E+01  1.213351E-03 5.813876E+01  1.207539E-03 5.846704E+01  9.877079E-01 -3.391138E+01 
3.125938E+02  9.886906E-01 -3.705486E+01  1.199408E-03 5.833765E+01  1.195071E-03 5.866842E+01  9.877815E-01 -3.390465E+01 
3.125969E+02  9.887057E-01 -3.705469E+01  1.193017E-03 5.831135E+01  1.189269E-03 5.824130E+01  9.876921E-01 -3.391118E+01 
3.126000E+02  9.886765E-01 -3.705582E+01  1.186366E-03 5.876516E+01  1.185238E-03 5.816150E+01  9.876442E-01 -3.391612E+01 
3.126031E+02  9.886270E-01 -3.706595E+01  1.165648E-03 5.833133E+01  1.175471E-03 5.845753E+01  9.876776E-01 -3.391769E+01 
3.126062E+02  9.888072E-01 -3.706506E+01  1.157402E-03 5.810845E+01  1.164156E-03 5.840572E+01  9.875573E-01 -3.392397E+01 
3.126094E+02  9.887127E-01 -3.707154E+01  1.159229E-03 5.837354E+01  1.158140E-03 5.866740E+01  9.876701E-01 -3.393356E+01 
3.126125E+02  9.887354E-01 -3.707455E+01  1.156852E-03 5.832705E+01  1.154479E-03 5.843599E+01  9.876112E-01 -3.392874E+01 
3.126156E+02  9.886028E-01 -3.706937E+01  1.143091E-03 5.814789E+01  1.142686E-03 5.829698E+01  9.875925E-01 -3.393635E+01 
3.126187E+02  9.888436E-01 -3.707852E+01  1.134564E-03 5.774845E+01  1.129231E-03 5.826017E+01  9.876508E-01 -3.393435E+01 
3.126219E+02  9.886407E-01 -3.708261E+01  1.132755E-03 5.808885E+01  1.121872E-03 5.822087E+01  9.876882E-01 -3.394030E+01 
3.126250E+02  9.886123E-01 -3.708706E+01  1.125668E-03 5.769921E+01  1.119073E-03 5.791904E+01  9.876623E-01 -3.394337E+01 
3.126281E+02  9.887087E-01 -3.709348E+01  1.110800E-03 5.779957E+01  1.113525E-03 5.802220E+01  9.875812E-01 -3.394522E+01 
3.126313E+02  9.888062E-01 -3.710640E+01  1.099540E-03 5.767022E+01  1.100701E-03 5.824399E+01  9.877082E-01 -3.394968E+01 
3.126344E+02  9.885463E-01 -3.710119E+01  1.099811E-03 5.765917E+01  1.096335E-03 5.809257E+01  9.876153E-01 -3.395619E+01 
3.126375E+02  9.888291E-01 -3.710379E+01  1.099365E-03 5.760479E+01  1.097588E-03 5.798546E+01  9.876202E-01 -3.396391E+01 
3.126406E+02  9.886931E-01 -3.711049E+01  1.086249E-03 5.765224E+01  1.089697E-03 5.794855E+01  9.877306E-01 -3.396373E+01 
3.126438E+02  9.887604E-01 -3.711841E+01  1.086536E-03 5.754447E+01  1.078150E-03 5.770084E+01  9.876150E-01 -3.396961E+01 
3.126469E+02  9.887931E-01 -3.711585E+01  1.070628E-03 5.758460E+01  1.074181E-03 5.766898E+01  9.875765E-01 -3.397101E+01 
3.126500E+02  9.886922E-01 -3.712090E+01  1.070339E-03 5.758621E+01  1.071432E-03 5.752877E+01  9.876904E-01 -3.398146E+01 
3.126531E+02  9.887631E-01 -3.712174E+01  1.064385E-03 5.742260E+01  1.059502E-03 5.741001E+01  9.874775E-01 -3.398121E+01 
3.126562E+02  9.888012E-01 -3.713226E+01  1.058248E-03 5.734397E+01  1.051367E-03 5.719870E+01  9.876694E-01 -3.398540E+01 
3.126594E+02  9.886802E-01 -3.713796E+01  1.055292E-03 5.734053E+01  1.057397E-03 5.742616E+01  9.876423E-01 -3.398810E+01 
3.126625E+02  9.887810E-01 -3.714341E+01  1.037332E-03 5.733312E+01  1.048983E-03 5.727648E+01  9.877230E-01 -3.399093E+01 
3.126656E+02  9.887250E-01 -3.714507E+01  1.043145E-03 5.717199E+01  1.040775E-03 5.766039E+01  9.875647E-01 -3.399179E+01 
3.126687E+02  9.888394E-01 -3.714612E+01  1.039723E-03 5.716716E+01  1.032380E-03 5.691803E+01  9.876186E-01 -3.400299E+01 
3.126719E+02  9.887207E-01 -3.714975E+01  1.029373E-03 5.729288E+01  1.027492E-03 5.752736E+01  9.875937E-01 -3.400713E+01 
3.126750E+02  9.887869E-01 -3.715695E+01  1.032816E-03 5.710853E+01  1.024733E-03 5.761547E+01  9.874455E-01 -3.400698E+01 
3.126781E+02  9.889050E-01 -3.715623E+01  1.015671E-03 5.713063E+01  1.020533E-03 5.707077E+01  9.875361E-01 -3.400607E+01 
3.126812E+02  9.889555E-01 -3.716831E+01  1.005118E-03 5.711262E+01  1.014194E-03 5.706050E+01  9.876103E-01 -3.401534E+01 
3.126844E+02  9.888695E-01 -3.716692E+01  1.015941E-03 5.729009E+01  1.017104E-03 5.715441E+01  9.874351E-01 -3.402175E+01 
3.126875E+02  9.887340E-01 -3.716915E+01  1.006543E-03 5.720909E+01  1.000898E-03 5.743453E+01  9.875463E-01 -3.402823E+01 
3.126906E+02  9.887822E-01 -3.716957E+01  1.012595E-03 5.712821E+01  9.988583E-04 5.688767E+01  9.875436E-01 -3.403050E+01 
3.126938E+02  9.889253E-01 -3.717692E+01  9.946728E-04 5.664456E+01  9.946947E-04 5.706981E+01  9.876826E-01 -3.403117E+01 
3.126969E+02  9.888561E-01 -3.717800E+01  9.917143E-04 5.667382E+01  9.940911E-04 5.675234E+01  9.876054E-01 -3.403628E+01 
3.127000E+02  9.888497E-01 -3.718817E+01  9.873093E-04 5.699034E+01  9.862208E-04 5.731799E+01  9.875416E-01 -3.403311E+01 
3.127031E+02  9.888090E-01 -3.718787E+01  9.805865E-04 5.624044E+01  9.750561E-04 5.694294E+01  9.876240E-01 -3.404151E+01 
3.127063E+02  9.888414E-01 -3.719000E+01  9.854905E-04 5.696780E+01  9.803423E-04 5.642412E+01  9.875970E-01 -3.404145E+01 
3.127094E+02  9.886564E-01 -3.719254E+01  9.814086E-04 5.666934E+01  9.804386E-04 5.677270E+01  9.876616E-01 -3.404131E+01 
3.127125E+02  9.888180E-01 -3.719738E+01  9.725846E-04 5.635030E+01  9.736002E-04 5.652398E+01  9.875770E-01 -3.404595E+01 
3.127156E+02  9.887676E-01 -3.721041E+01  9.766354E-04 5.652734E+01  9.698016E-04 5.690761E+01  9.875081E-01 -3.405261E+01 
3.127188E+02  9.887360E-01 -3.720553E+01  9.640383E-04 5.603398E+01  9.634789E-04 5.650161E+01  9.875432E-01 -3.405922E+01 
3.127219E+02  9.888981E-01 -3.721154E+01  9.661801E-04 5.615878E+01  9.581693E-04 5.619805E+01  9.876104E-01 -3.406229E+01 
3.127250E+02  9.887564E-01 -3.721106E+01  9.638896E-04 5.609738E+01  9.538104E-04 5.671042E+01  9.875553E-01 -3.406018E+01 
3.127281E+02  9.887450E-01 -3.721476E+01  9.506358E-04 5.615004E+01  9.601233E-04 5.662735E+01  9.874160E-01 -3.406700E+01 
3.127312E+02  9.887810E-01 -3.722277E+01  9.640186E-04 5.583214E+01  9.580584E-04 5.649015E+01  9.875442E-01 -3.406760E+01 
3.127344E+02  9.888614E-01 -3.722627E+01  9.533196E-04 5.580706E+01  9.554691E-04 5.587861E+01  9.876052E-01 -3.407455E+01 
3.127375E+02  9.888441E-01 -3.722292E+01  9.447670E-04 5.579351E+01  9.475614E-04 5.608026E+01  9.875701E-01 -3.407819E+01 
3.127406E+02  9.890053E-01 -3.723330E+01  9.482968E-04 5.589755E+01  9.528196E-04 5.614404E+01  9.877174E-01 -3.408135E+01 
3.127437E+02  9.888263E-01 -3.723810E+01  9.444958E-04 5.571865E+01  9.450160E-04 5.636834E+01  9.875511E-01 -3.409005E+01 
3.127469E+02  9.887890E-01 -3.722988E+01  9.383858E-04 5.594494E+01  9.438495E-04 5.589318E+01  9.875701E-01 -3.409335E+01 
3.127500E+02  9.889373E-01 -3.724137E+01  9.424539E-04 5.549803E+01  9.374072E-04 5.582697E+01  9.876211E-01 -3.410014E+01 
3.127531E+02  9.888100E-01 -3.724630E+01  9.384843E-04 5.537217E+01  9.374144E-04 5.538605E+01  9.875456E-01 -3.409922E+01 
3.127563E+02  9.889084E-01 -3.725585E+01  9.365984E-04 5.485746E+01  9.288282E-04 5.597733E+01  9.876750E-01 -3.410393E+01 
3.127594E+02  9.888772E-01 -3.726563E+01  9.307759E-04 5.569091E+01  9.266950E-04 5.536973E+01  9.876028E-01 -3.411122E+01 
3.127625E+02  9.888593E-01 -3.726117E+01  9.353254E-04 5.521737E+01  9.354261E-04 5.545038E+01  9.875057E-01 -3.411626E+01 
3.127656E+02  9.886604E-01 -3.726239E+01  9.339814E-04 5.506998E+01  9.281524E-04 5.558349E+01  9.876111E-01 -3.411157E+01 
3.127688E+02  9.888405E-01 -3.726309E+01  9.377947E-04 5.520356E+01  9.316463E-04 5.508611E+01  9.875396E-01 -3.411742E+01 
3.127719E+02  9.887426E-01 -3.727600E+01  9.248450E-04 5.499052E+01  9.311771E-04 5.514316E+01  9.877070E-01 -3.412305E+01 
3.127750E+02  9.888468E-01 -3.727994E+01  9.326980E-04 5.461487E+01  9.167091E-04 5.464723E+01  9.875594E-01 -3.411966E+01 
3.127781E+02  9.885722E-01 -3.727919E+01  9.278933E-04 5.475464E+01  9.247521E-04 5.501479E+01  9.876316E-01 -3.413665E+01 
3.127812E+02  9.887401E-01 -3.728807E+01  9.281270E-04 5.431884E+01  9.187865E-04 5.466280E+01  9.875730E-01 -3.413778E+01 
3.127844E+02  9.886978E-01 -3.729154E+01  9.194704E-04 5.464237E+01  9.293672E-04 5.448968E+01  9.876619E-01 -3.414772E+01 
3.127875E+02  9.886153E-01 -3.729412E+01  9.199792E-04 5.458467E+01  9.215263E-04 5.458435E+01  9.876688E-01 -3.414714E+01 
3.127906E+02  9.887790E-01 -3.729963E+01  9.175215E-04 5.353854E+01  9.229396E-04 5.448203E+01  9.875651E-01 -3.414622E+01 
3.127937E+02  9.887910E-01 -3.730323E+01  9.268052E-04 5.392526E+01  9.204764E-04 5.420771E+01  9.875453E-01 -3.416028E+01 
3.127969E+02  9.886632E-01 -3.730910E+01  9.211841E-04 5.406058E+01  9.249917E-04 5.387906E+01  9.875788E-01 -3.415962E+01 
3.128000E+02  9.887355E-01 -3.731311E+01  9.212782E-04 5.372403E+01  9.252834E-04 5.383257E+01  9.877321E-01 -3.415853E+01 
3.128031E+02  9.887983E-01 -3.731515E+01  9.191460E-04 5.360464E+01  9.212082E-04 5.348752E+01  9.876611E-01 -3.416511E+01 
3.128062E+02  9.886160E-01 -3.732582E+01  9.187486E-04 5.336667E+01  9.218223E-04 5.313208E+01  9.875140E-01 -3.417036E+01 
3.128094E+02  9.886823E-01 -3.732881E+01  9.260925E-04 5.333065E+01  9.247768E-04 5.355007E+01  9.875560E-01 -3.417351E+01 
3.128125E+02  9.885535E-01 -3.732328E+01  9.198368E-04 5.283057E+01  9.207361E-04 5.313425E+01  9.875086E-01 -3.417804E+01 
3.128156E+02  9.886350E-01 -3.732881E+01  9.322785E-04 5.233593E+01  9.324293E-04 5.303723E+01  9.876060E-01 -3.418116E+01 
3.128188E+02  9.886939E-01 -3.734252E+01  9.359511E-04 5.271496E+01  9.321586E-04 5.255422E+01  9.873553E-01 -3.419163E+01 
3.128219E+02  9.885538E-01 -3.734447E+01  9.262019E-04 5.247481E+01  9.327420E-04 5.223268E+01  9.873456E-01 -3.419610E+01 
3.128250E+02  9.886326E-01 -3.733993E+01  9.326215E-04 5.204728E+01  9.362298E-04 5.224663E+01  9.874209E-01 -3.419340E+01 
3.128281E+02  9.885587E-01 -3.735302E+01  9.295482E-04 5.143513E+01  9.322146E-04 5.205249E+01  9.875139E-01 -3.419730E+01 
3.128313E+02  9.887384E-01 -3.735262E+01  9.317826E-04 5.126005E+01  9.344483E-04 5.160429E+01  9.874535E-01 -3.420913E+01 
3.128344E+02  9.886349E-01 -3.736155E+01  9.365699E-04 5.073910E+01  9.366979E-04 5.125138E+01  9.873632E-01 -3.420737E+01 
3.128375E+02  9.886187E-01 -3.736508E+01  9.445232E-04 5.051575E+01  9.501251E-04 5.058137E+01  9.874966E-01 -3.421373E+01 
3.128406E+02  9.884395E-01 -3.736810E+01  9.448023E-04 5.060836E+01  9.495430E-04 5.038261E+01  9.873386E-01 -3.422240E+01 
3.128438E+02  9.885578E-01 -3.737029E+01  9.488756E-04 4.941321E+01  9.463457E-04 4.921968E+01  9.875112E-01 -3.422495E+01 
3.128469E+02  9.886275E-01 -3.737849E+01  9.472121E-04 4.907024E+01  9.541299E-04 4.931038E+01  9.874886E-01 -3.422769E+01 
3.128500E+02  9.884815E-01 -3.738088E+01  9.601052E-04 4.831191E+01  9.563049E-04 4.849870E+01  9.875114E-01 -3.422927E+01 
3.128531E+02  9.886000E-01 -3.737747E+01  9.668949E-04 4.832596E+01  9.637030E-04 4.801118E+01  9.874004E-01 -3.423991E+01 
3.128562E+02  9.884772E-01 -3.739771E+01  9.717848E-04 4.750234E+01  9.685011E-04 4.842438E+01  9.873187E-01 -3.424378E+01 
3.128594E+02  9.885646E-01 -3.738795E+01  9.742795E-04 4.733455E+01  9.741164E-04 4.737341E+01  9.874990E-01 -3.424117E+01 
3.128625E+02  9.886469E-01 -3.739526E+01  9.794802E-04 4.612966E+01  9.796774E-04 4.636729E+01  9.873088E-01 -3.424369E+01 
3.128656E+02  9.885745E-01 -3.739723E+01  9.905290E-04 4.578953E+01  9.868163E-04 4.559410E+01  9.873010E-01 -3.425074E+01 
3.128687E+02  9.885694E-01 -3.740126E+01  9.980606E-04 4.487235E+01  1.003676E-03 4.519821E+01  9.873443E-01 -3.425079E+01 
3.128719E+02  9.885925E-01 -3.741266E+01  1.004450E-03 4.385947E+01  1.002514E-03 4.410646E+01  9.872130E-01 -3.426123E+01 
3.128750E+02  9.883769E-01 -3.741768E+01  1.016765E-03 4.277175E+01  1.014180E-03 4.327452E+01  9.872137E-01 -3.426507E+01 
3.128781E+02  9.883767E-01 -3.742541E+01  1.022531E-03 4.189505E+01  1.024390E-03 4.198547E+01  9.872932E-01 -3.427105E+01 
3.128813E+02  9.883663E-01 -3.741892E+01  1.032232E-03 3.999974E+01  1.023072E-03 4.049614E+01  9.872669E-01 -3.426622E+01 
3.128844E+02  9.882808E-01 -3.742941E+01  1.050045E-03 3.923085E+01  1.040295E-03 3.916141E+01  9.870633E-01 -3.427914E+01 
3.128875E+02  9.884808E-01 -3.743467E+01  1.056825E-03 3.774416E+01  1.054603E-03 3.764077E+01  9.871196E-01 -3.428267E+01 
3.128906E+02  9.883786E-01 -3.744307E+01  1.061722E-03 3.573301E+01  1.069397E-03 3.556728E+01  9.872007E-01 -3.428072E+01 
3.128938E+02  9.884059E-01 -3.744892E+01  1.064019E-03 3.332446E+01  1.071825E-03 3.409606E+01  9.870103E-01 -3.429771E+01 
3.128969E+02  9.881647E-01 -3.743951E+01  1.080356E-03 3.188251E+01  1.074419E-03 3.186863E+01  9.870415E-01 -3.429848E+01 
3.129000E+02  9.882360E-01 -3.745584E+01  1.094334E-03 2.917993E+01  1.091058E-03 2.922807E+01  9.870593E-01 -3.430208E+01 
3.129031E+02  9.881359E-01 -3.745277E+01  1.093193E-03 2.628468E+01  1.095048E-03 2.646799E+01  9.869971E-01 -3.430161E+01 
3.129062E+02  9.879746E-01 -3.746410E+01  1.106626E-03 2.360604E+01  1.094163E-03 2.360734E+01  9.868126E-01 -3.430276E+01 
3.129094E+02  9.879347E-01 -3.745571E+01  1.100766E-03 2.041497E+01  1.099718E-03 2.023652E+01  9.868720E-01 -3.430646E+01 
3.129125E+02  9.879384E-01 -3.746499E+01  1.084464E-03 1.622844E+01  1.090094E-03 1.670990E+01  9.867463E-01 -3.431229E+01 
3.129156E+02  9.879221E-01 -3.745609E+01  1.076973E-03 1.241233E+01  1.074010E-03 1.214446E+01  9.866372E-01 -3.431101E+01 
3.129187E+02  9.879072E-01 -3.745984E+01  1.045991E-03 8.047272E+00  1.040914E-03 7.950952E+00  9.866485E-01 -3.430811E+01 
3.129219E+02  9.878637E-01 -3.745999E+01  1.007454E-03 3.898427E+00  1.002700E-03 3.677832E+00  9.866900E-01 -3.430826E+01 
3.129250E+02  9.878592E-01 -3.746449E+01  9.596624E-04 -1.165096E+00  9.519207E-04 -6.101231E-01  9.867125E-01 -3.431396E+01 
3.129281E+02  9.878784E-01 -3.746242E+01  8.966238E-04 -5.400028E+00  8.905941E-04 -5.286349E+00  9.865437E-01 -3.430843E+01 
3.129312E+02  9.878593E-01 -3.746509E+01  8.294007E-04 -9.151282E+00  8.255885E-04 -9.693314E+00  9.866596E-01 -3.430496E+01 
3.129344E+02  9.879215E-01 -3.745140E+01  7.612327E-04 -1.281305E+01  7.648302E-04 -1.243908E+01  9.867715E-01 -3.430784E+01 
3.129375E+02  9.880359E-01 -3.744915E+01  6.810521E-04 -1.586988E+01  6.843982E-04 -1.563317E+01  9.866404E-01 -3.430967E+01 
3.129406E+02  9.880421E-01 -3.746064E+01  6.058847E-04 -1.767342E+01  6.136373E-04 -1.759127E+01  9.868350E-01 -3.431166E+01 
3.129438E+02  9.880115E-01 -3.745818E+01  5.414340E-04 -2.000861E+01  5.415358E-04 -1.895210E+01  9.869972E-01 -3.431213E+01 
3.129469E+02  9.880053E-01 -3.747351E+01  4.771931E-04 -2.030711E+01  4.816296E-04 -1.999598E+01  9.869318E-01 -3.431490E+01 
3.129500E+02  9.881186E-01 -3.747132E+01  4.118063E-04 -2.015647E+01  4.166551E-04 -1.944269E+01  9.869098E-01 -3.432732E+01 
3.129531E+02  9.882641E-01 -3.748350E+01  3.725450E-04 -1.830874E+01  3.656859E-04 -1.751126E+01  9.870218E-01 -3.432833E+01 
3.129563E+02  9.881515E-01 -3.747357E+01  3.260292E-04 -1.481747E+01  3.245180E-04 -1.435126E+01  9.871884E-01 -3.433447E+01 
3.129594E+02  9.882390E-01 -3.748502E+01  2.968431E-04 -1.232658E+01  2.933167E-04 -1.188415E+01  9.872100E-01 -3.433631E+01 
3.129625E+02  9.884372E-01 -3.749120E+01  2.537130E-04 -8.098059E+00  2.563199E-04 -7.152166E+00  9.871417E-01 -3.434631E+01 
3.129656E+02  9.884172E-01 -3.749617E+01  2.473883E-04 -8.916405E-01  2.389321E-04 -2.731454E+00  9.871779E-01 -3.435097E+01 
3.129688E+02  9.882968E-01 -3.750409E+01  2.216466E-04 4.799193E+00  2.291960E-04 4.668968E+00  9.872096E-01 -3.435239E+01 
3.129719E+02  9.884558E-01 -3.751247E+01  2.197086E-04 1.144374E+01  2.151036E-04 1.206575E+01  9.872763E-01 -3.435553E+01 
3.129750E+02  9.884584E-01 -3.751549E+01  2.139779E-04 1.887889E+01  2.069853E-04 1.874116E+01  9.873375E-01 -3.435928E+01 
3.129781E+02  9.885616E-01 -3.751515E+01  2.090060E-04 2.360541E+01  2.130545E-04 2.389936E+01  9.872895E-01 -3.436386E+01 
3.129812E+02  9.885192E-01 -3.752821E+01  2.093263E-04 2.934756E+01  2.083935E-04 2.902954E+01  9.873106E-01 -3.437128E+01 
3.129844E+02  9.885531E-01 -3.753073E+01  2.133493E-04 3.235699E+01  2.178168E-04 3.428738E+01  9.872798E-01 -3.437957E+01 
