! Matrix data file written by TouchstoneData, EPCOS AG
! FILENAME: "newformat_B3781_SB.s2p"
! COMMENT: "22 Jul 2004 S11-NoP:1601;Caltype:FULL2PORT;P"
! INFO: nport=2, nfreq=1601
! DATE: "Wed Sep 19 15:44:01 2012"
! USER: "Wilfried Schott"
!
! port | pin | signal
! -----|-----|--------
!   1  |  2  |  IN
!   2  |  5  |  OUT
! --------------------
! 
# MHZ S MA R 50
! freq  magS11 angS11  magS21 angS21  magS12 angS12  magS22 angS22
3.125000E+02  9.874574E-01 -3.173604E+01  1.166738E-03 9.149003E+01  9.672060E-04 9.576329E+01  9.866768E-01 -3.114915E+01 
3.125031E+02  9.875772E-01 -3.177755E+01  8.799472E-04 9.450274E+01  1.169291E-03 9.286051E+01  9.859696E-01 -3.127976E+01 
3.125063E+02  9.872016E-01 -3.173897E+01  9.232066E-04 9.416152E+01  1.043657E-03 9.484870E+01  9.861588E-01 -3.115077E+01 
3.125094E+02  9.879318E-01 -3.175024E+01  1.017466E-03 9.538162E+01  1.068445E-03 9.260590E+01  9.857319E-01 -3.118857E+01 
3.125125E+02  9.869050E-01 -3.176838E+01  1.007013E-03 8.894185E+01  1.013986E-03 9.372088E+01  9.854015E-01 -3.117738E+01 
3.125156E+02  9.871077E-01 -3.174026E+01  1.010752E-03 9.660660E+01  1.152429E-03 9.850351E+01  9.870485E-01 -3.128731E+01 
3.125188E+02  9.876902E-01 -3.170063E+01  1.102141E-03 9.100710E+01  1.162352E-03 9.464433E+01  9.857306E-01 -3.116788E+01 
3.125219E+02  9.874402E-01 -3.179497E+01  1.230149E-03 9.326376E+01  1.293662E-03 9.280730E+01  9.875824E-01 -3.122914E+01 
3.125250E+02  9.869557E-01 -3.173947E+01  1.156938E-03 9.185703E+01  1.140378E-03 9.607265E+01  9.889368E-01 -3.112992E+01 
3.125281E+02  9.878468E-01 -3.172207E+01  1.178666E-03 8.685762E+01  1.170676E-03 9.262932E+01  9.878625E-01 -3.119446E+01 
3.125312E+02  9.870942E-01 -3.179283E+01  1.242850E-03 9.436773E+01  1.226299E-03 9.052913E+01  9.872629E-01 -3.122588E+01 
3.125344E+02  9.876887E-01 -3.180478E+01  1.239135E-03 8.803456E+01  1.185189E-03 8.897702E+01  9.886066E-01 -3.120763E+01 
3.125375E+02  9.886831E-01 -3.173993E+01  1.213340E-03 8.755898E+01  1.175252E-03 8.865157E+01  9.860907E-01 -3.115108E+01 
3.125406E+02  9.880910E-01 -3.184238E+01  1.277929E-03 9.271614E+01  1.286394E-03 8.682591E+01  9.863925E-01 -3.126898E+01 
3.125437E+02  9.879005E-01 -3.183465E+01  1.283769E-03 9.014099E+01  1.260923E-03 9.191249E+01  9.880761E-01 -3.124904E+01 
3.125469E+02  9.882185E-01 -3.176700E+01  1.277717E-03 8.869823E+01  1.269810E-03 8.596248E+01  9.864262E-01 -3.129268E+01 
3.125500E+02  9.879372E-01 -3.181459E+01  1.180407E-03 8.133676E+01  1.320048E-03 8.445236E+01  9.867546E-01 -3.113607E+01 
3.125531E+02  9.876737E-01 -3.178657E+01  1.335494E-03 8.633306E+01  1.259260E-03 8.364364E+01  9.881693E-01 -3.123748E+01 
3.125562E+02  9.880624E-01 -3.183299E+01  1.326231E-03 8.418589E+01  1.312397E-03 7.923664E+01  9.860315E-01 -3.120705E+01 
3.125594E+02  9.871871E-01 -3.180825E+01  1.267522E-03 8.014966E+01  1.389643E-03 8.037284E+01  9.868012E-01 -3.132507E+01 
3.125625E+02  9.874104E-01 -3.175855E+01  1.327022E-03 7.965763E+01  1.330061E-03 8.206380E+01  9.863537E-01 -3.117292E+01 
3.125656E+02  9.880370E-01 -3.172982E+01  1.389097E-03 8.542726E+01  1.327541E-03 7.914615E+01  9.867028E-01 -3.128499E+01 
3.125688E+02  9.881271E-01 -3.177861E+01  1.281816E-03 7.574341E+01  1.157071E-03 7.947789E+01  9.860096E-01 -3.125967E+01 
3.125719E+02  9.878112E-01 -3.181287E+01  1.347996E-03 7.812961E+01  1.360472E-03 7.807075E+01  9.873989E-01 -3.122524E+01 
3.125750E+02  9.876664E-01 -3.179933E+01  1.443861E-03 7.413290E+01  1.294475E-03 7.652684E+01  9.876943E-01 -3.130805E+01 
3.125781E+02  9.874786E-01 -3.180192E+01  1.351368E-03 7.403759E+01  1.320949E-03 6.970479E+01  9.874764E-01 -3.121216E+01 
3.125813E+02  9.876503E-01 -3.179783E+01  1.351155E-03 6.886649E+01  1.273997E-03 7.536886E+01  9.861352E-01 -3.119304E+01 
3.125844E+02  9.884264E-01 -3.180324E+01  1.242975E-03 6.646517E+01  1.331442E-03 7.084395E+01  9.871616E-01 -3.131856E+01 
3.125875E+02  9.882591E-01 -3.184466E+01  1.257175E-03 6.954506E+01  1.293377E-03 6.811867E+01  9.870429E-01 -3.128336E+01 
3.125906E+02  9.877885E-01 -3.176371E+01  1.269282E-03 6.862328E+01  1.355195E-03 6.961148E+01  9.872367E-01 -3.128482E+01 
3.125938E+02  9.872291E-01 -3.180882E+01  1.412703E-03 6.433554E+01  1.300341E-03 6.962378E+01  9.877742E-01 -3.126795E+01 
3.125969E+02  9.873963E-01 -3.182781E+01  1.207557E-03 6.624512E+01  1.323794E-03 6.603515E+01  9.868149E-01 -3.135363E+01 
3.126000E+02  9.873105E-01 -3.179964E+01  1.341736E-03 6.453118E+01  1.228122E-03 6.721072E+01  9.875199E-01 -3.129141E+01 
3.126031E+02  9.883095E-01 -3.187617E+01  1.248329E-03 6.812848E+01  1.318035E-03 6.425537E+01  9.879372E-01 -3.127670E+01 
3.126062E+02  9.885911E-01 -3.187227E+01  1.321564E-03 6.742983E+01  1.219265E-03 6.238144E+01  9.862191E-01 -3.119423E+01 
3.126094E+02  9.890478E-01 -3.185790E+01  1.283954E-03 6.091594E+01  1.321984E-03 6.526293E+01  9.868397E-01 -3.134238E+01 
3.126125E+02  9.886794E-01 -3.185035E+01  1.256305E-03 6.385680E+01  1.330246E-03 6.929943E+01  9.868738E-01 -3.120229E+01 
3.126156E+02  9.880892E-01 -3.181537E+01  1.219444E-03 6.069106E+01  1.214352E-03 6.022617E+01  9.874576E-01 -3.129568E+01 
3.126187E+02  9.879335E-01 -3.189807E+01  1.130738E-03 6.279471E+01  1.240885E-03 6.189627E+01  9.873549E-01 -3.126200E+01 
3.126219E+02  9.882871E-01 -3.187073E+01  1.210913E-03 6.366954E+01  1.229909E-03 6.539610E+01  9.862780E-01 -3.127510E+01 
3.126250E+02  9.890360E-01 -3.183335E+01  1.231620E-03 5.847224E+01  1.225233E-03 5.970023E+01  9.863910E-01 -3.135411E+01 
3.126281E+02  9.879941E-01 -3.192716E+01  1.039800E-03 6.355099E+01  1.177555E-03 6.257631E+01  9.875470E-01 -3.134849E+01 
3.126313E+02  9.885099E-01 -3.188145E+01  1.076482E-03 6.164488E+01  1.173422E-03 6.042045E+01  9.876478E-01 -3.131383E+01 
3.126344E+02  9.885274E-01 -3.184957E+01  1.222430E-03 6.273278E+01  1.198036E-03 5.760664E+01  9.875563E-01 -3.123006E+01 
3.126375E+02  9.877638E-01 -3.185208E+01  1.046908E-03 6.071537E+01  1.221547E-03 6.205200E+01  9.864323E-01 -3.139209E+01 
3.126406E+02  9.888864E-01 -3.195328E+01  1.102254E-03 6.332826E+01  1.097850E-03 5.900877E+01  9.866540E-01 -3.136555E+01 
3.126438E+02  9.873318E-01 -3.189894E+01  1.024522E-03 5.631409E+01  1.140511E-03 5.536895E+01  9.874118E-01 -3.125378E+01 
3.126469E+02  9.875671E-01 -3.184041E+01  1.146367E-03 5.484898E+01  1.147599E-03 5.636688E+01  9.883892E-01 -3.129597E+01 
3.126500E+02  9.883365E-01 -3.195231E+01  1.057928E-03 5.799650E+01  1.090070E-03 5.623477E+01  9.882848E-01 -3.134729E+01 
3.126531E+02  9.878507E-01 -3.186354E+01  1.094924E-03 5.369091E+01  1.175265E-03 5.383013E+01  9.873565E-01 -3.141538E+01 
3.126562E+02  9.887419E-01 -3.190641E+01  1.047238E-03 5.378298E+01  9.633309E-04 5.598153E+01  9.879234E-01 -3.129583E+01 
3.126594E+02  9.884056E-01 -3.190187E+01  1.034998E-03 5.817579E+01  1.119557E-03 5.528999E+01  9.862028E-01 -3.130887E+01 
3.126625E+02  9.880261E-01 -3.194686E+01  1.039549E-03 5.165983E+01  1.054662E-03 5.672350E+01  9.871718E-01 -3.131613E+01 
3.126656E+02  9.883789E-01 -3.193619E+01  1.131585E-03 4.813325E+01  1.031596E-03 5.523837E+01  9.861042E-01 -3.131651E+01 
3.126687E+02  9.879643E-01 -3.196786E+01  1.128534E-03 5.130049E+01  1.083157E-03 5.460930E+01  9.879800E-01 -3.142025E+01 
3.126719E+02  9.877611E-01 -3.184176E+01  1.055827E-03 5.688094E+01  1.073770E-03 5.338581E+01  9.881970E-01 -3.143745E+01 
3.126750E+02  9.877199E-01 -3.190161E+01  1.136374E-03 5.586984E+01  9.489436E-04 5.324419E+01  9.869022E-01 -3.142318E+01 
3.126781E+02  9.880884E-01 -3.190916E+01  1.002317E-03 5.728473E+01  1.078184E-03 4.863976E+01  9.875788E-01 -3.130384E+01 
3.126812E+02  9.890719E-01 -3.190700E+01  1.024540E-03 5.065536E+01  1.055312E-03 5.802223E+01  9.882899E-01 -3.138855E+01 
3.126844E+02  9.881748E-01 -3.195399E+01  1.024219E-03 4.730767E+01  9.743344E-04 5.065757E+01  9.862023E-01 -3.146882E+01 
3.126875E+02  9.873436E-01 -3.194024E+01  9.992574E-04 5.111602E+01  1.042208E-03 4.953803E+01  9.881799E-01 -3.138830E+01 
3.126906E+02  9.883752E-01 -3.195925E+01  1.040994E-03 5.345128E+01  9.537248E-04 5.103989E+01  9.875027E-01 -3.141227E+01 
3.126938E+02  9.886994E-01 -3.192252E+01  1.102578E-03 5.698646E+01  1.110315E-03 5.462018E+01  9.865497E-01 -3.148140E+01 
3.126969E+02  9.867164E-01 -3.192536E+01  1.021539E-03 5.584772E+01  1.005580E-03 5.373055E+01  9.884231E-01 -3.131963E+01 
3.127000E+02  9.875828E-01 -3.195246E+01  9.960873E-04 4.782548E+01  9.975754E-04 5.262960E+01  9.859453E-01 -3.149876E+01 
3.127031E+02  9.879716E-01 -3.192171E+01  9.887109E-04 5.277606E+01  1.021938E-03 4.973018E+01  9.856627E-01 -3.139029E+01 
3.127063E+02  9.879453E-01 -3.193935E+01  1.004307E-03 5.097031E+01  1.053763E-03 4.542510E+01  9.860588E-01 -3.133264E+01 
3.127094E+02  9.876574E-01 -3.193933E+01  1.095124E-03 4.825976E+01  1.092232E-03 5.379079E+01  9.881725E-01 -3.141136E+01 
3.127125E+02  9.883981E-01 -3.194800E+01  9.332710E-04 3.907442E+01  1.082828E-03 5.078360E+01  9.861870E-01 -3.135510E+01 
3.127156E+02  9.891028E-01 -3.199339E+01  9.865515E-04 4.463283E+01  8.132395E-04 3.913857E+01  9.866475E-01 -3.156524E+01 
3.127188E+02  9.880353E-01 -3.199450E+01  1.011965E-03 4.943696E+01  1.112109E-03 4.622585E+01  9.871733E-01 -3.148624E+01 
3.127219E+02  9.892905E-01 -3.197410E+01  9.136121E-04 4.435373E+01  1.031049E-03 4.360396E+01  9.864945E-01 -3.138781E+01 
3.127250E+02  9.876989E-01 -3.199000E+01  1.069347E-03 5.011265E+01  1.004987E-03 4.825160E+01  9.853913E-01 -3.135420E+01 
3.127281E+02  9.881939E-01 -3.203258E+01  1.056246E-03 5.429544E+01  1.098066E-03 4.854403E+01  9.876274E-01 -3.147841E+01 
3.127312E+02  9.888409E-01 -3.197577E+01  1.034495E-03 4.667744E+01  9.595906E-04 4.951934E+01  9.871641E-01 -3.142428E+01 
3.127344E+02  9.885950E-01 -3.197632E+01  1.057984E-03 4.266551E+01  1.025639E-03 4.903772E+01  9.884592E-01 -3.147585E+01 
3.127375E+02  9.890189E-01 -3.204230E+01  1.040824E-03 4.868922E+01  9.350363E-04 4.650971E+01  9.868886E-01 -3.135725E+01 
3.127406E+02  9.873463E-01 -3.198398E+01  9.529407E-04 4.494678E+01  8.995748E-04 4.921835E+01  9.891880E-01 -3.141272E+01 
3.127437E+02  9.878573E-01 -3.201139E+01  9.904179E-04 4.804675E+01  9.198964E-04 4.182592E+01  9.868777E-01 -3.143444E+01 
3.127469E+02  9.877959E-01 -3.201570E+01  9.088090E-04 4.650279E+01  9.973471E-04 3.972753E+01  9.868415E-01 -3.143780E+01 
3.127500E+02  9.875695E-01 -3.199469E+01  9.768636E-04 4.104780E+01  1.055145E-03 4.355343E+01  9.866078E-01 -3.154794E+01 
3.127531E+02  9.883393E-01 -3.199601E+01  1.012265E-03 4.605568E+01  8.608032E-04 4.205872E+01  9.879269E-01 -3.137444E+01 
3.127563E+02  9.882585E-01 -3.202189E+01  9.604534E-04 4.691749E+01  9.860432E-04 4.173737E+01  9.871472E-01 -3.157861E+01 
3.127594E+02  9.876309E-01 -3.199037E+01  1.001127E-03 4.588166E+01  9.332084E-04 4.082239E+01  9.863049E-01 -3.145478E+01 
3.127625E+02  9.875761E-01 -3.196522E+01  9.521079E-04 3.991947E+01  1.043422E-03 3.735038E+01  9.863484E-01 -3.146570E+01 
3.127656E+02  9.881648E-01 -3.197312E+01  9.319456E-04 3.904382E+01  9.105843E-04 4.210680E+01  9.873030E-01 -3.140690E+01 
3.127688E+02  9.888246E-01 -3.199095E+01  9.553508E-04 3.385217E+01  9.672641E-04 3.936617E+01  9.877919E-01 -3.152447E+01 
3.127719E+02  9.880483E-01 -3.198569E+01  1.023303E-03 4.192483E+01  9.542826E-04 3.009466E+01  9.875547E-01 -3.144778E+01 
3.127750E+02  9.877447E-01 -3.206768E+01  9.698394E-04 3.488067E+01  9.084584E-04 4.005899E+01  9.867864E-01 -3.133389E+01 
3.127781E+02  9.885262E-01 -3.213325E+01  1.064227E-03 3.582660E+01  9.789815E-04 3.602532E+01  9.867561E-01 -3.152810E+01 
3.127812E+02  9.879354E-01 -3.205866E+01  9.424627E-04 3.608066E+01  9.400132E-04 3.402007E+01  9.862719E-01 -3.147881E+01 
3.127844E+02  9.884757E-01 -3.206201E+01  1.008774E-03 3.598357E+01  9.737917E-04 3.657671E+01  9.874419E-01 -3.152862E+01 
3.127875E+02  9.883916E-01 -3.206089E+01  9.419438E-04 3.303443E+01  9.934852E-04 3.189407E+01  9.869297E-01 -3.143259E+01 
3.127906E+02  9.886123E-01 -3.209462E+01  8.789739E-04 2.248179E+01  9.095404E-04 2.923002E+01  9.857237E-01 -3.148792E+01 
3.127937E+02  9.882164E-01 -3.200463E+01  8.583776E-04 2.967851E+01  9.244937E-04 2.523258E+01  9.869572E-01 -3.144200E+01 
3.127969E+02  9.881974E-01 -3.205959E+01  9.109547E-04 3.223944E+01  9.868250E-04 2.415540E+01  9.869938E-01 -3.154042E+01 
3.128000E+02  9.885142E-01 -3.203557E+01  8.918507E-04 2.767481E+01  1.034411E-03 2.964128E+01  9.864901E-01 -3.153342E+01 
3.128031E+02  9.887568E-01 -3.204137E+01  9.055759E-04 2.403275E+01  9.523099E-04 2.997907E+01  9.872335E-01 -3.143427E+01 
3.128062E+02  9.874896E-01 -3.208740E+01  9.385374E-04 2.239468E+01  9.160702E-04 1.485409E+01  9.857683E-01 -3.147178E+01 
3.128094E+02  9.870424E-01 -3.204932E+01  8.997450E-04 1.501993E+01  8.495066E-04 1.758953E+01  9.854057E-01 -3.158669E+01 
3.128125E+02  9.871920E-01 -3.208987E+01  8.890070E-04 1.853395E+01  8.413138E-04 2.120742E+01  9.877683E-01 -3.150870E+01 
3.128156E+02  9.879843E-01 -3.207986E+01  8.590267E-04 2.261941E+01  9.253928E-04 1.374356E+01  9.874160E-01 -3.146516E+01 
3.128188E+02  9.881747E-01 -3.205415E+01  8.981401E-04 1.456560E+01  9.063026E-04 1.858867E+01  9.880017E-01 -3.152739E+01 
3.128219E+02  9.878079E-01 -3.213016E+01  8.399828E-04 6.711499E+00  9.353849E-04 1.463485E+01  9.866635E-01 -3.156675E+01 
3.128250E+02  9.881909E-01 -3.205565E+01  8.726006E-04 8.203715E+00  8.353080E-04 9.158181E+00  9.863107E-01 -3.145873E+01 
3.128281E+02  9.868038E-01 -3.208727E+01  9.070682E-04 9.469359E-01  7.559667E-04 8.702543E+00  9.856844E-01 -3.153510E+01 
3.128313E+02  9.871036E-01 -3.201158E+01  7.621093E-04 -1.765836E+00  7.159484E-04 -2.170883E+00  9.876878E-01 -3.142646E+01 
3.128344E+02  9.881909E-01 -3.205565E+01  6.987267E-04 2.329582E+00  7.526051E-04 5.932289E+00  9.870618E-01 -3.154008E+01 
3.128375E+02  9.872332E-01 -3.204030E+01  6.472821E-04 6.203562E+00  6.137638E-04 9.105112E+00  9.876576E-01 -3.153548E+01 
3.128406E+02  9.881511E-01 -3.213856E+01  5.202566E-04 5.449978E+00  7.049157E-04 1.114278E-01  9.863818E-01 -3.147906E+01 
3.128438E+02  9.871554E-01 -3.200970E+01  5.632030E-04 -4.640772E+00  5.618316E-04 -7.789257E+00  9.869436E-01 -3.155260E+01 
3.128469E+02  9.875996E-01 -3.208758E+01  5.953350E-04 -2.036435E-01  5.390650E-04 6.081924E-01  9.877068E-01 -3.160437E+01 
3.128500E+02  9.872917E-01 -3.205907E+01  5.606601E-04 4.690279E-01  6.154875E-04 -4.730004E+00  9.880930E-01 -3.140381E+01 
3.128531E+02  9.871752E-01 -3.205495E+01  4.922679E-04 -1.970631E+00  5.606527E-04 -8.307128E+00  9.864693E-01 -3.159241E+01 
3.128562E+02  9.874395E-01 -3.213940E+01  4.186314E-04 -7.074424E+00  4.028796E-04 2.403853E+00  9.869370E-01 -3.144687E+01 
3.128594E+02  9.871530E-01 -3.208293E+01  4.306740E-04 -2.478789E+00  3.817282E-04 -1.874191E+01  9.871701E-01 -3.146559E+01 
3.128625E+02  9.882586E-01 -3.203858E+01  3.799303E-04 1.018385E+01  3.594175E-04 -1.613497E+01  9.874561E-01 -3.151980E+01 
3.128656E+02  9.882930E-01 -3.212503E+01  3.918172E-04 -7.389885E+00  3.587247E-04 6.616616E-01  9.879169E-01 -3.158025E+01 
3.128687E+02  9.869072E-01 -3.208351E+01  3.649449E-04 4.604331E+00  4.284906E-04 2.298772E+01  9.881747E-01 -3.158768E+01 
3.128719E+02  9.882990E-01 -3.211228E+01  3.617548E-04 1.871884E+00  2.325521E-04 1.702364E+01  9.856223E-01 -3.153940E+01 
3.128750E+02  9.879726E-01 -3.212207E+01  3.014963E-04 3.137802E+01  2.914354E-04 2.364481E+01  9.848899E-01 -3.159890E+01 
3.128781E+02  9.884734E-01 -3.210176E+01  3.546287E-04 1.758985E+01  3.213728E-04 2.762132E+01  9.865234E-01 -3.157383E+01 
3.128813E+02  9.878868E-01 -3.216073E+01  2.858648E-04 3.464519E+01  3.187332E-04 1.660329E+01  9.880688E-01 -3.148971E+01 
3.128844E+02  9.877678E-01 -3.208982E+01  2.064240E-04 2.472430E+01  3.201655E-04 2.662229E+01  9.870499E-01 -3.153218E+01 
3.128875E+02  9.884729E-01 -3.208507E+01  3.290779E-04 2.215166E+01  2.895011E-04 1.142676E+01  9.871859E-01 -3.153150E+01 
3.128906E+02  9.876734E-01 -3.205774E+01  2.931961E-04 3.307868E+01  1.587943E-04 6.674175E+01  9.876171E-01 -3.157224E+01 
3.128938E+02  9.890142E-01 -3.212176E+01  2.571016E-04 1.245101E+01  2.598933E-04 4.500116E+01  9.864783E-01 -3.152552E+01 
3.128969E+02  9.879417E-01 -3.204591E+01  3.363978E-04 2.585791E+01  2.903545E-04 2.756188E+01  9.878948E-01 -3.162884E+01 
3.129000E+02  9.877178E-01 -3.214180E+01  3.232698E-04 4.315925E+01  2.257466E-04 6.895394E+01  9.864016E-01 -3.156570E+01 
3.129031E+02  9.890835E-01 -3.215473E+01  4.119243E-04 4.840949E+01  2.637880E-04 4.626800E+01  9.859116E-01 -3.163109E+01 
3.129062E+02  9.880035E-01 -3.216484E+01  3.872385E-04 4.975264E+01  3.249810E-04 6.147131E+01  9.873013E-01 -3.156272E+01 
3.129094E+02  9.886933E-01 -3.210211E+01  3.332127E-04 5.025610E+01  3.285657E-04 5.617228E+01  9.888665E-01 -3.159210E+01 
3.129125E+02  9.888718E-01 -3.219169E+01  2.683571E-04 5.277727E+01  3.270754E-04 4.503968E+01  9.863920E-01 -3.167637E+01 
3.129156E+02  9.888069E-01 -3.211260E+01  2.929868E-04 3.439686E+01  2.839924E-04 5.669640E+01  9.877788E-01 -3.159765E+01 
3.129187E+02  9.879275E-01 -3.212789E+01  3.053634E-04 3.526986E+01  2.797976E-04 6.963288E+01  9.868552E-01 -3.158487E+01 
3.129219E+02  9.882981E-01 -3.222518E+01  3.103225E-04 4.045656E+01  3.425013E-04 5.131956E+01  9.881093E-01 -3.154432E+01 
3.129250E+02  9.876495E-01 -3.219867E+01  3.422966E-04 6.348514E+01  3.254706E-04 5.776299E+01  9.883808E-01 -3.156995E+01 
3.129281E+02  9.884288E-01 -3.212427E+01  3.656572E-04 4.891929E+01  2.480208E-04 6.744236E+01  9.872072E-01 -3.164510E+01 
3.129312E+02  9.879600E-01 -3.213089E+01  4.054639E-04 5.439403E+01  4.152912E-04 7.132256E+01  9.883607E-01 -3.162883E+01 
3.129344E+02  9.881727E-01 -3.218375E+01  4.135320E-04 5.878096E+01  2.737329E-04 6.227923E+01  9.858256E-01 -3.159251E+01 
3.129375E+02  9.881409E-01 -3.212430E+01  3.857248E-04 4.973050E+01  4.375307E-04 5.292326E+01  9.861435E-01 -3.158532E+01 
3.129406E+02  9.886657E-01 -3.214280E+01  4.186294E-04 7.169404E+01  3.112703E-04 7.396230E+01  9.869784E-01 -3.170116E+01 
3.129438E+02  9.883085E-01 -3.218298E+01  3.375765E-04 4.602479E+01  4.366250E-04 4.756295E+01  9.875411E-01 -3.163940E+01 
3.129469E+02  9.876067E-01 -3.223791E+01  4.040283E-04 6.950109E+01  4.427189E-04 5.784089E+01  9.867132E-01 -3.160866E+01 
3.129500E+02  9.874085E-01 -3.216981E+01  2.834669E-04 5.952438E+01  4.314691E-04 4.334312E+01  9.874978E-01 -3.168255E+01 
3.129531E+02  9.884606E-01 -3.218370E+01  4.512127E-04 6.459856E+01  3.972399E-04 5.804246E+01  9.874655E-01 -3.154440E+01 
3.129563E+02  9.868165E-01 -3.222495E+01  3.013408E-04 7.968806E+01  3.658421E-04 4.890738E+01  9.884407E-01 -3.163636E+01 
3.129594E+02  9.885232E-01 -3.225250E+01  4.903863E-04 6.389433E+01  4.674538E-04 6.108270E+01  9.885289E-01 -3.165814E+01 
3.129625E+02  9.875385E-01 -3.218180E+01  4.137382E-04 5.107270E+01  2.901003E-04 8.169218E+01  9.868073E-01 -3.163443E+01 
3.129656E+02  9.875731E-01 -3.216172E+01  4.640891E-04 6.357317E+01  4.126477E-04 6.429087E+01  9.894322E-01 -3.162174E+01 
3.129688E+02  9.873418E-01 -3.224341E+01  5.239444E-04 7.275135E+01  5.236902E-04 6.692728E+01  9.872740E-01 -3.168849E+01 
3.129719E+02  9.880916E-01 -3.223273E+01  4.129154E-04 6.120125E+01  4.656662E-04 5.457464E+01  9.875393E-01 -3.165610E+01 
3.129750E+02  9.884300E-01 -3.221409E+01  3.652793E-04 6.472075E+01  4.887814E-04 7.304611E+01  9.876589E-01 -3.159985E+01 
3.129781E+02  9.886519E-01 -3.219135E+01  3.647051E-04 5.893587E+01  4.059354E-04 6.710105E+01  9.871955E-01 -3.173503E+01 
3.129812E+02  9.881714E-01 -3.226328E+01  3.616872E-04 5.171364E+01  4.011064E-04 6.348254E+01  9.886766E-01 -3.163832E+01 
3.129844E+02  9.894211E-01 -3.223223E+01  4.513946E-04 5.266897E+01  3.873203E-04 5.943923E+01  9.859689E-01 -3.170405E+01 
3.129875E+02  9.878523E-01 -3.227706E+01  5.588466E-04 5.631036E+01  3.893555E-04 6.484428E+01  9.878398E-01 -3.169111E+01 
