! Matrix data file written by TouchstoneData, EPCOS AG
! FILENAME: "B3787_NB.s2p"
! COMMENT: "(LZ18A_1_NB.s2p) EPCOS AG 01.03.2011 09:52:0"
! INFO: nport=2, nfreq=1601
! DATE: "Fri Jan 13 08:56:20 2012"
! USER: "Wilfried Schott"
!
! port | pin | signal
! -----|-----|--------
!   1  |  2  |  IN
!   2  |  5  |  OUT
! --------------------
! 
# MHZ S MA R 50
! freq  magS11 angS11  magS21 angS21  magS12 angS12  magS22 angS22
3.095000E+02  9.814482E-01 -4.314902E+01  1.152530E-03 1.308252E+02  1.152530E-03 1.308252E+02  9.836757E-01 -4.300500E+01 
3.095063E+02  9.817597E-01 -4.316270E+01  1.131635E-03 1.306130E+02  1.131635E-03 1.306130E+02  9.834529E-01 -4.301578E+01 
3.095125E+02  9.817021E-01 -4.315687E+01  1.120245E-03 1.308924E+02  1.120245E-03 1.308924E+02  9.835003E-01 -4.300998E+01 
3.095188E+02  9.819653E-01 -4.315626E+01  1.116816E-03 1.309526E+02  1.116816E-03 1.309526E+02  9.834755E-01 -4.302110E+01 
3.095250E+02  9.817189E-01 -4.316994E+01  1.101769E-03 1.315324E+02  1.101769E-03 1.315324E+02  9.834630E-01 -4.302774E+01 
3.095312E+02  9.819206E-01 -4.315642E+01  1.120624E-03 1.311226E+02  1.120624E-03 1.311226E+02  9.832354E-01 -4.302395E+01 
3.095375E+02  9.820437E-01 -4.316803E+01  1.087402E-03 1.307928E+02  1.087402E-03 1.307928E+02  9.832187E-01 -4.302939E+01 
3.095437E+02  9.818896E-01 -4.316385E+01  1.098803E-03 1.312880E+02  1.098803E-03 1.312880E+02  9.833825E-01 -4.303925E+01 
3.095500E+02  9.820349E-01 -4.317365E+01  1.110192E-03 1.320418E+02  1.110192E-03 1.320418E+02  9.832217E-01 -4.304023E+01 
3.095562E+02  9.820029E-01 -4.318419E+01  1.102675E-03 1.340396E+02  1.102675E-03 1.340396E+02  9.832215E-01 -4.304389E+01 
3.095625E+02  9.819316E-01 -4.319395E+01  1.111733E-03 1.335597E+02  1.111733E-03 1.335597E+02  9.831890E-01 -4.305852E+01 
3.095688E+02  9.820717E-01 -4.319111E+01  1.106317E-03 1.351039E+02  1.106317E-03 1.351039E+02  9.828809E-01 -4.305848E+01 
3.095750E+02  9.822481E-01 -4.320592E+01  1.115705E-03 1.357404E+02  1.115705E-03 1.357404E+02  9.830058E-01 -4.305904E+01 
3.095813E+02  9.820870E-01 -4.320341E+01  1.145689E-03 1.366574E+02  1.145689E-03 1.366574E+02  9.829728E-01 -4.306047E+01 
3.095875E+02  9.821151E-01 -4.320211E+01  1.151039E-03 1.372357E+02  1.151039E-03 1.372357E+02  9.827857E-01 -4.307135E+01 
3.095938E+02  9.819363E-01 -4.321346E+01  1.191496E-03 1.388342E+02  1.191496E-03 1.388342E+02  9.826900E-01 -4.307916E+01 
3.096000E+02  9.821649E-01 -4.321744E+01  1.203182E-03 1.390186E+02  1.203182E-03 1.390186E+02  9.826181E-01 -4.308871E+01 
3.096062E+02  9.821633E-01 -4.322441E+01  1.244628E-03 1.398025E+02  1.244628E-03 1.398025E+02  9.825994E-01 -4.308125E+01 
3.096125E+02  9.821623E-01 -4.322652E+01  1.298776E-03 1.414061E+02  1.298776E-03 1.414061E+02  9.824266E-01 -4.310340E+01 
3.096187E+02  9.820211E-01 -4.322348E+01  1.334255E-03 1.414508E+02  1.334255E-03 1.414508E+02  9.822091E-01 -4.310029E+01 
3.096250E+02  9.821831E-01 -4.322801E+01  1.393885E-03 1.417917E+02  1.393885E-03 1.417917E+02  9.821757E-01 -4.311143E+01 
3.096313E+02  9.819700E-01 -4.324766E+01  1.437430E-03 1.421633E+02  1.437430E-03 1.421633E+02  9.820962E-01 -4.311182E+01 
3.096375E+02  9.818549E-01 -4.324340E+01  1.514681E-03 1.422425E+02  1.514681E-03 1.422425E+02  9.818955E-01 -4.311567E+01 
3.096438E+02  9.818739E-01 -4.324726E+01  1.588388E-03 1.425222E+02  1.588388E-03 1.425222E+02  9.816928E-01 -4.311825E+01 
3.096500E+02  9.820340E-01 -4.325828E+01  1.661312E-03 1.430524E+02  1.661312E-03 1.430524E+02  9.815862E-01 -4.312337E+01 
3.096562E+02  9.819039E-01 -4.326196E+01  1.756746E-03 1.417621E+02  1.756746E-03 1.417621E+02  9.813085E-01 -4.312377E+01 
3.096625E+02  9.819221E-01 -4.326617E+01  1.826311E-03 1.407069E+02  1.826311E-03 1.407069E+02  9.810308E-01 -4.311918E+01 
3.096687E+02  9.818771E-01 -4.327662E+01  1.920365E-03 1.401815E+02  1.920365E-03 1.401815E+02  9.809405E-01 -4.312717E+01 
3.096750E+02  9.818028E-01 -4.328133E+01  2.051725E-03 1.386892E+02  2.051725E-03 1.386892E+02  9.805801E-01 -4.313352E+01 
3.096812E+02  9.818876E-01 -4.326613E+01  2.132205E-03 1.370119E+02  2.132205E-03 1.370119E+02  9.805183E-01 -4.313325E+01 
3.096875E+02  9.814540E-01 -4.327467E+01  2.274907E-03 1.358961E+02  2.274907E-03 1.358961E+02  9.800368E-01 -4.312556E+01 
3.096938E+02  9.816318E-01 -4.327625E+01  2.375473E-03 1.335266E+02  2.375473E-03 1.335266E+02  9.798818E-01 -4.312397E+01 
3.097000E+02  9.814397E-01 -4.327893E+01  2.474528E-03 1.306210E+02  2.474528E-03 1.306210E+02  9.797577E-01 -4.311513E+01 
3.097063E+02  9.814648E-01 -4.327178E+01  2.595994E-03 1.279283E+02  2.595994E-03 1.279283E+02  9.794796E-01 -4.310516E+01 
3.097125E+02  9.813493E-01 -4.328146E+01  2.721596E-03 1.256107E+02  2.721596E-03 1.256107E+02  9.792295E-01 -4.309521E+01 
3.097188E+02  9.812011E-01 -4.327063E+01  2.804338E-03 1.229615E+02  2.804338E-03 1.229615E+02  9.789910E-01 -4.308265E+01 
3.097250E+02  9.812187E-01 -4.327229E+01  2.900496E-03 1.197705E+02  2.900496E-03 1.197705E+02  9.790624E-01 -4.306215E+01 
3.097312E+02  9.812441E-01 -4.326619E+01  3.011187E-03 1.168368E+02  3.011187E-03 1.168368E+02  9.789669E-01 -4.304953E+01 
3.097375E+02  9.810446E-01 -4.326650E+01  3.045947E-03 1.133003E+02  3.045947E-03 1.133003E+02  9.788792E-01 -4.304347E+01 
3.097437E+02  9.810901E-01 -4.326486E+01  3.122943E-03 1.102123E+02  3.122943E-03 1.102123E+02  9.787069E-01 -4.302087E+01 
3.097500E+02  9.811870E-01 -4.326299E+01  3.172639E-03 1.072349E+02  3.172639E-03 1.072349E+02  9.787095E-01 -4.301426E+01 
3.097563E+02  9.809915E-01 -4.327558E+01  3.209777E-03 1.033498E+02  3.209777E-03 1.033498E+02  9.787537E-01 -4.299560E+01 
3.097625E+02  9.809689E-01 -4.325629E+01  3.233413E-03 1.006165E+02  3.233413E-03 1.006165E+02  9.787482E-01 -4.299856E+01 
3.097688E+02  9.811557E-01 -4.326408E+01  3.268689E-03 9.737346E+01  3.268689E-03 9.737346E+01  9.788079E-01 -4.296961E+01 
3.097750E+02  9.811823E-01 -4.326096E+01  3.273285E-03 9.392647E+01  3.273285E-03 9.392647E+01  9.788835E-01 -4.295194E+01 
3.097812E+02  9.813103E-01 -4.326746E+01  3.282015E-03 9.082526E+01  3.282015E-03 9.082526E+01  9.789860E-01 -4.295115E+01 
3.097875E+02  9.814921E-01 -4.325797E+01  3.251750E-03 8.788198E+01  3.251750E-03 8.788198E+01  9.790583E-01 -4.294608E+01 
3.097937E+02  9.814818E-01 -4.326016E+01  3.254462E-03 8.529329E+01  3.254462E-03 8.529329E+01  9.792234E-01 -4.294429E+01 
3.098000E+02  9.814615E-01 -4.326760E+01  3.228125E-03 8.266510E+01  3.228125E-03 8.266510E+01  9.792728E-01 -4.292758E+01 
3.098062E+02  9.814223E-01 -4.326768E+01  3.213636E-03 7.978817E+01  3.213636E-03 7.978817E+01  9.795049E-01 -4.292417E+01 
3.098125E+02  9.814968E-01 -4.326362E+01  3.193009E-03 7.705765E+01  3.193009E-03 7.705765E+01  9.795383E-01 -4.291212E+01 
3.098188E+02  9.814885E-01 -4.326020E+01  3.173295E-03 7.454900E+01  3.173295E-03 7.454900E+01  9.796944E-01 -4.291363E+01 
3.098250E+02  9.814430E-01 -4.326646E+01  3.168541E-03 7.231997E+01  3.168541E-03 7.231997E+01  9.796401E-01 -4.291447E+01 
3.098313E+02  9.815499E-01 -4.327233E+01  3.135817E-03 6.969585E+01  3.135817E-03 6.969585E+01  9.798070E-01 -4.290809E+01 
3.098375E+02  9.814954E-01 -4.327941E+01  3.101267E-03 6.749808E+01  3.101267E-03 6.749808E+01  9.798702E-01 -4.291070E+01 
3.098438E+02  9.814130E-01 -4.328115E+01  3.072175E-03 6.516464E+01  3.072175E-03 6.516464E+01  9.800039E-01 -4.289860E+01 
3.098500E+02  9.815738E-01 -4.328132E+01  3.050973E-03 6.329327E+01  3.050973E-03 6.329327E+01  9.801241E-01 -4.289785E+01 
3.098562E+02  9.816498E-01 -4.328499E+01  2.987764E-03 6.067523E+01  2.987764E-03 6.067523E+01  9.801140E-01 -4.288948E+01 
3.098625E+02  9.814382E-01 -4.328276E+01  2.970717E-03 5.862030E+01  2.970717E-03 5.862030E+01  9.803216E-01 -4.289623E+01 
3.098687E+02  9.815621E-01 -4.328639E+01  2.938338E-03 5.620589E+01  2.938338E-03 5.620589E+01  9.805562E-01 -4.288734E+01 
3.098750E+02  9.816920E-01 -4.327599E+01  2.897270E-03 5.402646E+01  2.897270E-03 5.402646E+01  9.804263E-01 -4.289084E+01 
3.098813E+02  9.816095E-01 -4.329927E+01  2.848930E-03 5.171523E+01  2.848930E-03 5.171523E+01  9.805822E-01 -4.290078E+01 
3.098875E+02  9.816375E-01 -4.330461E+01  2.824061E-03 4.973620E+01  2.824061E-03 4.973620E+01  9.805122E-01 -4.289042E+01 
3.098938E+02  9.816573E-01 -4.330043E+01  2.787033E-03 4.790440E+01  2.787033E-03 4.790440E+01  9.805703E-01 -4.288864E+01 
3.099000E+02  9.814309E-01 -4.330242E+01  2.754718E-03 4.594306E+01  2.754718E-03 4.594306E+01  9.807632E-01 -4.289438E+01 
3.099062E+02  9.816850E-01 -4.331393E+01  2.708796E-03 4.388056E+01  2.708796E-03 4.388056E+01  9.807709E-01 -4.289057E+01 
3.099125E+02  9.815221E-01 -4.330570E+01  2.649819E-03 4.223780E+01  2.649819E-03 4.223780E+01  9.808042E-01 -4.287813E+01 
3.099187E+02  9.816059E-01 -4.330322E+01  2.624926E-03 3.932300E+01  2.624926E-03 3.932300E+01  9.812297E-01 -4.288191E+01 
3.099250E+02  9.812830E-01 -4.331672E+01  2.585715E-03 3.776236E+01  2.585715E-03 3.776236E+01  9.813089E-01 -4.289098E+01 
3.099312E+02  9.813834E-01 -4.331143E+01  2.523028E-03 3.574587E+01  2.523028E-03 3.574587E+01  9.812360E-01 -4.289168E+01 
3.099375E+02  9.815138E-01 -4.331780E+01  2.468822E-03 3.441680E+01  2.468822E-03 3.441680E+01  9.813704E-01 -4.289264E+01 
3.099438E+02  9.813081E-01 -4.331775E+01  2.444922E-03 3.220078E+01  2.444922E-03 3.220078E+01  9.815735E-01 -4.288457E+01 
3.099500E+02  9.814312E-01 -4.332980E+01  2.390920E-03 3.010035E+01  2.390920E-03 3.010035E+01  9.815417E-01 -4.289368E+01 
3.099563E+02  9.813105E-01 -4.331744E+01  2.338973E-03 2.824025E+01  2.338973E-03 2.824025E+01  9.816476E-01 -4.289296E+01 
3.099625E+02  9.812476E-01 -4.333022E+01  2.285055E-03 2.601219E+01  2.285055E-03 2.601219E+01  9.816082E-01 -4.289829E+01 
3.099688E+02  9.813154E-01 -4.331881E+01  2.255502E-03 2.478415E+01  2.255502E-03 2.478415E+01  9.815284E-01 -4.290487E+01 
3.099750E+02  9.811972E-01 -4.332369E+01  2.207069E-03 2.284406E+01  2.207069E-03 2.284406E+01  9.816973E-01 -4.288261E+01 
3.099812E+02  9.813750E-01 -4.332645E+01  2.170900E-03 2.155086E+01  2.170900E-03 2.155086E+01  9.819264E-01 -4.289525E+01 
3.099875E+02  9.814383E-01 -4.333632E+01  2.095626E-03 1.963030E+01  2.095626E-03 1.963030E+01  9.818785E-01 -4.289439E+01 
3.099937E+02  9.813449E-01 -4.332878E+01  2.048827E-03 1.714619E+01  2.048827E-03 1.714619E+01  9.819984E-01 -4.290046E+01 
3.100000E+02  9.812959E-01 -4.332465E+01  1.999089E-03 1.572098E+01  1.999089E-03 1.572098E+01  9.819921E-01 -4.290211E+01 
3.100063E+02  9.813032E-01 -4.332839E+01  1.936608E-03 1.396146E+01  1.936608E-03 1.396146E+01  9.821517E-01 -4.290369E+01 
3.100125E+02  9.810781E-01 -4.334217E+01  1.912227E-03 1.222228E+01  1.912227E-03 1.222228E+01  9.822993E-01 -4.290022E+01 
3.100188E+02  9.812608E-01 -4.333672E+01  1.865547E-03 1.064438E+01  1.865547E-03 1.064438E+01  9.824102E-01 -4.290909E+01 
3.100250E+02  9.812065E-01 -4.333747E+01  1.814736E-03 8.777646E+00  1.814736E-03 8.777646E+00  9.824308E-01 -4.291025E+01 
3.100312E+02  9.813147E-01 -4.334281E+01  1.738802E-03 7.403318E+00  1.738802E-03 7.403318E+00  9.824860E-01 -4.290754E+01 
3.100375E+02  9.813240E-01 -4.333462E+01  1.696546E-03 5.849398E+00  1.696546E-03 5.849398E+00  9.823678E-01 -4.290935E+01 
3.100437E+02  9.811308E-01 -4.333435E+01  1.665806E-03 4.101149E+00  1.665806E-03 4.101149E+00  9.825325E-01 -4.292031E+01 
3.100500E+02  9.813129E-01 -4.332566E+01  1.597422E-03 1.868201E+00  1.597422E-03 1.868201E+00  9.826715E-01 -4.290848E+01 
3.100562E+02  9.812490E-01 -4.333559E+01  1.537294E-03 2.558720E-02  1.537294E-03 2.558720E-02  9.827572E-01 -4.291475E+01 
3.100625E+02  9.813327E-01 -4.333518E+01  1.500180E-03 -7.888896E-01  1.500180E-03 -7.888896E-01  9.828973E-01 -4.292482E+01 
3.100688E+02  9.811722E-01 -4.333073E+01  1.446410E-03 -1.746523E+00  1.446410E-03 -1.746523E+00  9.828855E-01 -4.292882E+01 
3.100750E+02  9.812475E-01 -4.334012E+01  1.396741E-03 -3.969499E+00  1.396741E-03 -3.969499E+00  9.830381E-01 -4.293286E+01 
3.100813E+02  9.811951E-01 -4.334129E+01  1.349835E-03 -5.700256E+00  1.349835E-03 -5.700256E+00  9.830342E-01 -4.293466E+01 
3.100875E+02  9.812365E-01 -4.333150E+01  1.296590E-03 -7.034773E+00  1.296590E-03 -7.034773E+00  9.830865E-01 -4.294755E+01 
3.100938E+02  9.811994E-01 -4.333453E+01  1.236932E-03 -7.458873E+00  1.236932E-03 -7.458873E+00  9.831244E-01 -4.294209E+01 
3.101000E+02  9.814028E-01 -4.334303E+01  1.191968E-03 -8.947325E+00  1.191968E-03 -8.947325E+00  9.832039E-01 -4.294524E+01 
3.101062E+02  9.813243E-01 -4.334213E+01  1.158786E-03 -1.097404E+01  1.158786E-03 -1.097404E+01  9.832893E-01 -4.295216E+01 
3.101125E+02  9.813464E-01 -4.334720E+01  1.099102E-03 -1.069509E+01  1.099102E-03 -1.069509E+01  9.833050E-01 -4.296236E+01 
3.101187E+02  9.813112E-01 -4.334873E+01  1.064009E-03 -1.135239E+01  1.064009E-03 -1.135239E+01  9.835047E-01 -4.297311E+01 
3.101250E+02  9.815542E-01 -4.334995E+01  1.006679E-03 -1.169882E+01  1.006679E-03 -1.169882E+01  9.835777E-01 -4.297126E+01 
3.101313E+02  9.814358E-01 -4.335189E+01  9.612388E-04 -1.410771E+01  9.612388E-04 -1.410771E+01  9.835108E-01 -4.296505E+01 
3.101375E+02  9.815260E-01 -4.335245E+01  9.306587E-04 -1.407765E+01  9.306587E-04 -1.407765E+01  9.836950E-01 -4.297720E+01 
3.101438E+02  9.816616E-01 -4.334679E+01  8.846098E-04 -1.382541E+01  8.846098E-04 -1.382541E+01  9.836982E-01 -4.298979E+01 
3.101500E+02  9.814994E-01 -4.335633E+01  8.571100E-04 -1.483833E+01  8.571100E-04 -1.483833E+01  9.836917E-01 -4.297640E+01 
3.101562E+02  9.816526E-01 -4.335463E+01  8.027217E-04 -1.438875E+01  8.027217E-04 -1.438875E+01  9.837136E-01 -4.299342E+01 
3.101625E+02  9.814758E-01 -4.336652E+01  7.863732E-04 -1.558679E+01  7.863732E-04 -1.558679E+01  9.837539E-01 -4.299752E+01 
3.101687E+02  9.817887E-01 -4.335089E+01  7.412798E-04 -1.623459E+01  7.412798E-04 -1.623459E+01  9.838386E-01 -4.300678E+01 
3.101750E+02  9.813542E-01 -4.337045E+01  7.311112E-04 -1.496400E+01  7.311112E-04 -1.496400E+01  9.839967E-01 -4.300032E+01 
3.101812E+02  9.817756E-01 -4.336474E+01  6.952328E-04 -1.614973E+01  6.952328E-04 -1.614973E+01  9.838137E-01 -4.301275E+01 
3.101875E+02  9.815346E-01 -4.337699E+01  6.717641E-04 -1.637083E+01  6.717641E-04 -1.637083E+01  9.839267E-01 -4.302070E+01 
3.101938E+02  9.815628E-01 -4.338147E+01  6.292990E-04 -1.789664E+01  6.292990E-04 -1.789664E+01  9.839111E-01 -4.302467E+01 
3.102000E+02  9.816348E-01 -4.338355E+01  5.972080E-04 -1.809589E+01  5.972080E-04 -1.809589E+01  9.838824E-01 -4.303649E+01 
3.102063E+02  9.816380E-01 -4.337575E+01  5.899813E-04 -1.611269E+01  5.899813E-04 -1.611269E+01  9.838917E-01 -4.303980E+01 
3.102125E+02  9.816108E-01 -4.338762E+01  5.690465E-04 -1.911404E+01  5.690465E-04 -1.911404E+01  9.838678E-01 -4.303391E+01 
3.102188E+02  9.816552E-01 -4.339531E+01  5.364627E-04 -1.574175E+01  5.364627E-04 -1.574175E+01  9.840908E-01 -4.304442E+01 
3.102250E+02  9.817119E-01 -4.338591E+01  5.119695E-04 -1.557759E+01  5.119695E-04 -1.557759E+01  9.840185E-01 -4.305243E+01 
3.102312E+02  9.816333E-01 -4.338715E+01  4.840678E-04 -2.008433E+01  4.840678E-04 -2.008433E+01  9.839377E-01 -4.306419E+01 
3.102375E+02  9.817566E-01 -4.340303E+01  4.507435E-04 -2.004902E+01  4.507435E-04 -2.004902E+01  9.839196E-01 -4.306410E+01 
3.102437E+02  9.816751E-01 -4.339414E+01  4.406924E-04 -1.912961E+01  4.406924E-04 -1.912961E+01  9.839952E-01 -4.307196E+01 
3.102500E+02  9.816885E-01 -4.340718E+01  4.078130E-04 -2.071574E+01  4.078130E-04 -2.071574E+01  9.838575E-01 -4.307055E+01 
3.102563E+02  9.816758E-01 -4.339816E+01  3.585554E-04 -2.048193E+01  3.585554E-04 -2.048193E+01  9.836938E-01 -4.307927E+01 
3.102625E+02  9.818387E-01 -4.340127E+01  3.691786E-04 -2.450517E+01  3.691786E-04 -2.450517E+01  9.839352E-01 -4.308750E+01 
3.102688E+02  9.817783E-01 -4.340244E+01  3.406814E-04 -2.273289E+01  3.406814E-04 -2.273289E+01  9.838940E-01 -4.309401E+01 
3.102750E+02  9.817921E-01 -4.340934E+01  2.881885E-04 -2.208551E+01  2.881885E-04 -2.208551E+01  9.838472E-01 -4.309525E+01 
3.102812E+02  9.818018E-01 -4.341324E+01  2.584812E-04 -2.221633E+01  2.584812E-04 -2.221633E+01  9.838362E-01 -4.310572E+01 
3.102875E+02  9.817492E-01 -4.340955E+01  2.372979E-04 -2.543003E+01  2.372979E-04 -2.543003E+01  9.838621E-01 -4.310761E+01 
3.102937E+02  9.815724E-01 -4.340186E+01  1.991311E-04 -1.832412E+01  1.991311E-04 -1.832412E+01  9.837251E-01 -4.310821E+01 
3.103000E+02  9.814962E-01 -4.342017E+01  1.721156E-04 -1.313049E+01  1.721156E-04 -1.313049E+01  9.839467E-01 -4.311411E+01 
3.103062E+02  9.815995E-01 -4.342663E+01  1.755426E-04 -1.324317E+00  1.755426E-04 -1.324317E+00  9.838047E-01 -4.312405E+01 
3.103125E+02  9.817026E-01 -4.341566E+01  1.394567E-04 5.157473E+00  1.394567E-04 5.157473E+00  9.835946E-01 -4.313056E+01 
3.103188E+02  9.815415E-01 -4.342271E+01  1.545746E-04 2.241680E+01  1.545746E-04 2.241680E+01  9.836787E-01 -4.313519E+01 
3.103250E+02  9.815347E-01 -4.340907E+01  1.474180E-04 3.117634E+01  1.474180E-04 3.117634E+01  9.837767E-01 -4.312529E+01 
3.103313E+02  9.816174E-01 -4.342031E+01  1.709221E-04 3.802839E+01  1.709221E-04 3.802839E+01  9.836330E-01 -4.313366E+01 
3.103375E+02  9.815750E-01 -4.341965E+01  1.664582E-04 2.950040E+01  1.664582E-04 2.950040E+01  9.835527E-01 -4.313532E+01 
3.103438E+02  9.816845E-01 -4.343508E+01  1.836980E-04 4.265804E+01  1.836980E-04 4.265804E+01  9.836146E-01 -4.313381E+01 
3.103500E+02  9.816799E-01 -4.342591E+01  1.910939E-04 3.742902E+01  1.910939E-04 3.742902E+01  9.836502E-01 -4.313691E+01 
3.103562E+02  9.815739E-01 -4.342943E+01  2.103026E-04 3.498665E+01  2.103026E-04 3.498665E+01  9.836966E-01 -4.315269E+01 
3.103625E+02  9.819337E-01 -4.343760E+01  1.855725E-04 3.697874E+01  1.855725E-04 3.697874E+01  9.836255E-01 -4.314407E+01 
3.103687E+02  9.817604E-01 -4.343629E+01  1.980018E-04 4.293903E+01  1.980018E-04 4.293903E+01  9.836305E-01 -4.315338E+01 
3.103750E+02  9.817947E-01 -4.343655E+01  2.000248E-04 3.438217E+01  2.000248E-04 3.438217E+01  9.837199E-01 -4.316221E+01 
3.103813E+02  9.818007E-01 -4.344298E+01  1.740055E-04 4.807189E+01  1.740055E-04 4.807189E+01  9.836658E-01 -4.316103E+01 
3.103875E+02  9.819906E-01 -4.344016E+01  1.517689E-04 4.325108E+01  1.517689E-04 4.325108E+01  9.835875E-01 -4.316400E+01 
3.103938E+02  9.817904E-01 -4.344793E+01  1.617353E-04 5.036453E+01  1.617353E-04 5.036453E+01  9.835765E-01 -4.317074E+01 
3.104000E+02  9.819274E-01 -4.344448E+01  1.406409E-04 5.402110E+01  1.406409E-04 5.402110E+01  9.835064E-01 -4.316274E+01 
3.104062E+02  9.820490E-01 -4.343732E+01  1.325629E-04 5.875550E+01  1.325629E-04 5.875550E+01  9.834594E-01 -4.318369E+01 
3.104125E+02  9.819438E-01 -4.345570E+01  1.498654E-04 6.541628E+01  1.498654E-04 6.541628E+01  9.835021E-01 -4.318049E+01 
3.104187E+02  9.818770E-01 -4.346277E+01  1.350019E-04 8.073491E+01  1.350019E-04 8.073491E+01  9.835125E-01 -4.319033E+01 
3.104250E+02  9.820498E-01 -4.345808E+01  1.327539E-04 8.900316E+01  1.327539E-04 8.900316E+01  9.834296E-01 -4.319326E+01 
3.104312E+02  9.821578E-01 -4.346699E+01  1.419722E-04 1.029621E+02  1.419722E-04 1.029621E+02  9.833748E-01 -4.319531E+01 
3.104375E+02  9.819727E-01 -4.346564E+01  1.775982E-04 1.087347E+02  1.775982E-04 1.087347E+02  9.831933E-01 -4.321008E+01 
3.104438E+02  9.820269E-01 -4.347725E+01  1.989113E-04 1.097661E+02  1.989113E-04 1.097661E+02  9.832763E-01 -4.320710E+01 
3.104500E+02  9.818335E-01 -4.346278E+01  2.181938E-04 1.129301E+02  2.181938E-04 1.129301E+02  9.834192E-01 -4.320684E+01 
3.104563E+02  9.820901E-01 -4.346976E+01  2.594804E-04 1.130063E+02  2.594804E-04 1.130063E+02  9.831626E-01 -4.321010E+01 
3.104625E+02  9.821869E-01 -4.347770E+01  2.620198E-04 1.166379E+02  2.620198E-04 1.166379E+02  9.832951E-01 -4.321402E+01 
3.104688E+02  9.820067E-01 -4.347572E+01  3.122959E-04 1.159959E+02  3.122959E-04 1.159959E+02  9.831196E-01 -4.320922E+01 
3.104750E+02  9.821199E-01 -4.348169E+01  3.436978E-04 1.212938E+02  3.436978E-04 1.212938E+02  9.833139E-01 -4.321758E+01 
