! Matrix data file written by TouchstoneData, EPCOS AG
! FILENAME: "newformat_B3780_WB.s2p"
! COMMENT: "22 Jul 2004 S11-NoP:1601;Caltype:FULL2PORT;P"
! INFO: nport=2, nfreq=1601
! DATE: "Wed Sep 19 15:43:50 2012"
! USER: "Wilfried Schott"
!
! port | pin | signal
! -----|-----|--------
!   1  |  2  |  IN
!   2  |  5  |  OUT
! --------------------
! 
# MHZ S MA R 50
! freq  magS11 angS11  magS21 angS21  magS12 angS12  magS22 angS22
3.839200E+02  9.827546E-01 -2.991282E+01  4.649138E-04 6.493640E+01  6.137557E-04 6.494932E+01  9.844153E-01 -2.549580E+01 
3.839825E+02  9.826509E-01 -2.987731E+01  5.787282E-04 7.338384E+01  5.535209E-04 7.792291E+01  9.835355E-01 -2.539226E+01 
3.840450E+02  9.822844E-01 -2.989369E+01  5.214605E-04 6.627856E+01  4.877217E-04 7.231128E+01  9.850074E-01 -2.552265E+01 
3.841075E+02  9.835794E-01 -2.990364E+01  5.161332E-04 7.206514E+01  5.217697E-04 6.433946E+01  9.834915E-01 -2.548207E+01 
3.841700E+02  9.822421E-01 -2.987869E+01  4.995273E-04 7.954350E+01  5.201200E-04 6.575901E+01  9.834757E-01 -2.544706E+01 
3.842325E+02  9.826278E-01 -2.986782E+01  4.863537E-04 7.339172E+01  6.083687E-04 7.295691E+01  9.843823E-01 -2.555774E+01 
3.842950E+02  9.831052E-01 -2.988055E+01  4.863962E-04 6.048677E+01  5.604765E-04 7.351057E+01  9.862524E-01 -2.551365E+01 
3.843575E+02  9.820694E-01 -2.991117E+01  5.193995E-04 6.529512E+01  5.450620E-04 7.386699E+01  9.833800E-01 -2.548911E+01 
3.844200E+02  9.824101E-01 -2.991001E+01  4.340170E-04 6.795531E+01  6.149392E-04 6.642659E+01  9.830826E-01 -2.552299E+01 
3.844825E+02  9.836435E-01 -2.989944E+01  5.300969E-04 6.610456E+01  5.179927E-04 6.278628E+01  9.826323E-01 -2.556708E+01 
3.845450E+02  9.831528E-01 -2.983180E+01  6.320975E-04 7.044249E+01  5.932431E-04 6.731504E+01  9.841173E-01 -2.544700E+01 
3.846075E+02  9.824565E-01 -2.992899E+01  5.618364E-04 6.719170E+01  5.149207E-04 7.036793E+01  9.840149E-01 -2.546755E+01 
3.846700E+02  9.829951E-01 -2.994786E+01  5.656419E-04 7.195263E+01  5.897792E-04 7.251178E+01  9.833906E-01 -2.549866E+01 
3.847325E+02  9.827573E-01 -2.988810E+01  6.320938E-04 6.587486E+01  6.294159E-04 7.174693E+01  9.831465E-01 -2.549362E+01 
3.847950E+02  9.823972E-01 -2.995152E+01  5.230974E-04 7.621948E+01  5.653580E-04 7.685235E+01  9.833737E-01 -2.550898E+01 
3.848575E+02  9.826925E-01 -2.987796E+01  4.987693E-04 7.531194E+01  5.225566E-04 6.304330E+01  9.824829E-01 -2.551997E+01 
3.849200E+02  9.825142E-01 -2.994553E+01  5.674922E-04 7.734097E+01  5.546368E-04 7.228453E+01  9.824863E-01 -2.555340E+01 
3.849825E+02  9.829929E-01 -2.997257E+01  5.247087E-04 7.023431E+01  4.656073E-04 6.477174E+01  9.842669E-01 -2.562595E+01 
3.850450E+02  9.827214E-01 -2.998786E+01  5.752554E-04 6.098634E+01  5.241773E-04 7.405774E+01  9.834118E-01 -2.551777E+01 
3.851075E+02  9.827779E-01 -2.992231E+01  5.732175E-04 7.171671E+01  5.961851E-04 7.069644E+01  9.829041E-01 -2.557134E+01 
3.851700E+02  9.821768E-01 -2.993633E+01  5.713464E-04 8.086392E+01  5.543435E-04 6.483331E+01  9.834351E-01 -2.548758E+01 
3.852325E+02  9.831711E-01 -3.002614E+01  5.445651E-04 7.688552E+01  5.074446E-04 6.729938E+01  9.819659E-01 -2.551464E+01 
3.852950E+02  9.832806E-01 -2.997317E+01  6.066701E-04 6.472023E+01  5.669190E-04 6.582252E+01  9.849174E-01 -2.554875E+01 
3.853575E+02  9.824878E-01 -2.994642E+01  5.161120E-04 6.603550E+01  4.579993E-04 6.579656E+01  9.844520E-01 -2.559912E+01 
3.854200E+02  9.827401E-01 -3.003244E+01  5.203736E-04 6.918760E+01  5.315454E-04 6.306214E+01  9.833218E-01 -2.554392E+01 
3.854825E+02  9.820840E-01 -2.996616E+01  4.955129E-04 6.608737E+01  5.097472E-04 6.795257E+01  9.836893E-01 -2.554749E+01 
3.855450E+02  9.821512E-01 -2.995157E+01  5.966773E-04 7.417135E+01  6.610100E-04 7.763118E+01  9.835989E-01 -2.562293E+01 
3.856075E+02  9.828082E-01 -3.003220E+01  5.699191E-04 6.808954E+01  5.914279E-04 6.378615E+01  9.833735E-01 -2.559965E+01 
3.856700E+02  9.836741E-01 -2.997021E+01  5.368323E-04 7.032071E+01  5.733574E-04 6.599699E+01  9.844947E-01 -2.564126E+01 
3.857325E+02  9.826815E-01 -3.005497E+01  5.476599E-04 7.546163E+01  5.155113E-04 6.114792E+01  9.832142E-01 -2.558438E+01 
3.857950E+02  9.834047E-01 -2.996079E+01  5.310957E-04 5.829708E+01  5.386511E-04 7.317019E+01  9.841477E-01 -2.556624E+01 
3.858575E+02  9.828499E-01 -3.003285E+01  6.308115E-04 6.907074E+01  6.182281E-04 6.915107E+01  9.832522E-01 -2.564248E+01 
3.859200E+02  9.821776E-01 -3.000412E+01  5.406398E-04 7.052528E+01  4.867934E-04 6.964903E+01  9.830203E-01 -2.559373E+01 
3.859825E+02  9.828190E-01 -2.997636E+01  5.493197E-04 6.552620E+01  5.388410E-04 6.681264E+01  9.829807E-01 -2.554357E+01 
3.860450E+02  9.830724E-01 -3.002330E+01  5.482363E-04 7.397588E+01  5.512939E-04 6.567396E+01  9.840558E-01 -2.560032E+01 
3.861075E+02  9.835253E-01 -3.005117E+01  5.934610E-04 6.423791E+01  5.506449E-04 7.030779E+01  9.831257E-01 -2.565589E+01 
3.861700E+02  9.831959E-01 -3.004995E+01  5.652608E-04 5.997036E+01  5.923372E-04 6.592775E+01  9.827772E-01 -2.553938E+01 
3.862325E+02  9.817489E-01 -3.003913E+01  6.007837E-04 6.675812E+01  6.301026E-04 6.777537E+01  9.845323E-01 -2.560476E+01 
3.862950E+02  9.831612E-01 -3.004290E+01  6.264592E-04 6.325698E+01  5.428665E-04 6.016617E+01  9.855853E-01 -2.555182E+01 
3.863575E+02  9.815553E-01 -2.998395E+01  5.773026E-04 7.219268E+01  5.505451E-04 6.612128E+01  9.837419E-01 -2.564851E+01 
3.864200E+02  9.833030E-01 -3.009977E+01  5.951099E-04 6.215807E+01  5.871021E-04 6.423230E+01  9.838048E-01 -2.566844E+01 
3.864825E+02  9.832407E-01 -3.011832E+01  5.667602E-04 6.859022E+01  5.895152E-04 5.938745E+01  9.837446E-01 -2.574311E+01 
3.865450E+02  9.835923E-01 -3.011466E+01  5.012799E-04 6.539592E+01  5.482532E-04 6.295719E+01  9.826720E-01 -2.552653E+01 
3.866075E+02  9.817101E-01 -3.002810E+01  5.178511E-04 5.865086E+01  5.975306E-04 6.781121E+01  9.827509E-01 -2.558153E+01 
3.866700E+02  9.819156E-01 -3.008083E+01  4.733975E-04 6.347850E+01  5.955240E-04 5.833107E+01  9.835736E-01 -2.561575E+01 
3.867325E+02  9.819380E-01 -3.003687E+01  5.650148E-04 6.881928E+01  5.078133E-04 6.984539E+01  9.825010E-01 -2.569511E+01 
3.867950E+02  9.826510E-01 -3.005189E+01  5.604406E-04 6.873609E+01  5.228331E-04 6.928303E+01  9.837313E-01 -2.558966E+01 
3.868575E+02  9.829123E-01 -3.009240E+01  5.477927E-04 5.761464E+01  4.821567E-04 6.762545E+01  9.837996E-01 -2.574157E+01 
3.869200E+02  9.824647E-01 -3.008285E+01  6.097062E-04 6.430294E+01  5.377850E-04 7.210424E+01  9.829437E-01 -2.578143E+01 
3.869825E+02  9.837159E-01 -3.010226E+01  6.228365E-04 5.709923E+01  5.096172E-04 6.386426E+01  9.830194E-01 -2.569636E+01 
3.870450E+02  9.820060E-01 -3.007572E+01  5.259230E-04 6.751488E+01  5.359277E-04 6.508377E+01  9.842063E-01 -2.564735E+01 
3.871075E+02  9.833822E-01 -3.009709E+01  5.957888E-04 6.973579E+01  5.685004E-04 6.444110E+01  9.823685E-01 -2.578972E+01 
3.871700E+02  9.832778E-01 -3.020344E+01  5.261659E-04 6.734132E+01  5.145609E-04 6.181117E+01  9.831735E-01 -2.558354E+01 
3.872325E+02  9.816384E-01 -3.014168E+01  5.885818E-04 6.892104E+01  6.003217E-04 6.180905E+01  9.829845E-01 -2.578225E+01 
3.872950E+02  9.826134E-01 -3.005521E+01  5.758953E-04 6.185548E+01  6.006175E-04 6.255382E+01  9.837569E-01 -2.574868E+01 
3.873575E+02  9.823765E-01 -3.014139E+01  5.606104E-04 7.065576E+01  4.681740E-04 6.330609E+01  9.831092E-01 -2.566621E+01 
3.874200E+02  9.828814E-01 -3.015310E+01  4.727141E-04 6.975766E+01  5.171004E-04 6.351469E+01  9.836462E-01 -2.564921E+01 
3.874825E+02  9.826251E-01 -3.013091E+01  5.200785E-04 5.960862E+01  5.994104E-04 6.490274E+01  9.826274E-01 -2.568169E+01 
3.875450E+02  9.830440E-01 -3.015171E+01  5.404064E-04 5.761932E+01  4.657066E-04 6.949030E+01  9.827698E-01 -2.571126E+01 
3.876075E+02  9.817671E-01 -3.017234E+01  4.750485E-04 6.167125E+01  4.821825E-04 7.489008E+01  9.833342E-01 -2.574674E+01 
3.876700E+02  9.825102E-01 -3.015127E+01  4.583376E-04 6.713210E+01  4.989032E-04 6.895684E+01  9.831123E-01 -2.555962E+01 
3.877325E+02  9.827988E-01 -3.012709E+01  4.882385E-04 7.310529E+01  4.946529E-04 6.952274E+01  9.826414E-01 -2.578994E+01 
3.877950E+02  9.825876E-01 -3.013424E+01  5.460256E-04 6.618833E+01  5.465570E-04 6.125552E+01  9.824509E-01 -2.584869E+01 
3.878575E+02  9.828516E-01 -3.012531E+01  5.047370E-04 6.870211E+01  5.681634E-04 7.426514E+01  9.831438E-01 -2.580147E+01 
3.879200E+02  9.826549E-01 -3.015871E+01  5.070310E-04 6.631431E+01  5.158021E-04 7.413282E+01  9.820010E-01 -2.572891E+01 
3.879825E+02  9.829733E-01 -3.016233E+01  5.926807E-04 7.407677E+01  4.982238E-04 7.439003E+01  9.831965E-01 -2.569731E+01 
3.880450E+02  9.823027E-01 -3.018712E+01  5.364380E-04 6.575310E+01  5.013464E-04 7.094897E+01  9.817546E-01 -2.567851E+01 
3.881075E+02  9.826831E-01 -3.017216E+01  4.575336E-04 6.784722E+01  5.163776E-04 6.556644E+01  9.833372E-01 -2.568153E+01 
3.881700E+02  9.819978E-01 -3.017069E+01  5.284285E-04 7.580858E+01  5.709887E-04 7.219962E+01  9.820503E-01 -2.580858E+01 
3.882325E+02  9.827574E-01 -3.019022E+01  5.492193E-04 6.469198E+01  5.703998E-04 6.825084E+01  9.820408E-01 -2.568036E+01 
3.882950E+02  9.818505E-01 -3.017363E+01  5.147985E-04 6.688068E+01  5.614912E-04 6.893105E+01  9.831775E-01 -2.566627E+01 
3.883575E+02  9.821219E-01 -3.024683E+01  4.908013E-04 8.147259E+01  5.496371E-04 8.077057E+01  9.841478E-01 -2.582847E+01 
3.884200E+02  9.819493E-01 -3.017646E+01  5.034491E-04 6.899597E+01  5.866594E-04 6.622163E+01  9.838175E-01 -2.578053E+01 
3.884825E+02  9.818497E-01 -3.022311E+01  5.349003E-04 6.658302E+01  4.711336E-04 6.534548E+01  9.826438E-01 -2.567136E+01 
3.885450E+02  9.829157E-01 -3.018486E+01  5.203735E-04 7.107527E+01  5.799501E-04 7.040579E+01  9.823170E-01 -2.583665E+01 
3.886075E+02  9.822780E-01 -3.022709E+01  5.882819E-04 6.527595E+01  5.385557E-04 6.607324E+01  9.810712E-01 -2.579268E+01 
3.886700E+02  9.814652E-01 -3.023412E+01  6.210988E-04 6.251279E+01  5.032337E-04 6.609298E+01  9.833057E-01 -2.575149E+01 
3.887325E+02  9.815450E-01 -3.018194E+01  5.503368E-04 7.522927E+01  5.389516E-04 7.175441E+01  9.841452E-01 -2.584039E+01 
3.887950E+02  9.817662E-01 -3.022182E+01  5.674653E-04 6.514290E+01  5.648635E-04 7.928174E+01  9.840689E-01 -2.581490E+01 
3.888575E+02  9.816241E-01 -3.017925E+01  5.297678E-04 7.539933E+01  5.505311E-04 6.548135E+01  9.820614E-01 -2.576081E+01 
3.889200E+02  9.830006E-01 -3.027462E+01  5.561515E-04 6.400204E+01  5.518318E-04 7.588045E+01  9.835659E-01 -2.586859E+01 
3.889825E+02  9.821424E-01 -3.032654E+01  5.620649E-04 7.201274E+01  5.624659E-04 7.022283E+01  9.834444E-01 -2.586214E+01 
3.890450E+02  9.824822E-01 -3.027578E+01  5.151066E-04 6.833832E+01  5.563510E-04 6.502186E+01  9.819669E-01 -2.581489E+01 
3.891075E+02  9.819642E-01 -3.020273E+01  5.511865E-04 6.953968E+01  6.046553E-04 6.842985E+01  9.832198E-01 -2.589220E+01 
3.891700E+02  9.822474E-01 -3.029821E+01  5.982557E-04 6.683739E+01  5.798377E-04 7.377266E+01  9.830899E-01 -2.586029E+01 
3.892325E+02  9.825438E-01 -3.028193E+01  4.782410E-04 6.713803E+01  5.505868E-04 6.882288E+01  9.839132E-01 -2.577981E+01 
3.892950E+02  9.822251E-01 -3.025362E+01  5.319278E-04 7.054073E+01  6.079800E-04 6.680178E+01  9.832755E-01 -2.588667E+01 
3.893575E+02  9.816562E-01 -3.027093E+01  5.052385E-04 6.416046E+01  5.748052E-04 7.183466E+01  9.816206E-01 -2.590385E+01 
3.894200E+02  9.815420E-01 -3.026657E+01  5.167962E-04 7.039474E+01  5.065045E-04 5.869397E+01  9.839153E-01 -2.596739E+01 
3.894825E+02  9.825554E-01 -3.032894E+01  5.189795E-04 7.393484E+01  5.931978E-04 7.380946E+01  9.835157E-01 -2.598861E+01 
3.895450E+02  9.822166E-01 -3.029514E+01  5.439553E-04 6.249783E+01  5.833209E-04 6.314432E+01  9.815939E-01 -2.583532E+01 
3.896075E+02  9.825098E-01 -3.034906E+01  5.080110E-04 6.900629E+01  5.547982E-04 6.977392E+01  9.830126E-01 -2.583876E+01 
3.896700E+02  9.826171E-01 -3.033508E+01  4.638241E-04 6.013457E+01  5.429818E-04 6.752818E+01  9.830436E-01 -2.582208E+01 
3.897325E+02  9.818761E-01 -3.029643E+01  5.119173E-04 6.700770E+01  5.608227E-04 6.522443E+01  9.817994E-01 -2.589680E+01 
3.897950E+02  9.827925E-01 -3.032085E+01  5.153851E-04 6.560910E+01  5.029353E-04 6.640620E+01  9.831372E-01 -2.596771E+01 
3.898575E+02  9.821225E-01 -3.032103E+01  5.129594E-04 6.243673E+01  5.840585E-04 6.306624E+01  9.829445E-01 -2.590395E+01 
3.899200E+02  9.823890E-01 -3.035112E+01  5.390064E-04 7.547509E+01  5.463975E-04 5.900998E+01  9.835658E-01 -2.593776E+01 
3.899825E+02  9.818015E-01 -3.030310E+01  4.909181E-04 7.561450E+01  5.276841E-04 6.976172E+01  9.825942E-01 -2.595146E+01 
3.900450E+02  9.826118E-01 -3.025695E+01  5.025714E-04 6.842509E+01  5.626950E-04 6.969826E+01  9.840868E-01 -2.585783E+01 
3.901075E+02  9.823018E-01 -3.037060E+01  4.674604E-04 6.844584E+01  5.175215E-04 7.134698E+01  9.819231E-01 -2.596458E+01 
3.901700E+02  9.816709E-01 -3.035708E+01  5.412003E-04 7.188932E+01  5.541391E-04 7.481947E+01  9.835759E-01 -2.588609E+01 
3.902325E+02  9.822510E-01 -3.036202E+01  4.935977E-04 6.507276E+01  5.142170E-04 6.684218E+01  9.828862E-01 -2.599859E+01 
3.902950E+02  9.818869E-01 -3.037860E+01  5.083769E-04 7.542039E+01  5.524184E-04 6.843852E+01  9.830978E-01 -2.604007E+01 
3.903575E+02  9.825079E-01 -3.035943E+01  5.944649E-04 6.732379E+01  5.887743E-04 7.092306E+01  9.828983E-01 -2.593097E+01 
3.904200E+02  9.820349E-01 -3.040037E+01  4.538327E-04 6.545033E+01  5.150971E-04 7.143087E+01  9.821062E-01 -2.593364E+01 
3.904825E+02  9.824397E-01 -3.045463E+01  5.811254E-04 6.846377E+01  4.797683E-04 7.312911E+01  9.827433E-01 -2.595713E+01 
3.905450E+02  9.829927E-01 -3.040061E+01  5.440509E-04 6.713605E+01  5.458808E-04 6.936854E+01  9.838830E-01 -2.585371E+01 
3.906075E+02  9.815675E-01 -3.041018E+01  5.381081E-04 6.722391E+01  5.306896E-04 7.307824E+01  9.801030E-01 -2.591719E+01 
3.906700E+02  9.829024E-01 -3.044083E+01  6.039149E-04 6.827735E+01  5.760159E-04 6.282245E+01  9.834273E-01 -2.581521E+01 
3.907325E+02  9.824526E-01 -3.040671E+01  4.505442E-04 7.758958E+01  5.460575E-04 6.749247E+01  9.823888E-01 -2.595532E+01 
3.907950E+02  9.823944E-01 -3.037981E+01  5.906506E-04 6.517802E+01  5.874367E-04 7.568387E+01  9.834027E-01 -2.593447E+01 
3.908575E+02  9.828126E-01 -3.044597E+01  4.346440E-04 7.286651E+01  5.807143E-04 7.066028E+01  9.811584E-01 -2.596651E+01 
3.909200E+02  9.825298E-01 -3.041438E+01  4.733128E-04 6.654063E+01  5.340468E-04 7.495016E+01  9.818563E-01 -2.595658E+01 
3.909825E+02  9.819223E-01 -3.038564E+01  5.114388E-04 6.980952E+01  5.856840E-04 7.189235E+01  9.823357E-01 -2.602613E+01 
3.910450E+02  9.820023E-01 -3.040768E+01  4.198802E-04 7.276885E+01  4.743204E-04 6.718643E+01  9.828827E-01 -2.594130E+01 
3.911075E+02  9.830900E-01 -3.041378E+01  4.804314E-04 6.179517E+01  5.210258E-04 7.005385E+01  9.824520E-01 -2.606838E+01 
3.911700E+02  9.820854E-01 -3.044406E+01  5.107578E-04 6.496463E+01  5.124631E-04 6.781125E+01  9.831274E-01 -2.587703E+01 
3.912325E+02  9.825499E-01 -3.041989E+01  4.778730E-04 7.496708E+01  5.557836E-04 7.442260E+01  9.831649E-01 -2.589376E+01 
3.912950E+02  9.822154E-01 -3.048504E+01  5.139127E-04 6.921237E+01  5.943736E-04 7.258805E+01  9.828358E-01 -2.605744E+01 
3.913575E+02  9.825914E-01 -3.049072E+01  5.078471E-04 6.729103E+01  5.058992E-04 6.584628E+01  9.827025E-01 -2.595631E+01 
3.914200E+02  9.818244E-01 -3.040758E+01  4.619048E-04 6.656526E+01  5.388332E-04 7.040352E+01  9.818058E-01 -2.601151E+01 
3.914825E+02  9.831609E-01 -3.049801E+01  5.210518E-04 5.629085E+01  5.457344E-04 6.591806E+01  9.822503E-01 -2.604838E+01 
3.915450E+02  9.819136E-01 -3.047268E+01  5.170625E-04 6.790853E+01  6.449884E-04 6.842572E+01  9.823599E-01 -2.596405E+01 
3.916075E+02  9.815191E-01 -3.045109E+01  4.663837E-04 6.611465E+01  5.189349E-04 6.671240E+01  9.819231E-01 -2.604582E+01 
3.916700E+02  9.827940E-01 -3.046518E+01  4.411790E-04 6.553154E+01  5.482447E-04 5.667706E+01  9.833963E-01 -2.605137E+01 
3.917325E+02  9.830449E-01 -3.050405E+01  4.729862E-04 6.805178E+01  4.613373E-04 6.191772E+01  9.821757E-01 -2.600296E+01 
3.917950E+02  9.830543E-01 -3.051199E+01  5.149534E-04 6.610518E+01  5.625364E-04 6.355848E+01  9.831297E-01 -2.601146E+01 
3.918575E+02  9.816422E-01 -3.054403E+01  4.482196E-04 7.550454E+01  4.661504E-04 6.365610E+01  9.830120E-01 -2.590797E+01 
3.919200E+02  9.821397E-01 -3.050210E+01  5.504102E-04 7.088125E+01  5.269234E-04 6.824192E+01  9.823066E-01 -2.613200E+01 
3.919825E+02  9.818242E-01 -3.051295E+01  4.966132E-04 6.848049E+01  4.938363E-04 6.638280E+01  9.829016E-01 -2.607338E+01 
3.920450E+02  9.821087E-01 -3.049903E+01  5.081358E-04 6.996608E+01  4.871984E-04 7.749742E+01  9.827763E-01 -2.609083E+01 
3.921075E+02  9.823083E-01 -3.049424E+01  5.311767E-04 7.195846E+01  5.178467E-04 7.215420E+01  9.830073E-01 -2.600900E+01 
3.921700E+02  9.828723E-01 -3.054303E+01  4.995014E-04 5.722965E+01  5.232311E-04 7.077864E+01  9.819671E-01 -2.602673E+01 
3.922325E+02  9.822078E-01 -3.050183E+01  5.714833E-04 6.950480E+01  4.889981E-04 6.597422E+01  9.832970E-01 -2.607597E+01 
3.922950E+02  9.815951E-01 -3.050429E+01  5.470390E-04 7.312286E+01  5.347310E-04 7.704655E+01  9.835241E-01 -2.611106E+01 
3.923575E+02  9.821342E-01 -3.054363E+01  5.120495E-04 7.294557E+01  5.402887E-04 7.453865E+01  9.832802E-01 -2.609823E+01 
3.924200E+02  9.820163E-01 -3.052495E+01  4.678388E-04 7.046562E+01  4.369371E-04 7.321448E+01  9.820928E-01 -2.609846E+01 
3.924825E+02  9.823209E-01 -3.051654E+01  5.197757E-04 7.245019E+01  5.209114E-04 7.146243E+01  9.839357E-01 -2.609536E+01 
3.925450E+02  9.830657E-01 -3.054463E+01  5.426698E-04 7.643463E+01  5.554031E-04 6.734277E+01  9.827751E-01 -2.600966E+01 
3.926075E+02  9.826074E-01 -3.052735E+01  4.753478E-04 7.190868E+01  4.767965E-04 6.664223E+01  9.821808E-01 -2.605630E+01 
3.926700E+02  9.820171E-01 -3.060557E+01  4.825608E-04 7.256323E+01  6.166197E-04 6.973015E+01  9.827494E-01 -2.608763E+01 
3.927325E+02  9.820972E-01 -3.054697E+01  4.995880E-04 7.157964E+01  5.524300E-04 6.430861E+01  9.831561E-01 -2.610771E+01 
3.927950E+02  9.823038E-01 -3.061635E+01  5.048041E-04 7.245559E+01  5.413867E-04 6.778919E+01  9.821342E-01 -2.609529E+01 
3.928575E+02  9.817258E-01 -3.054528E+01  5.293616E-04 6.896712E+01  5.974732E-04 7.616200E+01  9.819982E-01 -2.609125E+01 
3.929200E+02  9.816908E-01 -3.045760E+01  5.013836E-04 5.973743E+01  3.872988E-04 6.697740E+01  9.828217E-01 -2.605982E+01 
3.929825E+02  9.824566E-01 -3.060695E+01  5.067387E-04 6.441829E+01  5.087876E-04 6.899851E+01  9.831364E-01 -2.615384E+01 
3.930450E+02  9.832256E-01 -3.056392E+01  5.727518E-04 7.101541E+01  4.966441E-04 6.992363E+01  9.828730E-01 -2.608212E+01 
3.931075E+02  9.815851E-01 -3.063290E+01  6.014285E-04 6.751161E+01  4.611527E-04 6.493043E+01  9.822992E-01 -2.608662E+01 
3.931700E+02  9.812551E-01 -3.058634E+01  5.111549E-04 7.349754E+01  4.955411E-04 6.217815E+01  9.822633E-01 -2.615108E+01 
3.932325E+02  9.819072E-01 -3.060522E+01  4.914952E-04 6.514272E+01  5.141409E-04 6.216420E+01  9.829855E-01 -2.616014E+01 
3.932950E+02  9.827862E-01 -3.060798E+01  4.479159E-04 7.357206E+01  5.481129E-04 6.965252E+01  9.828476E-01 -2.617202E+01 
3.933575E+02  9.816779E-01 -3.059658E+01  5.229656E-04 6.918027E+01  6.011796E-04 7.001908E+01  9.833619E-01 -2.609986E+01 
3.934200E+02  9.825049E-01 -3.064664E+01  5.218156E-04 7.411978E+01  4.874387E-04 7.082171E+01  9.841423E-01 -2.618842E+01 
3.934825E+02  9.828211E-01 -3.062539E+01  5.644021E-04 6.559485E+01  5.670470E-04 7.178978E+01  9.839934E-01 -2.607393E+01 
3.935450E+02  9.818136E-01 -3.065192E+01  4.234033E-04 7.141265E+01  5.493349E-04 7.097723E+01  9.818101E-01 -2.617399E+01 
3.936075E+02  9.823805E-01 -3.063439E+01  4.825769E-04 7.206802E+01  5.435793E-04 6.481041E+01  9.825932E-01 -2.625468E+01 
3.936700E+02  9.814033E-01 -3.067440E+01  5.472580E-04 6.836256E+01  5.336476E-04 6.197090E+01  9.847861E-01 -2.616802E+01 
