! Matrix data file written by TouchstoneData, EPCOS AG
! FILENAME: "newformat_B3780_SB.s2p"
! COMMENT: "22 Jul 2004 S11-NoP:1601;Caltype:FULL2PORT;P"
! INFO: nport=2, nfreq=1601
! DATE: "Wed Sep 19 15:43:54 2012"
! USER: "Wilfried Schott"
!
! port | pin | signal
! -----|-----|--------
!   1  |  2  |  IN
!   2  |  5  |  OUT
! --------------------
! 
# MHZ S MA R 50
! freq  magS11 angS11  magS21 angS21  magS12 angS12  magS22 angS22
4.314200E+02  9.797195E-01 -3.545054E+01  7.919549E-04 6.569862E+01  7.464869E-04 6.475675E+01  9.766578E-01 -3.072089E+01 
4.314231E+02  9.785660E-01 -3.547889E+01  8.562237E-04 6.843486E+01  8.867212E-04 6.596165E+01  9.776363E-01 -3.065979E+01 
4.314263E+02  9.804785E-01 -3.546056E+01  8.569638E-04 6.978095E+01  9.551581E-04 7.087590E+01  9.774282E-01 -3.064622E+01 
4.314294E+02  9.792786E-01 -3.551277E+01  9.745089E-04 6.786443E+01  8.974560E-04 7.028820E+01  9.774838E-01 -3.061311E+01 
4.314325E+02  9.793073E-01 -3.548745E+01  8.323186E-04 7.066000E+01  8.916304E-04 6.571628E+01  9.765652E-01 -3.077829E+01 
4.314356E+02  9.791829E-01 -3.550799E+01  8.979640E-04 6.964404E+01  7.990842E-04 6.545559E+01  9.749331E-01 -3.063095E+01 
4.314388E+02  9.784059E-01 -3.551192E+01  8.942011E-04 7.019113E+01  8.738877E-04 6.456665E+01  9.778952E-01 -3.069237E+01 
4.314419E+02  9.789956E-01 -3.545878E+01  9.328619E-04 6.714415E+01  9.002576E-04 6.278688E+01  9.770727E-01 -3.070227E+01 
4.314450E+02  9.786755E-01 -3.550943E+01  8.544165E-04 6.499832E+01  8.534570E-04 6.025065E+01  9.780325E-01 -3.074791E+01 
4.314481E+02  9.792182E-01 -3.552626E+01  9.409574E-04 6.348364E+01  9.235436E-04 6.642705E+01  9.766670E-01 -3.073931E+01 
4.314513E+02  9.793427E-01 -3.549036E+01  9.289319E-04 6.410412E+01  9.737044E-04 6.349063E+01  9.780487E-01 -3.061638E+01 
4.314544E+02  9.793851E-01 -3.550613E+01  8.011664E-04 6.056283E+01  8.568383E-04 6.477459E+01  9.751461E-01 -3.079247E+01 
4.314575E+02  9.800910E-01 -3.555779E+01  9.308000E-04 6.853891E+01  9.100597E-04 6.512684E+01  9.770038E-01 -3.071300E+01 
4.314606E+02  9.799845E-01 -3.554909E+01  8.989614E-04 6.335595E+01  9.472996E-04 6.774370E+01  9.774491E-01 -3.070789E+01 
4.314638E+02  9.789984E-01 -3.551131E+01  8.831186E-04 6.999162E+01  9.959091E-04 6.883028E+01  9.782912E-01 -3.080130E+01 
4.314669E+02  9.788528E-01 -3.555471E+01  8.581970E-04 6.044737E+01  9.012325E-04 5.903299E+01  9.786826E-01 -3.066501E+01 
4.314700E+02  9.792466E-01 -3.551630E+01  9.389247E-04 6.391888E+01  9.087722E-04 6.878617E+01  9.772221E-01 -3.066794E+01 
4.314731E+02  9.794135E-01 -3.557296E+01  1.030149E-03 6.351353E+01  9.928164E-04 7.145736E+01  9.769719E-01 -3.080783E+01 
4.314762E+02  9.792856E-01 -3.554100E+01  9.820382E-04 6.016022E+01  9.298897E-04 6.570209E+01  9.775080E-01 -3.076620E+01 
4.314794E+02  9.787713E-01 -3.556031E+01  8.840217E-04 5.819547E+01  9.518095E-04 5.766145E+01  9.770104E-01 -3.069612E+01 
4.314825E+02  9.798395E-01 -3.559244E+01  9.627978E-04 6.483975E+01  8.973162E-04 6.368175E+01  9.767550E-01 -3.075499E+01 
4.314856E+02  9.793815E-01 -3.556113E+01  1.021181E-03 6.108994E+01  9.539853E-04 6.487195E+01  9.763274E-01 -3.073033E+01 
4.314888E+02  9.786400E-01 -3.555263E+01  9.266758E-04 6.248888E+01  9.449188E-04 6.642081E+01  9.776606E-01 -3.086499E+01 
4.314919E+02  9.790940E-01 -3.554681E+01  9.884434E-04 6.137562E+01  1.070384E-03 6.590987E+01  9.773969E-01 -3.078673E+01 
4.314950E+02  9.786016E-01 -3.560477E+01  8.788108E-04 6.104900E+01  1.024627E-03 6.121345E+01  9.766065E-01 -3.078935E+01 
4.314981E+02  9.795446E-01 -3.554992E+01  9.330485E-04 5.807047E+01  9.787538E-04 5.704737E+01  9.765671E-01 -3.074697E+01 
4.315013E+02  9.789557E-01 -3.554162E+01  9.887539E-04 5.734841E+01  9.762601E-04 6.401770E+01  9.764114E-01 -3.081911E+01 
4.315044E+02  9.786081E-01 -3.551005E+01  9.752319E-04 6.441222E+01  9.399974E-04 6.290689E+01  9.750362E-01 -3.079214E+01 
4.315075E+02  9.790526E-01 -3.562321E+01  9.990724E-04 5.704707E+01  9.459776E-04 6.020586E+01  9.762027E-01 -3.080556E+01 
4.315106E+02  9.778775E-01 -3.558237E+01  9.292875E-04 6.023916E+01  9.711721E-04 6.092268E+01  9.760270E-01 -3.089309E+01 
4.315138E+02  9.788449E-01 -3.567369E+01  9.163160E-04 6.240150E+01  9.990794E-04 6.525745E+01  9.765552E-01 -3.077030E+01 
4.315169E+02  9.798390E-01 -3.554639E+01  9.746740E-04 6.121714E+01  1.072880E-03 6.468562E+01  9.755925E-01 -3.089583E+01 
4.315200E+02  9.788068E-01 -3.556322E+01  9.769219E-04 5.605349E+01  9.586729E-04 6.262323E+01  9.774246E-01 -3.088368E+01 
4.315231E+02  9.790034E-01 -3.564066E+01  1.003563E-03 5.875232E+01  9.854945E-04 5.968108E+01  9.758248E-01 -3.073328E+01 
4.315263E+02  9.791311E-01 -3.564189E+01  9.498660E-04 5.785723E+01  1.025318E-03 5.583602E+01  9.770803E-01 -3.074156E+01 
4.315294E+02  9.784803E-01 -3.555492E+01  9.814696E-04 6.381931E+01  9.580467E-04 6.188683E+01  9.745654E-01 -3.078775E+01 
4.315325E+02  9.788061E-01 -3.567972E+01  9.741938E-04 5.719716E+01  1.015288E-03 5.997225E+01  9.773258E-01 -3.086005E+01 
4.315356E+02  9.797965E-01 -3.569306E+01  9.874691E-04 5.838321E+01  1.026414E-03 5.774227E+01  9.750357E-01 -3.080260E+01 
4.315387E+02  9.780984E-01 -3.562808E+01  9.694656E-04 5.638467E+01  9.178824E-04 5.614483E+01  9.777716E-01 -3.083403E+01 
4.315419E+02  9.789309E-01 -3.552730E+01  9.912574E-04 5.808464E+01  1.077698E-03 6.057605E+01  9.762567E-01 -3.077239E+01 
4.315450E+02  9.793846E-01 -3.568399E+01  9.953980E-04 5.680332E+01  1.014441E-03 5.572823E+01  9.747196E-01 -3.074686E+01 
4.315481E+02  9.788004E-01 -3.561181E+01  1.019304E-03 5.240271E+01  1.028487E-03 5.420833E+01  9.758928E-01 -3.083101E+01 
4.315513E+02  9.789926E-01 -3.563671E+01  1.081501E-03 5.683323E+01  1.041619E-03 5.477161E+01  9.764972E-01 -3.077858E+01 
4.315544E+02  9.791224E-01 -3.555221E+01  1.049127E-03 5.750671E+01  1.101833E-03 5.597596E+01  9.773631E-01 -3.067136E+01 
4.315575E+02  9.788050E-01 -3.564899E+01  1.010431E-03 5.399064E+01  1.013367E-03 5.395714E+01  9.768433E-01 -3.089990E+01 
4.315606E+02  9.793096E-01 -3.567176E+01  1.027593E-03 5.747095E+01  1.029815E-03 5.368956E+01  9.757893E-01 -3.080334E+01 
4.315638E+02  9.788438E-01 -3.564296E+01  1.022736E-03 5.191489E+01  1.069007E-03 5.281990E+01  9.762335E-01 -3.081908E+01 
4.315669E+02  9.787863E-01 -3.561680E+01  9.394161E-04 5.248882E+01  1.070980E-03 5.577707E+01  9.784521E-01 -3.083105E+01 
4.315700E+02  9.785345E-01 -3.562077E+01  1.036602E-03 5.415804E+01  1.009685E-03 4.985252E+01  9.771650E-01 -3.081983E+01 
4.315731E+02  9.781948E-01 -3.564822E+01  1.040053E-03 5.019527E+01  1.055154E-03 5.982336E+01  9.765209E-01 -3.082987E+01 
4.315763E+02  9.791615E-01 -3.569337E+01  1.042742E-03 5.341242E+01  1.063291E-03 5.107635E+01  9.758826E-01 -3.082302E+01 
4.315794E+02  9.791770E-01 -3.563337E+01  9.490015E-04 5.482962E+01  1.028937E-03 5.395591E+01  9.748568E-01 -3.082349E+01 
4.315825E+02  9.786837E-01 -3.571567E+01  9.623621E-04 5.186171E+01  9.527064E-04 5.368931E+01  9.758764E-01 -3.085037E+01 
4.315856E+02  9.785069E-01 -3.564611E+01  9.659601E-04 4.732808E+01  1.131061E-03 5.352776E+01  9.764799E-01 -3.080837E+01 
4.315888E+02  9.791775E-01 -3.564874E+01  1.005837E-03 5.012900E+01  9.582360E-04 5.301606E+01  9.782874E-01 -3.099931E+01 
4.315919E+02  9.780092E-01 -3.570665E+01  1.063993E-03 5.325239E+01  9.925696E-04 4.896151E+01  9.780471E-01 -3.089937E+01 
4.315950E+02  9.787744E-01 -3.568325E+01  1.036913E-03 5.069414E+01  1.116493E-03 5.516798E+01  9.748835E-01 -3.081211E+01 
4.315981E+02  9.783441E-01 -3.565735E+01  1.011033E-03 4.858147E+01  1.131831E-03 5.230484E+01  9.773626E-01 -3.085668E+01 
4.316012E+02  9.783441E-01 -3.565735E+01  1.009116E-03 5.185922E+01  1.071005E-03 4.956956E+01  9.761007E-01 -3.087589E+01 
4.316044E+02  9.788146E-01 -3.570796E+01  1.069081E-03 4.924591E+01  1.130876E-03 5.123691E+01  9.784758E-01 -3.093434E+01 
4.316075E+02  9.782881E-01 -3.567730E+01  1.017373E-03 5.074543E+01  1.064978E-03 5.545209E+01  9.762936E-01 -3.090878E+01 
4.316106E+02  9.791615E-01 -3.569337E+01  1.048583E-03 5.309297E+01  1.087055E-03 4.755218E+01  9.757908E-01 -3.094317E+01 
4.316138E+02  9.786983E-01 -3.564027E+01  1.085220E-03 5.222659E+01  1.050381E-03 5.215239E+01  9.767015E-01 -3.093827E+01 
4.316169E+02  9.787814E-01 -3.568076E+01  1.028836E-03 5.315334E+01  1.127657E-03 4.889940E+01  9.758655E-01 -3.086327E+01 
4.316200E+02  9.786002E-01 -3.567518E+01  1.059547E-03 5.110134E+01  1.046329E-03 4.861081E+01  9.744595E-01 -3.081235E+01 
4.316231E+02  9.778649E-01 -3.564888E+01  9.771429E-04 4.990043E+01  1.051797E-03 4.509528E+01  9.772829E-01 -3.090116E+01 
4.316263E+02  9.781308E-01 -3.578081E+01  1.039782E-03 5.514157E+01  1.034661E-03 5.412927E+01  9.782856E-01 -3.080773E+01 
4.316294E+02  9.780448E-01 -3.570955E+01  1.106376E-03 4.673220E+01  1.074111E-03 4.842270E+01  9.759532E-01 -3.100431E+01 
4.316325E+02  9.781241E-01 -3.565779E+01  1.063263E-03 5.145807E+01  1.054570E-03 4.980177E+01  9.774644E-01 -3.079687E+01 
4.316356E+02  9.775341E-01 -3.561877E+01  1.040803E-03 5.246302E+01  1.080628E-03 4.892378E+01  9.756239E-01 -3.089890E+01 
4.316388E+02  9.786187E-01 -3.569200E+01  1.043921E-03 4.458361E+01  1.092866E-03 5.326729E+01  9.761315E-01 -3.089986E+01 
4.316419E+02  9.777446E-01 -3.566054E+01  1.104042E-03 4.978035E+01  1.044519E-03 5.303594E+01  9.768534E-01 -3.100182E+01 
4.316450E+02  9.778597E-01 -3.569753E+01  1.091326E-03 4.835646E+01  1.118939E-03 4.538199E+01  9.763614E-01 -3.092936E+01 
4.316481E+02  9.785381E-01 -3.571299E+01  1.015704E-03 5.254539E+01  9.879066E-04 4.722251E+01  9.766589E-01 -3.078752E+01 
4.316513E+02  9.778660E-01 -3.567965E+01  1.002845E-03 4.958247E+01  1.047530E-03 4.899134E+01  9.774656E-01 -3.097818E+01 
4.316544E+02  9.784003E-01 -3.572320E+01  1.145209E-03 5.035002E+01  1.061110E-03 4.850117E+01  9.764924E-01 -3.091432E+01 
4.316575E+02  9.797068E-01 -3.574079E+01  1.062872E-03 4.841569E+01  1.118407E-03 4.982281E+01  9.766233E-01 -3.090972E+01 
4.316606E+02  9.786927E-01 -3.579895E+01  1.023806E-03 4.663597E+01  1.138860E-03 5.029368E+01  9.772143E-01 -3.095363E+01 
4.316637E+02  9.796203E-01 -3.581924E+01  1.135585E-03 5.170959E+01  1.086907E-03 4.699109E+01  9.763617E-01 -3.090847E+01 
4.316669E+02  9.788856E-01 -3.576879E+01  1.100061E-03 4.803736E+01  1.080306E-03 4.659623E+01  9.775495E-01 -3.092725E+01 
4.316700E+02  9.782438E-01 -3.571658E+01  1.107307E-03 4.837568E+01  1.120108E-03 4.703883E+01  9.771934E-01 -3.096897E+01 
4.316731E+02  9.782338E-01 -3.578307E+01  1.092891E-03 4.489725E+01  1.112029E-03 4.868768E+01  9.760121E-01 -3.086022E+01 
4.316763E+02  9.783774E-01 -3.575499E+01  1.080743E-03 4.959219E+01  1.061162E-03 4.917268E+01  9.763982E-01 -3.091554E+01 
4.316794E+02  9.797376E-01 -3.577689E+01  1.050692E-03 4.713564E+01  1.139637E-03 4.446708E+01  9.766243E-01 -3.086796E+01 
4.316825E+02  9.782684E-01 -3.577060E+01  1.065987E-03 4.610669E+01  1.093814E-03 4.811884E+01  9.763569E-01 -3.088360E+01 
4.316856E+02  9.781348E-01 -3.578725E+01  1.086661E-03 4.543334E+01  1.158263E-03 5.181379E+01  9.768637E-01 -3.095762E+01 
4.316888E+02  9.790210E-01 -3.582253E+01  1.188075E-03 5.022074E+01  1.152001E-03 4.365516E+01  9.773873E-01 -3.091835E+01 
4.316919E+02  9.791314E-01 -3.578264E+01  1.064840E-03 4.648670E+01  1.141877E-03 5.019577E+01  9.746866E-01 -3.099883E+01 
4.316950E+02  9.783566E-01 -3.576247E+01  1.160548E-03 4.823315E+01  1.072024E-03 5.097004E+01  9.772314E-01 -3.105950E+01 
4.316981E+02  9.783409E-01 -3.579177E+01  1.230112E-03 4.644892E+01  1.153146E-03 4.868926E+01  9.771044E-01 -3.097419E+01 
4.317013E+02  9.784878E-01 -3.580981E+01  1.042010E-03 4.854569E+01  1.189220E-03 5.178487E+01  9.772876E-01 -3.097818E+01 
4.317044E+02  9.788667E-01 -3.575197E+01  1.151939E-03 4.796343E+01  1.150718E-03 4.610495E+01  9.765186E-01 -3.091340E+01 
4.317075E+02  9.781786E-01 -3.580304E+01  1.182382E-03 4.640017E+01  1.121574E-03 4.551890E+01  9.766813E-01 -3.089099E+01 
4.317106E+02  9.776424E-01 -3.583894E+01  1.175760E-03 5.094940E+01  1.178499E-03 5.042484E+01  9.762311E-01 -3.089219E+01 
4.317138E+02  9.782794E-01 -3.577454E+01  1.106937E-03 4.527815E+01  1.220038E-03 4.965055E+01  9.761788E-01 -3.089402E+01 
4.317169E+02  9.779052E-01 -3.587856E+01  1.102913E-03 4.423365E+01  1.169069E-03 4.793961E+01  9.767403E-01 -3.084095E+01 
4.317200E+02  9.781527E-01 -3.578870E+01  1.146818E-03 4.511160E+01  1.169731E-03 4.773849E+01  9.758954E-01 -3.097082E+01 
4.317231E+02  9.787488E-01 -3.583403E+01  1.195496E-03 4.503232E+01  1.180399E-03 4.002968E+01  9.764453E-01 -3.101412E+01 
4.317262E+02  9.789952E-01 -3.588753E+01  1.205368E-03 4.614903E+01  1.265284E-03 4.646782E+01  9.753040E-01 -3.097913E+01 
4.317294E+02  9.781585E-01 -3.577083E+01  1.112552E-03 4.924838E+01  1.162183E-03 4.820467E+01  9.777903E-01 -3.100639E+01 
4.317325E+02  9.790127E-01 -3.584932E+01  1.188370E-03 4.733650E+01  1.256984E-03 5.005337E+01  9.775865E-01 -3.102817E+01 
4.317356E+02  9.785733E-01 -3.588996E+01  1.188734E-03 4.569375E+01  1.251205E-03 4.800447E+01  9.751747E-01 -3.106739E+01 
4.317388E+02  9.787685E-01 -3.589051E+01  1.170563E-03 4.714393E+01  1.245535E-03 5.262450E+01  9.759166E-01 -3.100770E+01 
4.317419E+02  9.777097E-01 -3.583830E+01  1.266500E-03 5.000765E+01  1.323862E-03 4.773169E+01  9.770628E-01 -3.100488E+01 
4.317450E+02  9.795364E-01 -3.583379E+01  1.258777E-03 4.651571E+01  1.228526E-03 4.999511E+01  9.762683E-01 -3.105590E+01 
4.317481E+02  9.789253E-01 -3.589710E+01  1.193393E-03 4.385968E+01  1.288963E-03 4.863886E+01  9.776016E-01 -3.095670E+01 
4.317513E+02  9.783457E-01 -3.591726E+01  1.302922E-03 4.601572E+01  1.297942E-03 4.521303E+01  9.767329E-01 -3.099354E+01 
4.317544E+02  9.784744E-01 -3.589415E+01  1.246739E-03 4.608765E+01  1.284231E-03 4.791396E+01  9.758013E-01 -3.098250E+01 
4.317575E+02  9.786193E-01 -3.592110E+01  1.304426E-03 4.580440E+01  1.302127E-03 4.865963E+01  9.771518E-01 -3.101010E+01 
4.317606E+02  9.781940E-01 -3.589280E+01  1.277819E-03 4.523623E+01  1.306838E-03 4.802726E+01  9.759495E-01 -3.107345E+01 
4.317638E+02  9.776979E-01 -3.589838E+01  1.357960E-03 4.746190E+01  1.348928E-03 4.595242E+01  9.775499E-01 -3.116315E+01 
4.317669E+02  9.786517E-01 -3.589326E+01  1.293857E-03 4.583897E+01  1.349746E-03 4.696482E+01  9.762414E-01 -3.102550E+01 
4.317700E+02  9.779614E-01 -3.593799E+01  1.296920E-03 4.435295E+01  1.357467E-03 4.825719E+01  9.765879E-01 -3.106969E+01 
4.317731E+02  9.781262E-01 -3.585376E+01  1.341679E-03 4.346453E+01  1.388202E-03 5.021364E+01  9.782195E-01 -3.101005E+01 
4.317763E+02  9.777434E-01 -3.595388E+01  1.370034E-03 4.784955E+01  1.322601E-03 4.703440E+01  9.776444E-01 -3.104075E+01 
4.317794E+02  9.780883E-01 -3.598781E+01  1.317510E-03 4.366463E+01  1.465736E-03 4.683731E+01  9.763353E-01 -3.100338E+01 
4.317825E+02  9.794197E-01 -3.594009E+01  1.328643E-03 4.040948E+01  1.424019E-03 4.512379E+01  9.755763E-01 -3.099880E+01 
4.317856E+02  9.791171E-01 -3.593087E+01  1.359410E-03 4.318778E+01  1.424566E-03 4.858247E+01  9.756372E-01 -3.111590E+01 
4.317887E+02  9.779162E-01 -3.588251E+01  1.346672E-03 4.583655E+01  1.456670E-03 4.250425E+01  9.766141E-01 -3.106877E+01 
4.317919E+02  9.790574E-01 -3.590474E+01  1.512870E-03 4.587635E+01  1.452215E-03 4.299584E+01  9.758097E-01 -3.111188E+01 
4.317950E+02  9.785309E-01 -3.595354E+01  1.433344E-03 4.707608E+01  1.506828E-03 4.878167E+01  9.770997E-01 -3.102237E+01 
4.317981E+02  9.790196E-01 -3.597472E+01  1.514885E-03 4.505260E+01  1.471414E-03 4.864421E+01  9.771963E-01 -3.110461E+01 
4.318013E+02  9.790856E-01 -3.593441E+01  1.545696E-03 4.885710E+01  1.486721E-03 4.676749E+01  9.752295E-01 -3.112826E+01 
4.318044E+02  9.781233E-01 -3.592670E+01  1.604034E-03 4.518969E+01  1.535264E-03 4.349612E+01  9.769689E-01 -3.102699E+01 
4.318075E+02  9.782776E-01 -3.587822E+01  1.536340E-03 4.456146E+01  1.566070E-03 4.792639E+01  9.758246E-01 -3.109252E+01 
4.318106E+02  9.782878E-01 -3.604341E+01  1.524258E-03 4.322216E+01  1.487700E-03 4.506493E+01  9.771756E-01 -3.110952E+01 
4.318138E+02  9.783282E-01 -3.600412E+01  1.508436E-03 4.497439E+01  1.560254E-03 4.448925E+01  9.766052E-01 -3.120295E+01 
4.318169E+02  9.781875E-01 -3.595930E+01  1.550217E-03 4.334545E+01  1.670756E-03 4.546252E+01  9.756976E-01 -3.117029E+01 
4.318200E+02  9.777977E-01 -3.593390E+01  1.627832E-03 4.461726E+01  1.673849E-03 4.329016E+01  9.764634E-01 -3.109919E+01 
4.318231E+02  9.788959E-01 -3.600426E+01  1.651469E-03 4.578671E+01  1.682282E-03 4.739216E+01  9.764556E-01 -3.115385E+01 
4.318263E+02  9.781689E-01 -3.600648E+01  1.631873E-03 4.393153E+01  1.672916E-03 4.550667E+01  9.760803E-01 -3.117973E+01 
4.318294E+02  9.783895E-01 -3.595734E+01  1.708208E-03 4.245739E+01  1.728492E-03 4.456690E+01  9.766359E-01 -3.109517E+01 
4.318325E+02  9.780529E-01 -3.596060E+01  1.671776E-03 4.374610E+01  1.732416E-03 4.478812E+01  9.767502E-01 -3.117897E+01 
4.318356E+02  9.779519E-01 -3.609533E+01  1.693394E-03 4.397605E+01  1.839829E-03 4.601333E+01  9.746455E-01 -3.124128E+01 
4.318388E+02  9.781357E-01 -3.597033E+01  1.752318E-03 4.163969E+01  1.844407E-03 4.598331E+01  9.770860E-01 -3.109388E+01 
4.318419E+02  9.780995E-01 -3.599176E+01  1.721350E-03 4.465910E+01  1.889289E-03 4.396335E+01  9.747490E-01 -3.122710E+01 
4.318450E+02  9.785301E-01 -3.602645E+01  1.829274E-03 4.475974E+01  1.927886E-03 4.576911E+01  9.762934E-01 -3.115542E+01 
4.318481E+02  9.777180E-01 -3.605222E+01  1.916426E-03 4.244499E+01  1.833790E-03 4.296108E+01  9.771225E-01 -3.109050E+01 
4.318512E+02  9.776915E-01 -3.608654E+01  1.862766E-03 4.247125E+01  1.928882E-03 4.121640E+01  9.749847E-01 -3.122919E+01 
4.318544E+02  9.778011E-01 -3.606195E+01  1.826631E-03 4.220150E+01  1.909285E-03 4.251012E+01  9.751097E-01 -3.122054E+01 
4.318575E+02  9.782341E-01 -3.606338E+01  1.980461E-03 4.343419E+01  2.019963E-03 4.372909E+01  9.754706E-01 -3.113437E+01 
4.318606E+02  9.777852E-01 -3.602724E+01  1.971321E-03 4.000431E+01  2.051517E-03 4.098517E+01  9.742335E-01 -3.119091E+01 
4.318638E+02  9.776802E-01 -3.608260E+01  2.010021E-03 3.960979E+01  2.092054E-03 4.303270E+01  9.766578E-01 -3.127018E+01 
4.318669E+02  9.781489E-01 -3.606260E+01  2.106162E-03 4.158008E+01  2.059341E-03 3.848965E+01  9.766085E-01 -3.124471E+01 
4.318700E+02  9.779905E-01 -3.611360E+01  2.117659E-03 4.215827E+01  2.200862E-03 4.195157E+01  9.769477E-01 -3.123264E+01 
4.318731E+02  9.769725E-01 -3.613501E+01  2.180716E-03 4.022063E+01  2.235209E-03 4.151909E+01  9.757534E-01 -3.122068E+01 
4.318763E+02  9.777722E-01 -3.608088E+01  2.235879E-03 3.925212E+01  2.245587E-03 4.005793E+01  9.757534E-01 -3.122068E+01 
4.318794E+02  9.770165E-01 -3.621737E+01  2.274812E-03 4.083610E+01  2.283487E-03 4.167328E+01  9.762731E-01 -3.123989E+01 
4.318825E+02  9.763789E-01 -3.608728E+01  2.354197E-03 3.963154E+01  2.321761E-03 3.974644E+01  9.772696E-01 -3.119819E+01 
4.318856E+02  9.772303E-01 -3.612840E+01  2.364864E-03 3.791779E+01  2.440619E-03 3.794432E+01  9.747097E-01 -3.125787E+01 
4.318888E+02  9.781004E-01 -3.611333E+01  2.421174E-03 3.906293E+01  2.501637E-03 3.976852E+01  9.752641E-01 -3.125279E+01 
4.318919E+02  9.785446E-01 -3.617622E+01  2.509735E-03 3.889782E+01  2.516634E-03 3.545249E+01  9.760056E-01 -3.134167E+01 
4.318950E+02  9.778472E-01 -3.618395E+01  2.646071E-03 3.790917E+01  2.577554E-03 3.703154E+01  9.742809E-01 -3.119552E+01 
4.318981E+02  9.768987E-01 -3.619581E+01  2.652900E-03 3.805224E+01  2.721615E-03 3.719264E+01  9.757206E-01 -3.126587E+01 
4.319013E+02  9.778699E-01 -3.613425E+01  2.711797E-03 3.688904E+01  2.653386E-03 3.592669E+01  9.758398E-01 -3.125323E+01 
4.319044E+02  9.775468E-01 -3.613258E+01  2.754131E-03 3.595772E+01  2.872644E-03 3.428688E+01  9.756214E-01 -3.132184E+01 
4.319075E+02  9.775088E-01 -3.613863E+01  2.851778E-03 3.439886E+01  2.894482E-03 3.533825E+01  9.752984E-01 -3.133548E+01 
