! Matrix data file written by TouchstoneData, EPCOS AG
! FILENAME: "LU53A_NB.s2p"
! COMMENT: "(touchstone/LU53A_NB.s2p) EPCOS AG 30.06.201"
! INFO: nport=2, nfreq=801
! DATE: "Wed Jun 30 15:35:39 2010"
! USER: "Aleksander Breg"
!
! port | pin | signal
! -----|-----|--------
!   1  |  2  |  input
!   2  |  5  |  output
! --------------------
! 
# MHZ S MA R 50
! freq  magS11 angS11  magS21 angS21  magS12 angS12  magS22 angS22
3.095000E+02  9.808658E-01 -4.696296E+01  6.253852E-04 8.852143E+01  5.411440E-04 8.287579E+01  9.792266E-01 -4.655099E+01 
3.095125E+02  9.800998E-01 -4.694405E+01  5.156423E-04 9.342630E+01  5.595690E-04 8.348081E+01  9.795310E-01 -4.654660E+01 
3.095250E+02  9.804327E-01 -4.697248E+01  6.025758E-04 7.981908E+01  6.008367E-04 8.353806E+01  9.793010E-01 -4.654467E+01 
3.095375E+02  9.807057E-01 -4.694900E+01  5.785442E-04 7.422208E+01  6.399677E-04 7.965867E+01  9.794558E-01 -4.655565E+01 
3.095500E+02  9.806018E-01 -4.698699E+01  6.307189E-04 7.757076E+01  5.795267E-04 7.891567E+01  9.789417E-01 -4.657099E+01 
3.095625E+02  9.805296E-01 -4.699479E+01  6.146846E-04 8.444957E+01  5.808278E-04 8.608419E+01  9.790761E-01 -4.658007E+01 
3.095750E+02  9.803058E-01 -4.700646E+01  6.161758E-04 7.333604E+01  5.739413E-04 7.803967E+01  9.793233E-01 -4.657247E+01 
3.095875E+02  9.806780E-01 -4.697182E+01  6.550886E-04 7.653683E+01  6.534394E-04 7.406002E+01  9.793691E-01 -4.658369E+01 
3.096000E+02  9.804212E-01 -4.700502E+01  6.742802E-04 6.856046E+01  6.730180E-04 7.782952E+01  9.796341E-01 -4.660904E+01 
3.096125E+02  9.804473E-01 -4.699426E+01  6.476452E-04 6.781326E+01  6.116414E-04 6.704464E+01  9.792681E-01 -4.659866E+01 
3.096250E+02  9.805301E-01 -4.700157E+01  6.959736E-04 6.929320E+01  6.276593E-04 6.927187E+01  9.788083E-01 -4.659517E+01 
3.096375E+02  9.806934E-01 -4.703463E+01  7.277661E-04 6.367962E+01  7.023011E-04 6.752676E+01  9.792458E-01 -4.660565E+01 
3.096500E+02  9.809152E-01 -4.701580E+01  6.569292E-04 6.377018E+01  6.672383E-04 6.401237E+01  9.788245E-01 -4.660542E+01 
3.096625E+02  9.811784E-01 -4.703687E+01  6.683183E-04 6.655257E+01  7.196752E-04 6.291285E+01  9.786040E-01 -4.662736E+01 
3.096750E+02  9.806872E-01 -4.699978E+01  6.422447E-04 5.807027E+01  7.221658E-04 6.312998E+01  9.790465E-01 -4.661978E+01 
3.096875E+02  9.808944E-01 -4.700698E+01  6.551672E-04 5.966260E+01  7.139356E-04 6.140304E+01  9.785019E-01 -4.664222E+01 
3.097000E+02  9.808049E-01 -4.702936E+01  7.118941E-04 5.343471E+01  7.101547E-04 5.928941E+01  9.789912E-01 -4.663500E+01 
3.097125E+02  9.814056E-01 -4.702934E+01  6.782743E-04 5.995281E+01  7.143336E-04 5.292298E+01  9.789993E-01 -4.664628E+01 
3.097250E+02  9.809309E-01 -4.700243E+01  7.236099E-04 5.378757E+01  6.877956E-04 5.528008E+01  9.787404E-01 -4.663392E+01 
3.097375E+02  9.806116E-01 -4.703718E+01  7.389062E-04 5.428432E+01  7.036063E-04 5.469542E+01  9.787518E-01 -4.665407E+01 
3.097500E+02  9.811753E-01 -4.704233E+01  6.802539E-04 5.643720E+01  6.824619E-04 4.982208E+01  9.783085E-01 -4.662594E+01 
3.097625E+02  9.804938E-01 -4.705141E+01  6.617000E-04 5.227763E+01  7.151575E-04 4.915971E+01  9.787559E-01 -4.667626E+01 
3.097750E+02  9.808077E-01 -4.704685E+01  7.348600E-04 4.555776E+01  6.706659E-04 4.617234E+01  9.787061E-01 -4.666748E+01 
3.097875E+02  9.808153E-01 -4.705562E+01  7.676972E-04 4.780068E+01  6.937208E-04 4.734191E+01  9.784725E-01 -4.668280E+01 
3.098000E+02  9.813375E-01 -4.708853E+01  7.020534E-04 4.353309E+01  6.869618E-04 4.772861E+01  9.784281E-01 -4.670467E+01 
3.098125E+02  9.809441E-01 -4.710456E+01  6.510418E-04 4.419752E+01  7.066645E-04 4.374581E+01  9.781621E-01 -4.667481E+01 
3.098250E+02  9.810108E-01 -4.710002E+01  6.698919E-04 3.968014E+01  6.937886E-04 4.116738E+01  9.781223E-01 -4.668795E+01 
3.098375E+02  9.810208E-01 -4.711159E+01  7.543033E-04 3.097805E+01  6.592624E-04 3.424136E+01  9.783230E-01 -4.670124E+01 
3.098500E+02  9.811700E-01 -4.709566E+01  5.979441E-04 3.691746E+01  6.543986E-04 3.509389E+01  9.783799E-01 -4.671636E+01 
3.098625E+02  9.810480E-01 -4.712111E+01  6.688229E-04 3.381724E+01  6.485655E-04 3.075953E+01  9.781662E-01 -4.670004E+01 
3.098750E+02  9.803236E-01 -4.709895E+01  6.967443E-04 3.257829E+01  6.817128E-04 3.022594E+01  9.782569E-01 -4.669398E+01 
3.098875E+02  9.806527E-01 -4.713001E+01  6.535157E-04 2.832957E+01  6.342737E-04 2.461960E+01  9.779099E-01 -4.673149E+01 
3.099000E+02  9.805542E-01 -4.710590E+01  7.142589E-04 2.607035E+01  6.282526E-04 2.448117E+01  9.782581E-01 -4.671589E+01 
3.099125E+02  9.807318E-01 -4.714804E+01  6.196656E-04 2.853136E+01  6.159684E-04 2.114054E+01  9.777111E-01 -4.673267E+01 
3.099250E+02  9.805693E-01 -4.712423E+01  6.390824E-04 2.069746E+01  6.396912E-04 2.124234E+01  9.778052E-01 -4.670106E+01 
3.099375E+02  9.802913E-01 -4.716317E+01  5.935526E-04 1.460687E+01  5.762070E-04 1.930028E+01  9.776901E-01 -4.673328E+01 
3.099500E+02  9.804918E-01 -4.716146E+01  6.062455E-04 1.520377E+01  5.402850E-04 2.200638E+01  9.778019E-01 -4.672199E+01 
3.099625E+02  9.807277E-01 -4.713211E+01  5.699703E-04 6.142227E+00  5.680539E-04 1.229216E+01  9.776525E-01 -4.675576E+01 
3.099750E+02  9.803871E-01 -4.713568E+01  5.716297E-04 9.570767E+00  5.586861E-04 1.115021E+01  9.769896E-01 -4.674188E+01 
3.099875E+02  9.803984E-01 -4.716658E+01  5.916600E-04 9.554941E+00  5.264002E-04 7.195764E+00  9.774355E-01 -4.672821E+01 
3.100000E+02  9.800882E-01 -4.714329E+01  4.717212E-04 5.785813E+00  5.400410E-04 4.959885E+00  9.771318E-01 -4.672709E+01 
3.100125E+02  9.805863E-01 -4.718243E+01  4.834686E-04 8.680810E+00  5.109162E-04 6.222694E+00  9.775569E-01 -4.674242E+01 
3.100250E+02  9.801341E-01 -4.716929E+01  4.973768E-04 2.663514E+00  4.995901E-04 6.030894E+00  9.776828E-01 -4.674745E+01 
3.100375E+02  9.798542E-01 -4.715059E+01  4.814783E-04 -1.965241E+00  4.783718E-04 9.287161E-01  9.772699E-01 -4.674065E+01 
3.100500E+02  9.798519E-01 -4.717072E+01  4.873468E-04 1.248730E+00  5.298015E-04 -8.983546E-01  9.773523E-01 -4.674130E+01 
3.100625E+02  9.797533E-01 -4.720528E+01  4.481768E-04 -4.733706E+00  5.044012E-04 -5.441745E+00  9.773153E-01 -4.675389E+01 
3.100750E+02  9.801991E-01 -4.717953E+01  4.178319E-04 1.599623E+00  4.849297E-04 -2.894851E+00  9.773582E-01 -4.674181E+01 
3.100875E+02  9.800011E-01 -4.718309E+01  4.589146E-04 -6.332330E+00  4.603922E-04 -2.601269E+00  9.772823E-01 -4.677485E+01 
3.101000E+02  9.800252E-01 -4.721489E+01  4.366452E-04 -1.619264E+01  4.484969E-04 -1.505202E+01  9.771301E-01 -4.678606E+01 
3.101125E+02  9.803927E-01 -4.719491E+01  4.448021E-04 -2.016509E+01  4.325796E-04 -1.313317E+01  9.770682E-01 -4.676682E+01 
3.101250E+02  9.801752E-01 -4.721259E+01  3.681581E-04 -2.129864E+01  4.196394E-04 -1.611956E+01  9.776681E-01 -4.676964E+01 
3.101375E+02  9.801128E-01 -4.719728E+01  4.188717E-04 -2.909859E+01  4.392337E-04 -2.295122E+01  9.773509E-01 -4.676773E+01 
3.101500E+02  9.799852E-01 -4.720362E+01  4.260887E-04 -3.651384E+01  3.976367E-04 -2.786122E+01  9.771492E-01 -4.677065E+01 
3.101625E+02  9.799646E-01 -4.719708E+01  3.602417E-04 -3.241194E+01  4.053486E-04 -3.939574E+01  9.768320E-01 -4.679250E+01 
3.101750E+02  9.797336E-01 -4.720796E+01  3.490003E-04 -3.817053E+01  3.472890E-04 -3.765533E+01  9.772549E-01 -4.678655E+01 
3.101875E+02  9.799783E-01 -4.722685E+01  4.031117E-04 -4.474131E+01  3.598155E-04 -4.153639E+01  9.771621E-01 -4.679702E+01 
3.102000E+02  9.798777E-01 -4.723091E+01  3.681227E-04 -5.414070E+01  3.716191E-04 -5.273344E+01  9.770023E-01 -4.681252E+01 
3.102125E+02  9.799801E-01 -4.723882E+01  4.106125E-04 -6.289812E+01  4.221098E-04 -5.731284E+01  9.766973E-01 -4.679083E+01 
3.102250E+02  9.796928E-01 -4.723431E+01  3.750187E-04 -7.187882E+01  3.822633E-04 -7.146039E+01  9.769392E-01 -4.678824E+01 
3.102375E+02  9.796392E-01 -4.724152E+01  4.180264E-04 -6.316627E+01  3.482516E-04 -8.282191E+01  9.768781E-01 -4.681611E+01 
3.102500E+02  9.800927E-01 -4.724499E+01  4.103163E-04 -8.233997E+01  4.515419E-04 -7.965580E+01  9.768064E-01 -4.679951E+01 
3.102625E+02  9.798746E-01 -4.726110E+01  3.858417E-04 -8.882672E+01  4.208099E-04 -9.794655E+01  9.766893E-01 -4.682234E+01 
3.102750E+02  9.799205E-01 -4.725412E+01  3.842681E-04 -9.699547E+01  4.308220E-04 -9.871287E+01  9.768650E-01 -4.681279E+01 
3.102875E+02  9.802967E-01 -4.724992E+01  4.044715E-04 -1.060933E+02  3.949273E-04 -1.034768E+02  9.767077E-01 -4.683609E+01 
3.103000E+02  9.800790E-01 -4.728267E+01  4.901314E-04 -1.233008E+02  3.873610E-04 -1.171790E+02  9.766167E-01 -4.683199E+01 
3.103125E+02  9.800894E-01 -4.727357E+01  4.746016E-04 -1.128391E+02  4.881122E-04 -1.188281E+02  9.767633E-01 -4.682554E+01 
3.103250E+02  9.802378E-01 -4.730316E+01  4.728973E-04 -1.269582E+02  4.842413E-04 -1.281765E+02  9.770090E-01 -4.683601E+01 
3.103375E+02  9.805227E-01 -4.731443E+01  4.548741E-04 -1.315554E+02  5.170211E-04 -1.352814E+02  9.773863E-01 -4.685955E+01 
3.103500E+02  9.798597E-01 -4.730441E+01  5.562455E-04 -1.392158E+02  5.323475E-04 -1.366882E+02  9.771718E-01 -4.683931E+01 
3.103625E+02  9.800138E-01 -4.730012E+01  5.956404E-04 -1.483101E+02  5.956248E-04 -1.443177E+02  9.770786E-01 -4.683623E+01 
3.103750E+02  9.801407E-01 -4.731741E+01  5.923200E-04 -1.472378E+02  5.677621E-04 -1.512662E+02  9.770615E-01 -4.684553E+01 
3.103875E+02  9.796725E-01 -4.733672E+01  6.115276E-04 -1.542922E+02  6.118394E-04 -1.527182E+02  9.769823E-01 -4.686329E+01 
3.104000E+02  9.798185E-01 -4.734107E+01  6.485191E-04 -1.565745E+02  6.480620E-04 -1.615569E+02  9.771443E-01 -4.688686E+01 
3.104125E+02  9.796127E-01 -4.735026E+01  6.792544E-04 -1.677286E+02  7.178805E-04 -1.627551E+02  9.772265E-01 -4.687221E+01 
3.104250E+02  9.797519E-01 -4.732925E+01  7.466006E-04 -1.663241E+02  7.846287E-04 -1.676015E+02  9.769734E-01 -4.690122E+01 
3.104375E+02  9.799726E-01 -4.734541E+01  8.036696E-04 -1.745522E+02  8.245320E-04 -1.705667E+02  9.764755E-01 -4.690894E+01 
3.104500E+02  9.794357E-01 -4.736871E+01  8.376175E-04 -1.725735E+02  8.282691E-04 -1.733200E+02  9.766280E-01 -4.690910E+01 
3.104625E+02  9.796542E-01 -4.737386E+01  9.000186E-04 -1.769741E+02  8.726176E-04 -1.750689E+02  9.763258E-01 -4.689270E+01 
3.104750E+02  9.793688E-01 -4.741987E+01  8.797519E-04 1.794697E+02  9.042561E-04 -1.775340E+02  9.765880E-01 -4.692752E+01 
3.104875E+02  9.793209E-01 -4.737906E+01  1.029011E-03 1.771002E+02  9.921569E-04 1.785992E+02  9.765543E-01 -4.693867E+01 
3.105000E+02  9.797238E-01 -4.742196E+01  1.091063E-03 1.765234E+02  1.055909E-03 1.789325E+02  9.761992E-01 -4.695166E+01 
3.105125E+02  9.787872E-01 -4.741805E+01  1.131786E-03 1.753505E+02  1.162800E-03 1.722070E+02  9.761915E-01 -4.693296E+01 
3.105250E+02  9.794717E-01 -4.743745E+01  1.243477E-03 1.697186E+02  1.251848E-03 1.696289E+02  9.761925E-01 -4.693450E+01 
3.105375E+02  9.795644E-01 -4.741820E+01  1.290367E-03 1.674878E+02  1.326087E-03 1.650227E+02  9.761720E-01 -4.694112E+01 
3.105500E+02  9.788750E-01 -4.745513E+01  1.415826E-03 1.608137E+02  1.408784E-03 1.633842E+02  9.753018E-01 -4.697072E+01 
3.105625E+02  9.784067E-01 -4.741762E+01  1.505700E-03 1.576387E+02  1.484745E-03 1.575310E+02  9.757473E-01 -4.695494E+01 
3.105750E+02  9.786871E-01 -4.747268E+01  1.588549E-03 1.538680E+02  1.668932E-03 1.567775E+02  9.754873E-01 -4.696901E+01 
3.105875E+02  9.787726E-01 -4.745747E+01  1.741751E-03 1.519989E+02  1.682177E-03 1.506122E+02  9.752385E-01 -4.697456E+01 
3.106000E+02  9.782585E-01 -4.746756E+01  1.824313E-03 1.477629E+02  1.770658E-03 1.468871E+02  9.749649E-01 -4.698772E+01 
3.106125E+02  9.783427E-01 -4.744444E+01  1.888819E-03 1.425698E+02  1.891353E-03 1.428387E+02  9.749405E-01 -4.699368E+01 
3.106250E+02  9.783219E-01 -4.743724E+01  2.003317E-03 1.368279E+02  2.041602E-03 1.388585E+02  9.750007E-01 -4.696950E+01 
3.106375E+02  9.781230E-01 -4.746342E+01  2.110780E-03 1.334028E+02  2.172315E-03 1.349722E+02  9.745788E-01 -4.696714E+01 
3.106500E+02  9.778143E-01 -4.746460E+01  2.208208E-03 1.281387E+02  2.214499E-03 1.283572E+02  9.743194E-01 -4.697283E+01 
3.106625E+02  9.779939E-01 -4.746807E+01  2.375129E-03 1.252730E+02  2.352345E-03 1.250611E+02  9.741068E-01 -4.693988E+01 
3.106750E+02  9.774810E-01 -4.746893E+01  2.407041E-03 1.199655E+02  2.420996E-03 1.195678E+02  9.747102E-01 -4.698135E+01 
3.106875E+02  9.775007E-01 -4.747237E+01  2.593971E-03 1.145963E+02  2.500145E-03 1.145971E+02  9.742533E-01 -4.692847E+01 
3.107000E+02  9.775952E-01 -4.747000E+01  2.562872E-03 1.109523E+02  2.544863E-03 1.107166E+02  9.743878E-01 -4.693114E+01 
3.107125E+02  9.771691E-01 -4.745887E+01  2.604117E-03 1.047293E+02  2.604117E-03 1.054335E+02  9.743823E-01 -4.690222E+01 
3.107250E+02  9.774836E-01 -4.748517E+01  2.651617E-03 1.004383E+02  2.702035E-03 1.000683E+02  9.743284E-01 -4.692476E+01 
3.107375E+02  9.775663E-01 -4.743478E+01  2.685185E-03 9.516660E+01  2.775978E-03 9.554853E+01  9.746036E-01 -4.691524E+01 
3.107500E+02  9.774215E-01 -4.745506E+01  2.733616E-03 9.115250E+01  2.734496E-03 9.079974E+01  9.747104E-01 -4.689214E+01 
3.107625E+02  9.775298E-01 -4.748138E+01  2.801877E-03 8.460390E+01  2.689647E-03 8.539440E+01  9.745390E-01 -4.691444E+01 
3.107750E+02  9.769437E-01 -4.743003E+01  2.803174E-03 8.128523E+01  2.804280E-03 8.092663E+01  9.752491E-01 -4.689655E+01 
3.107875E+02  9.772483E-01 -4.747028E+01  2.767432E-03 7.874859E+01  2.746238E-03 7.702139E+01  9.751164E-01 -4.689927E+01 
3.108000E+02  9.774188E-01 -4.745486E+01  2.783178E-03 7.458933E+01  2.742015E-03 7.251307E+01  9.753688E-01 -4.688496E+01 
3.108125E+02  9.773023E-01 -4.746124E+01  2.737597E-03 7.004258E+01  2.788010E-03 6.868561E+01  9.755439E-01 -4.690011E+01 
3.108250E+02  9.770086E-01 -4.746574E+01  2.794558E-03 6.529744E+01  2.761398E-03 6.498076E+01  9.752206E-01 -4.689040E+01 
3.108375E+02  9.772649E-01 -4.745036E+01  2.773589E-03 6.216862E+01  2.715333E-03 6.258232E+01  9.760015E-01 -4.689731E+01 
3.108500E+02  9.771288E-01 -4.748419E+01  2.749883E-03 5.757175E+01  2.752996E-03 5.725769E+01  9.756845E-01 -4.691894E+01 
3.108625E+02  9.770590E-01 -4.744341E+01  2.628525E-03 5.551281E+01  2.644872E-03 5.657682E+01  9.754949E-01 -4.694530E+01 
3.108750E+02  9.771435E-01 -4.747072E+01  2.657909E-03 5.205351E+01  2.636774E-03 5.083406E+01  9.762985E-01 -4.694934E+01 
3.108875E+02  9.776646E-01 -4.748495E+01  2.703976E-03 4.850199E+01  2.661484E-03 4.740063E+01  9.764135E-01 -4.693694E+01 
3.109000E+02  9.775759E-01 -4.748481E+01  2.654762E-03 4.497471E+01  2.606004E-03 4.520278E+01  9.761763E-01 -4.695426E+01 
3.109125E+02  9.769777E-01 -4.747272E+01  2.684589E-03 4.143902E+01  2.645058E-03 4.053044E+01  9.762196E-01 -4.694696E+01 
3.109250E+02  9.773111E-01 -4.747867E+01  2.588334E-03 3.877627E+01  2.679057E-03 3.736732E+01  9.765641E-01 -4.698838E+01 
3.109375E+02  9.776159E-01 -4.748992E+01  2.550826E-03 3.252458E+01  2.591425E-03 3.358981E+01  9.757775E-01 -4.696975E+01 
3.109500E+02  9.776930E-01 -4.751079E+01  2.613992E-03 3.061734E+01  2.575008E-03 2.863938E+01  9.761023E-01 -4.697891E+01 
3.109625E+02  9.775970E-01 -4.749040E+01  2.545338E-03 2.557338E+01  2.533756E-03 2.425259E+01  9.760926E-01 -4.699589E+01 
3.109750E+02  9.776155E-01 -4.752227E+01  2.537929E-03 2.150433E+01  2.562034E-03 2.196723E+01  9.761253E-01 -4.697724E+01 
3.109875E+02  9.773307E-01 -4.752466E+01  2.545730E-03 1.803826E+01  2.473555E-03 1.820349E+01  9.761810E-01 -4.695968E+01 
3.110000E+02  9.773710E-01 -4.750167E+01  2.519356E-03 1.273886E+01  2.388920E-03 1.316977E+01  9.765434E-01 -4.700357E+01 
3.110125E+02  9.773151E-01 -4.751023E+01  2.469952E-03 9.511093E+00  2.371706E-03 7.781594E+00  9.758560E-01 -4.700281E+01 
3.110250E+02  9.773228E-01 -4.752508E+01  2.417697E-03 4.750112E+00  2.318256E-03 4.480589E+00  9.756626E-01 -4.702981E+01 
3.110375E+02  9.771208E-01 -4.752572E+01  2.238554E-03 5.415727E-01  2.303065E-03 -1.368013E+00  9.763533E-01 -4.701578E+01 
3.110500E+02  9.773425E-01 -4.751592E+01  2.244653E-03 -5.522931E+00  2.175032E-03 -4.640504E+00  9.764848E-01 -4.704770E+01 
3.110625E+02  9.768844E-01 -4.750002E+01  2.065115E-03 -7.485739E+00  2.063878E-03 -9.642751E+00  9.763319E-01 -4.702718E+01 
3.110750E+02  9.772336E-01 -4.749537E+01  1.928108E-03 -1.268402E+01  1.959395E-03 -1.356661E+01  9.766515E-01 -4.704871E+01 
3.110875E+02  9.773883E-01 -4.751043E+01  1.812010E-03 -1.375316E+01  1.766836E-03 -1.462946E+01  9.762627E-01 -4.703627E+01 
3.111000E+02  9.776241E-01 -4.750906E+01  1.719185E-03 -1.737774E+01  1.651562E-03 -1.973408E+01  9.766003E-01 -4.704682E+01 
3.111125E+02  9.775599E-01 -4.751411E+01  1.536427E-03 -2.040197E+01  1.534728E-03 -2.149808E+01  9.767850E-01 -4.705913E+01 
3.111250E+02  9.783713E-01 -4.751804E+01  1.508953E-03 -2.102785E+01  1.460221E-03 -2.209908E+01  9.767007E-01 -4.704815E+01 
3.111375E+02  9.779677E-01 -4.751253E+01  1.418286E-03 -1.907908E+01  1.391032E-03 -2.204245E+01  9.769688E-01 -4.706799E+01 
3.111500E+02  9.785094E-01 -4.753098E+01  1.294861E-03 -2.264967E+01  1.328074E-03 -1.998345E+01  9.773271E-01 -4.708024E+01 
3.111625E+02  9.785241E-01 -4.755443E+01  1.309777E-03 -1.938334E+01  1.307517E-03 -2.251441E+01  9.769448E-01 -4.711948E+01 
3.111750E+02  9.786032E-01 -4.756350E+01  1.216356E-03 -1.784237E+01  1.220021E-03 -2.022303E+01  9.766677E-01 -4.711474E+01 
3.111875E+02  9.786077E-01 -4.755436E+01  1.331623E-03 -2.046690E+01  1.218985E-03 -2.037880E+01  9.770590E-01 -4.712294E+01 
3.112000E+02  9.788985E-01 -4.756312E+01  1.294215E-03 -2.034051E+01  1.332245E-03 -1.886597E+01  9.771820E-01 -4.713707E+01 
3.112125E+02  9.783454E-01 -4.759152E+01  1.353219E-03 -1.909906E+01  1.373268E-03 -2.130465E+01  9.767200E-01 -4.714049E+01 
3.112250E+02  9.784910E-01 -4.757603E+01  1.394406E-03 -2.218044E+01  1.317824E-03 -2.302326E+01  9.771775E-01 -4.714955E+01 
3.112375E+02  9.782414E-01 -4.761316E+01  1.496510E-03 -2.726617E+01  1.368796E-03 -2.470342E+01  9.764935E-01 -4.718134E+01 
3.112500E+02  9.782423E-01 -4.762780E+01  1.494496E-03 -2.995608E+01  1.507028E-03 -3.116542E+01  9.761753E-01 -4.717219E+01 
3.112625E+02  9.782958E-01 -4.761299E+01  1.564778E-03 -3.524989E+01  1.551094E-03 -3.358202E+01  9.761839E-01 -4.717037E+01 
3.112750E+02  9.785116E-01 -4.762714E+01  1.628787E-03 -3.926032E+01  1.586223E-03 -3.831695E+01  9.762575E-01 -4.716656E+01 
3.112875E+02  9.786772E-01 -4.762461E+01  1.613843E-03 -4.393035E+01  1.706744E-03 -4.345159E+01  9.760658E-01 -4.716956E+01 
3.113000E+02  9.779258E-01 -4.762217E+01  1.751145E-03 -5.112324E+01  1.749301E-03 -4.999026E+01  9.764551E-01 -4.718062E+01 
3.113125E+02  9.784166E-01 -4.764404E+01  1.645439E-03 -5.692217E+01  1.719478E-03 -5.573615E+01  9.759879E-01 -4.717133E+01 
3.113250E+02  9.783966E-01 -4.760628E+01  1.750154E-03 -6.466159E+01  1.752534E-03 -6.271393E+01  9.762166E-01 -4.716881E+01 
3.113375E+02  9.783841E-01 -4.760848E+01  1.694659E-03 -7.174467E+01  1.765349E-03 -7.153290E+01  9.763108E-01 -4.716453E+01 
3.113500E+02  9.783940E-01 -4.763719E+01  1.724701E-03 -7.977793E+01  1.709478E-03 -7.786759E+01  9.761694E-01 -4.717862E+01 
3.113625E+02  9.783188E-01 -4.766734E+01  1.623709E-03 -8.663689E+01  1.638769E-03 -8.738516E+01  9.763221E-01 -4.717090E+01 
3.113750E+02  9.790506E-01 -4.764634E+01  1.590601E-03 -9.392656E+01  1.570410E-03 -9.278628E+01  9.766966E-01 -4.720465E+01 
3.113875E+02  9.789888E-01 -4.767840E+01  1.517132E-03 -1.030248E+02  1.483419E-03 -1.020820E+02  9.768924E-01 -4.718291E+01 
3.114000E+02  9.791066E-01 -4.768668E+01  1.437286E-03 -1.074222E+02  1.413540E-03 -1.064263E+02  9.768320E-01 -4.719613E+01 
3.114125E+02  9.791910E-01 -4.768761E+01  1.336577E-03 -1.110403E+02  1.361635E-03 -1.152276E+02  9.771433E-01 -4.721175E+01 
3.114250E+02  9.790187E-01 -4.770196E+01  1.339520E-03 -1.172508E+02  1.363260E-03 -1.201582E+02  9.776341E-01 -4.721198E+01 
3.114375E+02  9.791777E-01 -4.771177E+01  1.279779E-03 -1.254097E+02  1.286751E-03 -1.228718E+02  9.773037E-01 -4.725604E+01 
