! Matrix data file written by TouchstoneData, EPCOS AG
! FILENAME: "newformat_B3782_WB.s2p"
! COMMENT: "INPUT PIN2; OUTPUT PIN5; POTREX1 91PS;PORTEX"
! INFO: nport=2, nfreq=401
! DATE: "Wed Sep 19 15:44:16 2012"
! USER: "Wilfried Schott"
!
! port | pin | signal
! -----|-----|--------
!   1  |  2  |  IN
!   2  |  5  |  OUT
! --------------------
! 
# MHZ S MA R 50
! freq  magS11 angS11  magS21 angS21  magS12 angS12  magS22 angS22
3.839700E+02  9.830302E-01 -3.796573E+01  2.989455E-04 5.511301E+01  3.052003E-04 5.632729E+01  9.803029E-01 -3.490452E+01 
3.842200E+02  9.829897E-01 -3.798930E+01  2.668840E-04 5.507011E+01  2.723155E-04 5.474839E+01  9.803169E-01 -3.492749E+01 
3.844700E+02  9.830870E-01 -3.801895E+01  2.599288E-04 5.796400E+01  2.669850E-04 5.925969E+01  9.800995E-01 -3.495987E+01 
3.847200E+02  9.831245E-01 -3.804046E+01  2.699840E-04 5.904368E+01  2.709099E-04 6.084499E+01  9.802745E-01 -3.498198E+01 
3.849700E+02  9.829026E-01 -3.807233E+01  2.817047E-04 6.037912E+01  2.820904E-04 6.053749E+01  9.802109E-01 -3.500705E+01 
3.852200E+02  9.828694E-01 -3.810023E+01  2.859253E-04 5.885507E+01  2.784231E-04 5.910467E+01  9.802306E-01 -3.503685E+01 
3.854700E+02  9.829726E-01 -3.812876E+01  2.830316E-04 5.426718E+01  2.844703E-04 5.708906E+01  9.801720E-01 -3.506071E+01 
3.857200E+02  9.828513E-01 -3.816584E+01  2.745441E-04 5.516503E+01  2.769414E-04 5.578597E+01  9.801140E-01 -3.508787E+01 
3.859700E+02  9.829398E-01 -3.818840E+01  2.635991E-04 5.660055E+01  2.651596E-04 5.752257E+01  9.801403E-01 -3.511481E+01 
3.862200E+02  9.830113E-01 -3.821449E+01  2.551249E-04 5.863595E+01  2.637743E-04 5.810214E+01  9.801733E-01 -3.514365E+01 
3.864700E+02  9.828494E-01 -3.824980E+01  2.632732E-04 5.715084E+01  2.657694E-04 5.878443E+01  9.801152E-01 -3.516867E+01 
3.867200E+02  9.828287E-01 -3.825746E+01  2.651999E-04 6.073028E+01  2.657884E-04 5.956704E+01  9.799515E-01 -3.520297E+01 
3.869700E+02  9.827932E-01 -3.829464E+01  2.583141E-04 5.992701E+01  2.647782E-04 5.964033E+01  9.800361E-01 -3.522037E+01 
3.872200E+02  9.828427E-01 -3.831925E+01  2.609615E-04 5.738726E+01  2.514556E-04 5.951522E+01  9.800111E-01 -3.525191E+01 
3.874700E+02  9.828355E-01 -3.834256E+01  2.511755E-04 6.094107E+01  2.592534E-04 6.079092E+01  9.798932E-01 -3.527503E+01 
3.877200E+02  9.827003E-01 -3.838076E+01  2.578490E-04 6.261080E+01  2.599580E-04 6.212571E+01  9.798824E-01 -3.530886E+01 
3.879700E+02  9.827940E-01 -3.840588E+01  2.697373E-04 6.152966E+01  2.652377E-04 6.243563E+01  9.800858E-01 -3.532659E+01 
3.882200E+02  9.827044E-01 -3.842314E+01  2.618440E-04 6.136469E+01  2.598113E-04 6.213116E+01  9.799098E-01 -3.535928E+01 
3.884700E+02  9.825710E-01 -3.846028E+01  2.821818E-04 6.500679E+01  2.760441E-04 6.491111E+01  9.800105E-01 -3.538299E+01 
3.887200E+02  9.826932E-01 -3.848475E+01  2.884626E-04 6.237005E+01  2.926956E-04 6.253826E+01  9.799825E-01 -3.540179E+01 
3.889700E+02  9.825397E-01 -3.851427E+01  2.903697E-04 5.857798E+01  2.936172E-04 5.846553E+01  9.799000E-01 -3.543575E+01 
3.892200E+02  9.826788E-01 -3.854035E+01  2.816680E-04 5.609661E+01  2.832911E-04 5.821166E+01  9.798325E-01 -3.546507E+01 
3.894700E+02  9.826440E-01 -3.856453E+01  2.827049E-04 5.461566E+01  2.875100E-04 5.332800E+01  9.798599E-01 -3.549239E+01 
3.897200E+02  9.825978E-01 -3.859270E+01  2.669717E-04 5.309255E+01  2.714843E-04 5.406789E+01  9.799792E-01 -3.550933E+01 
3.899700E+02  9.825686E-01 -3.862376E+01  2.499595E-04 5.607820E+01  2.603803E-04 5.445784E+01  9.799786E-01 -3.554074E+01 
3.902200E+02  9.824242E-01 -3.864335E+01  2.639574E-04 5.266684E+01  2.688452E-04 5.355877E+01  9.798025E-01 -3.557295E+01 
3.904700E+02  9.825709E-01 -3.867322E+01  2.654599E-04 5.103834E+01  2.601233E-04 5.139968E+01  9.799325E-01 -3.560056E+01 
3.907200E+02  9.824474E-01 -3.870025E+01  2.514161E-04 4.732303E+01  2.425620E-04 4.736018E+01  9.798172E-01 -3.562267E+01 
3.909700E+02  9.823421E-01 -3.872738E+01  2.056153E-04 4.740468E+01  2.045704E-04 4.625029E+01  9.797704E-01 -3.565580E+01 
3.912200E+02  9.822676E-01 -3.874855E+01  1.831156E-04 5.377121E+01  1.732497E-04 5.314911E+01  9.797750E-01 -3.567738E+01 
3.914700E+02  9.823853E-01 -3.877991E+01  1.814480E-04 6.731621E+01  1.876106E-04 7.075374E+01  9.796642E-01 -3.570269E+01 
3.917200E+02  9.824048E-01 -3.881493E+01  2.200806E-04 7.310056E+01  2.144076E-04 7.491478E+01  9.797602E-01 -3.572854E+01 
3.919700E+02  9.824376E-01 -3.884029E+01  2.417430E-04 7.168023E+01  2.390368E-04 7.351424E+01  9.797718E-01 -3.576492E+01 
3.922200E+02  9.825337E-01 -3.886544E+01  2.745333E-04 6.736063E+01  2.746698E-04 6.980372E+01  9.797136E-01 -3.578764E+01 
3.924700E+02  9.823584E-01 -3.889283E+01  2.782705E-04 6.536956E+01  2.824950E-04 6.579257E+01  9.797561E-01 -3.580655E+01 
3.927200E+02  9.825428E-01 -3.891440E+01  2.805886E-04 5.910423E+01  2.748527E-04 5.819169E+01  9.797747E-01 -3.583189E+01 
3.929700E+02  9.822620E-01 -3.894765E+01  2.756991E-04 5.372074E+01  2.717596E-04 5.514510E+01  9.797666E-01 -3.586617E+01 
3.932200E+02  9.823444E-01 -3.897128E+01  2.439067E-04 5.243882E+01  2.464221E-04 5.257361E+01  9.797734E-01 -3.588931E+01 
3.934700E+02  9.823786E-01 -3.899339E+01  2.212902E-04 5.606686E+01  2.318250E-04 5.683977E+01  9.797924E-01 -3.592347E+01 
3.937200E+02  9.823118E-01 -3.902746E+01  2.383720E-04 6.037817E+01  2.408971E-04 6.007733E+01  9.797909E-01 -3.594499E+01 
3.939700E+02  9.821473E-01 -3.905561E+01  2.515279E-04 5.872520E+01  2.455943E-04 6.027533E+01  9.796840E-01 -3.597624E+01 
3.942200E+02  9.822122E-01 -3.908213E+01  2.587614E-04 5.813350E+01  2.551332E-04 5.663484E+01  9.796116E-01 -3.599890E+01 
3.944700E+02  9.820820E-01 -3.909852E+01  2.439608E-04 4.532521E+01  2.427720E-04 4.682990E+01  9.796766E-01 -3.603226E+01 
3.947200E+02  9.822042E-01 -3.913780E+01  1.837003E-04 3.576018E+01  1.893507E-04 3.726535E+01  9.797305E-01 -3.605951E+01 
3.949700E+02  9.821566E-01 -3.915644E+01  9.867077E-05 5.461531E+01  9.874909E-05 5.432640E+01  9.794982E-01 -3.607886E+01 
3.952200E+02  9.822853E-01 -3.918532E+01  1.273888E-04 1.044038E+02  1.225537E-04 1.011946E+02  9.795305E-01 -3.610412E+01 
3.954700E+02  9.821153E-01 -3.920904E+01  2.234562E-04 1.066560E+02  2.224175E-04 1.069707E+02  9.794733E-01 -3.613539E+01 
3.957200E+02  9.821324E-01 -3.924002E+01  2.897908E-04 9.321187E+01  2.909980E-04 9.452823E+01  9.795545E-01 -3.615027E+01 
3.959700E+02  9.821589E-01 -3.926914E+01  3.214539E-04 8.480706E+01  3.204448E-04 8.518453E+01  9.795519E-01 -3.616832E+01 
3.962200E+02  9.820552E-01 -3.928497E+01  3.590929E-04 7.425600E+01  3.519323E-04 7.484062E+01  9.795448E-01 -3.621171E+01 
3.964700E+02  9.820356E-01 -3.932137E+01  3.496793E-04 6.553292E+01  3.531076E-04 6.589038E+01  9.794657E-01 -3.623108E+01 
3.967200E+02  9.820911E-01 -3.934621E+01  3.310776E-04 5.559731E+01  3.285607E-04 5.555082E+01  9.795092E-01 -3.625341E+01 
3.969700E+02  9.819851E-01 -3.937854E+01  2.791098E-04 5.205420E+01  2.834146E-04 5.140051E+01  9.796920E-01 -3.627712E+01 
3.972200E+02  9.820915E-01 -3.941150E+01  2.554178E-04 4.858460E+01  2.481450E-04 4.928211E+01  9.796078E-01 -3.630969E+01 
3.974700E+02  9.819763E-01 -3.942734E+01  1.956582E-04 5.312880E+01  1.956678E-04 5.334677E+01  9.796300E-01 -3.634402E+01 
3.977200E+02  9.819063E-01 -3.946239E+01  2.130489E-04 5.782728E+01  2.094020E-04 6.172666E+01  9.797529E-01 -3.637130E+01 
3.979700E+02  9.819393E-01 -3.948781E+01  2.252042E-04 6.148506E+01  2.308365E-04 6.057577E+01  9.796461E-01 -3.639568E+01 
3.982200E+02  9.818259E-01 -3.952209E+01  2.236008E-04 5.475015E+01  2.184134E-04 5.500991E+01  9.796709E-01 -3.642309E+01 
3.984700E+02  9.819311E-01 -3.955201E+01  1.948806E-04 4.825949E+01  1.831633E-04 4.821781E+01  9.796318E-01 -3.645479E+01 
3.987200E+02  9.817404E-01 -3.957639E+01  1.213413E-04 4.528017E+01  1.183168E-04 4.629007E+01  9.795811E-01 -3.648018E+01 
3.989700E+02  9.816936E-01 -3.959734E+01  9.710443E-05 1.081837E+02  9.396386E-05 1.049750E+02  9.796033E-01 -3.651643E+01 
3.992200E+02  9.817938E-01 -3.962286E+01  2.210320E-04 1.255825E+02  2.214859E-04 1.247694E+02  9.793497E-01 -3.653648E+01 
3.994700E+02  9.817720E-01 -3.964547E+01  3.426147E-04 1.070783E+02  3.451171E-04 1.062876E+02  9.792429E-01 -3.655544E+01 
3.997200E+02  9.818985E-01 -3.966331E+01  3.930745E-04 9.136490E+01  3.891542E-04 9.280439E+01  9.792261E-01 -3.656787E+01 
3.999700E+02  9.816828E-01 -3.970349E+01  4.029814E-04 7.831057E+01  4.033102E-04 7.941678E+01  9.793459E-01 -3.659865E+01 
4.002200E+02  9.818665E-01 -3.972663E+01  3.883471E-04 6.919992E+01  3.873771E-04 6.917759E+01  9.793550E-01 -3.662316E+01 
4.004700E+02  9.818228E-01 -3.974820E+01  3.722577E-04 6.141204E+01  3.706036E-04 6.103222E+01  9.795392E-01 -3.664850E+01 
4.007200E+02  9.817981E-01 -3.977897E+01  3.450406E-04 5.334623E+01  3.440175E-04 5.335155E+01  9.794689E-01 -3.666951E+01 
4.009700E+02  9.818686E-01 -3.980562E+01  2.892118E-04 4.541574E+01  2.808910E-04 4.520588E+01  9.793441E-01 -3.670372E+01 
4.012200E+02  9.818309E-01 -3.983493E+01  2.193200E-04 4.981834E+01  2.224084E-04 4.904729E+01  9.795887E-01 -3.672153E+01 
4.014700E+02  9.817574E-01 -3.986371E+01  2.076521E-04 6.062150E+01  2.159594E-04 5.867726E+01  9.794338E-01 -3.675312E+01 
4.017200E+02  9.817953E-01 -3.989456E+01  2.124925E-04 6.749080E+01  2.105103E-04 6.829485E+01  9.796067E-01 -3.678044E+01 
4.019700E+02  9.818700E-01 -3.991945E+01  2.301186E-04 6.862684E+01  2.344867E-04 6.812253E+01  9.794967E-01 -3.681314E+01 
4.022200E+02  9.817319E-01 -3.995392E+01  2.261337E-04 6.807690E+01  2.220261E-04 6.654866E+01  9.794141E-01 -3.683864E+01 
4.024700E+02  9.818003E-01 -3.998615E+01  2.078602E-04 7.064662E+01  2.121493E-04 6.978235E+01  9.795279E-01 -3.687218E+01 
4.027200E+02  9.816353E-01 -4.001431E+01  2.030660E-04 8.131882E+01  1.934645E-04 8.163465E+01  9.794962E-01 -3.690237E+01 
4.029700E+02  9.816669E-01 -4.003695E+01  2.145890E-04 9.629760E+01  2.148614E-04 9.719347E+01  9.793727E-01 -3.692703E+01 
4.032200E+02  9.815707E-01 -4.007218E+01  3.499835E-04 1.012078E+02  3.531203E-04 1.000412E+02  9.792427E-01 -3.695370E+01 
4.034700E+02  9.815012E-01 -4.009350E+01  4.616087E-04 8.362519E+01  4.551483E-04 8.336157E+01  9.792377E-01 -3.696887E+01 
4.037200E+02  9.815737E-01 -4.011141E+01  4.768014E-04 7.086223E+01  4.682503E-04 7.085165E+01  9.792361E-01 -3.699649E+01 
4.039700E+02  9.816391E-01 -4.013637E+01  4.680518E-04 5.704882E+01  4.516647E-04 5.730837E+01  9.791966E-01 -3.702313E+01 
4.042200E+02  9.814893E-01 -4.017061E+01  4.227180E-04 4.839835E+01  4.245488E-04 4.845813E+01  9.792173E-01 -3.703297E+01 
4.044700E+02  9.815520E-01 -4.019887E+01  3.719423E-04 4.155494E+01  3.725967E-04 4.015785E+01  9.792921E-01 -3.706887E+01 
4.047200E+02  9.814717E-01 -4.021554E+01  3.075336E-04 3.471085E+01  3.073661E-04 3.677680E+01  9.793602E-01 -3.709179E+01 
4.049700E+02  9.814400E-01 -4.024952E+01  2.617491E-04 2.965901E+01  2.585541E-04 2.852589E+01  9.793340E-01 -3.712298E+01 
4.052200E+02  9.815122E-01 -4.027086E+01  1.855941E-04 3.379075E+01  1.881751E-04 3.290056E+01  9.794435E-01 -3.714632E+01 
4.054700E+02  9.815295E-01 -4.030645E+01  1.615679E-04 5.569689E+01  1.587747E-04 5.548420E+01  9.794059E-01 -3.717870E+01 
4.057200E+02  9.815354E-01 -4.033521E+01  1.878266E-04 6.606333E+01  1.861358E-04 6.575396E+01  9.794485E-01 -3.721104E+01 
4.059700E+02  9.814764E-01 -4.036255E+01  2.218896E-04 6.963825E+01  2.143536E-04 6.958794E+01  9.793533E-01 -3.723479E+01 
4.062200E+02  9.815607E-01 -4.039284E+01  2.302425E-04 7.358497E+01  2.218108E-04 7.242844E+01  9.794103E-01 -3.726168E+01 
4.064700E+02  9.815516E-01 -4.042212E+01  2.577482E-04 7.236450E+01  2.594414E-04 7.329363E+01  9.792964E-01 -3.728952E+01 
4.067200E+02  9.816250E-01 -4.044700E+01  2.480939E-04 7.245833E+01  2.561450E-04 7.198994E+01  9.793633E-01 -3.732593E+01 
4.069700E+02  9.816521E-01 -4.048779E+01  3.097978E-04 7.577579E+01  3.058572E-04 7.589465E+01  9.792775E-01 -3.734918E+01 
4.072200E+02  9.813964E-01 -4.050970E+01  3.562022E-04 7.472574E+01  3.578242E-04 7.496533E+01  9.792049E-01 -3.737786E+01 
4.074700E+02  9.815313E-01 -4.053301E+01  4.275825E-04 6.102838E+01  4.260463E-04 6.103269E+01  9.791479E-01 -3.739575E+01 
4.077200E+02  9.814745E-01 -4.056517E+01  4.241558E-04 4.413935E+01  4.161886E-04 4.390538E+01  9.791377E-01 -3.742159E+01 
4.079700E+02  9.813732E-01 -4.058849E+01  3.494272E-04 2.918734E+01  3.571061E-04 2.992299E+01  9.790137E-01 -3.744897E+01 
4.082200E+02  9.813714E-01 -4.061740E+01  2.575104E-04 2.727230E+01  2.604305E-04 2.872503E+01  9.790992E-01 -3.746543E+01 
4.084700E+02  9.814563E-01 -4.064207E+01  2.181979E-04 3.182589E+01  2.142145E-04 3.190973E+01  9.790918E-01 -3.749990E+01 
4.087200E+02  9.813261E-01 -4.066956E+01  1.886563E-04 3.645441E+01  1.923713E-04 3.832351E+01  9.791746E-01 -3.751805E+01 
4.089700E+02  9.813665E-01 -4.070272E+01  1.779514E-04 4.870873E+01  1.826289E-04 4.813083E+01  9.792256E-01 -3.754485E+01 
4.092200E+02  9.814226E-01 -4.073294E+01  1.744733E-04 5.266058E+01  1.750870E-04 5.344619E+01  9.792676E-01 -3.757158E+01 
4.094700E+02  9.813873E-01 -4.075000E+01  1.798001E-04 5.953164E+01  1.857110E-04 6.347204E+01  9.793431E-01 -3.760946E+01 
4.097200E+02  9.814375E-01 -4.078578E+01  2.108588E-04 6.760325E+01  2.110724E-04 6.683629E+01  9.792416E-01 -3.763327E+01 
4.099700E+02  9.814611E-01 -4.081509E+01  2.224221E-04 6.541325E+01  2.307996E-04 6.613507E+01  9.793468E-01 -3.766514E+01 
4.102200E+02  9.813852E-01 -4.084969E+01  2.490929E-04 6.704409E+01  2.558606E-04 6.911674E+01  9.793309E-01 -3.769495E+01 
4.104700E+02  9.812681E-01 -4.087788E+01  2.827134E-04 6.416922E+01  2.871857E-04 6.344510E+01  9.791782E-01 -3.771449E+01 
4.107200E+02  9.813211E-01 -4.090806E+01  2.761611E-04 5.593477E+01  2.829754E-04 5.444127E+01  9.791465E-01 -3.774609E+01 
4.109700E+02  9.812775E-01 -4.093640E+01  3.041200E-04 5.753219E+01  3.024440E-04 5.704377E+01  9.791501E-01 -3.778031E+01 
4.112200E+02  9.812270E-01 -4.096337E+01  3.516387E-04 4.818512E+01  3.488075E-04 4.801988E+01  9.790769E-01 -3.780791E+01 
4.114700E+02  9.811791E-01 -4.099322E+01  3.683826E-04 3.403965E+01  3.521808E-04 3.358403E+01  9.790784E-01 -3.782791E+01 
4.117200E+02  9.810251E-01 -4.102078E+01  3.419916E-04 1.366271E+01  3.429079E-04 1.270369E+01  9.789789E-01 -3.785666E+01 
4.119700E+02  9.809910E-01 -4.104458E+01  2.159680E-04 -4.783745E+00  2.168290E-04 -7.000834E+00  9.789573E-01 -3.787571E+01 
4.122200E+02  9.810512E-01 -4.107188E+01  1.028243E-04 -2.588338E+01  9.866328E-05 -2.308517E+01  9.789680E-01 -3.790642E+01 
4.124700E+02  9.810737E-01 -4.109936E+01  4.187057E-05 7.720101E+01  4.154525E-05 7.277942E+01  9.790349E-01 -3.794098E+01 
4.127200E+02  9.811162E-01 -4.112286E+01  1.248117E-04 8.054544E+01  1.239827E-04 8.073761E+01  9.790132E-01 -3.796251E+01 
4.129700E+02  9.810957E-01 -4.115931E+01  1.406367E-04 7.504325E+01  1.472536E-04 7.520102E+01  9.790300E-01 -3.798862E+01 
4.132200E+02  9.810510E-01 -4.118401E+01  1.655439E-04 7.404006E+01  1.622780E-04 7.437088E+01  9.790640E-01 -3.801947E+01 
4.134700E+02  9.811607E-01 -4.121528E+01  1.939105E-04 7.149755E+01  1.992618E-04 7.352553E+01  9.790534E-01 -3.804523E+01 
4.137200E+02  9.810011E-01 -4.124874E+01  2.123634E-04 7.069456E+01  2.193933E-04 6.884063E+01  9.790712E-01 -3.807947E+01 
4.139700E+02  9.809727E-01 -4.127626E+01  2.050638E-04 7.039314E+01  2.175022E-04 7.158768E+01  9.790680E-01 -3.810907E+01 
4.142200E+02  9.811085E-01 -4.130597E+01  2.449075E-04 6.626342E+01  2.394066E-04 6.595406E+01  9.788719E-01 -3.813876E+01 
4.144700E+02  9.808838E-01 -4.134156E+01  2.657562E-04 5.823947E+01  2.650363E-04 5.964242E+01  9.789901E-01 -3.816701E+01 
4.147200E+02  9.809690E-01 -4.136535E+01  2.693915E-04 5.048497E+01  2.713894E-04 5.060235E+01  9.789899E-01 -3.819676E+01 
4.149700E+02  9.810284E-01 -4.139477E+01  2.484458E-04 4.530191E+01  2.421242E-04 4.137318E+01  9.788361E-01 -3.823531E+01 
4.152200E+02  9.809378E-01 -4.142810E+01  2.578258E-04 3.550496E+01  2.549526E-04 3.466133E+01  9.788028E-01 -3.826063E+01 
4.154700E+02  9.808485E-01 -4.145133E+01  2.366619E-04 1.743645E+01  2.397211E-04 1.975465E+01  9.787211E-01 -3.828162E+01 
4.157200E+02  9.805892E-01 -4.148113E+01  1.730826E-04 -9.759726E+00  1.708475E-04 -9.239978E+00  9.787275E-01 -3.831052E+01 
4.159700E+02  9.808673E-01 -4.151151E+01  6.586498E-05 -5.864766E+01  6.217087E-05 -5.770314E+01  9.786338E-01 -3.833296E+01 
4.162200E+02  9.808073E-01 -4.154546E+01  8.125248E-05 1.493312E+02  7.661958E-05 1.556735E+02  9.787269E-01 -3.836039E+01 
4.164700E+02  9.807569E-01 -4.157252E+01  1.920291E-04 1.129182E+02  1.958093E-04 1.137133E+02  9.786848E-01 -3.838921E+01 
4.167200E+02  9.808690E-01 -4.159901E+01  2.467224E-04 8.872205E+01  2.442233E-04 8.665875E+01  9.787710E-01 -3.841322E+01 
4.169700E+02  9.807555E-01 -4.163281E+01  2.243959E-04 6.831689E+01  2.257486E-04 6.763071E+01  9.789144E-01 -3.845218E+01 
4.172200E+02  9.808502E-01 -4.166537E+01  2.029007E-04 6.553382E+01  2.032191E-04 6.422970E+01  9.789398E-01 -3.847704E+01 
4.174700E+02  9.807993E-01 -4.170760E+01  1.830581E-04 6.168191E+01  1.738378E-04 5.929725E+01  9.788946E-01 -3.851267E+01 
4.177200E+02  9.808048E-01 -4.174288E+01  1.819415E-04 7.159645E+01  1.907404E-04 6.933046E+01  9.787625E-01 -3.855588E+01 
4.179700E+02  9.808246E-01 -4.176644E+01  2.191236E-04 7.336920E+01  2.163397E-04 7.440203E+01  9.788598E-01 -3.857831E+01 
4.182200E+02  9.808237E-01 -4.180560E+01  2.686582E-04 6.553632E+01  2.741738E-04 6.262679E+01  9.788020E-01 -3.860866E+01 
4.184700E+02  9.806080E-01 -4.183399E+01  2.840461E-04 4.953258E+01  2.778060E-04 4.912072E+01  9.787315E-01 -3.864451E+01 
4.187200E+02  9.805465E-01 -4.187029E+01  2.570076E-04 3.838201E+01  2.561913E-04 3.879150E+01  9.785515E-01 -3.867837E+01 
4.189700E+02  9.804709E-01 -4.189458E+01  2.381723E-04 2.964251E+01  2.385041E-04 3.270005E+01  9.785783E-01 -3.870409E+01 
4.192200E+02  9.805163E-01 -4.192508E+01  2.132546E-04 1.867485E+01  2.089886E-04 1.637511E+01  9.786276E-01 -3.872843E+01 
4.194700E+02  9.804877E-01 -4.196155E+01  1.662973E-04 1.904668E+00  1.788698E-04 2.994518E-01  9.784786E-01 -3.876805E+01 
4.197200E+02  9.804050E-01 -4.198788E+01  9.894052E-05 -3.649594E+01  9.769740E-05 -3.581606E+01  9.784649E-01 -3.879252E+01 
4.199700E+02  9.806603E-01 -4.202118E+01  3.521877E-05 -1.624126E+02  3.585796E-05 -1.664768E+02  9.785299E-01 -3.882919E+01 
4.202200E+02  9.804990E-01 -4.205823E+01  1.240760E-04 1.333251E+02  1.274855E-04 1.331903E+02  9.784822E-01 -3.885594E+01 
4.204700E+02  9.805205E-01 -4.208672E+01  1.870022E-04 1.007897E+02  1.866068E-04 1.006523E+02  9.784834E-01 -3.888610E+01 
4.207200E+02  9.805496E-01 -4.212125E+01  1.890512E-04 8.245591E+01  1.940108E-04 8.087805E+01  9.784173E-01 -3.892606E+01 
4.209700E+02  9.806352E-01 -4.215770E+01  1.813654E-04 7.066290E+01  1.801061E-04 7.057496E+01  9.785274E-01 -3.895987E+01 
4.212200E+02  9.805451E-01 -4.219271E+01  1.826843E-04 7.451366E+01  1.786302E-04 7.199013E+01  9.785071E-01 -3.899745E+01 
4.214700E+02  9.804940E-01 -4.223792E+01  1.803835E-04 7.589642E+01  1.795132E-04 7.703245E+01  9.784316E-01 -3.903440E+01 
4.217200E+02  9.805046E-01 -4.227392E+01  2.210824E-04 7.814783E+01  2.256672E-04 7.647038E+01  9.784579E-01 -3.906997E+01 
4.219700E+02  9.803998E-01 -4.231144E+01  2.799634E-04 6.873909E+01  2.851561E-04 7.017388E+01  9.782645E-01 -3.910787E+01 
4.222200E+02  9.804118E-01 -4.234883E+01  3.041237E-04 5.304112E+01  3.076772E-04 5.276624E+01  9.782570E-01 -3.914198E+01 
4.224700E+02  9.802069E-01 -4.238669E+01  3.096032E-04 3.097613E+01  2.983512E-04 3.224998E+01  9.781345E-01 -3.917055E+01 
4.227200E+02  9.802680E-01 -4.242066E+01  2.515742E-04 1.219848E+01  2.461178E-04 1.397753E+01  9.782210E-01 -3.920919E+01 
4.229700E+02  9.803516E-01 -4.245779E+01  1.762006E-04 6.081337E+00  1.750393E-04 6.504358E+00  9.782608E-01 -3.925108E+01 
