! Matrix data file written by TouchstoneData, EPCOS AG
! FILENAME: "newformat_B3781_WB.s2p"
! COMMENT: "22 Jul 2004 S11-NoP:1601;Caltype:FULL2PORT;P"
! INFO: nport=2, nfreq=1601
! DATE: "Wed Sep 19 15:44:07 2012"
! USER: "Wilfried Schott"
!
! port | pin | signal
! -----|-----|--------
!   1  |  2  |  IN
!   2  |  5  |  OUT
! --------------------
! 
# MHZ S MA R 50
! freq  magS11 angS11  magS21 angS21  magS12 angS12  magS22 angS22
2.650000E+02  9.931753E-01 -2.564304E+01  4.599228E-04 6.470689E+01  4.393127E-04 8.215711E+01  9.896780E-01 -2.521382E+01 
2.650625E+02  9.928681E-01 -2.571994E+01  2.952289E-04 6.636814E+01  4.255072E-04 6.187700E+01  9.892880E-01 -2.530263E+01 
2.651250E+02  9.921919E-01 -2.569572E+01  4.609201E-04 4.787882E+01  3.047494E-04 5.961329E+01  9.900354E-01 -2.517480E+01 
2.651875E+02  9.918539E-01 -2.573643E+01  3.748918E-04 6.381688E+01  2.238145E-04 7.139496E+01  9.888285E-01 -2.518814E+01 
2.652500E+02  9.928214E-01 -2.574275E+01  4.628617E-04 5.637900E+01  3.318053E-04 5.509377E+01  9.901043E-01 -2.527444E+01 
2.653125E+02  9.920680E-01 -2.575395E+01  4.650414E-04 5.313708E+01  2.558856E-04 8.834151E+01  9.885832E-01 -2.518700E+01 
2.653750E+02  9.925618E-01 -2.574411E+01  2.423373E-04 5.833203E+01  3.033965E-04 7.570304E+01  9.885667E-01 -2.529696E+01 
2.654375E+02  9.922257E-01 -2.567132E+01  4.805335E-04 6.881656E+01  3.828987E-04 6.699318E+01  9.893317E-01 -2.529557E+01 
2.655000E+02  9.923826E-01 -2.575105E+01  4.892182E-04 4.840298E+01  4.482375E-04 6.176684E+01  9.908105E-01 -2.514984E+01 
2.655625E+02  9.923865E-01 -2.568250E+01  4.261175E-04 6.632232E+01  3.163479E-04 5.152354E+01  9.900847E-01 -2.532576E+01 
2.656250E+02  9.914526E-01 -2.570454E+01  5.047103E-04 7.973116E+01  2.900750E-04 6.578648E+01  9.912897E-01 -2.514658E+01 
2.656875E+02  9.917857E-01 -2.573637E+01  3.038794E-04 7.576682E+01  4.352802E-04 6.121249E+01  9.916390E-01 -2.525987E+01 
2.657500E+02  9.913876E-01 -2.574550E+01  3.077142E-04 6.781062E+01  3.829208E-04 5.559506E+01  9.898050E-01 -2.546053E+01 
2.658125E+02  9.930620E-01 -2.576342E+01  4.333725E-04 8.647135E+01  4.107667E-04 6.723672E+01  9.905084E-01 -2.525365E+01 
2.658750E+02  9.914046E-01 -2.578811E+01  3.304256E-04 9.037983E+01  5.389609E-04 7.138071E+01  9.874806E-01 -2.524646E+01 
2.659375E+02  9.925541E-01 -2.577562E+01  3.480803E-04 6.443320E+01  4.041709E-04 4.395734E+01  9.896376E-01 -2.535366E+01 
2.660000E+02  9.912723E-01 -2.571543E+01  4.260030E-04 8.267090E+01  4.668873E-04 7.126435E+01  9.882615E-01 -2.534643E+01 
2.660625E+02  9.932402E-01 -2.576042E+01  4.968539E-04 5.216812E+01  3.243440E-04 4.668288E+01  9.900109E-01 -2.530434E+01 
2.661250E+02  9.928450E-01 -2.575773E+01  5.280730E-04 4.348847E+01  4.624293E-04 7.345355E+01  9.903983E-01 -2.532695E+01 
2.661875E+02  9.919997E-01 -2.575389E+01  4.935655E-04 6.412888E+01  4.396222E-04 6.824872E+01  9.917903E-01 -2.536496E+01 
2.662500E+02  9.912549E-01 -2.578642E+01  4.631443E-04 7.833360E+01  3.363050E-04 9.143197E+01  9.884430E-01 -2.533557E+01 
2.663125E+02  9.907576E-01 -2.581208E+01  1.204815E-04 6.316637E+01  4.389813E-04 7.292501E+01  9.898460E-01 -2.527173E+01 
2.663750E+02  9.918727E-01 -2.577113E+01  4.070023E-04 5.421091E+01  3.449586E-04 7.537788E+01  9.882858E-01 -2.543193E+01 
2.664375E+02  9.922384E-01 -2.584315E+01  2.655722E-04 5.527201E+01  3.066424E-04 7.929072E+01  9.906440E-01 -2.529093E+01 
2.665000E+02  9.927293E-01 -2.584508E+01  4.690205E-04 7.285056E+01  2.966919E-04 6.530003E+01  9.885717E-01 -2.547498E+01 
2.665625E+02  9.929790E-01 -2.589094E+01  3.542223E-04 7.513597E+01  4.086257E-04 7.751561E+01  9.892541E-01 -2.543462E+01 
2.666250E+02  9.914683E-01 -2.580788E+01  4.452040E-04 4.889616E+01  4.518600E-04 6.406533E+01  9.901123E-01 -2.532501E+01 
2.666875E+02  9.920009E-01 -2.580671E+01  4.515032E-04 7.361953E+01  3.663070E-04 7.511918E+01  9.895607E-01 -2.534012E+01 
2.667500E+02  9.914977E-01 -2.585996E+01  2.259930E-04 7.472715E+01  4.752809E-04 6.484659E+01  9.869267E-01 -2.541452E+01 
2.668125E+02  9.920106E-01 -2.582406E+01  5.241276E-04 6.186341E+01  4.167668E-04 5.934822E+01  9.888808E-01 -2.553306E+01 
2.668750E+02  9.922968E-01 -2.582585E+01  3.941635E-04 5.102424E+01  3.404837E-04 5.687049E+01  9.900519E-01 -2.549873E+01 
2.669375E+02  9.922599E-01 -2.586996E+01  3.382290E-04 5.648776E+01  4.614599E-04 5.714638E+01  9.900846E-01 -2.544110E+01 
2.670000E+02  9.921578E-01 -2.590221E+01  3.156458E-04 4.691680E+01  1.811165E-04 1.008310E+02  9.908215E-01 -2.561638E+01 
2.670625E+02  9.927978E-01 -2.590972E+01  4.395726E-04 6.954943E+01  2.815052E-04 9.508981E+01  9.882949E-01 -2.544539E+01 
2.671250E+02  9.920174E-01 -2.592182E+01  3.498646E-04 6.909179E+01  3.680821E-04 8.173475E+01  9.886163E-01 -2.546395E+01 
2.671875E+02  9.918025E-01 -2.590433E+01  2.775362E-04 5.474966E+01  3.487774E-04 9.012729E+01  9.893514E-01 -2.551220E+01 
2.672500E+02  9.924921E-01 -2.586934E+01  2.695312E-04 8.188916E+01  4.944493E-04 4.358353E+01  9.901621E-01 -2.549569E+01 
2.673125E+02  9.920575E-01 -2.592657E+01  3.856172E-04 6.825574E+01  3.907252E-04 6.631795E+01  9.901507E-01 -2.557624E+01 
2.673750E+02  9.920895E-01 -2.597468E+01  4.977257E-04 5.081753E+01  4.956520E-04 4.525822E+01  9.871707E-01 -2.550195E+01 
2.674375E+02  9.919163E-01 -2.588155E+01  4.276416E-04 5.144963E+01  4.053007E-04 5.300245E+01  9.903258E-01 -2.537582E+01 
2.675000E+02  9.916881E-01 -2.593107E+01  5.248312E-04 7.152698E+01  3.973345E-04 6.249606E+01  9.888344E-01 -2.550691E+01 
2.675625E+02  9.922849E-01 -2.588101E+01  2.724784E-04 5.784266E+01  4.328632E-04 8.072283E+01  9.898225E-01 -2.540919E+01 
2.676250E+02  9.908859E-01 -2.598896E+01  4.653537E-04 6.233050E+01  3.966584E-04 5.231474E+01  9.918322E-01 -2.548093E+01 
2.676875E+02  9.915204E-01 -2.595147E+01  5.530933E-04 5.557782E+01  5.244941E-04 5.793319E+01  9.911323E-01 -2.558038E+01 
2.677500E+02  9.917986E-01 -2.592404E+01  4.171465E-04 5.685773E+01  5.745564E-04 6.938134E+01  9.877703E-01 -2.542263E+01 
2.678125E+02  9.925819E-01 -2.596867E+01  2.902229E-04 4.654158E+01  3.296189E-04 7.004301E+01  9.889456E-01 -2.545878E+01 
2.678750E+02  9.909493E-01 -2.594007E+01  4.847373E-04 6.732594E+01  3.756026E-04 4.322846E+01  9.891883E-01 -2.555393E+01 
2.679375E+02  9.927880E-01 -2.596092E+01  1.522502E-04 5.664666E+01  3.593876E-04 7.083933E+01  9.899893E-01 -2.552394E+01 
2.680000E+02  9.933368E-01 -2.594550E+01  4.666494E-04 6.695876E+01  2.874490E-04 7.869356E+01  9.897751E-01 -2.560036E+01 
2.680625E+02  9.913973E-01 -2.595297E+01  3.264483E-04 5.902817E+01  4.126053E-04 6.743123E+01  9.907400E-01 -2.566366E+01 
2.681250E+02  9.913610E-01 -2.592849E+01  3.986274E-04 7.964822E+01  4.052612E-04 7.394609E+01  9.897917E-01 -2.559011E+01 
2.681875E+02  9.923252E-01 -2.595433E+01  4.371959E-04 7.237838E+01  4.215242E-04 8.024499E+01  9.908681E-01 -2.550750E+01 
2.682500E+02  9.929330E-01 -2.599014E+01  5.081270E-04 6.252944E+01  3.939949E-04 6.791772E+01  9.905984E-01 -2.554037E+01 
2.683125E+02  9.919010E-01 -2.596038E+01  4.116184E-04 6.785194E+01  4.087180E-04 5.552719E+01  9.904782E-01 -2.567290E+01 
2.683750E+02  9.928614E-01 -2.600979E+01  2.313820E-04 5.740400E+01  3.901950E-04 6.210990E+01  9.888714E-01 -2.565880E+01 
2.684375E+02  9.920935E-01 -2.603143E+01  5.080840E-04 7.355442E+01  3.550162E-04 7.640296E+01  9.888125E-01 -2.553298E+01 
2.685000E+02  9.926487E-01 -2.597659E+01  4.742000E-04 6.097757E+01  3.772827E-04 8.789951E+01  9.896306E-01 -2.545165E+01 
2.685625E+02  9.925095E-01 -2.599226E+01  3.684786E-04 7.138847E+01  4.634405E-04 7.079429E+01  9.888401E-01 -2.553222E+01 
2.686250E+02  9.914465E-01 -2.598297E+01  4.280397E-04 7.793742E+01  2.799889E-04 6.015962E+01  9.898695E-01 -2.565260E+01 
2.686875E+02  9.910638E-01 -2.598590E+01  3.382210E-04 6.367089E+01  3.982989E-04 4.760490E+01  9.901148E-01 -2.555962E+01 
2.687500E+02  9.917575E-01 -2.599971E+01  2.449867E-04 7.526389E+01  3.810746E-04 4.777348E+01  9.908733E-01 -2.567562E+01 
2.688125E+02  9.914330E-01 -2.606578E+01  5.223424E-04 6.274489E+01  2.986001E-04 5.669217E+01  9.880451E-01 -2.568574E+01 
2.688750E+02  9.924347E-01 -2.603162E+01  3.417818E-04 7.717071E+01  4.046746E-04 7.735929E+01  9.915268E-01 -2.563204E+01 
2.689375E+02  9.918132E-01 -2.607859E+01  3.821696E-04 7.219099E+01  2.279688E-04 5.724430E+01  9.886066E-01 -2.558182E+01 
2.690000E+02  9.909421E-01 -2.597952E+01  3.668474E-04 4.781852E+01  4.069556E-04 4.696154E+01  9.880488E-01 -2.557572E+01 
2.690625E+02  9.920203E-01 -2.606293E+01  3.241243E-04 8.957064E+01  4.139143E-04 7.875439E+01  9.893754E-01 -2.566242E+01 
2.691250E+02  9.921166E-01 -2.605825E+01  2.070065E-04 7.052290E+01  3.662812E-04 7.383592E+01  9.903064E-01 -2.565221E+01 
2.691875E+02  9.910679E-01 -2.613898E+01  3.582424E-04 9.078172E+01  2.669186E-04 8.380499E+01  9.877915E-01 -2.571639E+01 
2.692500E+02  9.918681E-01 -2.607704E+01  3.541130E-04 8.907172E+01  3.147484E-04 4.514673E+01  9.887217E-01 -2.565708E+01 
2.693125E+02  9.920011E-01 -2.610075E+01  2.912295E-04 8.845778E+01  2.709994E-04 7.076303E+01  9.897266E-01 -2.567617E+01 
2.693750E+02  9.913806E-01 -2.605156E+01  2.554282E-04 5.032795E+01  2.815532E-04 6.700249E+01  9.897264E-01 -2.562718E+01 
2.694375E+02  9.918295E-01 -2.616059E+01  4.198403E-04 7.839454E+01  4.035576E-04 5.739786E+01  9.898169E-01 -2.559724E+01 
2.695000E+02  9.923619E-01 -2.615924E+01  3.348098E-04 3.612374E+01  2.993286E-04 8.877342E+01  9.890004E-01 -2.568659E+01 
2.695625E+02  9.927171E-01 -2.615702E+01  3.193682E-04 6.058239E+01  3.105879E-04 5.820791E+01  9.899080E-01 -2.566132E+01 
2.696250E+02  9.920571E-01 -2.609132E+01  4.504925E-04 5.467867E+01  3.738982E-04 4.844933E+01  9.907819E-01 -2.561160E+01 
2.696875E+02  9.913832E-01 -2.612807E+01  3.485069E-04 4.955548E+01  3.174704E-04 5.852798E+01  9.891174E-01 -2.570883E+01 
2.697500E+02  9.918012E-01 -2.616926E+01  4.058696E-04 7.051796E+01  3.967685E-04 6.418269E+01  9.887188E-01 -2.577493E+01 
2.698125E+02  9.928312E-01 -2.611847E+01  2.115801E-04 8.074333E+01  3.395942E-04 8.180377E+01  9.902529E-01 -2.569876E+01 
2.698750E+02  9.921131E-01 -2.618593E+01  4.472343E-04 7.263846E+01  4.004935E-04 5.888927E+01  9.906187E-01 -2.556329E+01 
2.699375E+02  9.917229E-01 -2.614005E+01  3.595440E-04 4.710270E+01  3.820908E-04 6.041670E+01  9.897607E-01 -2.560272E+01 
2.700000E+02  9.928512E-01 -2.617676E+01  3.392385E-04 7.609743E+01  3.806943E-04 7.948574E+01  9.905595E-01 -2.572745E+01 
2.700625E+02  9.915277E-01 -2.617309E+01  3.181446E-04 6.818215E+01  4.589606E-04 6.601145E+01  9.875466E-01 -2.576845E+01 
2.701250E+02  9.937253E-01 -2.617160E+01  4.199597E-04 6.308855E+01  5.044981E-04 7.357713E+01  9.906142E-01 -2.578276E+01 
2.701875E+02  9.929277E-01 -2.622562E+01  3.424154E-04 9.414513E+01  4.456380E-04 6.593072E+01  9.900260E-01 -2.567960E+01 
2.702500E+02  9.918973E-01 -2.616456E+01  2.807219E-04 6.180121E+01  4.139192E-04 6.609071E+01  9.890750E-01 -2.566294E+01 
2.703125E+02  9.935249E-01 -2.625967E+01  2.143581E-04 5.370644E+01  4.324050E-04 5.936437E+01  9.893050E-01 -2.562125E+01 
2.703750E+02  9.911291E-01 -2.619818E+01  4.814605E-04 4.623520E+01  4.899597E-04 7.448186E+01  9.891681E-01 -2.578003E+01 
2.704375E+02  9.922649E-01 -2.617181E+01  3.284741E-04 6.158059E+01  3.081938E-04 5.512508E+01  9.889198E-01 -2.585180E+01 
2.705000E+02  9.908936E-01 -2.623045E+01  4.498306E-04 8.073738E+01  3.745460E-04 6.687654E+01  9.903548E-01 -2.572728E+01 
2.705625E+02  9.919164E-01 -2.623868E+01  4.239424E-04 5.186890E+01  3.514959E-04 7.138915E+01  9.886568E-01 -2.586901E+01 
2.706250E+02  9.916446E-01 -2.622676E+01  4.801759E-04 5.420375E+01  3.225817E-04 3.982014E+01  9.894241E-01 -2.585532E+01 
2.706875E+02  9.912495E-01 -2.622031E+01  3.250916E-04 5.191195E+01  3.009623E-04 8.182496E+01  9.899810E-01 -2.569457E+01 
2.707500E+02  9.918429E-01 -2.629778E+01  2.016977E-04 5.725740E+01  6.805725E-04 6.426417E+01  9.891017E-01 -2.577207E+01 
2.708125E+02  9.919565E-01 -2.624736E+01  3.249267E-04 8.122108E+01  4.400601E-04 7.018265E+01  9.894941E-01 -2.578661E+01 
2.708750E+02  9.931038E-01 -2.623828E+01  3.273792E-04 1.020244E+02  3.702503E-04 5.250564E+01  9.882356E-01 -2.574131E+01 
2.709375E+02  9.921729E-01 -2.626871E+01  3.451183E-04 6.564265E+01  4.568240E-04 4.711229E+01  9.891434E-01 -2.576894E+01 
2.710000E+02  9.920627E-01 -2.627971E+01  3.594552E-04 6.666793E+01  5.046567E-04 4.927227E+01  9.899492E-01 -2.588967E+01 
2.710625E+02  9.921281E-01 -2.631520E+01  5.062359E-04 8.520471E+01  4.020122E-04 7.007731E+01  9.908341E-01 -2.577662E+01 
2.711250E+02  9.920120E-01 -2.623792E+01  3.083910E-04 5.694955E+01  4.499854E-04 6.574353E+01  9.890456E-01 -2.583845E+01 
2.711875E+02  9.921189E-01 -2.626239E+01  3.630646E-04 7.941184E+01  4.571033E-04 6.646517E+01  9.901905E-01 -2.584560E+01 
2.712500E+02  9.919693E-01 -2.625683E+01  3.516957E-04 6.589036E+01  3.894907E-04 7.770729E+01  9.888482E-01 -2.586756E+01 
2.713125E+02  9.925379E-01 -2.631136E+01  4.130358E-04 4.466236E+01  4.430797E-04 5.885251E+01  9.911070E-01 -2.577683E+01 
2.713750E+02  9.929984E-01 -2.636109E+01  3.010385E-04 7.703068E+01  5.594388E-04 7.387348E+01  9.895148E-01 -2.587831E+01 
2.714375E+02  9.924970E-01 -2.631057E+01  3.920627E-04 7.188664E+01  4.309411E-04 6.388682E+01  9.892658E-01 -2.596588E+01 
2.715000E+02  9.916369E-01 -2.631350E+01  2.774743E-04 7.425156E+01  4.359167E-04 6.318006E+01  9.899246E-01 -2.581381E+01 
2.715625E+02  9.917338E-01 -2.629697E+01  5.306454E-04 6.494471E+01  4.334751E-04 5.196402E+01  9.886460E-01 -2.579465E+01 
2.716250E+02  9.927531E-01 -2.635632E+01  2.751006E-04 8.669605E+01  3.730364E-04 6.076355E+01  9.890763E-01 -2.588670E+01 
2.716875E+02  9.916225E-01 -2.632375E+01  3.355564E-04 7.322033E+01  3.803829E-04 7.224361E+01  9.896165E-01 -2.573218E+01 
2.717500E+02  9.919340E-01 -2.636009E+01  2.330175E-04 4.687351E+01  3.457230E-04 6.708417E+01  9.884513E-01 -2.594165E+01 
2.718125E+02  9.908158E-01 -2.634486E+01  4.014501E-04 6.616945E+01  3.195512E-04 5.626621E+01  9.898665E-01 -2.596466E+01 
2.718750E+02  9.920040E-01 -2.633251E+01  4.045613E-04 7.202153E+01  2.654732E-04 8.290011E+01  9.888628E-01 -2.600676E+01 
2.719375E+02  9.916615E-01 -2.635214E+01  2.506884E-04 3.417464E+01  2.642008E-04 4.954399E+01  9.884766E-01 -2.595274E+01 
2.720000E+02  9.921097E-01 -2.638850E+01  2.954170E-04 7.959356E+01  3.266878E-04 5.711670E+01  9.887534E-01 -2.586433E+01 
2.720625E+02  9.926159E-01 -2.636811E+01  3.052945E-04 6.826195E+01  3.160297E-04 3.844294E+01  9.898467E-01 -2.579637E+01 
2.721250E+02  9.922738E-01 -2.638380E+01  3.208713E-04 7.462843E+01  5.056958E-04 7.298962E+01  9.891947E-01 -2.598165E+01 
2.721875E+02  9.920709E-01 -2.635223E+01  3.707057E-04 6.333092E+01  3.570039E-04 4.982178E+01  9.897620E-01 -2.601675E+01 
2.722500E+02  9.932411E-01 -2.641704E+01  3.142986E-04 6.210824E+01  2.701347E-04 8.173178E+01  9.892606E-01 -2.592082E+01 
2.723125E+02  9.916450E-01 -2.640182E+01  3.686462E-04 5.374616E+01  4.875480E-04 5.927830E+01  9.882748E-01 -2.601355E+01 
2.723750E+02  9.922609E-01 -2.637040E+01  1.604819E-04 6.424628E+01  3.629709E-04 6.601936E+01  9.895493E-01 -2.598344E+01 
2.724375E+02  9.931207E-01 -2.637135E+01  3.777057E-04 6.016091E+01  3.744553E-04 5.286334E+01  9.899889E-01 -2.596711E+01 
2.725000E+02  9.926117E-01 -2.645870E+01  3.691739E-04 8.260907E+01  1.931298E-04 5.237723E+01  9.879311E-01 -2.602919E+01 
2.725625E+02  9.916300E-01 -2.643178E+01  3.533497E-04 9.735099E+01  3.087521E-04 6.800552E+01  9.892524E-01 -2.614136E+01 
2.726250E+02  9.920569E-01 -2.635854E+01  2.852287E-04 6.655419E+01  3.415291E-04 8.957502E+01  9.908718E-01 -2.599132E+01 
2.726875E+02  9.919585E-01 -2.641054E+01  2.945000E-04 9.187313E+01  5.035048E-04 5.268109E+01  9.887846E-01 -2.606998E+01 
2.727500E+02  9.922313E-01 -2.641453E+01  4.787769E-04 7.242843E+01  2.463552E-04 5.616047E+01  9.895018E-01 -2.602213E+01 
2.728125E+02  9.917923E-01 -2.647832E+01  3.890802E-04 5.098310E+01  3.632635E-04 4.859873E+01  9.894920E-01 -2.592413E+01 
2.728750E+02  9.931718E-01 -2.644459E+01  3.771815E-04 4.690985E+01  4.412357E-04 6.811559E+01  9.902958E-01 -2.609601E+01 
2.729375E+02  9.925423E-01 -2.650596E+01  5.221462E-04 7.850664E+01  2.153364E-04 3.786473E+01  9.893993E-01 -2.606634E+01 
2.730000E+02  9.917381E-01 -2.646413E+01  3.185331E-04 4.873730E+01  2.319329E-04 4.876005E+01  9.891445E-01 -2.588675E+01 
2.730625E+02  9.917521E-01 -2.645388E+01  3.181508E-04 6.439509E+01  3.229265E-04 6.365251E+01  9.870359E-01 -2.599542E+01 
2.731250E+02  9.917791E-01 -2.646098E+01  3.014606E-04 6.711304E+01  3.516686E-04 5.110929E+01  9.893293E-01 -2.607816E+01 
2.731875E+02  9.926376E-01 -2.652094E+01  3.737839E-04 8.404826E+01  4.603253E-04 5.924745E+01  9.878489E-01 -2.612413E+01 
2.732500E+02  9.917104E-01 -2.647674E+01  3.784438E-04 6.837873E+01  2.167964E-04 5.229046E+01  9.905721E-01 -2.607245E+01 
2.733125E+02  9.922009E-01 -2.651776E+01  4.152483E-04 8.144799E+01  3.180291E-04 5.845106E+01  9.886946E-01 -2.612768E+01 
2.733750E+02  9.915182E-01 -2.656899E+01  4.561968E-04 8.004601E+01  3.311415E-04 5.060774E+01  9.887659E-01 -2.601540E+01 
2.734375E+02  9.914645E-01 -2.648776E+01  2.722840E-04 5.046482E+01  3.708350E-04 2.833319E+01  9.901500E-01 -2.616702E+01 
2.735000E+02  9.919973E-01 -2.646652E+01  3.040899E-04 9.020215E+01  3.257446E-04 7.993615E+01  9.879840E-01 -2.603950E+01 
2.735625E+02  9.923373E-01 -2.652171E+01  3.541019E-04 6.472791E+01  4.804903E-04 5.508469E+01  9.896085E-01 -2.613124E+01 
2.736250E+02  9.909046E-01 -2.650587E+01  2.913676E-04 8.265728E+01  4.592278E-04 7.112470E+01  9.882626E-01 -2.609267E+01 
2.736875E+02  9.921604E-01 -2.649333E+01  3.575848E-04 7.023230E+01  4.117379E-04 7.635151E+01  9.892045E-01 -2.609154E+01 
2.737500E+02  9.913822E-01 -2.662026E+01  3.408919E-04 7.152624E+01  2.058763E-04 4.981478E+01  9.888611E-01 -2.610719E+01 
2.738125E+02  9.923098E-01 -2.658160E+01  3.442761E-04 8.054339E+01  4.063307E-04 6.704475E+01  9.917428E-01 -2.620235E+01 
2.738750E+02  9.923644E-01 -2.655244E+01  4.337192E-04 6.859630E+01  3.454369E-04 5.649981E+01  9.885742E-01 -2.610943E+01 
2.739375E+02  9.924190E-01 -2.655481E+01  2.820740E-04 5.673555E+01  3.672730E-04 6.266458E+01  9.887175E-01 -2.616249E+01 
2.740000E+02  9.918868E-01 -2.658791E+01  4.303021E-04 7.058495E+01  3.154006E-04 4.058074E+01  9.905251E-01 -2.611506E+01 
2.740625E+02  9.906861E-01 -2.650822E+01  2.884993E-04 7.239423E+01  3.733677E-04 3.940300E+01  9.888122E-01 -2.616964E+01 
2.741250E+02  9.915867E-01 -2.660448E+01  4.671019E-04 5.636265E+01  3.735145E-04 6.408204E+01  9.903338E-01 -2.623263E+01 
2.741875E+02  9.920642E-01 -2.659658E+01  3.802576E-04 6.197783E+01  3.177209E-04 7.183273E+01  9.879093E-01 -2.618749E+01 
2.742500E+02  9.917502E-01 -2.656821E+01  3.214564E-04 6.255121E+01  3.740587E-04 8.731028E+01  9.907767E-01 -2.617674E+01 
2.743125E+02  9.923652E-01 -2.663912E+01  5.181868E-04 7.865969E+01  3.174127E-04 6.487017E+01  9.885369E-01 -2.618931E+01 
2.743750E+02  9.916004E-01 -2.661394E+01  5.240453E-04 8.893444E+01  4.325610E-04 6.486065E+01  9.891072E-01 -2.621640E+01 
2.744375E+02  9.919555E-01 -2.662733E+01  2.989614E-04 7.692725E+01  4.734062E-04 4.765474E+01  9.888435E-01 -2.613723E+01 
2.745000E+02  9.927492E-01 -2.669896E+01  3.445286E-04 7.599862E+01  3.668052E-04 5.119224E+01  9.899232E-01 -2.624434E+01 
2.745625E+02  9.921875E-01 -2.662652E+01  2.429848E-04 7.013877E+01  3.188522E-04 6.698775E+01  9.880370E-01 -2.627459E+01 
2.746250E+02  9.922566E-01 -2.666198E+01  2.864741E-04 7.103162E+01  4.042765E-04 8.884262E+01  9.904508E-01 -2.616240E+01 
2.746875E+02  9.920118E-01 -2.668881E+01  5.124406E-04 5.023453E+01  3.348529E-04 9.233107E+01  9.896889E-01 -2.626876E+01 
2.747500E+02  9.910148E-01 -2.666842E+01  3.638728E-04 6.373506E+01  3.246285E-04 8.351372E+01  9.901173E-01 -2.621518E+01 
