! Matrix data file written by TouchstoneData, EPCOS AG
! FILENAME: "newformat_B3782_SB.s2p"
! COMMENT: "INPUT PIN2; OUTPUT PIN5;  9 Dec 2005 S11-KEI"
! INFO: nport=2, nfreq=401
! DATE: "Wed Sep 19 15:44:20 2012"
! USER: "Wilfried Schott"
!
! port | pin | signal
! -----|-----|--------
!   1  |  2  |  IN
!   2  |  5  |  OUT
! --------------------
! 
# MHZ S MA R 50
! freq  magS11 angS11  magS21 angS21  magS12 angS12  magS22 angS22
4.314700E+02  9.779098E-01 -4.521850E+01  2.611621E-04 7.759045E+01  2.549758E-04 7.723900E+01  9.756352E-01 -4.195667E+01 
4.314825E+02  9.779560E-01 -4.523884E+01  2.262790E-04 7.903293E+01  2.348907E-04 7.951151E+01  9.756058E-01 -4.198544E+01 
4.314950E+02  9.778163E-01 -4.526293E+01  2.026534E-04 8.092628E+01  2.021138E-04 8.339019E+01  9.754733E-01 -4.199837E+01 
4.315075E+02  9.777969E-01 -4.527560E+01  1.728617E-04 8.370224E+01  1.682157E-04 8.278968E+01  9.756100E-01 -4.202374E+01 
4.315200E+02  9.778503E-01 -4.529680E+01  1.519543E-04 8.720471E+01  1.544363E-04 8.653604E+01  9.754876E-01 -4.204547E+01 
4.315325E+02  9.778259E-01 -4.532685E+01  1.382083E-04 9.242198E+01  1.316860E-04 9.024716E+01  9.756285E-01 -4.207208E+01 
4.315450E+02  9.778434E-01 -4.535029E+01  1.171353E-04 8.934683E+01  1.145001E-04 9.282327E+01  9.753428E-01 -4.208892E+01 
4.315575E+02  9.776606E-01 -4.537021E+01  1.044350E-04 9.408478E+01  1.019842E-04 9.232335E+01  9.755015E-01 -4.211659E+01 
4.315700E+02  9.777411E-01 -4.538768E+01  9.343321E-05 9.626749E+01  9.379379E-05 8.962434E+01  9.754214E-01 -4.212841E+01 
4.315825E+02  9.775676E-01 -4.541365E+01  7.915957E-05 9.408619E+01  8.280574E-05 8.895571E+01  9.754708E-01 -4.215672E+01 
4.315950E+02  9.776555E-01 -4.543126E+01  7.916431E-05 8.652826E+01  7.825081E-05 9.093627E+01  9.753949E-01 -4.218435E+01 
4.316075E+02  9.776325E-01 -4.544828E+01  7.437538E-05 7.988191E+01  6.862537E-05 7.610210E+01  9.755178E-01 -4.219915E+01 
4.316200E+02  9.776101E-01 -4.547439E+01  7.682974E-05 6.964273E+01  7.939308E-05 6.694890E+01  9.753330E-01 -4.222015E+01 
4.316325E+02  9.775425E-01 -4.550838E+01  8.855455E-05 5.193783E+01  8.978720E-05 5.612310E+01  9.753354E-01 -4.224876E+01 
4.316450E+02  9.774006E-01 -4.553409E+01  1.076636E-04 4.217928E+01  1.068075E-04 3.983408E+01  9.752999E-01 -4.227546E+01 
4.316575E+02  9.774278E-01 -4.555641E+01  1.351525E-04 3.493352E+01  1.369749E-04 3.102412E+01  9.752274E-01 -4.229270E+01 
4.316700E+02  9.774113E-01 -4.557463E+01  1.800637E-04 2.696959E+01  1.795559E-04 2.802076E+01  9.750749E-01 -4.232593E+01 
4.316825E+02  9.773706E-01 -4.560005E+01  2.234002E-04 2.299051E+01  2.271696E-04 2.454669E+01  9.751640E-01 -4.234887E+01 
4.316950E+02  9.773426E-01 -4.563055E+01  2.965766E-04 2.073317E+01  2.914932E-04 2.147213E+01  9.751133E-01 -4.237649E+01 
4.317075E+02  9.772696E-01 -4.565957E+01  3.721384E-04 1.754912E+01  3.730999E-04 1.695117E+01  9.750383E-01 -4.240674E+01 
4.317200E+02  9.771264E-01 -4.568881E+01  4.683705E-04 1.502730E+01  4.686936E-04 1.550804E+01  9.749825E-01 -4.242931E+01 
4.317325E+02  9.770075E-01 -4.571263E+01  5.891089E-04 1.240811E+01  5.984446E-04 1.271484E+01  9.748999E-01 -4.246634E+01 
4.317450E+02  9.767773E-01 -4.574802E+01  7.340825E-04 1.021027E+01  7.370196E-04 1.028328E+01  9.747797E-01 -4.249255E+01 
4.317575E+02  9.767873E-01 -4.577348E+01  9.174298E-04 6.769671E+00  9.128906E-04 6.749345E+00  9.745635E-01 -4.251983E+01 
4.317700E+02  9.765658E-01 -4.580762E+01  1.138217E-03 3.147444E+00  1.139366E-03 3.513298E+00  9.744553E-01 -4.255441E+01 
4.317825E+02  9.762674E-01 -4.583964E+01  1.409077E-03 -9.406585E-01  1.414071E-03 -8.207211E-01  9.739838E-01 -4.259087E+01 
4.317950E+02  9.758738E-01 -4.586748E+01  1.732128E-03 -6.449450E+00  1.731261E-03 -6.431553E+00  9.737683E-01 -4.261763E+01 
4.318075E+02  9.754156E-01 -4.589760E+01  2.145247E-03 -1.327711E+01  2.133784E-03 -1.305694E+01  9.733043E-01 -4.264606E+01 
4.318200E+02  9.748868E-01 -4.590531E+01  2.582015E-03 -2.147853E+01  2.584003E-03 -2.144330E+01  9.726935E-01 -4.266948E+01 
4.318325E+02  9.741591E-01 -4.592874E+01  3.058153E-03 -3.160055E+01  3.057164E-03 -3.158889E+01  9.720917E-01 -4.266908E+01 
4.318450E+02  9.736718E-01 -4.591135E+01  3.498642E-03 -4.304249E+01  3.497062E-03 -4.298618E+01  9.715686E-01 -4.266404E+01 
4.318575E+02  9.734029E-01 -4.588546E+01  3.820237E-03 -5.505112E+01  3.816058E-03 -5.485135E+01  9.713311E-01 -4.264723E+01 
4.318700E+02  9.734677E-01 -4.586489E+01  3.967467E-03 -6.670340E+01  3.967431E-03 -6.656777E+01  9.713965E-01 -4.262355E+01 
4.318825E+02  9.737509E-01 -4.585537E+01  3.970961E-03 -7.719610E+01  3.964031E-03 -7.698926E+01  9.716583E-01 -4.262315E+01 
4.318950E+02  9.741452E-01 -4.585798E+01  3.874189E-03 -8.596396E+01  3.877540E-03 -8.579182E+01  9.720589E-01 -4.262019E+01 
4.319075E+02  9.745611E-01 -4.587259E+01  3.738455E-03 -9.314846E+01  3.723190E-03 -9.303603E+01  9.724331E-01 -4.263406E+01 
4.319200E+02  9.749407E-01 -4.589821E+01  3.578392E-03 -9.910338E+01  3.570897E-03 -9.882863E+01  9.727888E-01 -4.265274E+01 
4.319325E+02  9.752311E-01 -4.591822E+01  3.431804E-03 -1.036124E+02  3.429154E-03 -1.034544E+02  9.730268E-01 -4.268389E+01 
4.319450E+02  9.755835E-01 -4.595891E+01  3.291828E-03 -1.074033E+02  3.294607E-03 -1.072096E+02  9.732580E-01 -4.271205E+01 
4.319575E+02  9.756751E-01 -4.599215E+01  3.174339E-03 -1.103635E+02  3.169204E-03 -1.102789E+02  9.733759E-01 -4.274627E+01 
4.319700E+02  9.757896E-01 -4.602066E+01  3.072246E-03 -1.127612E+02  3.063166E-03 -1.127455E+02  9.735892E-01 -4.277076E+01 
4.319825E+02  9.759160E-01 -4.605310E+01  2.986565E-03 -1.150296E+02  2.981602E-03 -1.147966E+02  9.735977E-01 -4.280831E+01 
4.319950E+02  9.760912E-01 -4.608628E+01  2.913609E-03 -1.167377E+02  2.907976E-03 -1.165032E+02  9.737391E-01 -4.284763E+01 
4.320075E+02  9.761118E-01 -4.612868E+01  2.853358E-03 -1.182955E+02  2.848369E-03 -1.180075E+02  9.737660E-01 -4.287973E+01 
4.320200E+02  9.761527E-01 -4.615523E+01  2.792798E-03 -1.196670E+02  2.782376E-03 -1.192923E+02  9.738431E-01 -4.291067E+01 
4.320325E+02  9.760884E-01 -4.617534E+01  2.747558E-03 -1.207875E+02  2.743088E-03 -1.205408E+02  9.737926E-01 -4.294367E+01 
4.320450E+02  9.761824E-01 -4.620623E+01  2.705831E-03 -1.214710E+02  2.709741E-03 -1.214466E+02  9.737541E-01 -4.297883E+01 
4.320575E+02  9.762785E-01 -4.624707E+01  2.675115E-03 -1.222887E+02  2.665091E-03 -1.221763E+02  9.737794E-01 -4.301139E+01 
4.320700E+02  9.761462E-01 -4.628348E+01  2.643530E-03 -1.231324E+02  2.635051E-03 -1.228639E+02  9.738026E-01 -4.304476E+01 
4.320825E+02  9.761401E-01 -4.632171E+01  2.610582E-03 -1.238639E+02  2.612507E-03 -1.237271E+02  9.738228E-01 -4.308529E+01 
4.320950E+02  9.762419E-01 -4.635140E+01  2.597295E-03 -1.243536E+02  2.597226E-03 -1.243957E+02  9.738681E-01 -4.311819E+01 
4.321075E+02  9.762128E-01 -4.639068E+01  2.578265E-03 -1.247038E+02  2.577061E-03 -1.245749E+02  9.737753E-01 -4.315347E+01 
4.321200E+02  9.761098E-01 -4.642336E+01  2.570574E-03 -1.252841E+02  2.558445E-03 -1.249200E+02  9.737457E-01 -4.319324E+01 
4.321325E+02  9.761279E-01 -4.646215E+01  2.556587E-03 -1.254424E+02  2.552514E-03 -1.253790E+02  9.737338E-01 -4.322996E+01 
4.321450E+02  9.761902E-01 -4.649843E+01  2.550964E-03 -1.259383E+02  2.547103E-03 -1.257831E+02  9.737474E-01 -4.326865E+01 
4.321575E+02  9.760264E-01 -4.653965E+01  2.542258E-03 -1.263840E+02  2.538271E-03 -1.260656E+02  9.736735E-01 -4.330724E+01 
4.321700E+02  9.759852E-01 -4.657536E+01  2.539553E-03 -1.265419E+02  2.538265E-03 -1.262489E+02  9.736179E-01 -4.334630E+01 
4.321825E+02  9.759724E-01 -4.661219E+01  2.543535E-03 -1.268862E+02  2.536471E-03 -1.266790E+02  9.736737E-01 -4.338650E+01 
4.321950E+02  9.760021E-01 -4.665372E+01  2.533617E-03 -1.270118E+02  2.543875E-03 -1.269750E+02  9.735691E-01 -4.342933E+01 
4.322075E+02  9.759400E-01 -4.669053E+01  2.550645E-03 -1.274090E+02  2.559412E-03 -1.272908E+02  9.734967E-01 -4.347153E+01 
4.322200E+02  9.759268E-01 -4.673064E+01  2.560996E-03 -1.276198E+02  2.562923E-03 -1.273305E+02  9.735141E-01 -4.351642E+01 
4.322325E+02  9.758049E-01 -4.677791E+01  2.576312E-03 -1.278473E+02  2.568217E-03 -1.278303E+02  9.733415E-01 -4.355335E+01 
4.322450E+02  9.757668E-01 -4.682333E+01  2.597710E-03 -1.282155E+02  2.595302E-03 -1.279034E+02  9.733286E-01 -4.359333E+01 
4.322575E+02  9.756292E-01 -4.686442E+01  2.610915E-03 -1.284745E+02  2.615710E-03 -1.283458E+02  9.732426E-01 -4.364466E+01 
4.322700E+02  9.756452E-01 -4.690743E+01  2.651215E-03 -1.288589E+02  2.642950E-03 -1.286326E+02  9.733334E-01 -4.368766E+01 
4.322825E+02  9.754346E-01 -4.695600E+01  2.679759E-03 -1.294084E+02  2.684989E-03 -1.293003E+02  9.731897E-01 -4.373860E+01 
4.322950E+02  9.754419E-01 -4.700480E+01  2.731875E-03 -1.301861E+02  2.725436E-03 -1.298349E+02  9.730833E-01 -4.378119E+01 
4.323075E+02  9.753596E-01 -4.705514E+01  2.784361E-03 -1.311233E+02  2.790070E-03 -1.306036E+02  9.729757E-01 -4.383406E+01 
4.323200E+02  9.751808E-01 -4.710536E+01  2.857015E-03 -1.321012E+02  2.846740E-03 -1.318000E+02  9.729307E-01 -4.388850E+01 
4.323325E+02  9.751494E-01 -4.715247E+01  2.943445E-03 -1.337498E+02  2.942723E-03 -1.337697E+02  9.728031E-01 -4.394804E+01 
4.323450E+02  9.749501E-01 -4.720625E+01  3.057018E-03 -1.360079E+02  3.052419E-03 -1.359690E+02  9.726067E-01 -4.400549E+01 
4.323575E+02  9.747456E-01 -4.726152E+01  3.179923E-03 -1.395068E+02  3.176008E-03 -1.392718E+02  9.724493E-01 -4.406159E+01 
4.323700E+02  9.743380E-01 -4.732038E+01  3.319123E-03 -1.444603E+02  3.307418E-03 -1.441911E+02  9.721219E-01 -4.412004E+01 
4.323825E+02  9.738113E-01 -4.737327E+01  3.430306E-03 -1.513557E+02  3.427290E-03 -1.511737E+02  9.715569E-01 -4.418037E+01 
4.323950E+02  9.731979E-01 -4.741019E+01  3.448679E-03 -1.610675E+02  3.434889E-03 -1.610450E+02  9.709596E-01 -4.422846E+01 
4.324075E+02  9.725739E-01 -4.743752E+01  3.251874E-03 -1.731130E+02  3.252868E-03 -1.730732E+02  9.703419E-01 -4.425677E+01 
4.324200E+02  9.724346E-01 -4.744621E+01  2.798328E-03 1.743420E+02  2.796966E-03 1.745116E+02  9.698849E-01 -4.426900E+01 
4.324325E+02  9.726124E-01 -4.746466E+01  2.210448E-03 1.642146E+02  2.203091E-03 1.645284E+02  9.700469E-01 -4.427822E+01 
4.324450E+02  9.730530E-01 -4.750140E+01  1.662204E-03 1.582317E+02  1.641032E-03 1.586466E+02  9.703601E-01 -4.432024E+01 
4.324575E+02  9.733002E-01 -4.755566E+01  1.188373E-03 1.568448E+02  1.186893E-03 1.570269E+02  9.705511E-01 -4.436453E+01 
4.324700E+02  9.734424E-01 -4.761627E+01  8.499079E-04 1.593013E+02  8.538865E-04 1.590432E+02  9.707960E-01 -4.442500E+01 
4.324825E+02  9.736326E-01 -4.768081E+01  6.094198E-04 1.649956E+02  6.109668E-04 1.658314E+02  9.709419E-01 -4.448264E+01 
4.324950E+02  9.737527E-01 -4.774548E+01  4.358611E-04 1.765670E+02  4.402988E-04 1.760608E+02  9.709972E-01 -4.454975E+01 
4.325075E+02  9.737642E-01 -4.781678E+01  3.260966E-04 -1.696110E+02  3.255886E-04 -1.700832E+02  9.711079E-01 -4.461734E+01 
4.325200E+02  9.736545E-01 -4.788487E+01  2.461944E-04 -1.501982E+02  2.481394E-04 -1.489284E+02  9.711090E-01 -4.468905E+01 
4.325325E+02  9.736697E-01 -4.795273E+01  2.145395E-04 -1.241158E+02  1.944617E-04 -1.242704E+02  9.710406E-01 -4.476495E+01 
4.325450E+02  9.735830E-01 -4.802334E+01  1.876175E-04 -9.124622E+01  1.876377E-04 -9.210671E+01  9.709967E-01 -4.483462E+01 
4.325575E+02  9.735259E-01 -4.809712E+01  2.160720E-04 -6.330136E+01  2.154629E-04 -6.154930E+01  9.709401E-01 -4.490933E+01 
4.325700E+02  9.735162E-01 -4.817280E+01  2.865436E-04 -4.276946E+01  2.746408E-04 -4.367852E+01  9.708175E-01 -4.498436E+01 
4.325825E+02  9.734470E-01 -4.825199E+01  3.727332E-04 -2.957163E+01  3.562556E-04 -2.855590E+01  9.707728E-01 -4.506205E+01 
4.325950E+02  9.731481E-01 -4.832473E+01  4.608898E-04 -1.829803E+01  4.768205E-04 -1.836776E+01  9.707096E-01 -4.514336E+01 
4.326075E+02  9.732082E-01 -4.840986E+01  5.871869E-04 -1.196278E+01  5.872276E-04 -1.096941E+01  9.704927E-01 -4.522900E+01 
4.326200E+02  9.729063E-01 -4.849597E+01  7.308323E-04 -5.608532E+00  7.151291E-04 -6.110817E+00  9.704032E-01 -4.531523E+01 
4.326325E+02  9.728563E-01 -4.858249E+01  8.606165E-04 1.888574E-02  8.757268E-04 -1.141004E+00  9.701970E-01 -4.540076E+01 
4.326450E+02  9.727554E-01 -4.866898E+01  1.040988E-03 3.629579E+00  1.052439E-03 3.003148E+00  9.700937E-01 -4.549739E+01 
4.326575E+02  9.726238E-01 -4.876071E+01  1.228883E-03 5.923475E+00  1.234912E-03 6.182244E+00  9.699476E-01 -4.559311E+01 
4.326700E+02  9.724115E-01 -4.886104E+01  1.437116E-03 8.747686E+00  1.443734E-03 8.762129E+00  9.696829E-01 -4.568655E+01 
4.326825E+02  9.723166E-01 -4.895134E+01  1.678947E-03 1.072336E+01  1.671115E-03 1.081279E+01  9.695726E-01 -4.578429E+01 
4.326950E+02  9.719939E-01 -4.905458E+01  1.928104E-03 1.240719E+01  1.921696E-03 1.257939E+01  9.693642E-01 -4.588821E+01 
4.327075E+02  9.719876E-01 -4.916067E+01  2.210650E-03 1.393043E+01  2.206295E-03 1.421178E+01  9.691222E-01 -4.598883E+01 
4.327200E+02  9.717324E-01 -4.926831E+01  2.517039E-03 1.516814E+01  2.512282E-03 1.536405E+01  9.688456E-01 -4.611132E+01 
4.327325E+02  9.714463E-01 -4.938752E+01  2.842831E-03 1.622761E+01  2.847226E-03 1.618727E+01  9.686797E-01 -4.622216E+01 
4.327450E+02  9.712302E-01 -4.950396E+01  3.219857E-03 1.698817E+01  3.215739E-03 1.725890E+01  9.685155E-01 -4.633478E+01 
4.327575E+02  9.708451E-01 -4.961670E+01  3.612499E-03 1.784656E+01  3.611004E-03 1.793089E+01  9.680909E-01 -4.646245E+01 
4.327700E+02  9.705663E-01 -4.974538E+01  4.043410E-03 1.841725E+01  4.051553E-03 1.859510E+01  9.678466E-01 -4.659564E+01 
4.327825E+02  9.703468E-01 -4.988190E+01  4.508360E-03 1.893777E+01  4.524519E-03 1.919967E+01  9.674868E-01 -4.672871E+01 
4.327950E+02  9.700393E-01 -5.001897E+01  5.044147E-03 1.953597E+01  5.042806E-03 1.970844E+01  9.672696E-01 -4.686386E+01 
4.328075E+02  9.697123E-01 -5.016010E+01  5.613282E-03 2.003596E+01  5.610673E-03 2.021621E+01  9.669201E-01 -4.701138E+01 
4.328200E+02  9.694291E-01 -5.030767E+01  6.255809E-03 2.036696E+01  6.236306E-03 2.050818E+01  9.665625E-01 -4.716550E+01 
4.328325E+02  9.690672E-01 -5.046200E+01  6.946752E-03 2.062876E+01  6.938487E-03 2.084040E+01  9.660120E-01 -4.732873E+01 
4.328450E+02  9.685224E-01 -5.063141E+01  7.714180E-03 2.087058E+01  7.704568E-03 2.115580E+01  9.655486E-01 -4.749374E+01 
4.328575E+02  9.682036E-01 -5.080520E+01  8.553880E-03 2.102702E+01  8.543836E-03 2.126624E+01  9.651826E-01 -4.766782E+01 
4.328700E+02  9.677600E-01 -5.097699E+01  9.493935E-03 2.115116E+01  9.470876E-03 2.137194E+01  9.645216E-01 -4.785638E+01 
4.328825E+02  9.672054E-01 -5.117100E+01  1.052330E-02 2.124523E+01  1.051777E-02 2.142750E+01  9.639726E-01 -4.804580E+01 
4.328950E+02  9.665561E-01 -5.137418E+01  1.166665E-02 2.117448E+01  1.166790E-02 2.135697E+01  9.634923E-01 -4.825819E+01 
4.329075E+02  9.660206E-01 -5.158508E+01  1.294044E-02 2.120227E+01  1.293142E-02 2.132364E+01  9.628277E-01 -4.847727E+01 
4.329200E+02  9.652374E-01 -5.181431E+01  1.436163E-02 2.109833E+01  1.435888E-02 2.119386E+01  9.621463E-01 -4.871195E+01 
4.329325E+02  9.645178E-01 -5.205570E+01  1.594932E-02 2.087049E+01  1.592891E-02 2.108704E+01  9.612872E-01 -4.895779E+01 
4.329450E+02  9.637480E-01 -5.231350E+01  1.772728E-02 2.066712E+01  1.770988E-02 2.082635E+01  9.604372E-01 -4.922477E+01 
4.329575E+02  9.627821E-01 -5.259228E+01  1.970729E-02 2.038421E+01  1.970309E-02 2.053605E+01  9.593705E-01 -4.950479E+01 
4.329700E+02  9.617205E-01 -5.288308E+01  2.197178E-02 2.003061E+01  2.195432E-02 2.018797E+01  9.581009E-01 -4.980995E+01 
4.329825E+02  9.605244E-01 -5.319841E+01  2.452460E-02 1.962808E+01  2.448994E-02 1.977559E+01  9.568194E-01 -5.014055E+01 
4.329950E+02  9.591614E-01 -5.354852E+01  2.739960E-02 1.911906E+01  2.737759E-02 1.926430E+01  9.553898E-01 -5.048693E+01 
4.330075E+02  9.575718E-01 -5.392100E+01  3.070855E-02 1.852119E+01  3.067587E-02 1.866046E+01  9.538479E-01 -5.086720E+01 
4.330200E+02  9.556901E-01 -5.432660E+01  3.448472E-02 1.782732E+01  3.445032E-02 1.797634E+01  9.517808E-01 -5.128665E+01 
4.330325E+02  9.536506E-01 -5.477265E+01  3.883786E-02 1.701672E+01  3.879708E-02 1.716043E+01  9.495579E-01 -5.173770E+01 
4.330450E+02  9.511515E-01 -5.525681E+01  4.388002E-02 1.606333E+01  4.381419E-02 1.623292E+01  9.467555E-01 -5.224545E+01 
4.330575E+02  9.479963E-01 -5.580163E+01  4.974717E-02 1.499674E+01  4.968905E-02 1.516866E+01  9.436105E-01 -5.279712E+01 
4.330700E+02  9.443855E-01 -5.639878E+01  5.661796E-02 1.376454E+01  5.654040E-02 1.390824E+01  9.397280E-01 -5.341109E+01 
4.330825E+02  9.398199E-01 -5.707572E+01  6.471037E-02 1.231183E+01  6.465290E-02 1.248134E+01  9.349304E-01 -5.410604E+01 
4.330950E+02  9.341469E-01 -5.782771E+01  7.437014E-02 1.061598E+01  7.428488E-02 1.076332E+01  9.289072E-01 -5.488783E+01 
4.331075E+02  9.269326E-01 -5.869579E+01  8.596605E-02 8.605304E+00  8.589302E-02 8.768701E+00  9.213722E-01 -5.576928E+01 
4.331200E+02  9.176318E-01 -5.967794E+01  1.000637E-01 6.213010E+00  9.997878E-02 6.364631E+00  9.115764E-01 -5.676881E+01 
4.331325E+02  9.052836E-01 -6.080590E+01  1.173252E-01 3.318520E+00  1.172446E-01 3.458154E+00  8.985283E-01 -5.793024E+01 
4.331450E+02  8.886201E-01 -6.209869E+01  1.386966E-01 -2.526551E-01  1.386081E-01 -1.132848E-01  8.810995E-01 -5.924488E+01 
4.331575E+02  8.654646E-01 -6.354010E+01  1.653080E-01 -4.708564E+00  1.652275E-01 -4.561755E+00  8.569717E-01 -6.071034E+01 
4.331700E+02  8.329710E-01 -6.508042E+01  1.985661E-01 -1.035082E+01  1.983893E-01 -1.022771E+01  8.232344E-01 -6.226743E+01 
4.331825E+02  7.872286E-01 -6.647608E+01  2.392329E-01 -1.759960E+01  2.390229E-01 -1.748549E+01  7.758118E-01 -6.367221E+01 
4.331950E+02  7.254384E-01 -6.711208E+01  2.867412E-01 -2.689202E+01  2.866041E-01 -2.678221E+01  7.120097E-01 -6.421876E+01 
4.332075E+02  6.517298E-01 -6.561842E+01  3.365303E-01 -3.837794E+01  3.362782E-01 -3.827140E+01  6.367093E-01 -6.244362E+01 
4.332200E+02  5.863802E-01 -6.037932E+01  3.801623E-01 -5.148957E+01  3.798857E-01 -5.138253E+01  5.723254E-01 -5.667657E+01 
4.332325E+02  5.600168E-01 -5.150030E+01  4.107439E-01 -6.548667E+01  4.103606E-01 -6.539950E+01  5.500364E-01 -4.731261E+01 
4.332450E+02  5.923280E-01 -4.293087E+01  4.207201E-01 -7.951112E+01  4.201689E-01 -7.940792E+01  5.870987E-01 -3.866610E+01 
4.332575E+02  6.593464E-01 -3.868713E+01  4.102566E-01 -9.201530E+01  4.096154E-01 -9.191840E+01  6.571419E-01 -3.460801E+01 
4.332700E+02  7.251197E-01 -3.798022E+01  3.891865E-01 -1.022448E+02  3.886908E-01 -1.021183E+02  7.246010E-01 -3.410192E+01 
4.332825E+02  7.761074E-01 -3.886160E+01  3.664865E-01 -1.102973E+02  3.659686E-01 -1.101723E+02  7.762898E-01 -3.514066E+01 
4.332950E+02  8.125961E-01 -4.027898E+01  3.460369E-01 -1.166624E+02  3.455363E-01 -1.165374E+02  8.130437E-01 -3.666438E+01 
4.333075E+02  8.380674E-01 -4.177691E+01  3.291884E-01 -1.217675E+02  3.287676E-01 -1.216256E+02  8.385967E-01 -3.825358E+01 
4.333200E+02  8.555564E-01 -4.323765E+01  3.162005E-01 -1.259489E+02  3.157839E-01 -1.258169E+02  8.561219E-01 -3.978023E+01 
4.333325E+02  8.676026E-01 -4.459890E+01  3.066708E-01 -1.294826E+02  3.062919E-01 -1.293459E+02  8.679333E-01 -4.119585E+01 
4.333450E+02  8.754503E-01 -4.587729E+01  3.001744E-01 -1.325569E+02  2.998121E-01 -1.324139E+02  8.757287E-01 -4.252771E+01 
4.333575E+02  8.803584E-01 -4.708239E+01  2.965418E-01 -1.352951E+02  2.961424E-01 -1.351548E+02  8.804911E-01 -4.377647E+01 
4.333700E+02  8.827494E-01 -4.824757E+01  2.951976E-01 -1.378127E+02  2.948551E-01 -1.376654E+02  8.830077E-01 -4.498497E+01 
4.333825E+02  8.832695E-01 -4.937935E+01  2.961433E-01 -1.401632E+02  2.958378E-01 -1.400335E+02  8.832649E-01 -4.615906E+01 
4.333950E+02  8.819057E-01 -5.051553E+01  2.992786E-01 -1.424424E+02  2.989835E-01 -1.423083E+02  8.818481E-01 -4.733333E+01 
4.334075E+02  8.788705E-01 -5.165355E+01  3.044458E-01 -1.446851E+02  3.041188E-01 -1.445429E+02  8.786466E-01 -4.851658E+01 
