! Matrix data file written by TouchstoneData, EPCOS AG
! FILENAME: "B3783_WB.s2p"
! COMMENT: "PCB=QCC8B 2/5 UM; PORTEX1 91PS; PORTEX2 189P"
! INFO: nport=2, nfreq=1601
! DATE: "Tue Aug 21 10:48:53 2007"
! USER: "Thomas Telgmann"
!
! port | pin | signal
! -----|-----|--------
!   1  |  2  |  input
!   2  |  5  |  output
! --------------------
!
# MHZ S MA R 50
! freq  magS11 angS11  magS21 angS21  magS12 angS12  magS22 angS22
2.900000E+02  9.903803E-01 -3.316052E+01  4.175006E-04 5.816102E+01  4.200098E-04 5.708716E+01  9.891536E-01 -3.021854E+01 
2.900312E+02  9.904219E-01 -3.316933E+01  4.171185E-04 5.613622E+01  4.122909E-04 5.594288E+01  9.891095E-01 -3.021485E+01 
2.900625E+02  9.903809E-01 -3.316212E+01  4.079288E-04 5.327284E+01  4.136570E-04 5.428270E+01  9.890197E-01 -3.021552E+01 
2.900938E+02  9.903676E-01 -3.317401E+01  3.978353E-04 5.230574E+01  3.981518E-04 5.242257E+01  9.891826E-01 -3.022922E+01 
2.901250E+02  9.903292E-01 -3.317339E+01  3.842962E-04 5.069840E+01  3.911528E-04 5.058613E+01  9.890715E-01 -3.022494E+01 
2.901562E+02  9.903363E-01 -3.316704E+01  3.715879E-04 4.919313E+01  3.709717E-04 5.011762E+01  9.890727E-01 -3.022938E+01 
2.901875E+02  9.904242E-01 -3.318440E+01  3.597806E-04 4.775930E+01  3.573398E-04 4.972781E+01  9.891936E-01 -3.023543E+01 
2.902188E+02  9.902207E-01 -3.318267E+01  3.384264E-04 4.919293E+01  3.384637E-04 4.884887E+01  9.890066E-01 -3.022912E+01 
2.902500E+02  9.903925E-01 -3.318532E+01  3.242885E-04 4.910256E+01  3.226990E-04 5.037151E+01  9.892664E-01 -3.023594E+01 
2.902812E+02  9.903865E-01 -3.318760E+01  3.197804E-04 5.065154E+01  3.059623E-04 5.191739E+01  9.892149E-01 -3.024654E+01 
2.903125E+02  9.904129E-01 -3.319426E+01  3.061002E-04 5.233596E+01  2.979160E-04 5.398980E+01  9.891640E-01 -3.023742E+01 
2.903438E+02  9.903608E-01 -3.318879E+01  2.948811E-04 5.426328E+01  2.899829E-04 5.491021E+01  9.891166E-01 -3.024535E+01 
2.903750E+02  9.903797E-01 -3.319865E+01  2.912353E-04 5.678029E+01  2.867528E-04 5.571979E+01  9.892984E-01 -3.025136E+01 
2.904062E+02  9.902833E-01 -3.320075E+01  2.918667E-04 5.954416E+01  2.881291E-04 5.888505E+01  9.891113E-01 -3.024561E+01 
2.904375E+02  9.904127E-01 -3.320667E+01  2.851357E-04 6.032585E+01  2.816287E-04 6.054451E+01  9.890033E-01 -3.026030E+01 
2.904688E+02  9.903773E-01 -3.321218E+01  2.993839E-04 6.029776E+01  2.916319E-04 6.213377E+01  9.892524E-01 -3.026459E+01 
2.905000E+02  9.903096E-01 -3.322520E+01  2.871302E-04 6.353580E+01  2.852479E-04 6.188961E+01  9.891391E-01 -3.026235E+01 
2.905312E+02  9.905701E-01 -3.322132E+01  2.988707E-04 6.458538E+01  2.843064E-04 6.512095E+01  9.892740E-01 -3.026711E+01 
2.905625E+02  9.902644E-01 -3.323211E+01  2.996355E-04 6.596248E+01  2.885663E-04 6.593070E+01  9.891401E-01 -3.026630E+01 
2.905938E+02  9.902711E-01 -3.322527E+01  2.997996E-04 6.693948E+01  2.956509E-04 6.786190E+01  9.892873E-01 -3.027091E+01 
2.906250E+02  9.903560E-01 -3.323798E+01  2.968245E-04 6.783160E+01  2.943691E-04 6.820383E+01  9.890652E-01 -3.027617E+01 
2.906562E+02  9.903588E-01 -3.324027E+01  3.081967E-04 6.867538E+01  3.091494E-04 7.095108E+01  9.891615E-01 -3.027718E+01 
2.906875E+02  9.905245E-01 -3.324104E+01  3.155049E-04 7.092682E+01  3.079864E-04 7.014596E+01  9.890407E-01 -3.028465E+01 
2.907188E+02  9.904615E-01 -3.324342E+01  3.156808E-04 7.132941E+01  3.178466E-04 7.238879E+01  9.891604E-01 -3.027916E+01 
2.907500E+02  9.903219E-01 -3.324367E+01  3.276702E-04 7.267888E+01  3.237936E-04 7.264714E+01  9.891774E-01 -3.029152E+01 
2.907812E+02  9.903194E-01 -3.324735E+01  3.373314E-04 7.327901E+01  3.308323E-04 7.456839E+01  9.890977E-01 -3.029224E+01 
2.908125E+02  9.903456E-01 -3.325065E+01  3.457303E-04 7.400585E+01  3.451222E-04 7.321905E+01  9.892161E-01 -3.029653E+01 
2.908438E+02  9.903551E-01 -3.325406E+01  3.621054E-04 7.260222E+01  3.532356E-04 7.335709E+01  9.890582E-01 -3.029773E+01 
2.908750E+02  9.903602E-01 -3.326207E+01  3.667873E-04 7.362152E+01  3.706675E-04 7.177447E+01  9.892022E-01 -3.030409E+01 
2.909062E+02  9.901955E-01 -3.326483E+01  3.830953E-04 7.085235E+01  3.752990E-04 7.140264E+01  9.891533E-01 -3.031496E+01 
2.909375E+02  9.902627E-01 -3.326046E+01  3.871730E-04 6.990152E+01  3.796986E-04 6.942493E+01  9.891979E-01 -3.030579E+01 
2.909688E+02  9.903369E-01 -3.326905E+01  3.874633E-04 6.862455E+01  3.850996E-04 6.815523E+01  9.891409E-01 -3.031255E+01 
2.910000E+02  9.904634E-01 -3.327152E+01  3.913159E-04 6.721622E+01  3.940314E-04 6.803864E+01  9.892668E-01 -3.031258E+01 
2.910312E+02  9.903826E-01 -3.327378E+01  3.916111E-04 6.556812E+01  3.937074E-04 6.602394E+01  9.891914E-01 -3.031757E+01 
2.910625E+02  9.902579E-01 -3.328004E+01  3.924215E-04 6.624992E+01  3.911014E-04 6.520820E+01  9.891816E-01 -3.031707E+01 
2.910938E+02  9.904087E-01 -3.327558E+01  3.900382E-04 6.443534E+01  3.845356E-04 6.479266E+01  9.892375E-01 -3.032370E+01 
2.911250E+02  9.902678E-01 -3.329010E+01  3.915175E-04 6.411103E+01  3.906446E-04 6.405642E+01  9.892828E-01 -3.032994E+01 
2.911562E+02  9.903658E-01 -3.329370E+01  3.878679E-04 6.402452E+01  3.831843E-04 6.404363E+01  9.891660E-01 -3.032745E+01 
2.911875E+02  9.904934E-01 -3.330424E+01  3.827684E-04 6.304215E+01  3.839728E-04 6.346433E+01  9.892210E-01 -3.033478E+01 
2.912188E+02  9.905247E-01 -3.330641E+01  3.794117E-04 6.178705E+01  3.795907E-04 6.347385E+01  9.891931E-01 -3.033507E+01 
2.912500E+02  9.904319E-01 -3.330235E+01  3.810326E-04 6.229303E+01  3.790797E-04 6.103627E+01  9.891275E-01 -3.033632E+01 
2.912812E+02  9.903711E-01 -3.331269E+01  3.732319E-04 6.235092E+01  3.780486E-04 6.162533E+01  9.892503E-01 -3.035120E+01 
2.913125E+02  9.903305E-01 -3.331266E+01  3.706803E-04 6.169556E+01  3.709784E-04 6.153756E+01  9.891146E-01 -3.035129E+01 
2.913438E+02  9.903981E-01 -3.332154E+01  3.769902E-04 6.026722E+01  3.745791E-04 6.070156E+01  9.891924E-01 -3.036169E+01 
2.913750E+02  9.904395E-01 -3.331886E+01  3.698927E-04 6.027824E+01  3.657032E-04 6.055456E+01  9.891683E-01 -3.035509E+01 
2.914062E+02  9.902561E-01 -3.332464E+01  3.701914E-04 5.992948E+01  3.636986E-04 6.054666E+01  9.891451E-01 -3.036150E+01 
2.914375E+02  9.902976E-01 -3.333043E+01  3.594194E-04 6.069146E+01  3.697713E-04 6.087722E+01  9.891632E-01 -3.036206E+01 
2.914688E+02  9.904792E-01 -3.333034E+01  3.587942E-04 6.091772E+01  3.597218E-04 6.023305E+01  9.890613E-01 -3.037457E+01 
2.915000E+02  9.903221E-01 -3.333665E+01  3.617327E-04 6.091552E+01  3.638877E-04 6.077128E+01  9.892275E-01 -3.037943E+01 
2.915312E+02  9.902604E-01 -3.333482E+01  3.595762E-04 5.924733E+01  3.626652E-04 6.125482E+01  9.890857E-01 -3.037539E+01 
2.915625E+02  9.904245E-01 -3.334593E+01  3.503252E-04 6.110585E+01  3.502884E-04 6.163719E+01  9.892214E-01 -3.037569E+01 
2.915938E+02  9.902843E-01 -3.335080E+01  3.488601E-04 6.114231E+01  3.484310E-04 6.164162E+01  9.892090E-01 -3.038144E+01 
2.916250E+02  9.903920E-01 -3.336039E+01  3.544526E-04 6.052620E+01  3.518894E-04 6.270851E+01  9.893058E-01 -3.039012E+01 
2.916562E+02  9.904457E-01 -3.336129E+01  3.516825E-04 6.079292E+01  3.470333E-04 6.181941E+01  9.890488E-01 -3.038480E+01 
2.916875E+02  9.902697E-01 -3.335828E+01  3.521926E-04 6.145028E+01  3.571883E-04 6.147389E+01  9.892487E-01 -3.039456E+01 
2.917188E+02  9.904175E-01 -3.336473E+01  3.526473E-04 6.179664E+01  3.546758E-04 6.211794E+01  9.892915E-01 -3.039703E+01 
2.917500E+02  9.904505E-01 -3.336784E+01  3.503728E-04 6.092577E+01  3.549315E-04 6.170079E+01  9.890887E-01 -3.040952E+01 
2.917812E+02  9.903196E-01 -3.337827E+01  3.558599E-04 6.125701E+01  3.519184E-04 6.250790E+01  9.891537E-01 -3.040964E+01 
2.918125E+02  9.903059E-01 -3.338201E+01  3.506437E-04 6.271309E+01  3.492154E-04 6.172921E+01  9.891566E-01 -3.040690E+01 
2.918438E+02  9.903982E-01 -3.337694E+01  3.531334E-04 6.158644E+01  3.502319E-04 6.199680E+01  9.892648E-01 -3.041152E+01 
2.918750E+02  9.905266E-01 -3.339028E+01  3.515555E-04 6.133340E+01  3.528890E-04 6.084991E+01  9.892050E-01 -3.041523E+01 
2.919062E+02  9.902987E-01 -3.339486E+01  3.572931E-04 6.146134E+01  3.524245E-04 6.095210E+01  9.892470E-01 -3.041269E+01 
2.919375E+02  9.903655E-01 -3.339048E+01  3.504554E-04 6.067035E+01  3.499504E-04 6.150496E+01  9.891305E-01 -3.042538E+01 
2.919688E+02  9.902654E-01 -3.339844E+01  3.453103E-04 6.187633E+01  3.438708E-04 6.310195E+01  9.893437E-01 -3.042472E+01 
2.920000E+02  9.903049E-01 -3.339931E+01  3.594806E-04 6.279284E+01  3.625015E-04 6.271732E+01  9.889948E-01 -3.043438E+01 
2.920312E+02  9.903227E-01 -3.340835E+01  3.447278E-04 6.115993E+01  3.525603E-04 6.212331E+01  9.892155E-01 -3.043006E+01 
2.920625E+02  9.903109E-01 -3.340657E+01  3.523705E-04 6.188115E+01  3.491578E-04 6.198321E+01  9.891603E-01 -3.044181E+01 
2.920938E+02  9.904257E-01 -3.341089E+01  3.508540E-04 6.111405E+01  3.505999E-04 6.176768E+01  9.890664E-01 -3.044177E+01 
2.921250E+02  9.902905E-01 -3.341836E+01  3.529518E-04 6.046766E+01  3.502397E-04 6.218311E+01  9.891829E-01 -3.044269E+01 
2.921562E+02  9.904064E-01 -3.342768E+01  3.468087E-04 6.214682E+01  3.499882E-04 6.212132E+01  9.890865E-01 -3.044584E+01 
2.921875E+02  9.904048E-01 -3.342282E+01  3.528440E-04 6.176203E+01  3.438562E-04 6.281940E+01  9.890530E-01 -3.045471E+01 
2.922188E+02  9.902026E-01 -3.342776E+01  3.546570E-04 6.228353E+01  3.542986E-04 6.195083E+01  9.890564E-01 -3.045017E+01 
2.922500E+02  9.902537E-01 -3.342833E+01  3.519251E-04 6.202415E+01  3.465389E-04 6.279266E+01  9.892539E-01 -3.045610E+01 
2.922812E+02  9.903655E-01 -3.342506E+01  3.539281E-04 6.342155E+01  3.450492E-04 6.289290E+01  9.889955E-01 -3.046605E+01 
2.923125E+02  9.903344E-01 -3.343343E+01  3.444629E-04 6.167997E+01  3.485799E-04 6.342684E+01  9.890424E-01 -3.047262E+01 
2.923438E+02  9.902782E-01 -3.344180E+01  3.526237E-04 6.315598E+01  3.513274E-04 6.186502E+01  9.892100E-01 -3.046555E+01 
2.923750E+02  9.904264E-01 -3.344496E+01  3.518938E-04 6.219476E+01  3.551653E-04 6.166717E+01  9.891906E-01 -3.047732E+01 
2.924062E+02  9.903696E-01 -3.345160E+01  3.591018E-04 6.334474E+01  3.559671E-04 6.316001E+01  9.889771E-01 -3.048143E+01 
2.924375E+02  9.903275E-01 -3.345956E+01  3.644845E-04 6.112967E+01  3.602017E-04 6.229764E+01  9.891721E-01 -3.049114E+01 
2.924688E+02  9.902418E-01 -3.345697E+01  3.643537E-04 6.223456E+01  3.634569E-04 6.167603E+01  9.889716E-01 -3.048878E+01 
2.925000E+02  9.903463E-01 -3.345800E+01  3.663311E-04 6.114023E+01  3.599283E-04 6.163165E+01  9.890002E-01 -3.048420E+01 
2.925312E+02  9.902998E-01 -3.346216E+01  3.648233E-04 6.056350E+01  3.605462E-04 6.071022E+01  9.890140E-01 -3.048741E+01 
2.925625E+02  9.904228E-01 -3.346538E+01  3.655400E-04 6.160530E+01  3.704231E-04 6.102141E+01  9.890546E-01 -3.049479E+01 
2.925938E+02  9.902271E-01 -3.347220E+01  3.686689E-04 6.037767E+01  3.597534E-04 6.047641E+01  9.893193E-01 -3.049501E+01 
2.926250E+02  9.903030E-01 -3.348055E+01  3.640723E-04 6.017264E+01  3.582625E-04 5.979273E+01  9.890479E-01 -3.050207E+01 
2.926562E+02  9.901990E-01 -3.347974E+01  3.720909E-04 5.919731E+01  3.665235E-04 5.960360E+01  9.889734E-01 -3.051197E+01 
2.926875E+02  9.902801E-01 -3.348847E+01  3.684803E-04 5.792885E+01  3.613238E-04 5.812627E+01  9.890451E-01 -3.051444E+01 
2.927188E+02  9.902686E-01 -3.348521E+01  3.667167E-04 5.698745E+01  3.630093E-04 5.679872E+01  9.889681E-01 -3.052058E+01 
2.927500E+02  9.902055E-01 -3.349522E+01  3.542408E-04 5.574061E+01  3.494739E-04 5.528231E+01  9.890186E-01 -3.051736E+01 
2.927812E+02  9.902939E-01 -3.349889E+01  3.532890E-04 5.479035E+01  3.478535E-04 5.562564E+01  9.889677E-01 -3.051524E+01 
2.928125E+02  9.900937E-01 -3.349565E+01  3.526724E-04 5.570387E+01  3.395737E-04 5.463129E+01  9.891373E-01 -3.052697E+01 
2.928438E+02  9.903527E-01 -3.349781E+01  3.369410E-04 5.378307E+01  3.272085E-04 5.510078E+01  9.888216E-01 -3.052862E+01 
2.928750E+02  9.903324E-01 -3.350182E+01  3.249664E-04 5.448633E+01  3.224275E-04 5.382704E+01  9.891175E-01 -3.053061E+01 
2.929062E+02  9.903847E-01 -3.351083E+01  3.212173E-04 5.458648E+01  3.153568E-04 5.459599E+01  9.891312E-01 -3.053194E+01 
2.929375E+02  9.901551E-01 -3.351942E+01  3.152389E-04 5.599642E+01  3.083527E-04 5.590295E+01  9.889197E-01 -3.053405E+01 
2.929688E+02  9.903372E-01 -3.351916E+01  3.045166E-04 5.522705E+01  3.096522E-04 5.537278E+01  9.889456E-01 -3.054075E+01 
2.930000E+02  9.901319E-01 -3.352791E+01  2.965453E-04 5.599419E+01  2.932821E-04 5.795427E+01  9.889970E-01 -3.054779E+01 
2.930312E+02  9.900918E-01 -3.352555E+01  2.892955E-04 5.865604E+01  2.894247E-04 5.797466E+01  9.890985E-01 -3.055157E+01 
2.930625E+02  9.902965E-01 -3.353763E+01  2.899673E-04 5.962343E+01  2.869241E-04 5.897555E+01  9.889197E-01 -3.055755E+01 
2.930938E+02  9.902111E-01 -3.353345E+01  2.818156E-04 6.033932E+01  2.901993E-04 6.113052E+01  9.890390E-01 -3.056064E+01 
2.931250E+02  9.902728E-01 -3.353628E+01  2.869133E-04 6.005879E+01  2.792822E-04 6.130986E+01  9.888611E-01 -3.056044E+01 
2.931562E+02  9.902030E-01 -3.354163E+01  2.800002E-04 6.534024E+01  2.749362E-04 6.386244E+01  9.887837E-01 -3.056818E+01 
2.931875E+02  9.902050E-01 -3.353585E+01  2.787561E-04 6.579803E+01  2.775931E-04 6.680649E+01  9.889991E-01 -3.056299E+01 
2.932188E+02  9.902164E-01 -3.355119E+01  2.708313E-04 6.642370E+01  2.744276E-04 6.752499E+01  9.890072E-01 -3.056896E+01 
2.932500E+02  9.902455E-01 -3.355059E+01  2.812116E-04 6.998922E+01  2.827830E-04 6.919114E+01  9.891594E-01 -3.057194E+01 
2.932812E+02  9.901742E-01 -3.354979E+01  2.849124E-04 7.369270E+01  2.720802E-04 6.996507E+01  9.890112E-01 -3.058393E+01 
2.933125E+02  9.901606E-01 -3.356793E+01  2.912446E-04 7.171100E+01  2.961123E-04 7.207090E+01  9.890733E-01 -3.058036E+01 
2.933438E+02  9.900392E-01 -3.356042E+01  2.923761E-04 7.477358E+01  2.932001E-04 7.603445E+01  9.887859E-01 -3.058393E+01 
2.933750E+02  9.900930E-01 -3.356685E+01  3.058828E-04 7.710985E+01  3.018452E-04 7.739315E+01  9.889378E-01 -3.058731E+01 
2.934062E+02  9.900081E-01 -3.356877E+01  3.164632E-04 7.961236E+01  3.181091E-04 7.948830E+01  9.887572E-01 -3.059285E+01 
2.934375E+02  9.900754E-01 -3.357298E+01  3.316468E-04 8.020391E+01  3.332951E-04 7.995090E+01  9.890248E-01 -3.059933E+01 
2.934688E+02  9.902086E-01 -3.358396E+01  3.563361E-04 7.920938E+01  3.539500E-04 7.881865E+01  9.888762E-01 -3.059458E+01 
2.935000E+02  9.901933E-01 -3.358179E+01  3.685724E-04 7.858307E+01  3.753742E-04 7.937769E+01  9.889043E-01 -3.059465E+01 
2.935312E+02  9.902260E-01 -3.358472E+01  3.891820E-04 7.707644E+01  3.882434E-04 7.754642E+01  9.890025E-01 -3.060929E+01 
2.935625E+02  9.902967E-01 -3.359145E+01  3.961764E-04 7.641956E+01  4.044074E-04 7.592185E+01  9.890304E-01 -3.061359E+01 
2.935938E+02  9.903268E-01 -3.359270E+01  4.106951E-04 7.361358E+01  4.095010E-04 7.368555E+01  9.889782E-01 -3.061483E+01 
2.936250E+02  9.901116E-01 -3.359566E+01  4.228660E-04 7.215024E+01  4.120999E-04 7.188571E+01  9.889439E-01 -3.061770E+01 
2.936562E+02  9.902358E-01 -3.360333E+01  4.262087E-04 7.068232E+01  4.169379E-04 7.059463E+01  9.889202E-01 -3.061903E+01 
2.936875E+02  9.899935E-01 -3.360626E+01  4.192723E-04 7.008045E+01  4.260669E-04 6.844857E+01  9.888664E-01 -3.061643E+01 
2.937188E+02  9.901381E-01 -3.360567E+01  4.324841E-04 6.766951E+01  4.198217E-04 6.748259E+01  9.890194E-01 -3.062045E+01 
2.937500E+02  9.900582E-01 -3.361249E+01  4.310957E-04 6.593914E+01  4.275894E-04 6.627751E+01  9.889187E-01 -3.062757E+01 
2.937812E+02  9.902360E-01 -3.361898E+01  4.382339E-04 6.512812E+01  4.312282E-04 6.556164E+01  9.888973E-01 -3.063600E+01 
2.938125E+02  9.901970E-01 -3.362177E+01  4.294331E-04 6.352112E+01  4.261231E-04 6.403002E+01  9.890498E-01 -3.062977E+01 
2.938438E+02  9.900265E-01 -3.361923E+01  4.309606E-04 6.281005E+01  4.274758E-04 6.243465E+01  9.888499E-01 -3.063844E+01 
2.938750E+02  9.901620E-01 -3.363214E+01  4.347031E-04 5.955305E+01  4.273111E-04 6.027282E+01  9.890399E-01 -3.063385E+01 
2.939062E+02  9.902162E-01 -3.362819E+01  4.274096E-04 5.845839E+01  4.225492E-04 5.701601E+01  9.888165E-01 -3.064691E+01 
2.939375E+02  9.901459E-01 -3.363790E+01  4.202210E-04 5.613480E+01  4.217678E-04 5.567886E+01  9.891086E-01 -3.064734E+01 
2.939688E+02  9.901051E-01 -3.363620E+01  4.120671E-04 5.477320E+01  4.160058E-04 5.474210E+01  9.889078E-01 -3.064848E+01 
2.940000E+02  9.900270E-01 -3.364221E+01  4.061878E-04 5.232467E+01  4.052844E-04 5.334067E+01  9.888768E-01 -3.066075E+01 
2.940312E+02  9.899365E-01 -3.364332E+01  4.003382E-04 4.982325E+01  3.954421E-04 4.932481E+01  9.887710E-01 -3.065779E+01 
2.940625E+02  9.901475E-01 -3.364797E+01  3.833696E-04 4.835831E+01  3.757385E-04 4.977256E+01  9.890581E-01 -3.066005E+01 
2.940938E+02  9.900486E-01 -3.365176E+01  3.608391E-04 4.693112E+01  3.582395E-04 4.758826E+01  9.887323E-01 -3.067089E+01 
2.941250E+02  9.901284E-01 -3.364870E+01  3.386994E-04 4.744915E+01  3.423364E-04 4.772469E+01  9.889751E-01 -3.066595E+01 
2.941562E+02  9.901602E-01 -3.365363E+01  3.196006E-04 4.658268E+01  3.173609E-04 4.728214E+01  9.889047E-01 -3.067507E+01 
2.941875E+02  9.901267E-01 -3.366222E+01  3.051699E-04 4.802087E+01  3.010661E-04 4.882162E+01  9.888056E-01 -3.067321E+01 
2.942188E+02  9.902150E-01 -3.365998E+01  2.867003E-04 5.194133E+01  2.913756E-04 5.135504E+01  9.888705E-01 -3.067835E+01 
2.942500E+02  9.901826E-01 -3.367076E+01  2.763457E-04 5.597248E+01  2.769858E-04 5.475409E+01  9.889953E-01 -3.067888E+01 
2.942812E+02  9.901245E-01 -3.367439E+01  2.771629E-04 5.635907E+01  2.745655E-04 5.732674E+01  9.888321E-01 -3.068048E+01 
2.943125E+02  9.901570E-01 -3.366829E+01  2.751242E-04 5.949520E+01  2.682219E-04 5.895009E+01  9.890520E-01 -3.068284E+01 
2.943438E+02  9.900741E-01 -3.368549E+01  2.798271E-04 6.179222E+01  2.656166E-04 6.248427E+01  9.890484E-01 -3.068514E+01 
2.943750E+02  9.900284E-01 -3.368829E+01  2.703662E-04 6.105975E+01  2.695163E-04 6.244203E+01  9.889952E-01 -3.069343E+01 
2.944062E+02  9.901673E-01 -3.368473E+01  2.665100E-04 6.640884E+01  2.637263E-04 6.546971E+01  9.891498E-01 -3.069892E+01 
2.944375E+02  9.900662E-01 -3.370020E+01  2.807205E-04 6.729481E+01  2.678119E-04 6.786102E+01  9.889054E-01 -3.070657E+01 
2.944688E+02  9.900068E-01 -3.369030E+01  2.807237E-04 7.134713E+01  2.732908E-04 6.958809E+01  9.888008E-01 -3.070773E+01 
2.945000E+02  9.901541E-01 -3.370996E+01  2.769337E-04 7.288295E+01  2.700566E-04 7.280768E+01  9.888617E-01 -3.071494E+01 
2.945312E+02  9.902577E-01 -3.370429E+01  2.826595E-04 7.404679E+01  2.869552E-04 7.514564E+01  9.888405E-01 -3.071263E+01 
2.945625E+02  9.901254E-01 -3.370623E+01  2.863997E-04 7.684630E+01  2.888535E-04 7.615194E+01  9.888534E-01 -3.071072E+01 
2.945938E+02  9.901367E-01 -3.371387E+01  3.038634E-04 7.887064E+01  2.992020E-04 7.920928E+01  9.890024E-01 -3.072642E+01 
2.946250E+02  9.900987E-01 -3.370895E+01  3.183137E-04 8.194744E+01  3.131539E-04 8.007142E+01  9.888452E-01 -3.072743E+01 
2.946562E+02  9.900638E-01 -3.372111E+01  3.278910E-04 8.109438E+01  3.311753E-04 8.122197E+01  9.888447E-01 -3.072604E+01 
2.946875E+02  9.901298E-01 -3.372758E+01  3.426730E-04 8.171430E+01  3.421550E-04 8.171840E+01  9.888190E-01 -3.072960E+01 
2.947188E+02  9.900258E-01 -3.373005E+01  3.717046E-04 8.241256E+01  3.717589E-04 8.159192E+01  9.888712E-01 -3.073701E+01 
2.947500E+02  9.901104E-01 -3.372497E+01  3.949315E-04 8.160788E+01  3.898935E-04 8.149254E+01  9.888918E-01 -3.073444E+01 
2.947812E+02  9.900021E-01 -3.372920E+01  4.143443E-04 7.966354E+01  4.130197E-04 8.047980E+01  9.889137E-01 -3.073648E+01 
2.948125E+02  9.900299E-01 -3.373863E+01  4.332622E-04 7.757508E+01  4.300187E-04 7.865034E+01  9.888283E-01 -3.074892E+01 
2.948438E+02  9.901334E-01 -3.374061E+01  4.344777E-04 7.535109E+01  4.397033E-04 7.561366E+01  9.890183E-01 -3.074328E+01 
