! Matrix data file written by TouchstoneData, EPCOS AG
! FILENAME: "B3790_SB.s2p"
! COMMENT: "1 Dec 2004 S11-NoP:1601;Caltype:FULL2PORT;P"
! INFO: nport=2, nfreq=1601
! DATE: "Wed Sep 19 15:42:08 2012"
! USER: "Wilfried Schott"
!
! port | pin | signal
! -----|-----|--------
!   1  |  2  |  IN
!   2  |  5  |  OUT
!   3  |  7  |  Coupling coil
! --------------------
! 
# MHZ S MA R 50
! freq  magS11 angS11  magS21 angS21  magS12 angS12  magS22 angS22
4.314200E+02  9.876583E-01 -1.908113E+01  1.484861E-05 -1.034109E+02  1.823558E-05 -1.032897E+02  9.861952E-01 -1.871459E+01 
4.314231E+02  9.876429E-01 -1.908262E+01  1.949928E-05 -1.089989E+02  2.259676E-05 -1.021236E+02  9.861544E-01 -1.871888E+01 
4.314263E+02  9.875513E-01 -1.908664E+01  1.773159E-05 -1.029808E+02  1.886496E-05 -9.890308E+01  9.863061E-01 -1.871675E+01 
4.314294E+02  9.876325E-01 -1.908806E+01  1.496332E-05 -1.174132E+02  1.131603E-05 -9.442548E+01  9.861026E-01 -1.872035E+01 
4.314325E+02  9.875451E-01 -1.909039E+01  1.694106E-05 -1.408666E+02  2.026183E-05 -1.209261E+02  9.862726E-01 -1.872249E+01 
4.314356E+02  9.875814E-01 -1.909260E+01  1.670364E-05 -1.297310E+02  8.554618E-06 -1.159060E+02  9.862199E-01 -1.872773E+01 
4.314388E+02  9.875903E-01 -1.909634E+01  1.210758E-05 -1.233155E+02  1.127529E-05 -1.324096E+02  9.861477E-01 -1.873416E+01 
4.314419E+02  9.875840E-01 -1.909381E+01  9.077124E-06 -1.340121E+02  1.194094E-05 -1.186631E+02  9.862665E-01 -1.873190E+01 
4.314450E+02  9.875240E-01 -1.910277E+01  2.183577E-05 -1.463785E+02  2.003459E-05 -1.063101E+02  9.861065E-01 -1.873808E+01 
4.314481E+02  9.874991E-01 -1.910251E+01  1.493746E-05 -1.086265E+02  1.584518E-05 -1.236421E+02  9.862342E-01 -1.873781E+01 
4.314513E+02  9.875138E-01 -1.910743E+01  1.345141E-05 -1.054695E+02  1.150008E-05 -1.110615E+02  9.862138E-01 -1.874230E+01 
4.314544E+02  9.874965E-01 -1.910997E+01  1.315489E-05 -9.798292E+01  1.312572E-05 -9.131129E+01  9.861807E-01 -1.874970E+01 
4.314575E+02  9.874844E-01 -1.911733E+01  1.444014E-05 -9.517777E+01  1.428146E-05 -1.132640E+02  9.861982E-01 -1.874795E+01 
4.314606E+02  9.874288E-01 -1.911974E+01  1.510242E-05 -1.375927E+02  1.520085E-05 -1.044683E+02  9.860713E-01 -1.875277E+01 
4.314638E+02  9.874336E-01 -1.912205E+01  1.247578E-05 -8.451083E+01  1.637911E-05 -1.209527E+02  9.862199E-01 -1.875104E+01 
4.314669E+02  9.874755E-01 -1.912979E+01  1.441674E-05 -1.123782E+02  1.849843E-05 -1.270315E+02  9.860955E-01 -1.875161E+01 
4.314700E+02  9.874308E-01 -1.912543E+01  1.940003E-05 -8.797096E+01  1.838645E-05 -1.273376E+02  9.860776E-01 -1.876394E+01 
4.314731E+02  9.874237E-01 -1.913482E+01  2.080436E-05 -1.242872E+02  1.566234E-05 -1.052207E+02  9.862124E-01 -1.876567E+01 
4.314762E+02  9.873689E-01 -1.913817E+01  1.353819E-05 -1.362325E+02  1.679021E-05 -1.249323E+02  9.861708E-01 -1.877113E+01 
4.314794E+02  9.873570E-01 -1.913975E+01  1.764581E-05 -1.086639E+02  1.646008E-05 -1.029541E+02  9.862041E-01 -1.877290E+01 
4.314825E+02  9.873986E-01 -1.914043E+01  1.931516E-05 -1.300470E+02  2.109496E-05 -1.101784E+02  9.860780E-01 -1.876889E+01 
4.314856E+02  9.874145E-01 -1.914061E+01  1.725454E-05 -1.194921E+02  1.184886E-05 -1.331583E+02  9.860770E-01 -1.877666E+01 
4.314888E+02  9.873591E-01 -1.914753E+01  1.823358E-05 -1.247708E+02  1.649576E-05 -1.279812E+02  9.860768E-01 -1.877663E+01 
4.314919E+02  9.873963E-01 -1.915116E+01  1.744408E-05 -9.941590E+01  1.514951E-05 -1.307649E+02  9.860326E-01 -1.878793E+01 
4.314950E+02  9.872653E-01 -1.915454E+01  1.050871E-05 -1.141943E+02  1.081141E-05 -9.256462E+01  9.860829E-01 -1.879300E+01 
4.314981E+02  9.873148E-01 -1.915989E+01  1.894797E-05 -1.254426E+02  1.590392E-05 -1.140237E+02  9.860671E-01 -1.878826E+01 
4.315013E+02  9.872532E-01 -1.915549E+01  1.416385E-05 -1.172144E+02  1.247773E-05 -1.087698E+02  9.860710E-01 -1.879543E+01 
4.315044E+02  9.872025E-01 -1.916685E+01  1.061033E-05 -1.261945E+02  9.505739E-06 -1.234455E+02  9.860201E-01 -1.880139E+01 
4.315075E+02  9.872522E-01 -1.916891E+01  1.163545E-05 -1.135808E+02  1.199801E-05 -1.087241E+02  9.860390E-01 -1.880328E+01 
4.315106E+02  9.871928E-01 -1.917152E+01  1.414113E-05 -1.423832E+02  1.871862E-05 -1.052979E+02  9.860704E-01 -1.880919E+01 
4.315138E+02  9.871921E-01 -1.917840E+01  1.434216E-05 -1.158380E+02  1.995015E-05 -1.246228E+02  9.859783E-01 -1.880975E+01 
4.315169E+02  9.872572E-01 -1.917905E+01  1.316004E-05 -9.291511E+01  1.274613E-05 -1.235123E+02  9.860272E-01 -1.881575E+01 
4.315200E+02  9.872102E-01 -1.918246E+01  1.045134E-05 -1.362594E+02  1.362182E-05 -9.579094E+01  9.859752E-01 -1.881881E+01 
4.315231E+02  9.871635E-01 -1.918622E+01  1.579597E-05 -1.393825E+02  1.551869E-05 -1.162908E+02  9.859316E-01 -1.882580E+01 
4.315263E+02  9.871198E-01 -1.919116E+01  2.532934E-05 -9.979265E+01  1.073620E-05 -1.056396E+02  9.859207E-01 -1.883233E+01 
4.315294E+02  9.870851E-01 -1.919725E+01  1.195327E-05 -1.186085E+02  1.782188E-05 -1.264269E+02  9.858596E-01 -1.883061E+01 
4.315325E+02  9.870048E-01 -1.920076E+01  1.397844E-05 -8.489955E+01  1.061142E-05 -1.047744E+02  9.858522E-01 -1.883676E+01 
4.315356E+02  9.870436E-01 -1.920397E+01  6.347463E-06 -1.106880E+02  1.213392E-05 -1.226728E+02  9.858604E-01 -1.884517E+01 
4.315387E+02  9.870439E-01 -1.920707E+01  1.444589E-05 -9.347650E+01  7.183024E-06 -1.120018E+02  9.857877E-01 -1.885035E+01 
4.315419E+02  9.868996E-01 -1.920998E+01  1.139073E-05 -1.359538E+02  1.029560E-05 -1.159234E+02  9.858034E-01 -1.885413E+01 
4.315450E+02  9.868422E-01 -1.921717E+01  1.550688E-05 -8.374023E+01  1.119386E-05 -9.195746E+01  9.857939E-01 -1.885504E+01 
4.315481E+02  9.868385E-01 -1.922559E+01  8.955414E-06 -1.232708E+02  1.033941E-05 -1.080372E+02  9.857622E-01 -1.886072E+01 
4.315513E+02  9.868091E-01 -1.922553E+01  8.743409E-06 -1.316595E+02  1.516909E-05 -7.533045E+01  9.855893E-01 -1.886561E+01 
4.315544E+02  9.867767E-01 -1.922940E+01  8.004693E-06 -1.043656E+02  1.370751E-05 -1.273229E+02  9.856023E-01 -1.887177E+01 
4.315575E+02  9.866566E-01 -1.923785E+01  1.590319E-05 -9.383800E+01  1.201922E-05 -9.935441E+01  9.855002E-01 -1.887691E+01 
4.315606E+02  9.866824E-01 -1.924064E+01  8.369280E-06 -1.292610E+02  1.433503E-05 -8.550518E+01  9.855406E-01 -1.888203E+01 
4.315638E+02  9.865815E-01 -1.924811E+01  1.349860E-05 -9.764029E+01  1.006640E-05 -1.105162E+02  9.854827E-01 -1.888833E+01 
4.315669E+02  9.865364E-01 -1.924840E+01  1.364597E-05 -1.002647E+02  9.161803E-06 -8.080557E+01  9.854205E-01 -1.888873E+01 
4.315700E+02  9.865231E-01 -1.925454E+01  8.963193E-06 -1.013496E+02  1.405928E-05 -6.040939E+01  9.852766E-01 -1.889960E+01 
4.315731E+02  9.863593E-01 -1.926352E+01  1.031240E-05 -8.518288E+01  6.782134E-06 -1.248164E+02  9.852285E-01 -1.890009E+01 
4.315763E+02  9.863096E-01 -1.926951E+01  8.837036E-06 -5.039760E+01  4.794062E-06 -1.129307E+02  9.851874E-01 -1.891280E+01 
4.315794E+02  9.861921E-01 -1.927287E+01  4.988743E-06 -1.480179E+01  1.204330E-05 -1.020332E+02  9.850711E-01 -1.891875E+01 
4.315825E+02  9.861659E-01 -1.927444E+01  7.995064E-06 -5.091007E+01  1.455639E-05 -7.761604E+01  9.851293E-01 -1.892037E+01 
4.315856E+02  9.861340E-01 -1.928337E+01  1.296840E-05 -7.719209E+01  7.300133E-06 -8.830313E+01  9.848767E-01 -1.892789E+01 
4.315888E+02  9.858714E-01 -1.928628E+01  1.261894E-05 -7.867387E+01  8.009612E-06 -5.915573E+01  9.848799E-01 -1.893410E+01 
4.315919E+02  9.857323E-01 -1.928937E+01  1.194610E-05 -3.407949E+01  1.137324E-05 -6.724688E+01  9.847153E-01 -1.894031E+01 
4.315950E+02  9.856519E-01 -1.929558E+01  1.382249E-05 -4.157462E+01  1.787851E-05 -5.030052E+01  9.845698E-01 -1.894958E+01 
4.315981E+02  9.855907E-01 -1.929217E+01  6.387556E-06 -3.910359E+01  1.786890E-05 -6.940099E+01  9.845365E-01 -1.895637E+01 
4.316012E+02  9.854972E-01 -1.929995E+01  1.689452E-05 -3.030797E+01  1.270894E-05 -3.380461E+01  9.843201E-01 -1.896327E+01 
4.316044E+02  9.853635E-01 -1.930815E+01  1.690534E-05 -3.628924E+01  2.431866E-05 -4.072588E+01  9.841472E-01 -1.896832E+01 
4.316075E+02  9.852128E-01 -1.930623E+01  1.298966E-05 -5.082137E+01  1.696237E-05 -4.974888E+01  9.840336E-01 -1.897061E+01 
4.316106E+02  9.850195E-01 -1.931370E+01  2.037590E-05 -4.335581E+01  2.304352E-05 -4.830375E+01  9.837578E-01 -1.897919E+01 
4.316138E+02  9.848935E-01 -1.931351E+01  2.475680E-05 -4.461222E+01  2.531653E-05 -3.278922E+01  9.836368E-01 -1.898493E+01 
4.316169E+02  9.846759E-01 -1.932440E+01  2.764856E-05 -4.781457E+01  3.431529E-05 -3.331470E+01  9.834636E-01 -1.898968E+01 
4.316200E+02  9.844013E-01 -1.932551E+01  3.052767E-05 -4.705861E+01  3.387995E-05 -5.105819E+01  9.831343E-01 -1.899023E+01 
4.316231E+02  9.841968E-01 -1.932303E+01  3.434815E-05 -4.333288E+01  3.918895E-05 -3.536200E+01  9.828774E-01 -1.899147E+01 
4.316263E+02  9.839509E-01 -1.932408E+01  3.884200E-05 -4.695390E+01  4.095343E-05 -4.104117E+01  9.825872E-01 -1.899784E+01 
4.316294E+02  9.837997E-01 -1.932713E+01  4.329442E-05 -4.463986E+01  3.514411E-05 -4.240409E+01  9.823467E-01 -1.899802E+01 
4.316325E+02  9.835753E-01 -1.932323E+01  4.859236E-05 -4.678418E+01  4.726673E-05 -5.553730E+01  9.819570E-01 -1.899069E+01 
4.316356E+02  9.832585E-01 -1.932358E+01  4.629622E-05 -3.875640E+01  4.950026E-05 -4.625954E+01  9.816153E-01 -1.899229E+01 
4.316388E+02  9.829967E-01 -1.931739E+01  5.580699E-05 -5.908787E+01  6.079184E-05 -5.146029E+01  9.812688E-01 -1.898735E+01 
4.316419E+02  9.827729E-01 -1.931024E+01  6.325472E-05 -5.352387E+01  6.285598E-05 -5.756707E+01  9.809049E-01 -1.898113E+01 
4.316450E+02  9.824764E-01 -1.930210E+01  7.120384E-05 -6.121111E+01  6.298017E-05 -5.711235E+01  9.806001E-01 -1.896769E+01 
4.316481E+02  9.822426E-01 -1.928932E+01  7.924996E-05 -7.132017E+01  7.894929E-05 -6.413091E+01  9.802206E-01 -1.894599E+01 
4.316513E+02  9.820203E-01 -1.928363E+01  7.764711E-05 -7.615961E+01  8.817219E-05 -7.288417E+01  9.799653E-01 -1.893114E+01 
4.316544E+02  9.817206E-01 -1.925786E+01  8.611741E-05 -7.735238E+01  8.192335E-05 -8.190630E+01  9.797456E-01 -1.891411E+01 
4.316575E+02  9.815051E-01 -1.924656E+01  8.355686E-05 -8.607177E+01  8.155508E-05 -8.212885E+01  9.794570E-01 -1.889300E+01 
4.316606E+02  9.814415E-01 -1.922622E+01  9.721851E-05 -9.232636E+01  9.412172E-05 -8.817339E+01  9.793742E-01 -1.886336E+01 
4.316637E+02  9.813230E-01 -1.920969E+01  9.906289E-05 -9.957617E+01  9.655215E-05 -9.761071E+01  9.793107E-01 -1.883803E+01 
4.316669E+02  9.813004E-01 -1.918635E+01  1.013274E-04 -1.002694E+02  9.842663E-05 -1.042643E+02  9.792143E-01 -1.881023E+01 
4.316700E+02  9.812184E-01 -1.917074E+01  1.017908E-04 -1.100497E+02  9.962774E-05 -1.090764E+02  9.792730E-01 -1.878283E+01 
4.316731E+02  9.812068E-01 -1.915019E+01  1.069419E-04 -1.155216E+02  9.927864E-05 -1.168815E+02  9.793914E-01 -1.875943E+01 
4.316763E+02  9.813117E-01 -1.912853E+01  1.073567E-04 -1.194582E+02  1.083792E-04 -1.173369E+02  9.795702E-01 -1.874200E+01 
4.316794E+02  9.814497E-01 -1.910702E+01  9.488393E-05 -1.277022E+02  1.054434E-04 -1.251613E+02  9.796786E-01 -1.871632E+01 
4.316825E+02  9.814944E-01 -1.909324E+01  9.622039E-05 -1.317529E+02  1.045956E-04 -1.321483E+02  9.799677E-01 -1.869455E+01 
4.316856E+02  9.817968E-01 -1.907857E+01  1.001806E-04 -1.406638E+02  1.026461E-04 -1.380649E+02  9.801855E-01 -1.868181E+01 
4.316888E+02  9.819105E-01 -1.906478E+01  9.896776E-05 -1.407639E+02  9.440825E-05 -1.456314E+02  9.804662E-01 -1.867163E+01 
4.316919E+02  9.819700E-01 -1.905259E+01  9.221326E-05 -1.424827E+02  9.255515E-05 -1.443361E+02  9.807883E-01 -1.866314E+01 
4.316950E+02  9.822956E-01 -1.905063E+01  8.844229E-05 -1.524753E+02  8.162939E-05 -1.552296E+02  9.809447E-01 -1.865915E+01 
4.316981E+02  9.824850E-01 -1.903896E+01  8.895088E-05 -1.556520E+02  7.983576E-05 -1.538563E+02  9.813049E-01 -1.864596E+01 
4.317013E+02  9.827328E-01 -1.902901E+01  8.910614E-05 -1.635631E+02  7.941068E-05 -1.586344E+02  9.815721E-01 -1.864656E+01 
4.317044E+02  9.830436E-01 -1.902897E+01  8.846492E-05 -1.636662E+02  7.103748E-05 -1.638842E+02  9.818174E-01 -1.864351E+01 
4.317075E+02  9.831317E-01 -1.902043E+01  8.132071E-05 -1.647955E+02  6.689829E-05 -1.661361E+02  9.820195E-01 -1.864095E+01 
4.317106E+02  9.833891E-01 -1.902211E+01  6.799679E-05 -1.715279E+02  6.683136E-05 -1.698988E+02  9.821954E-01 -1.864144E+01 
4.317138E+02  9.836422E-01 -1.902150E+01  6.807333E-05 -1.724524E+02  6.685118E-05 -1.707208E+02  9.826185E-01 -1.863837E+01 
4.317169E+02  9.838786E-01 -1.901233E+01  6.224544E-05 -1.717542E+02  7.029952E-05 -1.742415E+02  9.827020E-01 -1.864592E+01 
4.317200E+02  9.840787E-01 -1.901378E+01  6.305260E-05 -1.740011E+02  5.295934E-05 -1.770524E+02  9.829124E-01 -1.864912E+01 
4.317231E+02  9.842327E-01 -1.902203E+01  5.439779E-05 -1.794011E+02  5.863115E-05 -1.796403E+02  9.832420E-01 -1.864967E+01 
4.317262E+02  9.844033E-01 -1.902267E+01  5.468378E-05 1.739095E+02  5.854284E-05 -1.781252E+02  9.832944E-01 -1.865507E+01 
4.317294E+02  9.845677E-01 -1.902431E+01  5.022617E-05 1.752364E+02  5.361922E-05 -1.748622E+02  9.835109E-01 -1.865634E+01 
4.317325E+02  9.847458E-01 -1.902390E+01  5.658828E-05 1.778878E+02  5.397432E-05 1.764275E+02  9.836334E-01 -1.865679E+01 
4.317356E+02  9.848745E-01 -1.902538E+01  4.755894E-05 1.707829E+02  4.685262E-05 1.709509E+02  9.837256E-01 -1.867274E+01 
4.317388E+02  9.849594E-01 -1.903273E+01  4.461159E-05 1.697731E+02  4.567889E-05 1.791494E+02  9.839607E-01 -1.867483E+01 
4.317419E+02  9.850847E-01 -1.903734E+01  4.104298E-05 1.619821E+02  4.654527E-05 1.691262E+02  9.840600E-01 -1.867239E+01 
4.317450E+02  9.851924E-01 -1.904362E+01  4.037739E-05 1.646865E+02  4.663698E-05 1.726153E+02  9.841074E-01 -1.868020E+01 
4.317481E+02  9.854240E-01 -1.904942E+01  3.969449E-05 1.698373E+02  3.136079E-05 1.695589E+02  9.842358E-01 -1.868674E+01 
4.317513E+02  9.854785E-01 -1.904586E+01  3.087128E-05 1.789783E+02  3.621182E-05 1.652563E+02  9.842143E-01 -1.869760E+01 
4.317544E+02  9.855228E-01 -1.905773E+01  3.301105E-05 1.664922E+02  4.061400E-05 1.610296E+02  9.844136E-01 -1.869637E+01 
4.317575E+02  9.855905E-01 -1.906322E+01  3.571678E-05 1.690682E+02  3.978534E-05 1.717546E+02  9.844729E-01 -1.870146E+01 
4.317606E+02  9.857080E-01 -1.906608E+01  3.446796E-05 1.659768E+02  3.774442E-05 1.688840E+02  9.845437E-01 -1.870609E+01 
4.317638E+02  9.858707E-01 -1.907232E+01  3.121152E-05 1.606439E+02  3.410724E-05 1.734096E+02  9.845626E-01 -1.870949E+01 
4.317669E+02  9.859013E-01 -1.907171E+01  3.038150E-05 1.715169E+02  2.575626E-05 1.651597E+02  9.845917E-01 -1.871762E+01 
4.317700E+02  9.859791E-01 -1.907958E+01  2.787551E-05 1.530923E+02  3.077261E-05 1.632691E+02  9.847399E-01 -1.871334E+01 
4.317731E+02  9.859378E-01 -1.908712E+01  1.960928E-05 1.738579E+02  2.386087E-05 1.682627E+02  9.847154E-01 -1.872348E+01 
4.317763E+02  9.860162E-01 -1.908921E+01  2.868891E-05 1.591158E+02  2.366688E-05 1.637058E+02  9.848438E-01 -1.872463E+01 
4.317794E+02  9.861443E-01 -1.909443E+01  2.517069E-05 1.586550E+02  2.791311E-05 1.699051E+02  9.847506E-01 -1.873500E+01 
4.317825E+02  9.862091E-01 -1.909656E+01  3.601772E-05 1.589875E+02  2.161268E-05 1.700618E+02  9.849067E-01 -1.873682E+01 
4.317856E+02  9.862189E-01 -1.910255E+01  2.484455E-05 1.720184E+02  2.394249E-05 1.732242E+02  9.849730E-01 -1.874092E+01 
4.317887E+02  9.862513E-01 -1.910729E+01  2.364941E-05 1.596250E+02  1.938677E-05 1.760992E+02  9.849640E-01 -1.875127E+01 
4.317919E+02  9.863121E-01 -1.911253E+01  2.055449E-05 1.664952E+02  2.070997E-05 1.498390E+02  9.850209E-01 -1.875019E+01 
4.317950E+02  9.864668E-01 -1.912066E+01  2.406685E-05 1.576324E+02  2.295627E-05 1.599926E+02  9.850480E-01 -1.875485E+01 
4.317981E+02  9.864158E-01 -1.911720E+01  2.322825E-05 1.617452E+02  2.377424E-05 1.721779E+02  9.850322E-01 -1.875976E+01 
4.318013E+02  9.865440E-01 -1.912132E+01  1.953103E-05 1.469972E+02  1.952656E-05 1.728923E+02  9.851702E-01 -1.876499E+01 
4.318044E+02  9.865018E-01 -1.912872E+01  2.140008E-05 1.559917E+02  1.803674E-05 1.718724E+02  9.851196E-01 -1.877487E+01 
4.318075E+02  9.865532E-01 -1.912984E+01  1.672908E-05 1.698631E+02  1.595705E-05 1.596791E+02  9.852348E-01 -1.877514E+01 
4.318106E+02  9.865693E-01 -1.913510E+01  1.961499E-05 1.714642E+02  2.349380E-05 1.706779E+02  9.852415E-01 -1.877795E+01 
4.318138E+02  9.865729E-01 -1.914084E+01  1.243590E-05 -1.619300E+02  1.522436E-05 1.623838E+02  9.852764E-01 -1.878602E+01 
4.318169E+02  9.866161E-01 -1.913588E+01  1.883522E-05 1.610071E+02  1.959123E-05 1.702577E+02  9.852231E-01 -1.879034E+01 
4.318200E+02  9.867282E-01 -1.914255E+01  1.634921E-05 1.395350E+02  1.534684E-05 -1.658663E+02  9.853070E-01 -1.879632E+01 
4.318231E+02  9.866313E-01 -1.914451E+01  1.588136E-05 1.741679E+02  2.121097E-05 -1.720513E+02  9.853329E-01 -1.879854E+01 
4.318263E+02  9.866983E-01 -1.915129E+01  2.114674E-05 1.782174E+02  2.119934E-05 1.688557E+02  9.852823E-01 -1.880025E+01 
4.318294E+02  9.867261E-01 -1.915126E+01  1.289938E-05 -1.631173E+02  1.679018E-05 1.751936E+02  9.854023E-01 -1.880887E+01 
4.318325E+02  9.867262E-01 -1.915942E+01  1.263800E-05 -1.703386E+02  2.218916E-05 1.732023E+02  9.853260E-01 -1.881043E+01 
4.318356E+02  9.867560E-01 -1.916807E+01  1.217406E-05 -1.746499E+02  1.520652E-05 1.719812E+02  9.854203E-01 -1.880689E+01 
4.318388E+02  9.867362E-01 -1.917291E+01  1.639755E-05 -1.683277E+02  1.734108E-05 -1.764622E+02  9.853802E-01 -1.881362E+01 
4.318419E+02  9.867796E-01 -1.916745E+01  1.672607E-05 1.658951E+02  1.436248E-05 -1.656946E+02  9.854124E-01 -1.881932E+01 
4.318450E+02  9.868363E-01 -1.917858E+01  1.099980E-05 1.725799E+02  9.628329E-06 -1.739163E+02  9.854474E-01 -1.881735E+01 
4.318481E+02  9.868384E-01 -1.917821E+01  1.468790E-05 1.700998E+02  1.194319E-05 1.752038E+02  9.853729E-01 -1.882914E+01 
4.318512E+02  9.868334E-01 -1.918913E+01  9.711854E-06 -1.706303E+02  1.339344E-05 1.782188E+02  9.854555E-01 -1.882263E+01 
4.318544E+02  9.869280E-01 -1.919271E+01  1.206451E-05 1.638550E+02  1.236060E-05 -1.542656E+02  9.854506E-01 -1.883152E+01 
4.318575E+02  9.868210E-01 -1.918483E+01  1.456129E-05 -1.783439E+02  1.242449E-05 1.652308E+02  9.854052E-01 -1.883823E+01 
4.318606E+02  9.869750E-01 -1.919846E+01  1.289297E-05 1.659005E+02  1.213346E-05 -1.783984E+02  9.854905E-01 -1.884419E+01 
4.318638E+02  9.869173E-01 -1.919450E+01  1.750775E-05 1.697526E+02  1.307144E-05 1.740507E+02  9.854203E-01 -1.884170E+01 
4.318669E+02  9.869647E-01 -1.920233E+01  8.695638E-06 1.757310E+02  1.202713E-05 -1.770783E+02  9.854815E-01 -1.884902E+01 
4.318700E+02  9.869494E-01 -1.920286E+01  2.184404E-05 1.717305E+02  1.210012E-05 -1.702359E+02  9.854421E-01 -1.885087E+01 
4.318731E+02  9.869652E-01 -1.921098E+01  1.508259E-05 -1.745685E+02  1.014510E-05 1.713643E+02  9.853892E-01 -1.885796E+01 
4.318763E+02  9.868960E-01 -1.921132E+01  1.452336E-05 -1.533992E+02  7.812593E-06 -1.709688E+02  9.854681E-01 -1.886022E+01 
4.318794E+02  9.869065E-01 -1.921467E+01  1.534512E-05 1.457838E+02  1.508608E-05 -1.608719E+02  9.854906E-01 -1.886442E+01 
4.318825E+02  9.868884E-01 -1.921929E+01  8.134544E-06 1.776521E+02  8.041609E-06 1.747175E+02  9.854695E-01 -1.886208E+01 
4.318856E+02  9.869050E-01 -1.921824E+01  8.696516E-06 -1.467603E+02  1.953015E-05 1.725545E+02  9.854505E-01 -1.886981E+01 
4.318888E+02  9.869445E-01 -1.922614E+01  9.240813E-06 -1.792681E+02  1.565909E-05 -1.551400E+02  9.853437E-01 -1.887392E+01 
4.318919E+02  9.868945E-01 -1.922844E+01  9.798064E-06 -1.365150E+02  1.258223E-05 -1.629780E+02  9.854695E-01 -1.887756E+01 
4.318950E+02  9.869274E-01 -1.923562E+01  1.978937E-05 -1.716695E+02  1.204489E-05 1.530071E+02  9.854792E-01 -1.887918E+01 
4.318981E+02  9.868994E-01 -1.923918E+01  8.657816E-06 -1.708262E+02  1.023557E-05 -1.585311E+02  9.854153E-01 -1.888078E+01 
4.319013E+02  9.869642E-01 -1.924054E+01  6.999454E-06 -1.366985E+02  1.363709E-05 -1.694677E+02  9.855441E-01 -1.888750E+01 
