! Matrix data file written by TouchstoneData, EPCOS AG
! FILENAME: "B3791_WB.s2p"
! COMMENT: "Lk=47nH SIMID"
! INFO: nport=2, nfreq=1601
! DATE: "Wed Sep 19 15:42:16 2012"
! USER: "Wilfried Schott"
!
! port | pin | signal
! -----|-----|--------
!   1  |  2  |  IN
!   2  |  5  |  OUT
!   3  |  7  |  Coupling coil
! --------------------
! 
# MHZ S MA R 50
! freq  magS11 angS11  magS21 angS21  magS12 angS12  magS22 angS22
4.084200E+02  9.860078E-01 -2.454924E+01  5.649040E-05 -1.144676E+02  4.629009E-05 -1.144919E+02  9.844330E-01 -2.463203E+01 
4.084513E+02  9.859917E-01 -2.455525E+01  5.303866E-05 -1.183927E+02  5.022982E-05 -1.065685E+02  9.844476E-01 -2.463264E+01 
4.084825E+02  9.859786E-01 -2.455469E+01  5.323173E-05 -1.175416E+02  5.300585E-05 -1.234193E+02  9.844677E-01 -2.463110E+01 
4.085138E+02  9.860007E-01 -2.455923E+01  5.259344E-05 -1.139661E+02  5.161178E-05 -1.126470E+02  9.844559E-01 -2.464091E+01 
4.085450E+02  9.860491E-01 -2.455432E+01  5.284423E-05 -1.158329E+02  5.735615E-05 -1.179043E+02  9.845456E-01 -2.463889E+01 
4.085763E+02  9.858822E-01 -2.456528E+01  4.798928E-05 -1.160252E+02  4.962358E-05 -1.154421E+02  9.844523E-01 -2.464330E+01 
4.086075E+02  9.860585E-01 -2.456826E+01  4.883310E-05 -1.131583E+02  5.063966E-05 -1.169611E+02  9.844696E-01 -2.463876E+01 
4.086388E+02  9.859957E-01 -2.456645E+01  5.615685E-05 -1.171018E+02  5.475581E-05 -1.162282E+02  9.845933E-01 -2.464066E+01 
4.086700E+02  9.858983E-01 -2.456875E+01  5.614629E-05 -1.201348E+02  4.169317E-05 -1.201918E+02  9.846249E-01 -2.464348E+01 
4.087013E+02  9.858978E-01 -2.456444E+01  5.414821E-05 -1.175631E+02  5.781171E-05 -1.157004E+02  9.846233E-01 -2.464307E+01 
4.087325E+02  9.859802E-01 -2.457736E+01  5.670785E-05 -1.162541E+02  5.058551E-05 -1.176720E+02  9.844560E-01 -2.465477E+01 
4.087638E+02  9.860007E-01 -2.457495E+01  5.245208E-05 -1.161688E+02  4.961511E-05 -1.151151E+02  9.845464E-01 -2.464556E+01 
4.087950E+02  9.859280E-01 -2.457542E+01  5.122154E-05 -1.147331E+02  5.827859E-05 -1.199721E+02  9.846023E-01 -2.465323E+01 
4.088263E+02  9.859659E-01 -2.458502E+01  5.444944E-05 -1.164642E+02  5.415548E-05 -1.147612E+02  9.846357E-01 -2.465377E+01 
4.088575E+02  9.858235E-01 -2.458317E+01  4.971685E-05 -1.148322E+02  5.063980E-05 -1.179913E+02  9.844503E-01 -2.465453E+01 
4.088888E+02  9.859992E-01 -2.458201E+01  4.995888E-05 -1.202322E+02  5.595518E-05 -1.121058E+02  9.846563E-01 -2.466165E+01 
4.089200E+02  9.859323E-01 -2.458851E+01  5.042458E-05 -1.165064E+02  6.184280E-05 -1.142549E+02  9.844331E-01 -2.466472E+01 
4.089513E+02  9.857827E-01 -2.457919E+01  5.586665E-05 -1.081218E+02  5.853136E-05 -1.116135E+02  9.845724E-01 -2.465842E+01 
4.089825E+02  9.858815E-01 -2.458623E+01  5.369127E-05 -1.168662E+02  4.717369E-05 -1.114046E+02  9.845987E-01 -2.466208E+01 
4.090138E+02  9.858796E-01 -2.459636E+01  5.792433E-05 -1.169970E+02  5.676710E-05 -1.155293E+02  9.845648E-01 -2.466564E+01 
4.090450E+02  9.859464E-01 -2.458981E+01  5.777463E-05 -1.210778E+02  5.262973E-05 -1.130074E+02  9.844770E-01 -2.467141E+01 
4.090763E+02  9.858861E-01 -2.458381E+01  5.378954E-05 -1.151752E+02  5.674429E-05 -1.133667E+02  9.845371E-01 -2.467024E+01 
4.091075E+02  9.859104E-01 -2.458683E+01  5.308468E-05 -1.149367E+02  5.990096E-05 -1.100677E+02  9.845390E-01 -2.467429E+01 
4.091388E+02  9.859082E-01 -2.459634E+01  5.224810E-05 -1.144159E+02  5.398830E-05 -1.131824E+02  9.845039E-01 -2.467364E+01 
4.091700E+02  9.858043E-01 -2.459440E+01  5.585006E-05 -1.183984E+02  5.226265E-05 -1.187718E+02  9.845776E-01 -2.467473E+01 
4.092013E+02  9.859014E-01 -2.458833E+01  5.173823E-05 -1.201205E+02  6.015760E-05 -1.144344E+02  9.844629E-01 -2.467890E+01 
4.092325E+02  9.859634E-01 -2.459259E+01  5.429719E-05 -1.101450E+02  5.495622E-05 -1.140203E+02  9.846390E-01 -2.467646E+01 
4.092638E+02  9.859205E-01 -2.459170E+01  5.585393E-05 -1.100535E+02  5.507302E-05 -1.162483E+02  9.845962E-01 -2.468282E+01 
4.092950E+02  9.860057E-01 -2.460274E+01  4.908718E-05 -1.211374E+02  4.840753E-05 -1.171399E+02  9.845612E-01 -2.468322E+01 
4.093263E+02  9.860562E-01 -2.460338E+01  5.483354E-05 -1.101999E+02  4.959516E-05 -1.160787E+02  9.846647E-01 -2.468898E+01 
4.093575E+02  9.860209E-01 -2.460112E+01  4.528829E-05 -1.153418E+02  4.920431E-05 -1.172144E+02  9.845520E-01 -2.468759E+01 
4.093888E+02  9.859127E-01 -2.460952E+01  5.806596E-05 -1.150540E+02  5.557617E-05 -1.092889E+02  9.846324E-01 -2.467888E+01 
4.094200E+02  9.858982E-01 -2.461079E+01  5.544355E-05 -1.153975E+02  5.596959E-05 -1.154418E+02  9.845157E-01 -2.469614E+01 
4.094513E+02  9.859755E-01 -2.461104E+01  5.378916E-05 -1.146803E+02  5.761951E-05 -1.188262E+02  9.847025E-01 -2.469197E+01 
4.094825E+02  9.859556E-01 -2.461811E+01  5.121729E-05 -1.146104E+02  4.924162E-05 -1.112708E+02  9.845307E-01 -2.469337E+01 
4.095138E+02  9.860292E-01 -2.461969E+01  5.445721E-05 -1.126290E+02  5.354165E-05 -1.187220E+02  9.846210E-01 -2.469971E+01 
4.095450E+02  9.858847E-01 -2.462414E+01  5.616689E-05 -1.201024E+02  4.970132E-05 -1.136785E+02  9.845704E-01 -2.470038E+01 
4.095763E+02  9.858523E-01 -2.462428E+01  5.398960E-05 -1.161446E+02  4.965757E-05 -1.189778E+02  9.845588E-01 -2.470409E+01 
4.096075E+02  9.859465E-01 -2.462396E+01  5.066977E-05 -1.197540E+02  5.857352E-05 -1.128680E+02  9.846051E-01 -2.470638E+01 
4.096388E+02  9.858851E-01 -2.462157E+01  5.228303E-05 -1.171145E+02  4.479717E-05 -1.198509E+02  9.845705E-01 -2.470598E+01 
4.096700E+02  9.860100E-01 -2.463181E+01  5.243316E-05 -1.142691E+02  4.971702E-05 -1.201730E+02  9.845711E-01 -2.471030E+01 
4.097013E+02  9.859901E-01 -2.463408E+01  4.986500E-05 -1.123331E+02  5.303880E-05 -1.138968E+02  9.845158E-01 -2.470796E+01 
4.097325E+02  9.859219E-01 -2.463432E+01  4.994339E-05 -1.097772E+02  5.431708E-05 -1.167831E+02  9.846842E-01 -2.471628E+01 
4.097638E+02  9.860044E-01 -2.463067E+01  5.125432E-05 -1.163778E+02  5.391880E-05 -1.141085E+02  9.846121E-01 -2.471611E+01 
4.097950E+02  9.858326E-01 -2.463597E+01  5.285169E-05 -1.131103E+02  4.570521E-05 -1.149676E+02  9.845710E-01 -2.471506E+01 
4.098263E+02  9.859100E-01 -2.463861E+01  5.302207E-05 -1.201491E+02  4.857441E-05 -1.131904E+02  9.845466E-01 -2.471214E+01 
4.098575E+02  9.858496E-01 -2.464099E+01  5.548282E-05 -1.144852E+02  5.074075E-05 -1.134427E+02  9.845581E-01 -2.471959E+01 
4.098888E+02  9.858833E-01 -2.464162E+01  5.957079E-05 -1.174672E+02  5.331665E-05 -1.079372E+02  9.846047E-01 -2.471724E+01 
4.099200E+02  9.859267E-01 -2.463889E+01  5.697524E-05 -1.146909E+02  5.305003E-05 -1.118836E+02  9.845088E-01 -2.472263E+01 
4.099513E+02  9.858723E-01 -2.463898E+01  5.446584E-05 -1.120687E+02  5.558354E-05 -1.084353E+02  9.845774E-01 -2.472464E+01 
4.099825E+02  9.858955E-01 -2.464228E+01  5.493373E-05 -1.098817E+02  5.828583E-05 -1.155469E+02  9.846093E-01 -2.472890E+01 
4.100138E+02  9.859392E-01 -2.465767E+01  4.556590E-05 -1.179745E+02  5.774644E-05 -1.139741E+02  9.845191E-01 -2.473158E+01 
4.100450E+02  9.859386E-01 -2.465077E+01  5.135682E-05 -1.113629E+02  5.526386E-05 -1.131187E+02  9.845462E-01 -2.472938E+01 
4.100763E+02  9.860496E-01 -2.465234E+01  5.319719E-05 -1.167763E+02  5.043656E-05 -1.167515E+02  9.845524E-01 -2.473175E+01 
4.101075E+02  9.859515E-01 -2.464400E+01  5.756581E-05 -1.107067E+02  5.574389E-05 -1.182417E+02  9.845179E-01 -2.473205E+01 
4.101388E+02  9.859994E-01 -2.465464E+01  5.529373E-05 -1.168586E+02  5.603614E-05 -1.195797E+02  9.845593E-01 -2.473803E+01 
4.101700E+02  9.859699E-01 -2.465696E+01  5.250926E-05 -1.195721E+02  5.244508E-05 -1.144565E+02  9.845272E-01 -2.474148E+01 
4.102013E+02  9.859666E-01 -2.466303E+01  5.661702E-05 -1.133682E+02  5.355763E-05 -1.125635E+02  9.845589E-01 -2.474180E+01 
4.102325E+02  9.860237E-01 -2.465854E+01  4.908279E-05 -1.208094E+02  4.689838E-05 -1.152074E+02  9.845579E-01 -2.473840E+01 
4.102638E+02  9.859809E-01 -2.466513E+01  5.237571E-05 -1.174210E+02  5.561355E-05 -1.147025E+02  9.845565E-01 -2.475091E+01 
4.102950E+02  9.859692E-01 -2.467414E+01  5.475486E-05 -1.155337E+02  5.276373E-05 -1.132092E+02  9.846364E-01 -2.475000E+01 
4.103263E+02  9.860087E-01 -2.466941E+01  5.291595E-05 -1.161508E+02  5.630511E-05 -1.081190E+02  9.844968E-01 -2.474765E+01 
4.103575E+02  9.860543E-01 -2.467847E+01  5.478580E-05 -1.120786E+02  5.822864E-05 -1.077895E+02  9.845250E-01 -2.475612E+01 
4.103888E+02  9.860240E-01 -2.467292E+01  5.861936E-05 -1.147339E+02  5.568197E-05 -1.124603E+02  9.845127E-01 -2.475262E+01 
4.104200E+02  9.860468E-01 -2.467304E+01  4.800994E-05 -1.106080E+02  5.340560E-05 -1.101956E+02  9.846831E-01 -2.475107E+01 
4.104513E+02  9.860304E-01 -2.467932E+01  5.043998E-05 -1.182019E+02  4.920447E-05 -1.221222E+02  9.845051E-01 -2.475693E+01 
4.104825E+02  9.860594E-01 -2.468530E+01  5.416811E-05 -1.102595E+02  5.926080E-05 -1.150947E+02  9.845447E-01 -2.475319E+01 
4.105138E+02  9.860663E-01 -2.468810E+01  5.569394E-05 -1.150697E+02  5.601904E-05 -1.198245E+02  9.846890E-01 -2.475973E+01 
4.105450E+02  9.860271E-01 -2.468779E+01  5.262489E-05 -1.127843E+02  5.405744E-05 -1.203411E+02  9.846026E-01 -2.476267E+01 
4.105763E+02  9.860337E-01 -2.468741E+01  5.173280E-05 -1.086598E+02  5.033370E-05 -1.144825E+02  9.846182E-01 -2.476149E+01 
4.106075E+02  9.862298E-01 -2.468912E+01  5.856017E-05 -1.130331E+02  5.222202E-05 -1.174662E+02  9.846104E-01 -2.477003E+01 
4.106388E+02  9.860783E-01 -2.469531E+01  5.379923E-05 -1.188586E+02  5.271325E-05 -1.171518E+02  9.846796E-01 -2.476670E+01 
4.106700E+02  9.858690E-01 -2.469848E+01  5.560635E-05 -1.144842E+02  5.729303E-05 -1.170840E+02  9.845749E-01 -2.477302E+01 
4.107013E+02  9.861162E-01 -2.469851E+01  5.205409E-05 -1.129698E+02  6.147525E-05 -1.079590E+02  9.845189E-01 -2.477672E+01 
4.107325E+02  9.859842E-01 -2.469430E+01  4.921900E-05 -1.112831E+02  5.593864E-05 -1.158185E+02  9.846671E-01 -2.477405E+01 
4.107638E+02  9.859599E-01 -2.470670E+01  5.426218E-05 -1.090515E+02  5.425592E-05 -1.083951E+02  9.845847E-01 -2.478127E+01 
4.107950E+02  9.859171E-01 -2.470126E+01  4.969095E-05 -1.137114E+02  5.173835E-05 -1.133868E+02  9.846209E-01 -2.478433E+01 
4.108263E+02  9.859551E-01 -2.470983E+01  5.323553E-05 -1.192129E+02  5.148348E-05 -1.099789E+02  9.846102E-01 -2.478890E+01 
4.108575E+02  9.859920E-01 -2.471495E+01  5.346177E-05 -1.183212E+02  4.852482E-05 -1.136199E+02  9.845442E-01 -2.478994E+01 
4.108888E+02  9.859789E-01 -2.470546E+01  5.542806E-05 -1.169442E+02  5.088793E-05 -1.119533E+02  9.846500E-01 -2.478944E+01 
4.109200E+02  9.859838E-01 -2.471761E+01  5.354182E-05 -1.159439E+02  5.400297E-05 -1.130424E+02  9.846561E-01 -2.479181E+01 
4.109513E+02  9.860212E-01 -2.471176E+01  6.061026E-05 -1.181994E+02  5.423510E-05 -1.137101E+02  9.845621E-01 -2.478914E+01 
4.109825E+02  9.858306E-01 -2.471876E+01  6.643932E-05 -1.126302E+02  4.961308E-05 -1.090465E+02  9.845899E-01 -2.479381E+01 
4.110138E+02  9.858739E-01 -2.472271E+01  4.881477E-05 -1.143418E+02  5.390860E-05 -1.094270E+02  9.846355E-01 -2.479892E+01 
4.110450E+02  9.859048E-01 -2.472626E+01  6.180123E-05 -1.142825E+02  5.392271E-05 -1.115303E+02  9.846943E-01 -2.480377E+01 
4.110763E+02  9.859447E-01 -2.473372E+01  4.987149E-05 -1.057287E+02  4.910463E-05 -1.173021E+02  9.845150E-01 -2.480370E+01 
4.111075E+02  9.860496E-01 -2.472594E+01  5.069326E-05 -1.167606E+02  5.229001E-05 -1.224477E+02  9.845573E-01 -2.480721E+01 
4.111388E+02  9.859850E-01 -2.472988E+01  5.923386E-05 -1.221016E+02  5.522655E-05 -1.160423E+02  9.846334E-01 -2.480593E+01 
4.111700E+02  9.860660E-01 -2.472915E+01  5.423311E-05 -1.166171E+02  5.279647E-05 -1.139919E+02  9.844933E-01 -2.481090E+01 
4.112013E+02  9.860518E-01 -2.473074E+01  5.833731E-05 -1.110968E+02  5.348802E-05 -1.185858E+02  9.845778E-01 -2.481271E+01 
4.112325E+02  9.860618E-01 -2.473265E+01  5.383486E-05 -1.133675E+02  5.509448E-05 -1.170074E+02  9.846291E-01 -2.481722E+01 
4.112638E+02  9.859095E-01 -2.473520E+01  5.193008E-05 -1.144850E+02  6.333658E-05 -1.178709E+02  9.845800E-01 -2.481413E+01 
4.112950E+02  9.859323E-01 -2.473435E+01  5.620160E-05 -1.167249E+02  6.174407E-05 -1.185663E+02  9.845804E-01 -2.482370E+01 
4.113263E+02  9.859582E-01 -2.473601E+01  5.704018E-05 -1.162343E+02  5.210625E-05 -1.085586E+02  9.845821E-01 -2.482251E+01 
4.113575E+02  9.859690E-01 -2.473942E+01  5.926308E-05 -1.107918E+02  5.728592E-05 -1.110444E+02  9.846159E-01 -2.482452E+01 
4.113888E+02  9.859446E-01 -2.474776E+01  5.226274E-05 -1.125336E+02  5.824560E-05 -1.113245E+02  9.846548E-01 -2.482700E+01 
4.114200E+02  9.860016E-01 -2.475749E+01  5.634355E-05 -1.176815E+02  5.543329E-05 -1.068869E+02  9.845711E-01 -2.482763E+01 
4.114513E+02  9.859946E-01 -2.475887E+01  5.424439E-05 -1.188408E+02  5.624218E-05 -1.192278E+02  9.845092E-01 -2.483022E+01 
4.114825E+02  9.859161E-01 -2.475417E+01  5.590387E-05 -1.153600E+02  5.692689E-05 -1.097484E+02  9.846160E-01 -2.483497E+01 
4.115138E+02  9.857844E-01 -2.475899E+01  5.139414E-05 -1.188398E+02  5.958525E-05 -1.156909E+02  9.845979E-01 -2.483429E+01 
4.115450E+02  9.859827E-01 -2.475936E+01  4.981703E-05 -1.129919E+02  5.466671E-05 -1.206962E+02  9.845777E-01 -2.483470E+01 
4.115763E+02  9.859559E-01 -2.476105E+01  5.599849E-05 -1.074322E+02  5.661877E-05 -1.152554E+02  9.845571E-01 -2.483819E+01 
4.116075E+02  9.859689E-01 -2.476815E+01  6.053836E-05 -1.124739E+02  5.543153E-05 -1.134150E+02  9.844777E-01 -2.483929E+01 
4.116388E+02  9.860366E-01 -2.476806E+01  5.807747E-05 -1.144069E+02  5.591012E-05 -1.155292E+02  9.845015E-01 -2.484152E+01 
4.116700E+02  9.859043E-01 -2.476870E+01  5.524653E-05 -1.231095E+02  5.201138E-05 -1.126952E+02  9.844452E-01 -2.484999E+01 
4.117013E+02  9.858442E-01 -2.476969E+01  5.297205E-05 -1.202541E+02  5.610623E-05 -1.137060E+02  9.844538E-01 -2.484740E+01 
4.117325E+02  9.858665E-01 -2.477432E+01  5.570452E-05 -1.176142E+02  4.835546E-05 -1.179779E+02  9.844425E-01 -2.485176E+01 
4.117638E+02  9.859001E-01 -2.477636E+01  4.450482E-05 -1.171068E+02  5.727767E-05 -1.116821E+02  9.845925E-01 -2.485399E+01 
4.117950E+02  9.858943E-01 -2.477403E+01  5.018208E-05 -1.114079E+02  5.407324E-05 -1.144965E+02  9.846425E-01 -2.485453E+01 
4.118263E+02  9.859346E-01 -2.477873E+01  5.306539E-05 -1.162083E+02  5.694612E-05 -1.152530E+02  9.844905E-01 -2.486769E+01 
4.118575E+02  9.859125E-01 -2.478269E+01  5.614790E-05 -1.151290E+02  5.414211E-05 -1.131046E+02  9.846708E-01 -2.486745E+01 
4.118888E+02  9.860470E-01 -2.478367E+01  5.903329E-05 -1.181114E+02  5.400582E-05 -1.201070E+02  9.845650E-01 -2.486207E+01 
4.119200E+02  9.858565E-01 -2.479195E+01  5.838140E-05 -1.135467E+02  5.564348E-05 -1.217156E+02  9.845241E-01 -2.486982E+01 
4.119513E+02  9.858429E-01 -2.479642E+01  5.931155E-05 -1.159168E+02  5.134429E-05 -1.107516E+02  9.844941E-01 -2.486594E+01 
4.119825E+02  9.859076E-01 -2.479729E+01  4.793561E-05 -1.177535E+02  5.594462E-05 -1.106894E+02  9.845652E-01 -2.487293E+01 
4.120138E+02  9.858682E-01 -2.479027E+01  5.308974E-05 -1.178051E+02  5.210605E-05 -1.140789E+02  9.845306E-01 -2.487397E+01 
4.120450E+02  9.858552E-01 -2.479889E+01  5.397036E-05 -1.155551E+02  5.366930E-05 -1.105326E+02  9.845265E-01 -2.487286E+01 
4.120763E+02  9.859154E-01 -2.480389E+01  5.543105E-05 -1.173495E+02  6.263343E-05 -1.169853E+02  9.844455E-01 -2.487465E+01 
4.121075E+02  9.858388E-01 -2.479761E+01  6.067223E-05 -1.134402E+02  5.577989E-05 -1.165028E+02  9.845863E-01 -2.488023E+01 
4.121388E+02  9.859790E-01 -2.480976E+01  5.767531E-05 -1.139397E+02  5.339421E-05 -1.145126E+02  9.846583E-01 -2.487987E+01 
4.121700E+02  9.858597E-01 -2.480430E+01  5.099441E-05 -1.155868E+02  5.577557E-05 -1.120592E+02  9.845720E-01 -2.488492E+01 
4.122013E+02  9.859411E-01 -2.481223E+01  4.866811E-05 -1.168333E+02  4.740052E-05 -1.141480E+02  9.845485E-01 -2.488723E+01 
4.122325E+02  9.858461E-01 -2.480906E+01  5.666483E-05 -1.113990E+02  6.147779E-05 -1.103865E+02  9.843540E-01 -2.488425E+01 
4.122638E+02  9.858195E-01 -2.481261E+01  5.730452E-05 -1.227032E+02  5.883832E-05 -1.175726E+02  9.844263E-01 -2.489303E+01 
4.122950E+02  9.858186E-01 -2.481701E+01  5.717035E-05 -1.161028E+02  5.178572E-05 -1.210911E+02  9.844459E-01 -2.488718E+01 
4.123263E+02  9.859630E-01 -2.482058E+01  5.319998E-05 -1.218621E+02  5.433163E-05 -1.117072E+02  9.844660E-01 -2.489414E+01 
4.123575E+02  9.858455E-01 -2.481690E+01  5.068173E-05 -1.095960E+02  5.952340E-05 -1.169278E+02  9.844115E-01 -2.490114E+01 
4.123888E+02  9.857619E-01 -2.482408E+01  5.647966E-05 -1.187166E+02  5.728836E-05 -1.205569E+02  9.844652E-01 -2.489534E+01 
4.124200E+02  9.858422E-01 -2.482937E+01  5.263996E-05 -1.128916E+02  5.503863E-05 -1.191786E+02  9.844266E-01 -2.490181E+01 
4.124513E+02  9.857033E-01 -2.483345E+01  6.032123E-05 -1.225461E+02  5.900633E-05 -1.120914E+02  9.844251E-01 -2.489796E+01 
4.124825E+02  9.858838E-01 -2.482651E+01  5.596890E-05 -1.131594E+02  5.374909E-05 -1.165544E+02  9.844406E-01 -2.490680E+01 
4.125138E+02  9.857435E-01 -2.482867E+01  5.567530E-05 -1.163395E+02  5.326089E-05 -1.151115E+02  9.843164E-01 -2.491023E+01 
4.125450E+02  9.858077E-01 -2.482447E+01  6.011660E-05 -1.106060E+02  6.085146E-05 -1.086250E+02  9.845148E-01 -2.491386E+01 
4.125763E+02  9.857516E-01 -2.482633E+01  5.743602E-05 -1.106698E+02  5.827698E-05 -1.081931E+02  9.843481E-01 -2.491929E+01 
4.126075E+02  9.856727E-01 -2.483936E+01  6.332421E-05 -1.107078E+02  5.687161E-05 -1.193526E+02  9.844257E-01 -2.491590E+01 
4.126388E+02  9.859252E-01 -2.483726E+01  5.415058E-05 -1.112015E+02  5.715360E-05 -1.136705E+02  9.845163E-01 -2.492431E+01 
4.126700E+02  9.857319E-01 -2.484040E+01  5.583515E-05 -1.207672E+02  5.554218E-05 -1.146083E+02  9.843217E-01 -2.492644E+01 
4.127013E+02  9.857655E-01 -2.484309E+01  5.671338E-05 -1.137737E+02  5.802816E-05 -1.150158E+02  9.843830E-01 -2.491914E+01 
4.127325E+02  9.858378E-01 -2.484576E+01  5.669745E-05 -1.148431E+02  5.333286E-05 -1.108569E+02  9.843093E-01 -2.492707E+01 
4.127638E+02  9.857645E-01 -2.484950E+01  5.393994E-05 -1.123441E+02  5.159423E-05 -1.134479E+02  9.843400E-01 -2.492795E+01 
4.127950E+02  9.857136E-01 -2.485011E+01  5.187972E-05 -1.280707E+02  5.829892E-05 -1.219216E+02  9.843475E-01 -2.492945E+01 
4.128263E+02  9.856915E-01 -2.485277E+01  5.547173E-05 -1.243473E+02  4.921944E-05 -1.154199E+02  9.843203E-01 -2.493194E+01 
4.128575E+02  9.857803E-01 -2.484988E+01  5.647571E-05 -1.127753E+02  5.656099E-05 -1.196667E+02  9.842986E-01 -2.493747E+01 
4.128888E+02  9.857221E-01 -2.486254E+01  5.273600E-05 -1.099086E+02  5.725142E-05 -1.151621E+02  9.841779E-01 -2.493056E+01 
4.129200E+02  9.858822E-01 -2.486399E+01  5.662374E-05 -1.143173E+02  5.691081E-05 -1.207313E+02  9.843190E-01 -2.493332E+01 
4.129513E+02  9.857119E-01 -2.486530E+01  5.479423E-05 -1.170058E+02  5.757196E-05 -1.114628E+02  9.843698E-01 -2.493652E+01 
4.129825E+02  9.858588E-01 -2.485889E+01  5.798382E-05 -1.129221E+02  5.647107E-05 -1.173578E+02  9.842926E-01 -2.494229E+01 
4.130138E+02  9.856903E-01 -2.486584E+01  5.925563E-05 -1.145931E+02  5.068004E-05 -1.211523E+02  9.843112E-01 -2.494207E+01 
4.130450E+02  9.857779E-01 -2.487648E+01  5.896335E-05 -1.125735E+02  5.707741E-05 -1.114275E+02  9.842887E-01 -2.494799E+01 
4.130763E+02  9.857951E-01 -2.486966E+01  6.265960E-05 -1.093023E+02  5.624080E-05 -1.140632E+02  9.843234E-01 -2.494055E+01 
4.131075E+02  9.856528E-01 -2.488054E+01  4.988553E-05 -1.120652E+02  5.496069E-05 -1.149817E+02  9.842561E-01 -2.494787E+01 
4.131388E+02  9.856779E-01 -2.487929E+01  4.984383E-05 -1.215108E+02  5.979986E-05 -1.234270E+02  9.841884E-01 -2.495429E+01 
4.131700E+02  9.856658E-01 -2.487835E+01  5.348039E-05 -1.202725E+02  5.167990E-05 -1.192171E+02  9.841972E-01 -2.494405E+01 
4.132013E+02  9.857279E-01 -2.488628E+01  4.982227E-05 -1.130380E+02  5.497271E-05 -1.138067E+02  9.842459E-01 -2.494856E+01 
4.132325E+02  9.857081E-01 -2.488105E+01  5.812224E-05 -1.158091E+02  5.403616E-05 -1.109732E+02  9.843297E-01 -2.495145E+01 
