! Matrix data file written by TouchstoneData, EPCOS AG
! FILENAME: "B3790_WB.s2p"
! COMMENT: "1 Dec 2004 S11-NoP:1601;Caltype:FULL2PORT;P"
! INFO: nport=2, nfreq=1601
! DATE: "Wed Sep 19 15:42:11 2012"
! USER: "Wilfried Schott"
!
! port | pin | signal
! -----|-----|--------
!   1  |  2  |  IN
!   2  |  5  |  OUT
!   3  |  7  |  Coupling coil
! --------------------
! 
# MHZ S MA R 50
! freq  magS11 angS11  magS21 angS21  magS12 angS12  magS22 angS22
4.089200E+02  9.893073E-01 -1.710010E+01  3.773974E-06 -8.902227E+01  1.808544E-06 1.721178E+02  9.877307E-01 -1.676346E+01 
4.089513E+02  9.891810E-01 -1.708913E+01  5.406769E-06 -1.722209E+02  4.848070E-06 9.375952E+01  9.877026E-01 -1.676222E+01 
4.089825E+02  9.892673E-01 -1.709157E+01  4.912836E-06 9.535582E+01  6.180129E-06 9.140677E+01  9.876162E-01 -1.676185E+01 
4.090138E+02  9.892723E-01 -1.709841E+01  1.925076E-06 3.730896E+01  1.914920E-06 -2.612475E+01  9.876644E-01 -1.676863E+01 
4.090450E+02  9.893289E-01 -1.710069E+01  9.086239E-06 9.973416E+01  7.255166E-06 1.509043E+02  9.876752E-01 -1.676765E+01 
4.090763E+02  9.892396E-01 -1.709401E+01  4.643563E-06 1.727487E+02  4.015146E-06 1.584512E+02  9.877168E-01 -1.676820E+01 
4.091075E+02  9.891920E-01 -1.710054E+01  1.177870E-06 -3.559731E+01  2.929222E-06 -2.342506E+01  9.876508E-01 -1.676780E+01 
4.091388E+02  9.892684E-01 -1.710574E+01  4.336748E-06 1.488728E+02  3.749603E-06 1.041257E+02  9.877824E-01 -1.676314E+01 
4.091700E+02  9.893055E-01 -1.710085E+01  7.000550E-06 1.088064E+02  8.067270E-06 1.151311E+02  9.877369E-01 -1.676965E+01 
4.092013E+02  9.893229E-01 -1.710134E+01  2.976612E-06 7.706980E+01  7.977881E-06 9.291384E+01  9.877615E-01 -1.676913E+01 
4.092325E+02  9.893060E-01 -1.709945E+01  7.931597E-06 1.053911E+02  5.382074E-06 1.056005E+02  9.875714E-01 -1.677846E+01 
4.092638E+02  9.893453E-01 -1.710842E+01  4.407631E-06 1.111419E+02  5.933527E-06 1.193791E+02  9.876337E-01 -1.677688E+01 
4.092950E+02  9.892755E-01 -1.710442E+01  8.969517E-06 5.800748E+01  5.848859E-06 1.745780E+02  9.876746E-01 -1.677486E+01 
4.093263E+02  9.891387E-01 -1.711172E+01  1.011972E-05 8.688330E+01  7.740047E-06 1.168322E+02  9.876708E-01 -1.677580E+01 
4.093575E+02  9.892053E-01 -1.711258E+01  9.229228E-06 1.452922E+02  9.987385E-06 6.030735E+01  9.876500E-01 -1.678977E+01 
4.093888E+02  9.891496E-01 -1.711041E+01  3.501140E-06 1.325235E+02  6.976915E-06 8.713992E+01  9.877701E-01 -1.677384E+01 
4.094200E+02  9.892317E-01 -1.710859E+01  8.714065E-07 1.630453E+01  6.192633E-06 1.020203E+02  9.876613E-01 -1.678107E+01 
4.094513E+02  9.892775E-01 -1.710966E+01  6.362309E-06 7.919584E+01  8.981816E-06 1.755383E+02  9.876535E-01 -1.677925E+01 
4.094825E+02  9.892045E-01 -1.711594E+01  8.062628E-06 1.013065E+02  5.133308E-06 8.103111E+01  9.876676E-01 -1.678002E+01 
4.095138E+02  9.892144E-01 -1.711181E+01  7.054873E-06 4.999704E+01  1.258950E-05 1.204662E+02  9.878175E-01 -1.678993E+01 
4.095450E+02  9.892670E-01 -1.711572E+01  7.149679E-06 5.463628E+01  3.314543E-06 7.036778E+01  9.877502E-01 -1.678341E+01 
4.095763E+02  9.891261E-01 -1.712759E+01  5.838181E-06 1.230046E+02  1.814239E-05 9.597882E+01  9.876322E-01 -1.679005E+01 
4.096075E+02  9.892491E-01 -1.712311E+01  8.077452E-06 1.339552E+02  1.024462E-05 7.365576E+01  9.876072E-01 -1.678957E+01 
4.096388E+02  9.892867E-01 -1.712232E+01  4.218258E-06 8.323511E+01  3.332158E-06 -9.957956E+01  9.877568E-01 -1.678461E+01 
4.096700E+02  9.894431E-01 -1.712227E+01  6.780443E-06 9.628356E+01  9.255157E-06 1.371068E+02  9.876333E-01 -1.678640E+01 
4.097013E+02  9.891603E-01 -1.712961E+01  1.315747E-05 1.277209E+02  1.745029E-06 1.697883E+02  9.878123E-01 -1.679181E+01 
4.097325E+02  9.893003E-01 -1.712326E+01  8.889774E-06 1.095865E+02  3.827520E-06 9.396441E+01  9.877000E-01 -1.679682E+01 
4.097638E+02  9.892340E-01 -1.712336E+01  6.229146E-06 1.004825E+02  1.914103E-06 7.976936E+01  9.875252E-01 -1.679719E+01 
4.097950E+02  9.892060E-01 -1.713125E+01  5.241048E-06 1.012919E+02  2.240002E-06 6.100013E+01  9.878324E-01 -1.679924E+01 
4.098263E+02  9.892633E-01 -1.713187E+01  1.095993E-05 3.705924E+01  6.286833E-06 9.723892E+01  9.877904E-01 -1.680114E+01 
4.098575E+02  9.892319E-01 -1.713459E+01  7.857165E-06 8.147105E+01  6.863786E-06 1.200799E+02  9.876826E-01 -1.680154E+01 
4.098888E+02  9.892493E-01 -1.713163E+01  9.449216E-06 1.461817E+02  2.243800E-06 4.725048E+01  9.877945E-01 -1.680009E+01 
4.099200E+02  9.892877E-01 -1.713526E+01  5.459094E-06 1.411259E+02  4.845584E-06 1.188943E+02  9.875477E-01 -1.680317E+01 
4.099513E+02  9.892546E-01 -1.713901E+01  7.527055E-06 1.594667E+02  6.555934E-06 5.623404E+01  9.876878E-01 -1.680163E+01 
4.099825E+02  9.892062E-01 -1.714677E+01  8.686914E-06 9.151318E+01  6.544028E-06 -1.643296E+02  9.876563E-01 -1.680746E+01 
4.100138E+02  9.893124E-01 -1.714374E+01  9.469097E-06 1.073611E+02  8.546647E-06 8.405582E+01  9.876254E-01 -1.679997E+01 
4.100450E+02  9.893029E-01 -1.714784E+01  6.879741E-06 1.733511E+02  6.850863E-06 1.541025E+02  9.876901E-01 -1.680267E+01 
4.100763E+02  9.893692E-01 -1.714877E+01  8.238501E-06 1.273654E+02  7.639619E-06 9.534320E+01  9.875146E-01 -1.681198E+01 
4.101075E+02  9.892829E-01 -1.714377E+01  6.785448E-06 7.306716E+01  5.803045E-06 1.615989E+02  9.876605E-01 -1.680532E+01 
4.101388E+02  9.893106E-01 -1.714478E+01  7.732279E-06 2.518764E+01  3.230080E-06 -1.739870E+02  9.876668E-01 -1.681387E+01 
4.101700E+02  9.892033E-01 -1.714634E+01  3.288775E-06 5.985225E+01  6.755907E-06 -1.082362E+02  9.876957E-01 -1.681651E+01 
4.102013E+02  9.892153E-01 -1.715263E+01  5.652502E-06 1.419532E+02  7.825268E-06 1.297073E+02  9.876070E-01 -1.681330E+01 
4.102325E+02  9.893178E-01 -1.714288E+01  8.856004E-06 6.958248E+01  3.497113E-06 -1.595033E+02  9.876388E-01 -1.681234E+01 
4.102638E+02  9.892414E-01 -1.715090E+01  4.200987E-06 9.498239E+01  8.332346E-06 1.399443E+02  9.877362E-01 -1.681272E+01 
4.102950E+02  9.891610E-01 -1.715271E+01  6.201230E-06 1.272646E+02  7.778240E-06 9.865863E+01  9.876539E-01 -1.681126E+01 
4.103263E+02  9.892545E-01 -1.715521E+01  2.770927E-06 1.361563E+02  1.107951E-05 3.350019E+01  9.877009E-01 -1.681943E+01 
4.103575E+02  9.890862E-01 -1.715520E+01  9.321963E-06 9.619641E+01  2.424553E-06 1.339546E+02  9.876064E-01 -1.681456E+01 
4.103888E+02  9.892194E-01 -1.715692E+01  8.762475E-06 1.220356E+02  7.706147E-06 1.161447E+02  9.876284E-01 -1.681527E+01 
4.104200E+02  9.892654E-01 -1.714944E+01  4.688741E-06 -1.773818E+02  9.865763E-06 1.036315E+02  9.877235E-01 -1.682346E+01 
4.104513E+02  9.892175E-01 -1.715545E+01  6.014967E-06 1.144433E+01  3.912129E-06 1.563508E+02  9.876558E-01 -1.682254E+01 
4.104825E+02  9.891812E-01 -1.715711E+01  1.008871E-05 1.243660E+02  7.889398E-06 1.061076E+02  9.876985E-01 -1.682447E+01 
4.105138E+02  9.892524E-01 -1.715810E+01  1.222710E-06 -1.877649E+01  3.143994E-06 1.234878E+02  9.876062E-01 -1.682631E+01 
4.105450E+02  9.892381E-01 -1.715620E+01  5.138335E-06 9.059378E+01  6.736509E-06 8.443029E+01  9.876781E-01 -1.682859E+01 
4.105763E+02  9.893159E-01 -1.715604E+01  7.279135E-06 1.047726E+02  3.216379E-07 -7.836424E+01  9.877086E-01 -1.682420E+01 
4.106075E+02  9.891756E-01 -1.716958E+01  7.600330E-06 1.228446E+02  3.836956E-06 -1.695493E+02  9.876686E-01 -1.683249E+01 
4.106388E+02  9.890509E-01 -1.716543E+01  2.862221E-06 1.016219E+02  9.601993E-06 1.194928E+02  9.876653E-01 -1.683525E+01 
4.106700E+02  9.893494E-01 -1.716512E+01  4.616490E-06 1.301872E+02  1.024215E-05 8.093193E+01  9.876979E-01 -1.682929E+01 
4.107013E+02  9.893379E-01 -1.717139E+01  6.816450E-06 5.986758E+01  4.871800E-06 1.032904E+02  9.876997E-01 -1.683264E+01 
4.107325E+02  9.893099E-01 -1.717152E+01  8.804437E-06 -1.588517E+01  7.072074E-06 1.702124E+02  9.876433E-01 -1.683149E+01 
4.107638E+02  9.892330E-01 -1.717087E+01  8.784042E-06 1.192396E+02  2.797417E-06 -1.113507E+02  9.877161E-01 -1.684333E+01 
4.107950E+02  9.892630E-01 -1.716931E+01  5.747232E-06 1.290712E+02  2.304070E-06 1.427877E+02  9.876337E-01 -1.683692E+01 
4.108263E+02  9.892469E-01 -1.717820E+01  2.389859E-06 5.264014E+01  8.318726E-06 1.648732E+02  9.875978E-01 -1.684071E+01 
4.108575E+02  9.892097E-01 -1.717881E+01  8.041332E-06 1.580875E+02  7.324255E-06 2.596142E+01  9.877238E-01 -1.683886E+01 
4.108888E+02  9.892790E-01 -1.718310E+01  9.664873E-06 1.186792E+02  4.980660E-06 9.369129E+01  9.875844E-01 -1.683473E+01 
4.109200E+02  9.891735E-01 -1.718572E+01  6.235170E-06 8.358388E+01  6.108366E-06 1.488098E+02  9.876430E-01 -1.683920E+01 
4.109513E+02  9.891316E-01 -1.717894E+01  6.219659E-06 -1.736914E+02  3.530167E-06 1.696337E+02  9.877300E-01 -1.684041E+01 
4.109825E+02  9.892259E-01 -1.718339E+01  8.095849E-06 1.351716E+02  4.212722E-06 1.267917E+02  9.876225E-01 -1.684919E+01 
4.110138E+02  9.892032E-01 -1.718372E+01  4.783366E-06 5.834477E+01  5.801563E-06 1.423075E+02  9.876952E-01 -1.684716E+01 
4.110450E+02  9.891437E-01 -1.719067E+01  1.703151E-06 -1.161275E+02  4.344999E-06 1.018179E+02  9.877397E-01 -1.685009E+01 
4.110763E+02  9.891571E-01 -1.718545E+01  6.565312E-07 -1.466737E+02  4.987566E-06 1.115203E+02  9.877444E-01 -1.684930E+01 
4.111075E+02  9.890894E-01 -1.718741E+01  1.655122E-06 -4.152389E+01  2.396226E-06 4.574500E+01  9.877699E-01 -1.685235E+01 
4.111388E+02  9.892718E-01 -1.718737E+01  6.028911E-06 7.581747E+01  2.436252E-06 7.016929E+01  9.876531E-01 -1.684811E+01 
4.111700E+02  9.892247E-01 -1.718741E+01  2.196054E-06 7.449839E+01  7.256922E-06 7.633942E+01  9.876528E-01 -1.684704E+01 
4.112013E+02  9.891963E-01 -1.719410E+01  1.734887E-06 1.410148E+01  7.798761E-06 8.230189E+01  9.876133E-01 -1.685232E+01 
4.112325E+02  9.891969E-01 -1.719254E+01  7.745829E-06 1.033491E+02  7.535636E-06 1.104347E+02  9.877188E-01 -1.685420E+01 
4.112638E+02  9.891813E-01 -1.719001E+01  5.857934E-06 5.154510E+01  3.874769E-06 9.395857E+01  9.876762E-01 -1.685543E+01 
4.112950E+02  9.891343E-01 -1.719752E+01  2.169721E-06 1.797706E+02  4.916545E-06 -1.233972E+02  9.877465E-01 -1.685115E+01 
4.113263E+02  9.892760E-01 -1.719752E+01  5.382979E-06 1.555372E+01  9.115624E-06 1.082825E+02  9.877314E-01 -1.685503E+01 
4.113575E+02  9.892097E-01 -1.720325E+01  5.279495E-06 1.462760E+02  7.385226E-06 4.858301E+01  9.876471E-01 -1.686153E+01 
4.113888E+02  9.893230E-01 -1.719383E+01  5.543274E-06 9.221077E+01  8.229314E-06 1.065330E+02  9.876355E-01 -1.686108E+01 
4.114200E+02  9.891096E-01 -1.719701E+01  1.281895E-06 -1.313501E+02  6.084531E-06 9.786093E+01  9.877865E-01 -1.686751E+01 
4.114513E+02  9.891439E-01 -1.719820E+01  6.552293E-06 1.392527E+02  2.042213E-06 -1.792132E+01  9.876830E-01 -1.686783E+01 
4.114825E+02  9.891914E-01 -1.719524E+01  6.439685E-06 1.695536E+02  2.234550E-06 6.618078E+01  9.876875E-01 -1.686425E+01 
4.115138E+02  9.892228E-01 -1.719540E+01  1.574260E-06 -1.308162E+02  2.685448E-06 7.062044E+01  9.877785E-01 -1.687200E+01 
4.115450E+02  9.892373E-01 -1.719897E+01  4.142286E-06 1.342057E+02  5.063781E-06 -1.152482E+02  9.875857E-01 -1.686973E+01 
4.115763E+02  9.892387E-01 -1.720123E+01  6.237443E-06 1.457675E+02  1.049366E-05 -1.688630E+02  9.877243E-01 -1.687898E+01 
4.116075E+02  9.892544E-01 -1.721035E+01  8.044949E-06 1.678272E+02  4.584102E-06 5.458009E+01  9.877112E-01 -1.687006E+01 
4.116388E+02  9.893106E-01 -1.721098E+01  1.626960E-05 9.484183E+01  4.349080E-06 9.729646E+01  9.876737E-01 -1.687524E+01 
4.116700E+02  9.891538E-01 -1.721498E+01  8.172608E-06 6.065964E+01  3.358420E-06 8.760369E+01  9.876373E-01 -1.687538E+01 
4.117013E+02  9.892607E-01 -1.721886E+01  5.571353E-06 1.440558E+02  6.659568E-06 -4.315856E+01  9.876999E-01 -1.687181E+01 
4.117325E+02  9.892521E-01 -1.721464E+01  4.125067E-06 1.707907E+02  1.338053E-06 -8.772402E+01  9.876351E-01 -1.688465E+01 
4.117638E+02  9.891789E-01 -1.721569E+01  4.878682E-06 9.726000E+01  1.305364E-05 1.714901E+02  9.876213E-01 -1.688479E+01 
4.117950E+02  9.892174E-01 -1.721218E+01  9.877799E-06 1.666769E+02  5.109497E-06 -3.436517E+00  9.877107E-01 -1.688737E+01 
4.118263E+02  9.892878E-01 -1.722076E+01  4.406646E-06 -7.925475E+01  3.306369E-06 -1.212375E+02  9.876038E-01 -1.688792E+01 
4.118575E+02  9.891920E-01 -1.721626E+01  3.301720E-06 6.746750E+01  4.006363E-06 3.704191E+01  9.876786E-01 -1.688771E+01 
4.118888E+02  9.892091E-01 -1.722050E+01  6.209213E-06 7.115703E+01  5.622223E-06 9.280952E+01  9.877833E-01 -1.688503E+01 
4.119200E+02  9.892665E-01 -1.722297E+01  3.665027E-06 1.353255E+02  7.233003E-06 8.780973E+01  9.876414E-01 -1.688807E+01 
4.119513E+02  9.893047E-01 -1.722640E+01  7.351402E-06 1.475166E+02  8.382724E-06 1.775802E+02  9.877312E-01 -1.688726E+01 
4.119825E+02  9.893212E-01 -1.721902E+01  1.052295E-05 1.135393E+02  5.112992E-06 7.107690E+01  9.876756E-01 -1.689222E+01 
4.120138E+02  9.892961E-01 -1.722603E+01  2.918730E-06 1.615228E+02  4.973148E-06 7.940426E+01  9.877150E-01 -1.689114E+01 
4.120450E+02  9.893565E-01 -1.722602E+01  5.195236E-06 8.195493E+01  8.635467E-06 1.571032E+02  9.876644E-01 -1.689572E+01 
4.120763E+02  9.892424E-01 -1.722774E+01  6.567358E-06 1.002177E+02  2.926239E-06 1.485875E+02  9.876969E-01 -1.689261E+01 
4.121075E+02  9.892702E-01 -1.723530E+01  5.089176E-06 1.074223E+02  8.550317E-06 1.456002E+02  9.876437E-01 -1.689721E+01 
4.121388E+02  9.892649E-01 -1.723347E+01  7.532470E-06 1.267657E+02  2.995621E-06 1.063842E+02  9.877588E-01 -1.689844E+01 
4.121700E+02  9.892548E-01 -1.723852E+01  4.817981E-06 1.419592E+02  1.230594E-06 1.117582E+02  9.877558E-01 -1.689619E+01 
4.122013E+02  9.892645E-01 -1.723796E+01  5.218683E-06 9.229211E+01  3.573992E-06 9.951272E+01  9.877214E-01 -1.689635E+01 
4.122325E+02  9.894249E-01 -1.723971E+01  6.993344E-06 1.437968E+02  1.013963E-05 7.638570E+01  9.877578E-01 -1.689282E+01 
4.122638E+02  9.892625E-01 -1.724011E+01  1.255018E-05 8.495365E+01  3.128844E-06 3.991506E+01  9.876479E-01 -1.689941E+01 
4.122950E+02  9.893704E-01 -1.722913E+01  3.713256E-06 -1.116270E+02  5.323372E-06 9.049663E+01  9.878099E-01 -1.690699E+01 
4.123263E+02  9.892574E-01 -1.723295E+01  4.192611E-06 -1.677503E+02  1.545999E-06 1.405426E+02  9.878181E-01 -1.690158E+01 
4.123575E+02  9.892689E-01 -1.724072E+01  5.532238E-06 1.005363E+02  6.287170E-06 1.541227E+02  9.877525E-01 -1.690982E+01 
4.123888E+02  9.893122E-01 -1.724565E+01  6.764004E-06 8.218742E+01  2.962269E-06 4.907208E+01  9.878184E-01 -1.690456E+01 
4.124200E+02  9.892506E-01 -1.725046E+01  8.866347E-06 1.320398E+02  6.420264E-06 1.679263E+02  9.877725E-01 -1.691375E+01 
4.124513E+02  9.893119E-01 -1.725432E+01  3.276678E-06 1.481001E+02  3.064915E-06 -1.770771E+02  9.877550E-01 -1.691074E+01 
4.124825E+02  9.892549E-01 -1.724307E+01  8.513552E-06 -1.170921E+02  5.565823E-06 -9.454736E+00  9.877801E-01 -1.690946E+01 
4.125138E+02  9.893789E-01 -1.724863E+01  7.528384E-06 3.900355E+01  4.956562E-06 -1.647800E+02  9.877287E-01 -1.690814E+01 
4.125450E+02  9.892785E-01 -1.725134E+01  5.034205E-06 5.325242E+01  2.041255E-06 1.490953E+02  9.876971E-01 -1.691148E+01 
4.125763E+02  9.892715E-01 -1.725191E+01  7.846808E-06 7.795895E+01  7.051102E-06 9.628275E+01  9.877210E-01 -1.692451E+01 
4.126075E+02  9.892839E-01 -1.726246E+01  9.243862E-06 1.447748E+02  6.241538E-06 -1.408473E+02  9.877223E-01 -1.691632E+01 
4.126388E+02  9.891836E-01 -1.725692E+01  7.486711E-06 1.441989E+02  7.273935E-06 3.125789E+01  9.878960E-01 -1.691293E+01 
4.126700E+02  9.893709E-01 -1.726063E+01  2.437628E-06 1.754657E+02  5.077657E-06 7.353738E+01  9.876314E-01 -1.692320E+01 
4.127013E+02  9.892743E-01 -1.726081E+01  5.908752E-06 1.375319E+02  9.860083E-06 8.299773E+01  9.878689E-01 -1.691937E+01 
4.127325E+02  9.894202E-01 -1.726608E+01  3.674352E-06 2.421473E+01  7.972351E-06 1.011362E+02  9.877702E-01 -1.692561E+01 
4.127638E+02  9.891983E-01 -1.726252E+01  5.256551E-06 1.116967E+02  1.881999E-06 1.751986E+02  9.878734E-01 -1.692868E+01 
4.127950E+02  9.893184E-01 -1.726404E+01  8.140685E-06 7.266930E+01  4.935522E-06 1.000156E+02  9.876335E-01 -1.692755E+01 
4.128263E+02  9.893136E-01 -1.726657E+01  9.131809E-06 1.045647E+02  3.968261E-06 -1.121074E+02  9.877735E-01 -1.692650E+01 
4.128575E+02  9.894381E-01 -1.726567E+01  8.593275E-06 1.030319E+02  4.690836E-06 2.271125E+01  9.878238E-01 -1.693039E+01 
4.128888E+02  9.893377E-01 -1.726646E+01  3.243967E-06 1.983890E+01  7.911728E-06 8.269203E+01  9.877844E-01 -1.692269E+01 
4.129200E+02  9.893204E-01 -1.727766E+01  4.566405E-06 9.342739E+01  6.298891E-06 1.586045E+02  9.878922E-01 -1.692878E+01 
4.129513E+02  9.892115E-01 -1.727874E+01  3.357700E-06 1.378054E+02  1.105763E-05 1.159918E+02  9.877677E-01 -1.693232E+01 
4.129825E+02  9.892100E-01 -1.726686E+01  4.474460E-06 -1.547002E+02  1.816858E-06 -1.776608E+02  9.878007E-01 -1.693016E+01 
4.130138E+02  9.894376E-01 -1.727696E+01  5.789178E-06 1.737501E+02  1.097008E-06 1.130445E+02  9.877493E-01 -1.693954E+01 
4.130450E+02  9.893950E-01 -1.728523E+01  3.839556E-06 4.487174E+01  9.687690E-07 -1.358101E+02  9.878531E-01 -1.694250E+01 
4.130763E+02  9.892681E-01 -1.727358E+01  9.211429E-06 1.687775E+02  6.372928E-06 1.109388E+02  9.878017E-01 -1.694284E+01 
4.131075E+02  9.892548E-01 -1.727508E+01  5.443881E-06 9.274664E+01  5.160252E-06 8.395384E+01  9.878034E-01 -1.693993E+01 
4.131388E+02  9.893159E-01 -1.727897E+01  4.951544E-06 1.006387E+02  2.923662E-06 -1.183550E+02  9.877499E-01 -1.693635E+01 
4.131700E+02  9.891734E-01 -1.728326E+01  8.909351E-06 -1.293647E+02  3.807793E-06 1.004714E+02  9.877481E-01 -1.694961E+01 
4.132013E+02  9.893866E-01 -1.728102E+01  2.574262E-06 -1.530854E+02  5.333281E-06 1.432558E+02  9.878358E-01 -1.695269E+01 
4.132325E+02  9.892868E-01 -1.729056E+01  4.784364E-06 2.805521E+01  6.424354E-06 1.006144E+02  9.876971E-01 -1.695043E+01 
4.132638E+02  9.892716E-01 -1.728479E+01  3.884389E-06 1.259114E+02  2.344311E-06 1.524512E+02  9.877357E-01 -1.694867E+01 
4.132950E+02  9.892651E-01 -1.728867E+01  4.643741E-06 1.080701E+02  8.214800E-06 1.086170E+02  9.878481E-01 -1.695587E+01 
4.133263E+02  9.894007E-01 -1.729464E+01  6.017928E-06 1.233062E+02  7.301581E-06 -1.798582E+02  9.878778E-01 -1.695847E+01 
4.133575E+02  9.891587E-01 -1.729422E+01  3.551891E-06 1.531749E+02  4.062588E-06 6.268077E+01  9.877714E-01 -1.695589E+01 
4.133888E+02  9.892490E-01 -1.730157E+01  7.746105E-06 1.728927E+02  6.136805E-06 1.275866E+02  9.878443E-01 -1.695895E+01 
4.134200E+02  9.893815E-01 -1.730509E+01  5.477408E-06 -1.351178E+02  6.103765E-06 -8.325044E+01  9.876533E-01 -1.696107E+01 
4.134513E+02  9.894517E-01 -1.730056E+01  2.637362E-06 1.195463E+02  3.361672E-06 1.529518E+02  9.877974E-01 -1.695382E+01 
4.134825E+02  9.893155E-01 -1.730126E+01  3.372364E-06 -1.674129E+02  3.893857E-06 -1.479048E+02  9.878229E-01 -1.696052E+01 
4.135138E+02  9.893853E-01 -1.729575E+01  5.782345E-06 1.145146E+02  9.778747E-07 -9.888145E+01  9.878700E-01 -1.696131E+01 
4.135450E+02  9.892956E-01 -1.730446E+01  9.117003E-06 5.951874E+01  7.349402E-06 1.477614E+02  9.878183E-01 -1.696330E+01 
4.135763E+02  9.893018E-01 -1.730669E+01  6.082494E-06 -8.965858E+01  5.696952E-06 1.332653E+02  9.879052E-01 -1.696783E+01 
4.136075E+02  9.893967E-01 -1.730517E+01  8.325465E-06 9.660697E+01  6.296636E-06 -1.209545E+02  9.877782E-01 -1.696720E+01 
4.136388E+02  9.894755E-01 -1.731170E+01  6.273419E-07 1.127349E+02  7.714242E-06 1.797331E+02  9.877770E-01 -1.696971E+01 
4.136700E+02  9.893210E-01 -1.731236E+01  1.257567E-05 9.893474E+01  1.419630E-06 2.640531E+01  9.878334E-01 -1.697074E+01 
4.137013E+02  9.893309E-01 -1.731677E+01  5.914705E-06 1.760185E+02  4.967065E-06 1.719400E+02  9.877499E-01 -1.696853E+01 
4.137325E+02  9.893877E-01 -1.731954E+01  3.225040E-06 -5.768251E+01  8.794161E-07 -8.267899E+01  9.878143E-01 -1.697592E+01 
4.137638E+02  9.893856E-01 -1.731720E+01  6.346751E-06 1.748583E+02  6.629555E-06 1.080723E+02  9.877807E-01 -1.698194E+01 
4.137950E+02  9.894149E-01 -1.731676E+01  6.441077E-06 -1.643294E+02  6.606195E-06 -1.290028E+02  9.877363E-01 -1.697641E+01 
