! Matrix data file written by TouchstoneData, EPCOS AG
! FILENAME: "B3791_SB.s2p"
! COMMENT: "Lk=47nH SIMID"
! INFO: nport=2, nfreq=1601
! DATE: "Wed Sep 19 15:42:20 2012"
! USER: "Wilfried Schott"
!
! port | pin | signal
! -----|-----|--------
!   1  |  2  |  IN
!   2  |  5  |  OUT
!   3  |  7  |  Coupling coil
! --------------------
! 
# MHZ S MA R 50
! freq  magS11 angS11  magS21 angS21  magS12 angS12  magS22 angS22
4.309200E+02  9.833508E-01 -2.746657E+01  8.932355E-05 -1.172951E+02  8.977593E-05 -1.164134E+02  9.811953E-01 -2.757619E+01 
4.309231E+02  9.833788E-01 -2.747361E+01  8.259807E-05 -1.166966E+02  8.781896E-05 -1.203152E+02  9.811672E-01 -2.757807E+01 
4.309263E+02  9.832645E-01 -2.747614E+01  8.267458E-05 -1.110817E+02  8.689386E-05 -1.172960E+02  9.812476E-01 -2.758325E+01 
4.309294E+02  9.832635E-01 -2.747890E+01  9.353282E-05 -1.170431E+02  8.754994E-05 -1.173484E+02  9.810994E-01 -2.758872E+01 
4.309325E+02  9.832609E-01 -2.748515E+01  8.312667E-05 -1.137003E+02  9.120016E-05 -1.133683E+02  9.812166E-01 -2.759306E+01 
4.309356E+02  9.832097E-01 -2.748926E+01  8.919151E-05 -1.176283E+02  8.825170E-05 -1.155473E+02  9.811012E-01 -2.759815E+01 
4.309388E+02  9.830780E-01 -2.749961E+01  9.268678E-05 -1.160789E+02  8.316766E-05 -1.191809E+02  9.811762E-01 -2.760518E+01 
4.309419E+02  9.830992E-01 -2.749188E+01  8.564156E-05 -1.167564E+02  9.616717E-05 -1.214698E+02  9.810951E-01 -2.760496E+01 
4.309450E+02  9.831542E-01 -2.750346E+01  9.013776E-05 -1.146017E+02  8.612764E-05 -1.186258E+02  9.811243E-01 -2.761534E+01 
4.309481E+02  9.830465E-01 -2.750869E+01  9.536916E-05 -1.154067E+02  9.358107E-05 -1.149147E+02  9.811884E-01 -2.761639E+01 
4.309513E+02  9.830988E-01 -2.751049E+01  1.011209E-04 -1.190396E+02  8.918949E-05 -1.175548E+02  9.809657E-01 -2.762434E+01 
4.309544E+02  9.830482E-01 -2.751711E+01  9.616544E-05 -1.199718E+02  8.883289E-05 -1.152662E+02  9.811104E-01 -2.762301E+01 
4.309575E+02  9.830278E-01 -2.751906E+01  9.071687E-05 -1.167422E+02  8.559713E-05 -1.186587E+02  9.810491E-01 -2.762982E+01 
4.309606E+02  9.830872E-01 -2.752092E+01  8.898890E-05 -1.142380E+02  8.513681E-05 -1.157292E+02  9.809765E-01 -2.763814E+01 
4.309638E+02  9.829883E-01 -2.753034E+01  9.584117E-05 -1.160224E+02  8.740902E-05 -1.144973E+02  9.809836E-01 -2.764170E+01 
4.309669E+02  9.829647E-01 -2.753023E+01  9.301159E-05 -1.135808E+02  8.987141E-05 -1.134667E+02  9.808306E-01 -2.765181E+01 
4.309700E+02  9.828516E-01 -2.754286E+01  8.740148E-05 -1.200726E+02  8.760564E-05 -1.144203E+02  9.809376E-01 -2.765649E+01 
4.309731E+02  9.828515E-01 -2.754270E+01  8.541335E-05 -1.175508E+02  8.672473E-05 -1.116058E+02  9.809000E-01 -2.765642E+01 
4.309762E+02  9.829167E-01 -2.754651E+01  9.140501E-05 -1.186723E+02  8.761073E-05 -1.172516E+02  9.808115E-01 -2.767224E+01 
4.309794E+02  9.828409E-01 -2.755563E+01  9.090027E-05 -1.158922E+02  9.032100E-05 -1.191570E+02  9.808247E-01 -2.766925E+01 
4.309825E+02  9.827929E-01 -2.755846E+01  9.604342E-05 -1.135775E+02  8.908506E-05 -1.136065E+02  9.807866E-01 -2.768193E+01 
4.309856E+02  9.827008E-01 -2.756653E+01  9.246043E-05 -1.128071E+02  9.399471E-05 -1.163352E+02  9.807496E-01 -2.767845E+01 
4.309888E+02  9.827582E-01 -2.757344E+01  9.102043E-05 -1.173654E+02  9.345404E-05 -1.199875E+02  9.806819E-01 -2.768419E+01 
4.309919E+02  9.827602E-01 -2.757484E+01  8.889819E-05 -1.123047E+02  9.238271E-05 -1.151703E+02  9.807017E-01 -2.769465E+01 
4.309950E+02  9.826862E-01 -2.758526E+01  9.335687E-05 -1.159563E+02  9.195404E-05 -1.153670E+02  9.806723E-01 -2.769333E+01 
4.309981E+02  9.826541E-01 -2.758888E+01  9.693657E-05 -1.177504E+02  8.624247E-05 -1.181077E+02  9.806068E-01 -2.770793E+01 
4.310013E+02  9.824834E-01 -2.759949E+01  9.133393E-05 -1.124997E+02  8.756297E-05 -1.152282E+02  9.805815E-01 -2.770565E+01 
4.310044E+02  9.825859E-01 -2.760626E+01  9.389539E-05 -1.174744E+02  9.415587E-05 -1.186295E+02  9.804329E-01 -2.771160E+01 
4.310075E+02  9.824905E-01 -2.760763E+01  9.077624E-05 -1.160263E+02  9.247234E-05 -1.200495E+02  9.804207E-01 -2.772054E+01 
4.310106E+02  9.826283E-01 -2.761948E+01  9.778074E-05 -1.168250E+02  8.737147E-05 -1.176058E+02  9.803684E-01 -2.772065E+01 
4.310138E+02  9.824339E-01 -2.762013E+01  9.155394E-05 -1.183228E+02  9.407205E-05 -1.144232E+02  9.803389E-01 -2.773055E+01 
4.310169E+02  9.824108E-01 -2.762815E+01  9.135701E-05 -1.143370E+02  9.166449E-05 -1.147390E+02  9.802587E-01 -2.773740E+01 
4.310200E+02  9.823348E-01 -2.763494E+01  9.063828E-05 -1.162114E+02  9.393090E-05 -1.205470E+02  9.801460E-01 -2.773868E+01 
4.310231E+02  9.822656E-01 -2.763726E+01  9.141642E-05 -1.196787E+02  9.204333E-05 -1.165030E+02  9.801514E-01 -2.775255E+01 
4.310263E+02  9.823476E-01 -2.764497E+01  9.078786E-05 -1.150083E+02  9.563814E-05 -1.119559E+02  9.800339E-01 -2.775319E+01 
4.310294E+02  9.821642E-01 -2.765229E+01  9.798544E-05 -1.157135E+02  8.859721E-05 -1.157858E+02  9.798576E-01 -2.776408E+01 
4.310325E+02  9.821674E-01 -2.766323E+01  9.213891E-05 -1.201910E+02  9.394909E-05 -1.157186E+02  9.798523E-01 -2.777131E+01 
4.310356E+02  9.820809E-01 -2.766688E+01  9.605430E-05 -1.198707E+02  9.218813E-05 -1.149090E+02  9.797413E-01 -2.777474E+01 
4.310387E+02  9.819897E-01 -2.767103E+01  8.472363E-05 -1.190251E+02  8.869369E-05 -1.122330E+02  9.797273E-01 -2.778279E+01 
4.310419E+02  9.820074E-01 -2.767506E+01  8.581305E-05 -1.159461E+02  9.533001E-05 -1.161597E+02  9.795223E-01 -2.779111E+01 
4.310450E+02  9.818586E-01 -2.768095E+01  9.742435E-05 -1.146717E+02  9.916975E-05 -1.153939E+02  9.793577E-01 -2.779701E+01 
4.310481E+02  9.817837E-01 -2.769093E+01  9.019472E-05 -1.122764E+02  9.309809E-05 -1.140936E+02  9.793343E-01 -2.780479E+01 
4.310513E+02  9.816549E-01 -2.769667E+01  9.393299E-05 -1.159730E+02  9.519108E-05 -1.137804E+02  9.793689E-01 -2.780579E+01 
4.310544E+02  9.815057E-01 -2.769642E+01  9.555358E-05 -1.145850E+02  9.717167E-05 -1.120956E+02  9.791328E-01 -2.781163E+01 
4.310575E+02  9.815346E-01 -2.770719E+01  9.773963E-05 -1.132256E+02  9.505506E-05 -1.164264E+02  9.791265E-01 -2.781123E+01 
4.310606E+02  9.813753E-01 -2.770946E+01  9.812517E-05 -1.125059E+02  1.022301E-04 -1.121116E+02  9.788839E-01 -2.782173E+01 
4.310638E+02  9.812730E-01 -2.772054E+01  9.644106E-05 -1.175520E+02  9.682846E-05 -1.152425E+02  9.788476E-01 -2.782975E+01 
4.310669E+02  9.810834E-01 -2.772535E+01  9.254478E-05 -1.170935E+02  9.626855E-05 -1.163571E+02  9.786441E-01 -2.782476E+01 
4.310700E+02  9.809112E-01 -2.772638E+01  9.513469E-05 -1.149894E+02  9.163118E-05 -1.148748E+02  9.785065E-01 -2.783130E+01 
4.310731E+02  9.808229E-01 -2.773476E+01  1.033153E-04 -1.138475E+02  9.582280E-05 -1.114460E+02  9.784385E-01 -2.783273E+01 
4.310763E+02  9.807632E-01 -2.773844E+01  1.037950E-04 -1.146237E+02  9.250258E-05 -1.136570E+02  9.781701E-01 -2.783263E+01 
4.310794E+02  9.805396E-01 -2.774304E+01  1.006230E-04 -1.120259E+02  9.218904E-05 -1.140832E+02  9.780955E-01 -2.783747E+01 
4.310825E+02  9.803291E-01 -2.774179E+01  9.764619E-05 -1.151057E+02  9.541367E-05 -1.186758E+02  9.779519E-01 -2.783547E+01 
4.310856E+02  9.802061E-01 -2.774629E+01  9.949099E-05 -1.176987E+02  9.509527E-05 -1.147351E+02  9.777525E-01 -2.783819E+01 
4.310888E+02  9.800072E-01 -2.774915E+01  1.067129E-04 -1.187348E+02  1.036487E-04 -1.126638E+02  9.775724E-01 -2.783705E+01 
4.310919E+02  9.798406E-01 -2.775388E+01  1.112472E-04 -1.092859E+02  1.017592E-04 -1.159771E+02  9.773457E-01 -2.783242E+01 
4.310950E+02  9.794805E-01 -2.775766E+01  1.020425E-04 -1.144986E+02  1.011706E-04 -1.150720E+02  9.771272E-01 -2.783624E+01 
4.310981E+02  9.793899E-01 -2.775081E+01  1.022604E-04 -1.164141E+02  1.013768E-04 -1.151894E+02  9.770220E-01 -2.783437E+01 
4.311012E+02  9.791576E-01 -2.775071E+01  1.038771E-04 -1.127034E+02  9.625169E-05 -1.171215E+02  9.768538E-01 -2.782471E+01 
4.311044E+02  9.788773E-01 -2.775043E+01  1.066373E-04 -1.174503E+02  1.034078E-04 -1.155949E+02  9.766972E-01 -2.781861E+01 
4.311075E+02  9.786971E-01 -2.774250E+01  1.153731E-04 -1.185678E+02  1.082058E-04 -1.186950E+02  9.764341E-01 -2.781513E+01 
4.311106E+02  9.785894E-01 -2.773792E+01  1.057558E-04 -1.161414E+02  1.052197E-04 -1.155861E+02  9.763490E-01 -2.781466E+01 
4.311138E+02  9.783575E-01 -2.772865E+01  1.121046E-04 -1.139094E+02  1.197737E-04 -1.146634E+02  9.762704E-01 -2.779733E+01 
4.311169E+02  9.781364E-01 -2.772598E+01  1.095172E-04 -1.167484E+02  1.071260E-04 -1.167172E+02  9.760819E-01 -2.779785E+01 
4.311200E+02  9.779613E-01 -2.771195E+01  1.051527E-04 -1.166393E+02  1.143540E-04 -1.183055E+02  9.759653E-01 -2.778215E+01 
4.311231E+02  9.777998E-01 -2.769923E+01  1.090876E-04 -1.193368E+02  1.110444E-04 -1.170012E+02  9.757609E-01 -2.777571E+01 
4.311263E+02  9.777403E-01 -2.769064E+01  1.147683E-04 -1.182069E+02  1.181133E-04 -1.189291E+02  9.757659E-01 -2.776050E+01 
4.311294E+02  9.776871E-01 -2.767510E+01  1.177266E-04 -1.200715E+02  1.073803E-04 -1.221947E+02  9.757222E-01 -2.775384E+01 
4.311325E+02  9.776023E-01 -2.766243E+01  1.067103E-04 -1.220116E+02  1.192729E-04 -1.196404E+02  9.757107E-01 -2.774414E+01 
4.311356E+02  9.775692E-01 -2.765376E+01  1.197761E-04 -1.203982E+02  1.122709E-04 -1.218230E+02  9.757033E-01 -2.773559E+01 
4.311388E+02  9.776407E-01 -2.764067E+01  1.116816E-04 -1.245214E+02  1.113020E-04 -1.188798E+02  9.756781E-01 -2.772068E+01 
4.311419E+02  9.776849E-01 -2.762442E+01  1.085601E-04 -1.229303E+02  1.144396E-04 -1.219559E+02  9.757653E-01 -2.771215E+01 
4.311450E+02  9.776877E-01 -2.761105E+01  1.148905E-04 -1.206475E+02  1.131880E-04 -1.250246E+02  9.757282E-01 -2.770272E+01 
4.311481E+02  9.777292E-01 -2.759857E+01  1.099263E-04 -1.287985E+02  1.107461E-04 -1.215817E+02  9.758039E-01 -2.769659E+01 
4.311513E+02  9.778493E-01 -2.758934E+01  1.080178E-04 -1.250758E+02  1.122096E-04 -1.311735E+02  9.758727E-01 -2.769089E+01 
4.311544E+02  9.779416E-01 -2.758051E+01  1.116741E-04 -1.237928E+02  1.090048E-04 -1.242633E+02  9.758986E-01 -2.767620E+01 
4.311575E+02  9.781245E-01 -2.757043E+01  1.127891E-04 -1.249237E+02  1.075764E-04 -1.306167E+02  9.760651E-01 -2.767106E+01 
4.311606E+02  9.781539E-01 -2.756123E+01  1.043374E-04 -1.274391E+02  1.067801E-04 -1.255000E+02  9.762486E-01 -2.766515E+01 
4.311637E+02  9.782817E-01 -2.755673E+01  1.139590E-04 -1.273040E+02  1.129003E-04 -1.261969E+02  9.762895E-01 -2.766149E+01 
4.311669E+02  9.784996E-01 -2.754918E+01  1.015711E-04 -1.246252E+02  1.013798E-04 -1.271479E+02  9.765021E-01 -2.765561E+01 
4.311700E+02  9.786219E-01 -2.755329E+01  1.056372E-04 -1.265144E+02  1.006404E-04 -1.288335E+02  9.765291E-01 -2.765154E+01 
4.311731E+02  9.787968E-01 -2.754031E+01  1.056898E-04 -1.292036E+02  1.044829E-04 -1.249331E+02  9.766392E-01 -2.764747E+01 
4.311763E+02  9.788982E-01 -2.754242E+01  1.029904E-04 -1.278974E+02  1.014038E-04 -1.264158E+02  9.768186E-01 -2.765242E+01 
4.311794E+02  9.790247E-01 -2.754180E+01  1.010063E-04 -1.264901E+02  1.015087E-04 -1.257699E+02  9.769171E-01 -2.765223E+01 
4.311825E+02  9.791674E-01 -2.754396E+01  1.031873E-04 -1.307614E+02  9.430038E-05 -1.244473E+02  9.771555E-01 -2.764843E+01 
4.311856E+02  9.794136E-01 -2.754493E+01  9.500136E-05 -1.256826E+02  9.966896E-05 -1.271731E+02  9.771684E-01 -2.765025E+01 
4.311888E+02  9.795474E-01 -2.753900E+01  1.022315E-04 -1.265908E+02  1.013512E-04 -1.250391E+02  9.773172E-01 -2.764622E+01 
4.311919E+02  9.795851E-01 -2.754381E+01  9.908739E-05 -1.239197E+02  9.609076E-05 -1.261078E+02  9.775389E-01 -2.765176E+01 
4.311950E+02  9.797794E-01 -2.755300E+01  9.909605E-05 -1.211986E+02  9.106241E-05 -1.275657E+02  9.775968E-01 -2.765788E+01 
4.311981E+02  9.797974E-01 -2.755194E+01  9.716682E-05 -1.257747E+02  9.520445E-05 -1.250739E+02  9.777284E-01 -2.765927E+01 
4.312013E+02  9.799801E-01 -2.755783E+01  9.668421E-05 -1.224047E+02  9.025839E-05 -1.244721E+02  9.777342E-01 -2.765921E+01 
4.312044E+02  9.801709E-01 -2.755874E+01  9.892002E-05 -1.273604E+02  1.033677E-04 -1.255663E+02  9.779017E-01 -2.766256E+01 
4.312075E+02  9.801868E-01 -2.756207E+01  9.915905E-05 -1.246455E+02  9.287087E-05 -1.210363E+02  9.779857E-01 -2.766586E+01 
4.312106E+02  9.803609E-01 -2.756836E+01  1.058238E-04 -1.198831E+02  9.667426E-05 -1.223354E+02  9.780738E-01 -2.766876E+01 
4.312138E+02  9.803376E-01 -2.757525E+01  9.685512E-05 -1.227739E+02  9.623174E-05 -1.269910E+02  9.781481E-01 -2.767042E+01 
4.312169E+02  9.804762E-01 -2.758397E+01  9.649096E-05 -1.240561E+02  1.047157E-04 -1.231337E+02  9.781721E-01 -2.767985E+01 
4.312200E+02  9.805919E-01 -2.758451E+01  9.970319E-05 -1.224451E+02  1.020728E-04 -1.262136E+02  9.782963E-01 -2.768713E+01 
4.312231E+02  9.805847E-01 -2.758614E+01  1.001057E-04 -1.231233E+02  9.950962E-05 -1.222731E+02  9.783841E-01 -2.768897E+01 
4.312262E+02  9.807772E-01 -2.759606E+01  9.831287E-05 -1.215702E+02  9.585666E-05 -1.265196E+02  9.783990E-01 -2.769408E+01 
4.312294E+02  9.807712E-01 -2.759775E+01  1.007224E-04 -1.221335E+02  9.982935E-05 -1.195940E+02  9.785641E-01 -2.769826E+01 
4.312325E+02  9.808191E-01 -2.760431E+01  1.010590E-04 -1.194327E+02  9.624665E-05 -1.220153E+02  9.785228E-01 -2.770357E+01 
4.312356E+02  9.809860E-01 -2.760902E+01  1.002992E-04 -1.232221E+02  1.000461E-04 -1.212851E+02  9.786071E-01 -2.770764E+01 
4.312388E+02  9.810541E-01 -2.761626E+01  1.044129E-04 -1.227589E+02  9.361426E-05 -1.219160E+02  9.786626E-01 -2.771299E+01 
4.312419E+02  9.809786E-01 -2.762528E+01  9.805581E-05 -1.192384E+02  9.893495E-05 -1.212309E+02  9.786867E-01 -2.771992E+01 
4.312450E+02  9.811246E-01 -2.762705E+01  1.031666E-04 -1.242326E+02  9.590805E-05 -1.243856E+02  9.788129E-01 -2.772884E+01 
4.312481E+02  9.811759E-01 -2.762836E+01  1.070983E-04 -1.230794E+02  1.006563E-04 -1.224771E+02  9.786885E-01 -2.772981E+01 
4.312513E+02  9.811284E-01 -2.763614E+01  1.087164E-04 -1.222323E+02  1.055092E-04 -1.219852E+02  9.789714E-01 -2.772938E+01 
4.312544E+02  9.812295E-01 -2.764145E+01  1.046188E-04 -1.261145E+02  9.866825E-05 -1.210818E+02  9.789698E-01 -2.773725E+01 
4.312575E+02  9.812285E-01 -2.765019E+01  9.773133E-05 -1.234224E+02  1.035881E-04 -1.227457E+02  9.789001E-01 -2.774425E+01 
4.312606E+02  9.813402E-01 -2.765147E+01  1.060004E-04 -1.228415E+02  1.113124E-04 -1.210809E+02  9.790269E-01 -2.774863E+01 
4.312638E+02  9.813769E-01 -2.765813E+01  1.040306E-04 -1.215165E+02  1.033809E-04 -1.163901E+02  9.789595E-01 -2.775531E+01 
4.312669E+02  9.813619E-01 -2.766558E+01  9.918990E-05 -1.213776E+02  9.701344E-05 -1.208573E+02  9.791153E-01 -2.775894E+01 
4.312700E+02  9.813755E-01 -2.766907E+01  1.057554E-04 -1.203835E+02  1.077660E-04 -1.230980E+02  9.790622E-01 -2.776054E+01 
4.312731E+02  9.813633E-01 -2.767483E+01  1.058457E-04 -1.257533E+02  1.022576E-04 -1.240105E+02  9.791338E-01 -2.777767E+01 
4.312763E+02  9.814313E-01 -2.767731E+01  1.085563E-04 -1.209940E+02  1.040315E-04 -1.218722E+02  9.792026E-01 -2.777222E+01 
4.312794E+02  9.815493E-01 -2.768312E+01  1.037436E-04 -1.222391E+02  9.916102E-05 -1.205010E+02  9.791287E-01 -2.778239E+01 
4.312825E+02  9.815209E-01 -2.769313E+01  1.027251E-04 -1.191602E+02  1.074845E-04 -1.208064E+02  9.793751E-01 -2.778711E+01 
4.312856E+02  9.815690E-01 -2.769035E+01  1.055964E-04 -1.227136E+02  1.056221E-04 -1.215140E+02  9.792824E-01 -2.778903E+01 
4.312887E+02  9.815924E-01 -2.770211E+01  1.086858E-04 -1.204972E+02  1.048536E-04 -1.197473E+02  9.793340E-01 -2.779884E+01 
4.312919E+02  9.816540E-01 -2.770562E+01  1.063727E-04 -1.210243E+02  1.051950E-04 -1.193769E+02  9.793437E-01 -2.779967E+01 
4.312950E+02  9.816076E-01 -2.770698E+01  1.142650E-04 -1.212356E+02  1.061061E-04 -1.210582E+02  9.793023E-01 -2.780963E+01 
4.312981E+02  9.817141E-01 -2.772070E+01  1.063266E-04 -1.178599E+02  1.112902E-04 -1.177466E+02  9.794589E-01 -2.781512E+01 
4.313013E+02  9.816792E-01 -2.772078E+01  1.053946E-04 -1.184751E+02  1.131882E-04 -1.180125E+02  9.794275E-01 -2.781630E+01 
4.313044E+02  9.816881E-01 -2.773089E+01  1.082285E-04 -1.240426E+02  1.037616E-04 -1.212983E+02  9.794711E-01 -2.782861E+01 
4.313075E+02  9.817423E-01 -2.773495E+01  1.124870E-04 -1.222325E+02  1.088381E-04 -1.193776E+02  9.795947E-01 -2.783319E+01 
4.313106E+02  9.816950E-01 -2.774207E+01  1.106656E-04 -1.183040E+02  1.038461E-04 -1.205627E+02  9.795485E-01 -2.783623E+01 
4.313138E+02  9.817526E-01 -2.774474E+01  1.109786E-04 -1.196787E+02  1.042359E-04 -1.217868E+02  9.795300E-01 -2.784065E+01 
4.313169E+02  9.818269E-01 -2.775143E+01  1.088120E-04 -1.232499E+02  1.141071E-04 -1.225380E+02  9.794792E-01 -2.785533E+01 
4.313200E+02  9.817723E-01 -2.776216E+01  1.115442E-04 -1.174788E+02  1.089690E-04 -1.213824E+02  9.795615E-01 -2.785382E+01 
4.313231E+02  9.817549E-01 -2.776161E+01  1.070279E-04 -1.211418E+02  1.119206E-04 -1.205138E+02  9.796044E-01 -2.786264E+01 
4.313263E+02  9.817699E-01 -2.776853E+01  1.068688E-04 -1.218944E+02  1.099994E-04 -1.217426E+02  9.794335E-01 -2.787020E+01 
4.313294E+02  9.819159E-01 -2.777460E+01  1.129870E-04 -1.216225E+02  1.084628E-04 -1.224372E+02  9.796233E-01 -2.787686E+01 
4.313325E+02  9.818984E-01 -2.777732E+01  1.077019E-04 -1.215675E+02  1.139293E-04 -1.237341E+02  9.796420E-01 -2.788198E+01 
4.313356E+02  9.818089E-01 -2.778468E+01  1.132584E-04 -1.236887E+02  1.152089E-04 -1.220482E+02  9.795947E-01 -2.788575E+01 
4.313388E+02  9.819022E-01 -2.778466E+01  1.175876E-04 -1.189562E+02  1.139690E-04 -1.208746E+02  9.794776E-01 -2.788929E+01 
4.313419E+02  9.819185E-01 -2.779301E+01  1.137228E-04 -1.238908E+02  1.179932E-04 -1.188360E+02  9.795322E-01 -2.789889E+01 
4.313450E+02  9.819385E-01 -2.780223E+01  1.132551E-04 -1.209331E+02  1.061168E-04 -1.212253E+02  9.795639E-01 -2.790295E+01 
4.313481E+02  9.819494E-01 -2.780345E+01  1.141798E-04 -1.232647E+02  1.118396E-04 -1.214296E+02  9.795389E-01 -2.790990E+01 
4.313512E+02  9.818765E-01 -2.781352E+01  1.136057E-04 -1.214741E+02  1.165948E-04 -1.216967E+02  9.796006E-01 -2.791198E+01 
4.313544E+02  9.819337E-01 -2.781560E+01  1.174506E-04 -1.208974E+02  1.213024E-04 -1.218271E+02  9.795458E-01 -2.791511E+01 
4.313575E+02  9.818717E-01 -2.782116E+01  1.159732E-04 -1.196764E+02  1.100736E-04 -1.204938E+02  9.796549E-01 -2.792006E+01 
4.313606E+02  9.820061E-01 -2.782777E+01  1.138849E-04 -1.236448E+02  1.124791E-04 -1.202953E+02  9.796527E-01 -2.792393E+01 
4.313638E+02  9.818895E-01 -2.783009E+01  1.158996E-04 -1.193798E+02  1.176759E-04 -1.195423E+02  9.796180E-01 -2.793694E+01 
4.313669E+02  9.820234E-01 -2.784072E+01  1.219905E-04 -1.211923E+02  1.250785E-04 -1.200594E+02  9.798013E-01 -2.794371E+01 
4.313700E+02  9.819385E-01 -2.784604E+01  1.150599E-04 -1.214197E+02  1.233760E-04 -1.189247E+02  9.795952E-01 -2.793732E+01 
4.313731E+02  9.819461E-01 -2.784394E+01  1.185585E-04 -1.198789E+02  1.170693E-04 -1.213102E+02  9.797523E-01 -2.794790E+01 
4.313763E+02  9.820436E-01 -2.785271E+01  1.256338E-04 -1.200661E+02  1.225922E-04 -1.219780E+02  9.798223E-01 -2.795805E+01 
4.313794E+02  9.819495E-01 -2.785945E+01  1.281627E-04 -1.227355E+02  1.158443E-04 -1.199643E+02  9.797725E-01 -2.797138E+01 
4.313825E+02  9.820264E-01 -2.786897E+01  1.185261E-04 -1.243305E+02  1.157968E-04 -1.256862E+02  9.798474E-01 -2.797409E+01 
4.313856E+02  9.819720E-01 -2.787275E+01  1.201399E-04 -1.250376E+02  1.281327E-04 -1.233986E+02  9.797865E-01 -2.797578E+01 
4.313888E+02  9.819653E-01 -2.787365E+01  1.283309E-04 -1.196324E+02  1.276778E-04 -1.236011E+02  9.797667E-01 -2.798727E+01 
4.313919E+02  9.819851E-01 -2.788855E+01  1.216148E-04 -1.203090E+02  1.288571E-04 -1.244979E+02  9.797857E-01 -2.799056E+01 
4.313950E+02  9.820840E-01 -2.788768E+01  1.394423E-04 -1.237948E+02  1.208804E-04 -1.228062E+02  9.797375E-01 -2.799964E+01 
4.313981E+02  9.820337E-01 -2.790008E+01  1.188313E-04 -1.210946E+02  1.264138E-04 -1.238840E+02  9.798039E-01 -2.800714E+01 
4.314013E+02  9.819858E-01 -2.790839E+01  1.290684E-04 -1.198378E+02  1.192982E-04 -1.219448E+02  9.797883E-01 -2.800555E+01 
