! Matrix data file written by TouchstoneData, EPCOS AG
! FILENAME: "B3900_WB.s2p"
! COMMENT: "NWA-Port1 : 98.0ps NWA-Port2 : 98.0ps PCB2031"
! INFO: nport=2, nfreq=1601
! DATE: "Thu Nov 1 2012"
! USER: "Hiroshi Tanaka"
!
! port | pin | signal
! -----|-----|--------
!   1  |  2  |  in
!   2  |  5  |  out
! --------------------
! 
# MHZ S MA R 50
! freq  magS11 angS11  magS21 angS21  magS12 angS12  magS22 angS22
1.000000E+01    9.985985E-01  -5.366501E+00    1.652294E-04  -9.511401E+00    3.701234E-04   2.926818E+00    9.989280E-01  -2.150218E+00 
1.186875E+01    9.972001E-01  -5.816944E+00    1.893250E-04   1.474478E+02    1.846986E-04   1.118510E+02    9.984465E-01  -2.237947E+00 
1.373750E+01    9.985985E-01  -6.021071E+00    1.546199E-04   6.716385E+01    2.162341E-04   7.653039E+01    9.984933E-01  -1.873449E+00 
1.560625E+01    9.972001E-01  -6.668625E+00    2.545512E-04   1.119543E+02    2.293338E-04   7.663955E+01    9.963727E-01  -2.018317E+00 
1.747500E+01    9.981724E-01  -7.484482E+00    3.938703E-04   8.153243E+01    3.222539E-04   1.005969E+02    9.981638E-01  -2.285903E+00 
1.934375E+01    9.995940E-01  -8.285492E+00    5.248612E-04   6.918905E+01    4.845534E-04   6.879986E+01    9.983448E-01  -2.642063E+00 
2.121250E+01    9.988323E-01  -9.146103E+00    2.256501E-04   1.012676E+02    2.943325E-04   1.067173E+02    9.998625E-01  -2.915866E+00 
2.308125E+01    9.995940E-01  -9.976132E+00    3.490913E-04   4.920553E+01    3.934051E-04   5.928626E+01    9.964055E-01  -3.227496E+00 
2.495000E+01    9.991276E-01  -1.080472E+01    4.839774E-04   6.771510E+01    5.625372E-04   7.850508E+01    9.998625E-01  -3.512775E+00 
2.681875E+01    9.995940E-01  -1.165965E+01    3.923802E-04   7.586229E+01    4.090914E-04   8.318457E+01    9.981195E-01  -3.853985E+00 
2.868750E+01    9.997308E-01  -1.206507E+01    5.944098E-04   7.381481E+01    4.793911E-04   7.469968E+01    9.977472E-01  -4.170620E+00 
3.055625E+01    9.988323E-01  -1.331049E+01    5.460647E-04   7.981167E+01    5.971636E-04   7.482243E+01    9.983448E-01  -4.370430E+00 
3.242500E+01    9.971200E-01  -1.387774E+01    5.190631E-04   7.596991E+01    6.011294E-04   7.654095E+01    9.991240E-01  -4.649016E+00 
3.429375E+01    9.936249E-01  -1.471404E+01    5.296059E-04   7.523903E+01    4.430846E-04   8.747208E+01    9.964055E-01  -4.958981E+00 
3.616250E+01    9.955583E-01  -1.563043E+01    5.511018E-04   6.877318E+01    5.413907E-04   6.783058E+01    9.977472E-01  -5.238014E+00 
3.803125E+01    9.988323E-01  -1.630029E+01    6.080203E-04   7.700958E+01    6.350399E-04   7.597893E+01    9.998625E-01  -5.455042E+00 
3.990000E+01    9.997308E-01  -1.707696E+01    6.613889E-04   7.583718E+01    7.107898E-04   6.717107E+01    9.964055E-01  -5.801190E+00 
4.176875E+01    9.988323E-01  -1.786873E+01    7.266184E-04   7.097847E+01    7.127724E-04   7.897354E+01    9.977472E-01  -5.947464E+00 
4.363750E+01    9.980319E-01  -1.868195E+01    7.364786E-04   8.126941E+01    6.831917E-04   8.284659E+01    9.996800E-01  -6.203415E+00 
4.550625E+01    9.966851E-01  -1.961829E+01    6.641473E-04   6.843938E+01    7.414627E-04   6.821490E+01    9.998142E-01  -6.545693E+00 
4.737500E+01    9.978422E-01  -2.020872E+01    6.578914E-04   8.018520E+01    6.852753E-04   7.775274E+01    9.995448E-01  -6.719603E+00 
4.924375E+01    9.965589E-01  -2.093031E+01    7.022226E-04   7.596187E+01    6.745773E-04   8.477237E+01    9.983448E-01  -6.932111E+00 
5.111250E+01    9.956271E-01  -2.173072E+01    7.428961E-04   7.840964E+01    7.678521E-04   7.915369E+01    9.975233E-01  -7.172729E+00 
5.298125E+01    9.960774E-01  -2.253648E+01    7.879323E-04   7.691894E+01    7.882209E-04   7.413319E+01    9.976907E-01  -7.525093E+00 
5.485000E+01    9.957450E-01  -2.332617E+01    7.561649E-04   6.931081E+01    7.402480E-04   6.772140E+01    9.979187E-01  -7.793922E+00 
5.671875E+01    9.965944E-01  -2.411874E+01    8.642665E-04   7.597540E+01    8.881245E-04   7.458150E+01    9.979941E-01  -8.043943E+00 
5.858750E+01    9.962845E-01  -2.487924E+01    8.778279E-04   7.166754E+01    8.712060E-04   7.492714E+01    9.983923E-01  -8.323692E+00 
6.045625E+01    9.961843E-01  -2.564197E+01    9.060972E-04   6.954730E+01    9.135520E-04   6.904014E+01    9.981195E-01  -8.571582E+00 
6.232500E+01    9.959391E-01  -2.642778E+01    9.159633E-04   7.617536E+01    9.212759E-04   7.549053E+01    9.986546E-01  -8.828649E+00 
6.419375E+01    9.949793E-01  -2.705057E+01    9.848658E-04   7.278131E+01    1.011757E-03   7.235735E+01    9.975594E-01  -9.040140E+00 
6.606250E+01    9.960241E-01  -2.787993E+01    9.610782E-04   7.270048E+01    9.878663E-04   7.317703E+01    9.985671E-01  -9.320080E+00 
6.793125E+01    9.953857E-01  -2.866974E+01    1.011350E-03   6.920184E+01    9.985905E-04   6.873860E+01    9.976627E-01  -9.601541E+00 
6.980000E+01    9.955981E-01  -2.950996E+01    1.075729E-03   6.782684E+01    1.066207E-03   6.943984E+01    9.979077E-01  -9.983287E+00 
7.166875E+01    9.955914E-01  -3.029687E+01    9.459109E-04   6.805161E+01    9.733258E-04   6.676500E+01    9.981949E-01  -1.022783E+01 
7.353750E+01    9.951119E-01  -3.096884E+01    1.030055E-03   6.824766E+01    1.025259E-03   6.760210E+01    9.977210E-01  -1.043005E+01 
7.540625E+01    9.953336E-01  -3.174762E+01    1.067859E-03   6.954257E+01    1.089071E-03   7.177155E+01    9.975600E-01  -1.072628E+01 
7.727500E+01    9.955836E-01  -3.251515E+01    1.069050E-03   6.896435E+01    1.103400E-03   6.798055E+01    9.973835E-01  -1.099575E+01 
7.914375E+01    9.944944E-01  -3.326746E+01    1.145470E-03   7.059609E+01    1.147294E-03   7.022722E+01    9.978345E-01  -1.125165E+01 
8.101250E+01    9.945319E-01  -3.401954E+01    1.164047E-03   6.673782E+01    1.160676E-03   6.773809E+01    9.972570E-01  -1.146717E+01 
8.288125E+01    9.933957E-01  -3.469881E+01    1.130968E-03   6.355975E+01    1.148132E-03   6.509718E+01    9.973443E-01  -1.171295E+01 
8.475000E+01    9.936224E-01  -3.542683E+01    1.203534E-03   6.315034E+01    1.225686E-03   6.254283E+01    9.975651E-01  -1.205296E+01 
8.661875E+01    9.933102E-01  -3.620234E+01    1.181503E-03   6.599318E+01    1.199533E-03   6.618604E+01    9.982426E-01  -1.236204E+01 
8.848750E+01    9.930259E-01  -3.695856E+01    1.224641E-03   6.405709E+01    1.284370E-03   6.421096E+01    9.978752E-01  -1.259199E+01 
9.035625E+01    9.929486E-01  -3.767080E+01    1.242858E-03   6.485492E+01    1.228579E-03   6.607912E+01    9.971102E-01  -1.288559E+01 
9.222500E+01    9.917823E-01  -3.840417E+01    1.266621E-03   6.623903E+01    1.264479E-03   6.335901E+01    9.961745E-01  -1.320627E+01 
9.409375E+01    9.920998E-01  -3.907670E+01    1.310113E-03   6.184025E+01    1.358607E-03   6.178290E+01    9.953518E-01  -1.343773E+01 
9.596250E+01    9.921579E-01  -3.977791E+01    1.299631E-03   6.296596E+01    1.343791E-03   6.074819E+01    9.958973E-01  -1.365581E+01 
9.783125E+01    9.941666E-01  -4.044841E+01    1.322411E-03   6.096789E+01    1.336877E-03   6.173892E+01    9.966263E-01  -1.385557E+01 
9.970000E+01    9.932837E-01  -4.117446E+01    1.363068E-03   6.275145E+01    1.373804E-03   6.311458E+01    9.965456E-01  -1.412853E+01 
1.015687E+02    9.927762E-01  -4.180244E+01    1.386749E-03   6.292279E+01    1.386218E-03   6.276399E+01    9.960991E-01  -1.438973E+01 
1.034375E+02    9.927800E-01  -4.253919E+01    1.355900E-03   6.113181E+01    1.386970E-03   6.004877E+01    9.963808E-01  -1.465631E+01 
1.053063E+02    9.931657E-01  -4.327038E+01    1.427322E-03   5.987150E+01    1.453820E-03   5.928818E+01    9.964435E-01  -1.491620E+01 
1.071750E+02    9.928575E-01  -4.398079E+01    1.432954E-03   6.115401E+01    1.450885E-03   6.189100E+01    9.965058E-01  -1.516295E+01 
1.090438E+02    9.925511E-01  -4.464020E+01    1.417095E-03   5.810883E+01    1.455391E-03   5.935623E+01    9.960550E-01  -1.544672E+01 
1.109125E+02    9.926915E-01  -4.530712E+01    1.500766E-03   5.924601E+01    1.521721E-03   5.806168E+01    9.957694E-01  -1.568913E+01 
1.127812E+02    9.925974E-01  -4.596169E+01    1.481682E-03   5.836984E+01    1.489844E-03   5.697976E+01    9.962985E-01  -1.594498E+01 
1.146500E+02    9.927771E-01  -4.662789E+01    1.490315E-03   6.010834E+01    1.480617E-03   5.867633E+01    9.961004E-01  -1.619459E+01 
1.165187E+02    9.928413E-01  -4.731566E+01    1.532331E-03   5.963167E+01    1.539732E-03   5.965597E+01    9.960286E-01  -1.644531E+01 
1.183875E+02    9.916677E-01  -4.797826E+01    1.583616E-03   5.677121E+01    1.590775E-03   5.763575E+01    9.954336E-01  -1.669169E+01 
1.202562E+02    9.925682E-01  -4.861279E+01    1.528742E-03   5.535490E+01    1.540731E-03   5.548848E+01    9.958145E-01  -1.691125E+01 
1.221250E+02    9.924478E-01  -4.930620E+01    1.511460E-03   5.390495E+01    1.519498E-03   5.371067E+01    9.959461E-01  -1.721136E+01 
1.239938E+02    9.926715E-01  -4.999986E+01    1.520734E-03   5.688283E+01    1.570062E-03   5.679366E+01    9.958870E-01  -1.748027E+01 
1.258625E+02    9.928833E-01  -5.062811E+01    1.588158E-03   5.459950E+01    1.583124E-03   5.561763E+01    9.958386E-01  -1.772321E+01 
1.277313E+02    9.932155E-01  -5.130771E+01    1.614858E-03   5.591005E+01    1.634575E-03   5.619838E+01    9.964822E-01  -1.797312E+01 
1.296000E+02    9.933865E-01  -5.196964E+01    1.634317E-03   5.395751E+01    1.651371E-03   5.468072E+01    9.970656E-01  -1.817122E+01 
1.314688E+02    9.929934E-01  -5.257362E+01    1.672588E-03   5.477721E+01    1.704253E-03   5.548930E+01    9.965981E-01  -1.840637E+01 
1.333375E+02    9.929832E-01  -5.325911E+01    1.684444E-03   5.206470E+01    1.729716E-03   5.233628E+01    9.961615E-01  -1.873339E+01 
1.352063E+02    9.930999E-01  -5.393738E+01    1.644470E-03   5.153351E+01    1.677514E-03   5.039167E+01    9.961351E-01  -1.899942E+01 
1.370750E+02    9.924978E-01  -5.452645E+01    1.634333E-03   5.176682E+01    1.647090E-03   5.070672E+01    9.964119E-01  -1.920118E+01 
1.389437E+02    9.928047E-01  -5.519232E+01    1.711827E-03   5.446133E+01    1.723376E-03   5.455823E+01    9.962223E-01  -1.945540E+01 
1.408125E+02    9.924438E-01  -5.584601E+01    1.731851E-03   5.092170E+01    1.710532E-03   5.122916E+01    9.963152E-01  -1.971727E+01 
1.426813E+02    9.917454E-01  -5.648710E+01    1.728286E-03   5.022517E+01    1.748642E-03   5.143212E+01    9.960686E-01  -1.996997E+01 
1.445500E+02    9.921454E-01  -5.715132E+01    1.716797E-03   5.083555E+01    1.725891E-03   5.184619E+01    9.959880E-01  -2.022459E+01 
1.464187E+02    9.916117E-01  -5.780590E+01    1.771431E-03   5.030894E+01    1.764952E-03   5.087200E+01    9.956846E-01  -2.044134E+01 
1.482875E+02    9.912247E-01  -5.846057E+01    1.775781E-03   5.009287E+01    1.787373E-03   5.084127E+01    9.958890E-01  -2.068612E+01 
1.501562E+02    9.916589E-01  -5.909257E+01    1.770376E-03   4.959940E+01    1.802747E-03   4.957437E+01    9.960553E-01  -2.095701E+01 
1.520250E+02    9.914966E-01  -5.976217E+01    1.781755E-03   4.989289E+01    1.808645E-03   5.016509E+01    9.962900E-01  -2.126412E+01 
1.538938E+02    9.910466E-01  -6.041751E+01    1.865618E-03   4.810524E+01    1.860426E-03   4.787902E+01    9.961901E-01  -2.151522E+01 
1.557625E+02    9.906549E-01  -6.101428E+01    1.887975E-03   4.825781E+01    1.917177E-03   4.855641E+01    9.956683E-01  -2.174666E+01 
1.576312E+02    9.910062E-01  -6.165549E+01    1.900820E-03   4.647047E+01    1.923073E-03   4.550302E+01    9.956439E-01  -2.200556E+01 
1.595000E+02    9.904317E-01  -6.226636E+01    1.819775E-03   4.643644E+01    1.799691E-03   4.647505E+01    9.962008E-01  -2.225948E+01 
1.613688E+02    9.903122E-01  -6.290029E+01    1.831126E-03   4.712611E+01    1.852597E-03   4.638831E+01    9.964592E-01  -2.250868E+01 
1.632375E+02    9.897622E-01  -6.357053E+01    1.874286E-03   4.799583E+01    1.882837E-03   4.697193E+01    9.955761E-01  -2.277919E+01 
1.651062E+02    9.880561E-01  -6.422468E+01    1.866278E-03   4.504947E+01    1.884128E-03   4.545335E+01    9.946136E-01  -2.303971E+01 
1.669750E+02    9.881077E-01  -6.482061E+01    1.889624E-03   4.710365E+01    1.910219E-03   4.753102E+01    9.946360E-01  -2.329377E+01 
1.688438E+02    9.882801E-01  -6.544349E+01    1.965621E-03   4.681895E+01    1.938495E-03   4.711804E+01    9.951623E-01  -2.355042E+01 
1.707125E+02    9.865661E-01  -6.607733E+01    2.032057E-03   4.539600E+01    2.015313E-03   4.544110E+01    9.941386E-01  -2.380856E+01 
1.725813E+02    9.852088E-01  -6.665614E+01    1.906447E-03   4.288584E+01    1.922722E-03   4.447733E+01    9.937779E-01  -2.405036E+01 
1.744500E+02    9.860609E-01  -6.724637E+01    1.969544E-03   4.383444E+01    1.981295E-03   4.356293E+01    9.943303E-01  -2.431097E+01 
1.763187E+02    9.863673E-01  -6.791111E+01    1.940083E-03   4.464185E+01    1.928353E-03   4.291015E+01    9.950642E-01  -2.464288E+01 
1.781875E+02    9.864114E-01  -6.859112E+01    1.991703E-03   4.238925E+01    1.986362E-03   4.240682E+01    9.952117E-01  -2.498277E+01 
1.800563E+02    9.858684E-01  -6.911362E+01    2.000595E-03   4.186859E+01    2.027236E-03   4.276651E+01    9.945564E-01  -2.516583E+01 
1.819250E+02    9.850062E-01  -6.967473E+01    1.930927E-03   4.145537E+01    1.958607E-03   4.209974E+01    9.942267E-01  -2.536277E+01 
1.837937E+02    9.852668E-01  -7.020845E+01    1.974300E-03   4.306868E+01    1.964969E-03   4.321237E+01    9.947803E-01  -2.558769E+01 
1.856625E+02    9.855016E-01  -7.082665E+01    1.996412E-03   4.289987E+01    2.002342E-03   4.215001E+01    9.946687E-01  -2.587943E+01 
1.875312E+02    9.852699E-01  -7.149237E+01    2.018770E-03   4.108073E+01    2.000369E-03   4.123035E+01    9.946410E-01  -2.614496E+01 
1.894000E+02    9.853160E-01  -7.205680E+01    2.013950E-03   4.040088E+01    1.977474E-03   4.127417E+01    9.949742E-01  -2.639276E+01 
1.912688E+02    9.850187E-01  -7.263418E+01    2.016652E-03   4.228857E+01    2.021245E-03   4.182271E+01    9.944222E-01  -2.668907E+01 
1.931375E+02    9.834231E-01  -7.322165E+01    2.124042E-03   4.093854E+01    2.093038E-03   4.037598E+01    9.932803E-01  -2.698778E+01 
1.950062E+02    9.829611E-01  -7.381153E+01    2.072202E-03   3.782735E+01    2.062622E-03   3.757230E+01    9.919027E-01  -2.725393E+01 
1.968750E+02    9.833659E-01  -7.442350E+01    2.013423E-03   3.819132E+01    2.004114E-03   3.837551E+01    9.929666E-01  -2.754657E+01 
1.987438E+02    9.833806E-01  -7.499473E+01    2.010037E-03   3.746514E+01    1.987362E-03   3.736158E+01    9.930772E-01  -2.777798E+01 
2.006125E+02    9.819217E-01  -7.560757E+01    1.971317E-03   3.917764E+01    2.011264E-03   3.913247E+01    9.929557E-01  -2.808725E+01 
2.024812E+02    9.818964E-01  -7.614720E+01    2.019868E-03   3.877925E+01    2.008671E-03   3.826061E+01    9.927071E-01  -2.837956E+01 
2.043500E+02    9.828404E-01  -7.668730E+01    1.998461E-03   3.866149E+01    2.069352E-03   3.907680E+01    9.924781E-01  -2.864150E+01 
2.062188E+02    9.823483E-01  -7.720721E+01    2.056692E-03   3.897674E+01    2.102161E-03   3.685950E+01    9.923500E-01  -2.886561E+01 
2.080875E+02    9.826037E-01  -7.772924E+01    2.145689E-03   3.657634E+01    2.134132E-03   3.774207E+01    9.918957E-01  -2.909813E+01 
2.099563E+02    9.831502E-01  -7.834393E+01    2.144648E-03   3.414254E+01    2.149753E-03   3.579568E+01    9.922254E-01  -2.932251E+01 
2.118250E+02    9.835650E-01  -7.887215E+01    2.056871E-03   3.449345E+01    2.038196E-03   3.393595E+01    9.919395E-01  -2.969107E+01 
2.136937E+02    9.843439E-01  -7.939355E+01    2.034178E-03   3.529045E+01    2.056886E-03   3.532382E+01    9.920422E-01  -2.997741E+01 
2.155625E+02    9.846484E-01  -8.000285E+01    2.104293E-03   3.560391E+01    2.134686E-03   3.501199E+01    9.920408E-01  -3.025450E+01 
2.174313E+02    9.836885E-01  -8.062092E+01    2.097287E-03   3.570933E+01    2.061908E-03   3.520504E+01    9.917796E-01  -3.053072E+01 
2.193000E+02    9.832330E-01  -8.120666E+01    2.084589E-03   3.370032E+01    2.096185E-03   3.469484E+01    9.902842E-01  -3.083196E+01 
2.211687E+02    9.835046E-01  -8.173573E+01    2.032377E-03   3.546005E+01    2.076130E-03   3.509964E+01    9.904455E-01  -3.107882E+01 
2.230375E+02    9.836971E-01  -8.222217E+01    2.119380E-03   3.364980E+01    2.156784E-03   3.449653E+01    9.916148E-01  -3.133038E+01 
2.249062E+02    9.839658E-01  -8.269833E+01    2.089551E-03   3.313618E+01    2.086606E-03   3.347609E+01    9.927504E-01  -3.158441E+01 
2.267750E+02    9.842783E-01  -8.324666E+01    2.029270E-03   3.288228E+01    2.068271E-03   3.334553E+01    9.931527E-01  -3.187678E+01 
2.286438E+02    9.839006E-01  -8.382505E+01    2.090672E-03   3.378664E+01    2.105570E-03   3.378343E+01    9.919898E-01  -3.215683E+01 
2.305125E+02    9.835780E-01  -8.433864E+01    2.168781E-03   3.285482E+01    2.186926E-03   3.289759E+01    9.920639E-01  -3.244130E+01 
2.323812E+02    9.842986E-01  -8.485966E+01    2.164341E-03   3.101383E+01    2.190820E-03   3.039393E+01    9.920843E-01  -3.271823E+01 
2.342500E+02    9.841076E-01  -8.538408E+01    2.087323E-03   2.930209E+01    2.099589E-03   2.949205E+01    9.917641E-01  -3.299246E+01 
2.361188E+02    9.838040E-01  -8.596020E+01    2.047052E-03   3.079951E+01    2.038490E-03   3.107710E+01    9.916416E-01  -3.327752E+01 
2.379875E+02    9.838520E-01  -8.650035E+01    2.062729E-03   3.166410E+01    2.052555E-03   3.178340E+01    9.918871E-01  -3.354569E+01 
2.398562E+02    9.840965E-01  -8.702811E+01    2.021235E-03   3.039373E+01    2.070538E-03   3.088792E+01    9.917725E-01  -3.384134E+01 
2.417250E+02    9.833411E-01  -8.752574E+01    2.048770E-03   3.113605E+01    2.080791E-03   3.129117E+01    9.915775E-01  -3.411958E+01 
2.435938E+02    9.838458E-01  -8.802998E+01    2.113983E-03   3.377048E+01    2.127681E-03   3.445358E+01    9.913691E-01  -3.437964E+01 
2.454625E+02    9.836999E-01  -8.857081E+01    2.200130E-03   3.068082E+01    2.216941E-03   3.113438E+01    9.909495E-01  -3.465209E+01 
2.473313E+02    9.828700E-01  -8.907290E+01    2.213055E-03   2.710008E+01    2.221164E-03   2.702437E+01    9.909509E-01  -3.493277E+01 
2.492000E+02    9.833330E-01  -8.955972E+01    2.100257E-03   2.675877E+01    2.100583E-03   2.684672E+01    9.916629E-01  -3.524867E+01 
2.510687E+02    9.834491E-01  -9.008083E+01    2.037357E-03   2.687584E+01    2.066690E-03   2.766576E+01    9.918102E-01  -3.553759E+01 
2.529375E+02    9.827750E-01  -9.059728E+01    2.040791E-03   2.903205E+01    2.050175E-03   2.822826E+01    9.919309E-01  -3.579652E+01 
2.548063E+02    9.828194E-01  -9.109624E+01    2.062698E-03   2.738144E+01    2.087099E-03   2.698337E+01    9.913431E-01  -3.606349E+01 
2.566750E+02    9.825576E-01  -9.163992E+01    2.059175E-03   2.787475E+01    2.063901E-03   2.777678E+01    9.909276E-01  -3.633402E+01 
2.585437E+02    9.815672E-01  -9.211440E+01    2.044790E-03   2.800056E+01    2.091203E-03   2.849607E+01    9.909227E-01  -3.660788E+01 
2.604125E+02    9.817391E-01  -9.260664E+01    2.108163E-03   2.927758E+01    2.161279E-03   2.850888E+01    9.910522E-01  -3.687689E+01 
2.622812E+02    9.820144E-01  -9.312665E+01    2.102313E-03   2.560601E+01    2.151008E-03   2.634671E+01    9.912266E-01  -3.715126E+01 
2.641500E+02    9.811585E-01  -9.364888E+01    2.032457E-03   2.493291E+01    2.046206E-03   2.484059E+01    9.912768E-01  -3.744099E+01 
2.660188E+02    9.809498E-01  -9.410809E+01    2.021673E-03   2.635780E+01    2.054913E-03   2.686118E+01    9.913705E-01  -3.774092E+01 
2.678875E+02    9.808591E-01  -9.462441E+01    2.118562E-03   2.683917E+01    2.160058E-03   2.679414E+01    9.908172E-01  -3.801569E+01 
2.697563E+02    9.799465E-01  -9.513568E+01    2.136151E-03   2.450986E+01    2.167458E-03   2.415641E+01    9.905804E-01  -3.830193E+01 
2.716250E+02    9.795548E-01  -9.556293E+01    2.036696E-03   2.180776E+01    2.060526E-03   2.271261E+01    9.905329E-01  -3.854772E+01 
