! Matrix data file written by TouchstoneData, EPCOS AG
! FILENAME: "LY09A.MB.s3p_newformat"
! COMMENT: "(LY09A.MB.s3p)"
! INFO: nport=3, nfreq=1601
! DATE: "Wed Sep  9 09:42:48 2009"
! USER: "Michael Schemies"
!
! port | pin | signal
! -----|-----|--------
!   1  |  2  |  in
!   2  |  4  |  out
!   3  |  6  |  out
! --------------------
! 
# MHZ S MA R 50
! freq  magS11 angS11  magS12 angS12  magS13 angS13  ...
2.000000E+02  9.908712E-01 -4.694882E+01  5.598442E-03 6.117070E+01  5.287983E-03 6.183440E+01 
 5.605289E-03 6.115437E+01  9.851093E-01 -1.845410E+01  1.757964E-01 7.134619E+01 
 5.291426E-03 6.177658E+01  1.756436E-01 7.131792E+01  9.836090E-01 -1.836047E+01 
2.004437E+02  9.902630E-01 -4.706675E+01  5.607826E-03 6.107185E+01  5.285834E-03 6.181721E+01 
 5.614275E-03 6.105505E+01  9.848992E-01 -1.850128E+01  1.763329E-01 7.129339E+01 
 5.280700E-03 6.181807E+01  1.761533E-01 7.126631E+01  9.834635E-01 -1.842539E+01 
2.008875E+02  9.899934E-01 -4.717100E+01  5.613554E-03 6.090032E+01  5.300548E-03 6.174361E+01 
 5.622301E-03 6.088756E+01  9.848365E-01 -1.855386E+01  1.768238E-01 7.121143E+01 
 5.303920E-03 6.170832E+01  1.766421E-01 7.117839E+01  9.833269E-01 -1.848429E+01 
2.013313E+02  9.896280E-01 -4.728400E+01  5.608349E-03 6.079691E+01  5.301940E-03 6.142107E+01 
 5.617678E-03 6.080942E+01  9.847324E-01 -1.860385E+01  1.772237E-01 7.115221E+01 
 5.308357E-03 6.142984E+01  1.770235E-01 7.111646E+01  9.831258E-01 -1.854102E+01 
2.017750E+02  9.894998E-01 -4.738590E+01  5.612391E-03 6.079625E+01  5.286584E-03 6.144357E+01 
 5.616632E-03 6.079945E+01  9.845610E-01 -1.865387E+01  1.776606E-01 7.109807E+01 
 5.289880E-03 6.143075E+01  1.774665E-01 7.106815E+01  9.829219E-01 -1.858971E+01 
2.022188E+02  9.893362E-01 -4.749962E+01  5.592889E-03 6.075916E+01  5.303519E-03 6.159818E+01 
 5.601156E-03 6.074801E+01  9.844041E-01 -1.870228E+01  1.780533E-01 7.104083E+01 
 5.302716E-03 6.162214E+01  1.778572E-01 7.100766E+01  9.827320E-01 -1.863352E+01 
2.026625E+02  9.887648E-01 -4.759269E+01  5.618795E-03 6.098795E+01  5.328631E-03 6.164627E+01 
 5.624443E-03 6.101423E+01  9.842132E-01 -1.874745E+01  1.784236E-01 7.101148E+01 
 5.328331E-03 6.165633E+01  1.782223E-01 7.098353E+01  9.826501E-01 -1.867390E+01 
2.031062E+02  9.890122E-01 -4.764288E+01  5.634778E-03 6.103637E+01  5.340112E-03 6.136482E+01 
 5.645319E-03 6.099651E+01  9.839863E-01 -1.879151E+01  1.788744E-01 7.097870E+01 
 5.339967E-03 6.137833E+01  1.786615E-01 7.095324E+01  9.825038E-01 -1.870890E+01 
2.035500E+02  9.894830E-01 -4.774126E+01  5.658158E-03 6.096510E+01  5.352083E-03 6.133488E+01 
 5.669874E-03 6.092082E+01  9.838461E-01 -1.883042E+01  1.792535E-01 7.095075E+01 
 5.347479E-03 6.132596E+01  1.790560E-01 7.093254E+01  9.824224E-01 -1.874424E+01 
2.039938E+02  9.898046E-01 -4.783419E+01  5.675192E-03 6.054353E+01  5.332537E-03 6.129697E+01 
 5.680498E-03 6.053244E+01  9.836254E-01 -1.886967E+01  1.796461E-01 7.095674E+01 
 5.332706E-03 6.130524E+01  1.794544E-01 7.094994E+01  9.822345E-01 -1.876839E+01 
2.044375E+02  9.903683E-01 -4.793378E+01  5.674647E-03 6.062235E+01  5.368184E-03 6.119490E+01 
 5.681191E-03 6.062363E+01  9.835609E-01 -1.890919E+01  1.801230E-01 7.094603E+01 
 5.367541E-03 6.120617E+01  1.799338E-01 7.094299E+01  9.823335E-01 -1.879159E+01 
2.048812E+02  9.906159E-01 -4.802827E+01  5.690634E-03 6.064354E+01  5.353422E-03 6.136990E+01 
 5.701483E-03 6.060275E+01  9.832562E-01 -1.894769E+01  1.805674E-01 7.097921E+01 
 5.351184E-03 6.142132E+01  1.803738E-01 7.097811E+01  9.822736E-01 -1.881649E+01 
2.053250E+02  9.906715E-01 -4.811318E+01  5.706919E-03 6.051643E+01  5.397988E-03 6.125440E+01 
 5.716305E-03 6.051950E+01  9.830518E-01 -1.896816E+01  1.813101E-01 7.097792E+01 
 5.393395E-03 6.128310E+01  1.811384E-01 7.099058E+01  9.821550E-01 -1.883199E+01 
2.057688E+02  9.907061E-01 -4.821891E+01  5.719393E-03 6.042936E+01  5.385549E-03 6.111791E+01 
 5.726962E-03 6.039870E+01  9.830385E-01 -1.900653E+01  1.818337E-01 7.090653E+01 
 5.381663E-03 6.115771E+01  1.816066E-01 7.093520E+01  9.820976E-01 -1.886018E+01 
2.062125E+02  9.906046E-01 -4.832594E+01  5.717177E-03 6.049337E+01  5.404449E-03 6.102678E+01 
 5.725667E-03 6.045713E+01  9.828812E-01 -1.904626E+01  1.823341E-01 7.088301E+01 
 5.401377E-03 6.104177E+01  1.820666E-01 7.092636E+01  9.819167E-01 -1.888591E+01 
2.066562E+02  9.906271E-01 -4.843449E+01  5.725866E-03 6.032113E+01  5.385125E-03 6.094550E+01 
 5.737415E-03 6.027299E+01  9.827832E-01 -1.908193E+01  1.829048E-01 7.084971E+01 
 5.386197E-03 6.098649E+01  1.826360E-01 7.091064E+01  9.818664E-01 -1.891013E+01 
2.071000E+02  9.905957E-01 -4.854478E+01  5.723448E-03 6.036525E+01  5.396348E-03 6.124966E+01 
 5.732641E-03 6.025624E+01  9.825876E-01 -1.911802E+01  1.834189E-01 7.083114E+01 
 5.396334E-03 6.130487E+01  1.831482E-01 7.089511E+01  9.816525E-01 -1.894058E+01 
2.075437E+02  9.904687E-01 -4.865863E+01  5.737933E-03 6.031529E+01  5.425043E-03 6.096907E+01 
 5.748469E-03 6.024958E+01  9.824641E-01 -1.914141E+01  1.841826E-01 7.080243E+01 
 5.422083E-03 6.098822E+01  1.838940E-01 7.087627E+01  9.814301E-01 -1.895770E+01 
2.079875E+02  9.904571E-01 -4.876995E+01  5.754047E-03 6.035478E+01  5.420285E-03 6.103449E+01 
 5.765446E-03 6.032509E+01  9.825547E-01 -1.918119E+01  1.848144E-01 7.069133E+01 
 5.417752E-03 6.104746E+01  1.845100E-01 7.076062E+01  9.816456E-01 -1.898249E+01 
2.084313E+02  9.904770E-01 -4.888672E+01  5.770259E-03 6.034032E+01  5.458005E-03 6.113482E+01 
 5.780115E-03 6.029028E+01  9.823270E-01 -1.922391E+01  1.852863E-01 7.061052E+01 
 5.457969E-03 6.114195E+01  1.849889E-01 7.067541E+01  9.815638E-01 -1.902151E+01 
2.088750E+02  9.905018E-01 -4.900588E+01  5.771965E-03 6.016308E+01  5.455833E-03 6.083924E+01 
 5.785900E-03 6.010862E+01  9.822760E-01 -1.925376E+01  1.857214E-01 7.052403E+01 
 5.452086E-03 6.089095E+01  1.854252E-01 7.058449E+01  9.815269E-01 -1.906682E+01 
2.093187E+02  9.903888E-01 -4.913744E+01  5.786225E-03 6.003675E+01  5.491746E-03 6.064499E+01 
 5.796987E-03 6.006215E+01  9.823147E-01 -1.930375E+01  1.861712E-01 7.046188E+01 
 5.487477E-03 6.066442E+01  1.858703E-01 7.051206E+01  9.813194E-01 -1.911888E+01 
2.097625E+02  9.900288E-01 -4.925326E+01  5.802715E-03 5.974225E+01  5.475585E-03 6.022918E+01 
 5.812353E-03 5.975536E+01  9.821310E-01 -1.935105E+01  1.865990E-01 7.037596E+01 
 5.473301E-03 6.034706E+01  1.863375E-01 7.041136E+01  9.809827E-01 -1.916343E+01 
2.102063E+02  9.901008E-01 -4.935140E+01  5.796867E-03 5.980063E+01  5.466676E-03 6.018716E+01 
 5.807332E-03 5.976646E+01  9.818127E-01 -1.942006E+01  1.869803E-01 7.027823E+01 
 5.465390E-03 6.018976E+01  1.867242E-01 7.030233E+01  9.808460E-01 -1.923454E+01 
2.106500E+02  9.900031E-01 -4.946896E+01  5.808765E-03 5.953084E+01  5.436742E-03 6.042567E+01 
 5.819061E-03 5.952214E+01  9.813316E-01 -1.950701E+01  1.873603E-01 7.010724E+01 
 5.433738E-03 6.047210E+01  1.872017E-01 7.012097E+01  9.805932E-01 -1.934710E+01 
2.110938E+02  9.901753E-01 -4.957386E+01  5.799496E-03 5.954003E+01  5.463010E-03 6.033728E+01 
 5.807244E-03 5.951412E+01  9.810906E-01 -1.956303E+01  1.873907E-01 6.998253E+01 
 5.461296E-03 6.035853E+01  1.872655E-01 6.998933E+01  9.804302E-01 -1.941934E+01 
2.115375E+02  9.904345E-01 -4.967289E+01  5.798939E-03 5.963484E+01  5.479914E-03 6.020478E+01 
 5.803506E-03 5.963538E+01  9.811384E-01 -1.961968E+01  1.877388E-01 6.999064E+01 
 5.482283E-03 6.023929E+01  1.876679E-01 6.998630E+01  9.807281E-01 -1.946408E+01 
2.119812E+02  9.902115E-01 -4.976848E+01  5.815781E-03 5.985120E+01  5.478398E-03 6.019969E+01 
 5.823892E-03 5.985071E+01  9.807800E-01 -1.967561E+01  1.881604E-01 6.994149E+01 
 5.476356E-03 6.023773E+01  1.881180E-01 6.991857E+01  9.808023E-01 -1.951448E+01 
2.124250E+02  9.905849E-01 -4.983061E+01  5.835602E-03 5.972942E+01  5.486089E-03 6.032990E+01 
 5.840393E-03 5.967301E+01  9.805950E-01 -1.969855E+01  1.885672E-01 6.992980E+01 
 5.484528E-03 6.029494E+01  1.885478E-01 6.989258E+01  9.808651E-01 -1.956773E+01 
2.128688E+02  9.911525E-01 -4.993702E+01  5.855975E-03 5.954703E+01  5.497820E-03 6.036945E+01 
 5.856180E-03 5.949826E+01  9.805237E-01 -1.974607E+01  1.890711E-01 6.985686E+01 
 5.496237E-03 6.038138E+01  1.890988E-01 6.981052E+01  9.806155E-01 -1.963167E+01 
2.133125E+02  9.913850E-01 -5.005201E+01  5.872828E-03 5.942817E+01  5.538562E-03 6.045949E+01 
 5.869761E-03 5.941316E+01  9.803904E-01 -1.976881E+01  1.890734E-01 6.975497E+01 
 5.537719E-03 6.043315E+01  1.891171E-01 6.970840E+01  9.799479E-01 -1.964965E+01 
2.137562E+02  9.916737E-01 -5.017548E+01  5.882693E-03 5.933100E+01  5.527888E-03 6.010421E+01 
 5.880163E-03 5.931413E+01  9.806850E-01 -1.982035E+01  1.893311E-01 6.985562E+01 
 5.525516E-03 6.011932E+01  1.894058E-01 6.980479E+01  9.805937E-01 -1.966959E+01 
2.142000E+02  9.918184E-01 -5.029802E+01  5.887766E-03 5.934066E+01  5.530029E-03 6.019593E+01 
 5.889111E-03 5.935305E+01  9.802462E-01 -1.988281E+01  1.898523E-01 6.987893E+01 
 5.526285E-03 6.017943E+01  1.899223E-01 6.984076E+01  9.806773E-01 -1.973394E+01 
2.146438E+02  9.919660E-01 -5.042329E+01  5.898503E-03 5.895468E+01  5.550034E-03 6.024051E+01 
 5.903821E-03 5.896186E+01  9.800659E-01 -1.988987E+01  1.906327E-01 6.990316E+01 
 5.547198E-03 6.020984E+01  1.907112E-01 6.986352E+01  9.806937E-01 -1.977838E+01 
2.150875E+02  9.920029E-01 -5.055945E+01  5.889893E-03 5.898886E+01  5.572156E-03 6.000999E+01 
 5.893736E-03 5.895402E+01  9.803832E-01 -1.992862E+01  1.912348E-01 6.980238E+01 
 5.575576E-03 5.996980E+01  1.912990E-01 6.977038E+01  9.805244E-01 -1.983402E+01 
2.155312E+02  9.918867E-01 -5.069579E+01  5.890483E-03 5.907110E+01  5.575929E-03 6.013457E+01 
 5.892461E-03 5.902642E+01  9.804361E-01 -1.997035E+01  1.915694E-01 6.973854E+01 
 5.571795E-03 6.008449E+01  1.916068E-01 6.971498E+01  9.800484E-01 -1.986179E+01 
2.159750E+02  9.916250E-01 -5.083088E+01  5.898048E-03 5.895782E+01  5.582042E-03 5.978601E+01 
 5.901721E-03 5.899609E+01  9.806414E-01 -2.001925E+01  1.920369E-01 6.975847E+01 
 5.582755E-03 5.979820E+01  1.920225E-01 6.974442E+01  9.802782E-01 -1.988007E+01 
2.164187E+02  9.913415E-01 -5.096365E+01  5.909979E-03 5.894498E+01  5.583053E-03 5.967711E+01 
 5.914666E-03 5.893070E+01  9.805024E-01 -2.007263E+01  1.926367E-01 6.975636E+01 
 5.581329E-03 5.964458E+01  1.925629E-01 6.974949E+01  9.803878E-01 -1.991909E+01 
2.168625E+02  9.908693E-01 -5.109235E+01  5.909819E-03 5.892193E+01  5.601156E-03 5.961155E+01 
 5.916811E-03 5.892539E+01  9.804173E-01 -2.010600E+01  1.932956E-01 6.973755E+01 
 5.597093E-03 5.964358E+01  1.931501E-01 6.972890E+01  9.802799E-01 -1.994601E+01 
2.173063E+02  9.906839E-01 -5.122711E+01  5.931353E-03 5.888521E+01  5.587892E-03 5.971823E+01 
 5.939882E-03 5.887884E+01  9.803729E-01 -2.016141E+01  1.938115E-01 6.965300E+01 
 5.586977E-03 5.969466E+01  1.936906E-01 6.964470E+01  9.800554E-01 -2.002208E+01 
2.177500E+02  9.905102E-01 -5.136239E+01  5.938649E-03 5.889152E+01  5.600292E-03 5.967897E+01 
 5.942721E-03 5.886158E+01  9.801845E-01 -2.023195E+01  1.942626E-01 6.955718E+01 
 5.596467E-03 5.967734E+01  1.941543E-01 6.953824E+01  9.797415E-01 -2.010498E+01 
2.181937E+02  9.905063E-01 -5.149226E+01  5.958850E-03 5.871073E+01  5.620789E-03 5.967422E+01 
 5.964175E-03 5.869590E+01  9.799084E-01 -2.029439E+01  1.946157E-01 6.948101E+01 
 5.617913E-03 5.964537E+01  1.945406E-01 6.945757E+01  9.794099E-01 -2.017982E+01 
2.186375E+02  9.903181E-01 -5.163032E+01  5.980536E-03 5.856832E+01  5.631588E-03 5.956722E+01 
 5.987026E-03 5.853124E+01  9.796178E-01 -2.035708E+01  1.950351E-01 6.942240E+01 
 5.627663E-03 5.953751E+01  1.949660E-01 6.939194E+01  9.790877E-01 -2.025242E+01 
2.190813E+02  9.897104E-01 -5.174346E+01  5.974974E-03 5.832879E+01  5.648769E-03 5.948559E+01 
 5.979736E-03 5.830733E+01  9.793010E-01 -2.041629E+01  1.954635E-01 6.937342E+01 
 5.647339E-03 5.943638E+01  1.953800E-01 6.932878E+01  9.788022E-01 -2.031568E+01 
2.195250E+02  9.898662E-01 -5.184064E+01  5.961833E-03 5.831952E+01  5.666111E-03 5.912379E+01 
 5.969348E-03 5.829834E+01  9.790278E-01 -2.047059E+01  1.958836E-01 6.932562E+01 
 5.658951E-03 5.913806E+01  1.958186E-01 6.927701E+01  9.784651E-01 -2.037221E+01 
2.199688E+02  9.897245E-01 -5.195443E+01  5.975717E-03 5.831452E+01  5.659382E-03 5.903028E+01 
 5.976794E-03 5.832324E+01  9.787962E-01 -2.051984E+01  1.963133E-01 6.928959E+01 
 5.657255E-03 5.902599E+01  1.962341E-01 6.924200E+01  9.782229E-01 -2.042470E+01 
2.204125E+02  9.899402E-01 -5.205025E+01  6.007857E-03 5.822453E+01  5.675001E-03 5.896617E+01 
 6.010963E-03 5.822176E+01  9.786229E-01 -2.056466E+01  1.967498E-01 6.927486E+01 
 5.666551E-03 5.890361E+01  1.966690E-01 6.922240E+01  9.779474E-01 -2.046337E+01 
2.208562E+02  9.900185E-01 -5.216390E+01  5.984280E-03 5.815816E+01  5.651870E-03 5.879803E+01 
 5.991224E-03 5.815549E+01  9.784585E-01 -2.061412E+01  1.972768E-01 6.925095E+01 
 5.650303E-03 5.874860E+01  1.971549E-01 6.919579E+01  9.778780E-01 -2.049798E+01 
2.213000E+02  9.898458E-01 -5.226507E+01  6.008598E-03 5.815797E+01  5.681264E-03 5.882557E+01 
 6.012681E-03 5.818910E+01  9.782315E-01 -2.066023E+01  1.977490E-01 6.925694E+01 
 5.674433E-03 5.881628E+01  1.976342E-01 6.921054E+01  9.778309E-01 -2.053374E+01 
2.217438E+02  9.901668E-01 -5.234055E+01  6.013306E-03 5.791073E+01  5.663284E-03 5.873788E+01 
 6.017003E-03 5.791054E+01  9.781445E-01 -2.067862E+01  1.984994E-01 6.926180E+01 
 5.664008E-03 5.868676E+01  1.983615E-01 6.922073E+01  9.778456E-01 -2.055149E+01 
2.221875E+02  9.906521E-01 -5.244861E+01  6.009689E-03 5.782063E+01  5.677020E-03 5.880058E+01 
 6.018046E-03 5.781270E+01  9.784500E-01 -2.071636E+01  1.991088E-01 6.922268E+01 
 5.673310E-03 5.878653E+01  1.989597E-01 6.919674E+01  9.782167E-01 -2.058107E+01 
2.226312E+02  9.909484E-01 -5.255306E+01  6.002829E-03 5.783424E+01  5.687885E-03 5.871502E+01 
 6.010051E-03 5.777207E+01  9.785953E-01 -2.075664E+01  1.998119E-01 6.922019E+01 
 5.687612E-03 5.869538E+01  1.996614E-01 6.920566E+01  9.783514E-01 -2.059825E+01 
2.230750E+02  9.911547E-01 -5.266327E+01  6.012254E-03 5.785278E+01  5.690713E-03 5.861789E+01 
 6.024460E-03 5.782329E+01  9.788106E-01 -2.079703E+01  2.004998E-01 6.916715E+01 
 5.688776E-03 5.867519E+01  2.003305E-01 6.916885E+01  9.788913E-01 -2.062342E+01 
2.235188E+02  9.912634E-01 -5.277794E+01  6.029061E-03 5.792402E+01  5.700871E-03 5.862338E+01 
 6.040352E-03 5.789888E+01  9.787585E-01 -2.084136E+01  2.011096E-01 6.918162E+01 
 5.698007E-03 5.859100E+01  2.008936E-01 6.917141E+01  9.788670E-01 -2.065952E+01 
2.239625E+02  9.913777E-01 -5.289633E+01  6.044214E-03 5.785609E+01  5.707762E-03 5.865715E+01 
 6.059675E-03 5.780403E+01  9.788813E-01 -2.086658E+01  2.021209E-01 6.916228E+01 
 5.706693E-03 5.866648E+01  2.018529E-01 6.914960E+01  9.790080E-01 -2.067572E+01 
2.244062E+02  9.914528E-01 -5.301870E+01  6.044944E-03 5.777262E+01  5.704679E-03 5.859606E+01 
 6.060444E-03 5.772396E+01  9.793235E-01 -2.091120E+01  2.028506E-01 6.904131E+01 
 5.705397E-03 5.863464E+01  2.025669E-01 6.902861E+01  9.795779E-01 -2.071038E+01 
2.248500E+02  9.914995E-01 -5.313846E+01  6.054973E-03 5.767106E+01  5.714335E-03 5.867380E+01 
 6.069391E-03 5.764315E+01  9.795124E-01 -2.095977E+01  2.035428E-01 6.897457E+01 
 5.716206E-03 5.862906E+01  2.032526E-01 6.897111E+01  9.799705E-01 -2.075146E+01 
2.252937E+02  9.915982E-01 -5.325817E+01  6.067568E-03 5.761485E+01  5.735444E-03 5.853749E+01 
 6.081230E-03 5.757010E+01  9.797861E-01 -2.100475E+01  2.042654E-01 6.887190E+01 
 5.736482E-03 5.850596E+01  2.039398E-01 6.886542E+01  9.805539E-01 -2.079762E+01 
2.257375E+02  9.915508E-01 -5.338328E+01  6.069889E-03 5.755966E+01  5.751106E-03 5.841138E+01 
 6.085680E-03 5.746832E+01  9.801587E-01 -2.106155E+01  2.049111E-01 6.877973E+01 
 5.751660E-03 5.834556E+01  2.045929E-01 6.878492E+01  9.808776E-01 -2.085331E+01 
2.261813E+02  9.913286E-01 -5.349928E+01  6.070087E-03 5.764917E+01  5.751675E-03 5.821808E+01 
 6.082518E-03 5.753569E+01  9.802318E-01 -2.110978E+01  2.055014E-01 6.869009E+01 
 5.751320E-03 5.817908E+01  2.051762E-01 6.869451E+01  9.808734E-01 -2.089524E+01 
2.266250E+02  9.912296E-01 -5.362620E+01  6.081266E-03 5.761498E+01  5.729808E-03 5.829781E+01 
 6.093362E-03 5.753579E+01  9.797657E-01 -2.116435E+01  2.059076E-01 6.859073E+01 
 5.734583E-03 5.826767E+01  2.056024E-01 6.859066E+01  9.803993E-01 -2.094708E+01 
2.270687E+02  9.907779E-01 -5.375937E+01  6.093689E-03 5.739793E+01  5.733906E-03 5.842803E+01 
 6.105822E-03 5.736097E+01  9.790700E-01 -2.121577E+01  2.062452E-01 6.846052E+01 
 5.734091E-03 5.839634E+01  2.059453E-01 6.845748E+01  9.797333E-01 -2.101158E+01 
2.275125E+02  9.905393E-01 -5.388528E+01  6.095435E-03 5.757868E+01  5.752025E-03 5.822087E+01 
 6.108199E-03 5.754576E+01  9.785808E-01 -2.125208E+01  2.063265E-01 6.839533E+01 
 5.750697E-03 5.821434E+01  2.060209E-01 6.839925E+01  9.791249E-01 -2.106513E+01 
2.279563E+02  9.902105E-01 -5.402899E+01  6.096109E-03 5.737593E+01  5.738516E-03 5.842477E+01 
 6.101960E-03 5.729163E+01  9.781206E-01 -2.131417E+01  2.067174E-01 6.834501E+01 
 5.735440E-03 5.839794E+01  2.064596E-01 6.834825E+01  9.785678E-01 -2.113059E+01 
2.284000E+02  9.895964E-01 -5.412860E+01  6.111253E-03 5.750846E+01  5.742029E-03 5.840037E+01 
 6.122862E-03 5.751273E+01  9.774332E-01 -2.136634E+01  2.069495E-01 6.824601E+01 
 5.738773E-03 5.843255E+01  2.067448E-01 6.824699E+01  9.778858E-01 -2.119116E+01 
2.288438E+02  9.900513E-01 -5.423485E+01  6.148952E-03 5.749439E+01  5.762416E-03 5.838616E+01 
 6.153870E-03 5.746021E+01  9.769497E-01 -2.141322E+01  2.072489E-01 6.822421E+01 
 5.762823E-03 5.839861E+01  2.070719E-01 6.821400E+01  9.774535E-01 -2.125819E+01 
2.292875E+02  9.902111E-01 -5.436750E+01  6.149623E-03 5.706566E+01  5.785226E-03 5.858765E+01 
 6.156282E-03 5.701495E+01  9.765809E-01 -2.145587E+01  2.077041E-01 6.811407E+01 
 5.786763E-03 5.857177E+01  2.075552E-01 6.813143E+01  9.768366E-01 -2.132226E+01 
2.297312E+02  9.902458E-01 -5.447831E+01  6.126905E-03 5.707615E+01  5.816638E-03 5.876460E+01 
 6.136490E-03 5.702318E+01  9.764898E-01 -2.147845E+01  2.076872E-01 6.806526E+01 
 5.816405E-03 5.878757E+01  2.075238E-01 6.811596E+01  9.762660E-01 -2.132661E+01 
2.301750E+02  9.905011E-01 -5.460470E+01  6.159802E-03 5.727654E+01  5.829039E-03 5.818544E+01 
 6.170463E-03 5.721736E+01  9.765251E-01 -2.154372E+01  2.082260E-01 6.812266E+01 
 5.831384E-03 5.822849E+01  2.081117E-01 6.819355E+01  9.767071E-01 -2.136385E+01 
2.306188E+02  9.903596E-01 -5.472571E+01  6.161145E-03 5.716349E+01  5.831141E-03 5.830204E+01 
 6.169794E-03 5.703884E+01  9.758329E-01 -2.159306E+01  2.087873E-01 6.807098E+01 
 5.831986E-03 5.832055E+01  2.086735E-01 6.815877E+01  9.765094E-01 -2.141555E+01 
2.310625E+02  9.907353E-01 -5.482960E+01  6.178976E-03 5.702359E+01  5.856687E-03 5.796502E+01 
 6.185542E-03 5.694896E+01  9.757221E-01 -2.160558E+01  2.093000E-01 6.806408E+01 
 5.856398E-03 5.800020E+01  2.092111E-01 6.816465E+01  9.766491E-01 -2.145612E+01 
2.315062E+02  9.911464E-01 -5.496896E+01  6.187077E-03 5.690509E+01  5.862944E-03 5.782231E+01 
 6.192965E-03 5.680634E+01  9.759616E-01 -2.165971E+01  2.099293E-01 6.800127E+01 
 5.867007E-03 5.787849E+01  2.098638E-01 6.810382E+01  9.764926E-01 -2.151862E+01 
2.319500E+02  9.913189E-01 -5.511287E+01  6.195491E-03 5.682311E+01  5.868591E-03 5.773790E+01 
 6.202466E-03 5.675336E+01  9.759395E-01 -2.170450E+01  2.101981E-01 6.794559E+01 
 5.872630E-03 5.780225E+01  2.101751E-01 6.804801E+01  9.759956E-01 -2.155011E+01 
2.323938E+02  9.914090E-01 -5.525642E+01  6.186497E-03 5.669118E+01  5.869419E-03 5.765211E+01 
 6.191179E-03 5.657540E+01  9.761548E-01 -2.176765E+01  2.107557E-01 6.799416E+01 
 5.874057E-03 5.771081E+01  2.107695E-01 6.809193E+01  9.764418E-01 -2.158118E+01 
2.328375E+02  9.914569E-01 -5.531184E+01  6.213103E-03 5.687514E+01  5.882583E-03 5.751649E+01 
 6.218077E-03 5.685386E+01  9.758570E-01 -2.177889E+01  2.114969E-01 6.807874E+01 
