! Matrix data file written by TouchstoneData, EPCOS AG
! FILENAME: "LY02A_4_WB.s3p_newformat"
! COMMENT: "(LY02A_4_WB.s3p) EPCOS AG 30.07.2009 10:12:1"
! INFO: nport=3, nfreq=1601
! DATE: "Fri Aug  7 16:54:54 2009"
! USER: "Michael Schemies"
!
! port | pin | signal
! -----|-----|--------
!   1  |  2  |  in
!   2  |  4  |  out
!   3  |  6  |  out
! --------------------
! 
# MHZ S MA R 50
! freq  magS11 angS11  magS12 angS12  magS13 angS13  ...
1.000000E+01  9.955622E-01 -1.652912E+00  3.199851E-04 7.841765E+01  2.983202E-04 6.787943E+01 
 3.994744E-04 8.327109E+01  9.978220E-01 -1.628291E+00  1.398250E-02 8.827426E+01 
 3.239112E-04 6.914161E+01  1.385182E-02 8.784267E+01  9.961595E-01 -1.621786E+00 
1.249375E+01  9.969483E-01 -1.429231E+00  4.079028E-04 9.685440E+01  2.487068E-04 9.130848E+01 
 3.925267E-04 9.882621E+01  9.966090E-01 -1.503294E+00  1.750963E-02 8.776795E+01 
 2.057934E-04 1.030258E+02  1.742594E-02 8.814353E+01  9.974100E-01 -1.563222E+00 
1.498750E+01  9.941605E-01 -1.641654E+00  4.958385E-04 8.252990E+01  4.738214E-04 8.868713E+01 
 4.217750E-04 9.314426E+01  9.955124E-01 -1.732733E+00  2.091252E-02 8.810152E+01 
 4.502490E-04 8.322204E+01  2.067275E-02 8.826147E+01  9.951686E-01 -1.705227E+00 
1.748125E+01  9.988089E-01 -1.876885E+00  4.731659E-04 1.032217E+02  3.847639E-04 9.604570E+01 
 6.994218E-04 9.832917E+01  9.975018E-01 -1.975734E+00  2.457331E-02 8.760937E+01 
 4.596911E-04 8.940278E+01  2.450158E-02 8.770875E+01  9.997698E-01 -2.061572E+00 
1.997500E+01  9.980651E-01 -2.358330E+00  5.946256E-04 8.177479E+01  5.898072E-04 8.496719E+01 
 7.156589E-04 8.156683E+01  9.963936E-01 -2.385498E+00  2.799310E-02 8.720911E+01 
 5.415822E-04 9.133590E+01  2.783889E-02 8.752532E+01  9.982986E-01 -2.428423E+00 
2.246875E+01  1.001099E+00 -2.715028E+00  6.695424E-04 8.694000E+01  4.931022E-04 7.863980E+01 
 6.292103E-04 8.603995E+01  9.987261E-01 -2.727404E+00  3.116579E-02 8.722300E+01 
 6.006564E-04 8.966517E+01  3.119316E-02 8.701371E+01  1.001133E+00 -2.877669E+00 
2.496250E+01  1.000336E+00 -2.976727E+00  8.230667E-04 8.222912E+01  5.824787E-04 8.561843E+01 
 7.873704E-04 8.022101E+01  9.982465E-01 -3.048562E+00  3.493798E-02 8.698759E+01 
 6.332845E-04 8.196747E+01  3.479345E-02 8.690979E+01  9.991493E-01 -3.111516E+00 
2.745625E+01  9.990415E-01 -3.237780E+00  8.766358E-04 8.610712E+01  6.481796E-04 7.829561E+01 
 8.576917E-04 8.086658E+01  9.976265E-01 -3.294582E+00  3.837595E-02 8.658212E+01 
 6.370878E-04 7.720122E+01  3.819981E-02 8.659673E+01  9.996075E-01 -3.342861E+00 
2.995000E+01  9.996937E-01 -3.438097E+00  9.100171E-04 8.278141E+01  7.703120E-04 7.895242E+01 
 1.003570E-03 8.354946E+01  9.978379E-01 -3.598214E+00  4.217765E-02 8.588453E+01 
 8.176310E-04 8.763296E+01  4.211398E-02 8.583219E+01  1.000482E+00 -3.671854E+00 
3.244375E+01  9.994905E-01 -3.814614E+00  9.422186E-04 8.679328E+01  8.639908E-04 8.535064E+01 
 1.037818E-03 8.258595E+01  9.973398E-01 -3.982353E+00  4.530618E-02 8.578233E+01 
 9.024617E-04 9.084106E+01  4.519642E-02 8.555932E+01  9.991435E-01 -4.051976E+00 
3.493750E+01  9.983627E-01 -4.049727E+00  1.152230E-03 8.630595E+01  9.741222E-04 8.703082E+01 
 1.174096E-03 9.062958E+01  9.944671E-01 -4.433493E+00  4.839655E-02 8.553019E+01 
 9.821249E-04 8.978494E+01  4.813669E-02 8.560205E+01  9.959742E-01 -4.358940E+00 
3.743125E+01  1.000697E+00 -4.625233E+00  1.123454E-03 8.336286E+01  9.359755E-04 8.836530E+01 
 1.076782E-03 8.528694E+01  9.983640E-01 -4.652295E+00  5.227294E-02 8.507126E+01 
 9.911239E-04 8.406515E+01  5.193123E-02 8.515035E+01  9.978844E-01 -4.680011E+00 
3.992500E+01  9.979892E-01 -4.799949E+00  1.310359E-03 8.705037E+01  1.074212E-03 8.483519E+01 
 1.263013E-03 8.556089E+01  9.972468E-01 -4.953315E+00  5.566318E-02 8.489758E+01 
 9.746192E-04 8.400271E+01  5.530538E-02 8.474838E+01  9.987522E-01 -5.066356E+00 
4.241875E+01  1.001034E+00 -5.177905E+00  1.331802E-03 8.775957E+01  1.079978E-03 8.562729E+01 
 1.336666E-03 8.418504E+01  9.978296E-01 -5.438136E+00  5.942936E-02 8.463949E+01 
 1.117194E-03 8.529536E+01  5.887106E-02 8.444236E+01  9.970954E-01 -5.497650E+00 
4.491250E+01  9.978395E-01 -5.395920E+00  1.463533E-03 7.902232E+01  1.291268E-03 7.363552E+01 
 1.451477E-03 7.794090E+01  9.960714E-01 -5.594728E+00  6.279901E-02 8.411448E+01 
 1.296385E-03 7.433215E+01  6.247788E-02 8.389786E+01  9.968242E-01 -5.669700E+00 
4.740625E+01  9.981284E-01 -5.663182E+00  1.423261E-03 8.161244E+01  1.183230E-03 8.592561E+01 
 1.428901E-03 8.699550E+01  9.949178E-01 -5.876015E+00  6.624156E-02 8.368983E+01 
 1.159584E-03 8.504545E+01  6.596529E-02 8.376015E+01  9.946903E-01 -5.948371E+00 
4.990000E+01  9.977600E-01 -5.722533E+00  1.622905E-03 8.654623E+01  1.354943E-03 8.646470E+01 
 1.623952E-03 8.674071E+01  9.931489E-01 -5.879012E+00  6.930005E-02 8.390871E+01 
 1.371850E-03 8.864559E+01  6.905965E-02 8.398030E+01  9.941619E-01 -5.912130E+00 
5.239375E+01  9.992940E-01 -6.260488E+00  1.661406E-03 8.579636E+01  1.322183E-03 8.649881E+01 
 1.683586E-03 8.562163E+01  9.942707E-01 -6.472898E+00  7.273758E-02 8.315946E+01 
 1.342907E-03 8.662067E+01  7.259554E-02 8.307716E+01  9.953439E-01 -6.560687E+00 
5.488750E+01  9.984422E-01 -6.514293E+00  1.638572E-03 8.574471E+01  1.284468E-03 8.448823E+01 
 1.618569E-03 8.486971E+01  9.935118E-01 -6.666821E+00  7.630164E-02 8.321340E+01 
 1.272749E-03 8.437577E+01  7.610755E-02 8.301284E+01  9.951324E-01 -6.833346E+00 
5.738125E+01  9.983215E-01 -6.856386E+00  1.710638E-03 8.372519E+01  1.475229E-03 8.636089E+01 
 1.722666E-03 8.436768E+01  9.933396E-01 -7.069267E+00  7.991739E-02 8.281226E+01 
 1.468797E-03 8.664011E+01  7.966949E-02 8.266507E+01  9.955608E-01 -7.219408E+00 
5.987500E+01  9.986214E-01 -7.160499E+00  1.891148E-03 8.288903E+01  1.521875E-03 8.503651E+01 
 1.885863E-03 8.376248E+01  9.939863E-01 -7.412258E+00  8.319127E-02 8.251066E+01 
 1.516999E-03 8.503780E+01  8.312028E-02 8.229268E+01  9.953226E-01 -7.466708E+00 
6.236875E+01  9.978632E-01 -7.456983E+00  1.839337E-03 7.730921E+01  1.536848E-03 7.509072E+01 
 1.847256E-03 7.790736E+01  9.920333E-01 -7.685156E+00  8.641306E-02 8.222626E+01 
 1.500674E-03 7.431490E+01  8.645304E-02 8.204855E+01  9.937476E-01 -7.741005E+00 
6.486250E+01  9.982882E-01 -7.725114E+00  1.969223E-03 8.282007E+01  1.562571E-03 8.363732E+01 
 1.970134E-03 8.241495E+01  9.910881E-01 -7.893705E+00  9.013887E-02 8.204730E+01 
 1.543990E-03 8.368781E+01  9.002071E-02 8.181475E+01  9.935027E-01 -8.003339E+00 
6.735625E+01  9.974449E-01 -7.918183E+00  2.018956E-03 8.250733E+01  1.681665E-03 8.471743E+01 
 2.056305E-03 8.222739E+01  9.909356E-01 -8.070603E+00  9.348749E-02 8.190748E+01 
 1.663482E-03 8.503763E+01  9.326691E-02 8.168401E+01  9.925264E-01 -8.257490E+00 
6.985000E+01  9.990685E-01 -8.416615E+00  2.194850E-03 8.245231E+01  1.865366E-03 8.248491E+01 
 2.186538E-03 8.218844E+01  9.913766E-01 -8.648134E+00  9.683408E-02 8.119747E+01 
 1.848192E-03 8.242668E+01  9.641667E-02 8.107071E+01  9.927592E-01 -8.814769E+00 
7.234375E+01  9.995321E-01 -8.605169E+00  2.214269E-03 8.538296E+01  1.782857E-03 8.584518E+01 
 2.167850E-03 8.598343E+01  9.894320E-01 -8.848507E+00  9.989113E-02 8.096016E+01 
 1.768386E-03 8.473389E+01  9.922468E-02 8.065485E+01  9.916592E-01 -8.999999E+00 
7.483750E+01  9.985787E-01 -8.962452E+00  2.239255E-03 7.998731E+01  1.897015E-03 8.061912E+01 
 2.283358E-03 7.994780E+01  9.900814E-01 -9.126779E+00  1.035780E-01 8.075169E+01 
 1.904887E-03 8.119897E+01  1.032268E-01 8.056848E+01  9.924455E-01 -9.345029E+00 
7.733125E+01  9.981167E-01 -9.238740E+00  2.447418E-03 7.863729E+01  2.035680E-03 7.969228E+01 
 2.452228E-03 7.904478E+01  9.901935E-01 -9.412652E+00  1.068616E-01 8.043455E+01 
 2.023645E-03 8.006700E+01  1.065884E-01 8.029397E+01  9.924458E-01 -9.632035E+00 
7.982500E+01  9.975601E-01 -9.544945E+00  2.473602E-03 7.864051E+01  1.915375E-03 7.710154E+01 
 2.458382E-03 7.840798E+01  9.886974E-01 -9.648761E+00  1.105386E-01 7.995141E+01 
 1.914692E-03 7.648780E+01  1.100904E-01 7.987708E+01  9.914794E-01 -9.898762E+00 
8.231875E+01  9.981457E-01 -9.700548E+00  2.517660E-03 8.116757E+01  2.010286E-03 8.247337E+01 
 2.498212E-03 8.191656E+01  9.893280E-01 -9.852289E+00  1.140953E-01 7.991386E+01 
 2.027410E-03 8.247687E+01  1.135403E-01 7.979910E+01  9.914383E-01 -1.011248E+01 
8.481250E+01  9.978951E-01 -1.010965E+01  2.550063E-03 8.062167E+01  2.090713E-03 8.204844E+01 
 2.537397E-03 8.101001E+01  9.886291E-01 -1.030790E+01  1.178456E-01 7.954334E+01 
 2.102377E-03 8.148790E+01  1.171158E-01 7.953297E+01  9.906758E-01 -1.045856E+01 
8.730625E+01  9.986622E-01 -1.045308E+01  2.733325E-03 8.024560E+01  2.240219E-03 8.100079E+01 
 2.717952E-03 8.049862E+01  9.881207E-01 -1.059645E+01  1.207804E-01 7.912499E+01 
 2.243964E-03 8.166812E+01  1.202780E-01 7.917106E+01  9.902324E-01 -1.077102E+01 
8.980000E+01  9.982156E-01 -1.070585E+01  2.673531E-03 8.146198E+01  2.138586E-03 8.186164E+01 
 2.650835E-03 8.158755E+01  9.864895E-01 -1.083127E+01  1.237398E-01 7.867297E+01 
 2.132979E-03 8.284882E+01  1.234358E-01 7.863123E+01  9.890365E-01 -1.099352E+01 
9.229375E+01  9.977394E-01 -1.103949E+01  2.838403E-03 8.102843E+01  2.308646E-03 8.355843E+01 
 2.827678E-03 8.098921E+01  9.874644E-01 -1.115255E+01  1.273280E-01 7.861843E+01 
 2.338950E-03 8.307029E+01  1.273265E-01 7.852194E+01  9.904706E-01 -1.135804E+01 
9.478750E+01  9.977412E-01 -1.128897E+01  3.041058E-03 7.715276E+01  2.471618E-03 7.973002E+01 
 3.038267E-03 7.714946E+01  9.852302E-01 -1.151817E+01  1.300338E-01 7.836949E+01 
 2.460920E-03 8.011476E+01  1.297367E-01 7.834914E+01  9.890517E-01 -1.163457E+01 
9.728125E+01  9.979560E-01 -1.156455E+01  2.988655E-03 7.589895E+01  2.516241E-03 7.665172E+01 
 2.982232E-03 7.609954E+01  9.832019E-01 -1.181028E+01  1.345630E-01 7.813677E+01 
 2.514547E-03 7.616951E+01  1.340077E-01 7.793239E+01  9.872422E-01 -1.201721E+01 
9.977500E+01  9.980146E-01 -1.180284E+01  3.002185E-03 7.971911E+01  2.428761E-03 8.088223E+01 
 2.991875E-03 8.012716E+01  9.853847E-01 -1.209473E+01  1.375899E-01 7.774301E+01 
 2.403442E-03 8.128845E+01  1.372509E-01 7.764138E+01  9.886212E-01 -1.224953E+01 
1.022687E+02  9.977058E-01 -1.210628E+01  3.087035E-03 7.862534E+01  2.531995E-03 8.094477E+01 
 3.083995E-03 7.891320E+01  9.846007E-01 -1.235673E+01  1.406685E-01 7.749329E+01 
 2.535395E-03 8.056214E+01  1.400969E-01 7.744780E+01  9.867143E-01 -1.247571E+01 
1.047625E+02  9.974515E-01 -1.250217E+01  3.181945E-03 8.027474E+01  2.638505E-03 8.174667E+01 
 3.203215E-03 8.026320E+01  9.836059E-01 -1.266197E+01  1.438983E-01 7.720965E+01 
 2.650016E-03 8.242907E+01  1.430682E-01 7.709414E+01  9.852278E-01 -1.276869E+01 
1.072562E+02  9.964368E-01 -1.279503E+01  3.224553E-03 7.811024E+01  2.612904E-03 7.945813E+01 
 3.238217E-03 7.769313E+01  9.825273E-01 -1.295949E+01  1.476037E-01 7.688031E+01 
 2.599418E-03 7.960182E+01  1.469655E-01 7.673268E+01  9.859095E-01 -1.302814E+01 
1.097500E+02  9.979592E-01 -1.306198E+01  3.322783E-03 7.742539E+01  2.595785E-03 8.079073E+01 
 3.335492E-03 7.842304E+01  9.834534E-01 -1.325586E+01  1.506292E-01 7.650278E+01 
 2.589633E-03 8.126397E+01  1.503013E-01 7.635944E+01  9.857080E-01 -1.331376E+01 
1.122438E+02  9.978037E-01 -1.334676E+01  3.488842E-03 7.772424E+01  2.827616E-03 8.113868E+01 
 3.492123E-03 7.789476E+01  9.830531E-01 -1.353254E+01  1.534227E-01 7.624205E+01 
 2.827799E-03 8.197704E+01  1.531006E-01 7.611747E+01  9.842569E-01 -1.360754E+01 
1.147375E+02  9.968683E-01 -1.375557E+01  3.622503E-03 7.762775E+01  2.916146E-03 7.885761E+01 
 3.619909E-03 7.762902E+01  9.817635E-01 -1.403837E+01  1.566002E-01 7.600784E+01 
 2.903434E-03 7.921276E+01  1.562722E-01 7.577296E+01  9.831649E-01 -1.411074E+01 
1.172313E+02  9.967423E-01 -1.393696E+01  3.465620E-03 7.858606E+01  2.784774E-03 8.036776E+01 
 3.445118E-03 7.920450E+01  9.813788E-01 -1.413891E+01  1.606087E-01 7.575299E+01 
 2.794079E-03 8.036054E+01  1.602041E-01 7.560694E+01  9.835323E-01 -1.418952E+01 
1.197250E+02  9.975725E-01 -1.429462E+01  3.602767E-03 7.852477E+01  2.952299E-03 8.027074E+01 
 3.561278E-03 7.860648E+01  9.818166E-01 -1.442185E+01  1.639589E-01 7.546194E+01 
 2.945142E-03 8.086316E+01  1.638126E-01 7.532519E+01  9.828260E-01 -1.442380E+01 
1.222188E+02  9.973189E-01 -1.461966E+01  3.644416E-03 7.882496E+01  2.993069E-03 8.038743E+01 
 3.683457E-03 7.921635E+01  9.803001E-01 -1.476604E+01  1.669478E-01 7.511730E+01 
 2.986481E-03 8.100972E+01  1.668841E-01 7.500933E+01  9.822457E-01 -1.475598E+01 
1.247125E+02  9.971241E-01 -1.486534E+01  3.846080E-03 7.795288E+01  3.135624E-03 7.969948E+01 
 3.839891E-03 7.778941E+01  9.782543E-01 -1.499402E+01  1.700374E-01 7.491370E+01 
 3.119357E-03 8.010049E+01  1.699107E-01 7.479163E+01  9.812348E-01 -1.506987E+01 
1.272062E+02  9.973345E-01 -1.513478E+01  3.728670E-03 7.546859E+01  2.898486E-03 7.548451E+01 
 3.719645E-03 7.567131E+01  9.787582E-01 -1.526467E+01  1.740090E-01 7.459340E+01 
 2.882053E-03 7.541608E+01  1.737373E-01 7.452672E+01  9.808079E-01 -1.532070E+01 
1.297000E+02  9.974304E-01 -1.557772E+01  3.813009E-03 7.727598E+01  3.160545E-03 8.025217E+01 
 3.843887E-03 7.703752E+01  9.789647E-01 -1.567001E+01  1.769107E-01 7.400665E+01 
 3.172086E-03 8.002840E+01  1.764206E-01 7.411175E+01  9.807767E-01 -1.554152E+01 
1.321937E+02  9.961456E-01 -1.579274E+01  4.052512E-03 7.809940E+01  3.206892E-03 7.880592E+01 
 3.994101E-03 7.789540E+01  9.782492E-01 -1.594144E+01  1.798551E-01 7.380415E+01 
 3.211616E-03 7.845836E+01  1.789994E-01 7.368633E+01  9.800059E-01 -1.592581E+01 
1.346875E+02  9.969438E-01 -1.596139E+01  3.977532E-03 7.857346E+01  3.255164E-03 8.025682E+01 
 3.941237E-03 7.861473E+01  9.780860E-01 -1.599038E+01  1.836524E-01 7.382826E+01 
 3.257253E-03 8.047692E+01  1.828437E-01 7.373949E+01  9.797252E-01 -1.606852E+01 
1.371813E+02  9.963289E-01 -1.631083E+01  4.114522E-03 7.705812E+01  3.327565E-03 7.898668E+01 
 4.066650E-03 7.698535E+01  9.762076E-01 -1.640606E+01  1.867909E-01 7.352548E+01 
 3.328861E-03 7.882111E+01  1.860519E-01 7.342643E+01  9.780837E-01 -1.644970E+01 
1.396750E+02  9.960179E-01 -1.657644E+01  4.135777E-03 7.675571E+01  3.428970E-03 7.848629E+01 
 4.166115E-03 7.701336E+01  9.761054E-01 -1.675214E+01  1.899549E-01 7.309261E+01 
 3.463460E-03 7.975483E+01  1.893586E-01 7.305440E+01  9.776676E-01 -1.677216E+01 
1.421687E+02  9.956617E-01 -1.684156E+01  4.211133E-03 7.738444E+01  3.454071E-03 7.967824E+01 
 4.237851E-03 7.716174E+01  9.749972E-01 -1.697809E+01  1.927789E-01 7.285776E+01 
 3.448708E-03 8.000004E+01  1.921052E-01 7.273983E+01  9.766287E-01 -1.702632E+01 
1.446625E+02  9.960576E-01 -1.716541E+01  4.290372E-03 7.368928E+01  3.395362E-03 7.505147E+01 
 4.267687E-03 7.368076E+01  9.744793E-01 -1.726621E+01  1.964640E-01 7.267619E+01 
 3.405251E-03 7.499859E+01  1.956303E-01 7.254337E+01  9.760430E-01 -1.726350E+01 
1.471562E+02  9.968292E-01 -1.740041E+01  4.321493E-03 7.577337E+01  3.561807E-03 7.690686E+01 
 4.332353E-03 7.593284E+01  9.740303E-01 -1.753755E+01  1.997168E-01 7.230816E+01 
 3.530295E-03 7.754693E+01  1.987763E-01 7.227538E+01  9.759939E-01 -1.753519E+01 
1.496500E+02  9.968181E-01 -1.773802E+01  4.466427E-03 7.645967E+01  3.633963E-03 7.850290E+01 
 4.495380E-03 7.677874E+01  9.727244E-01 -1.789174E+01  2.024705E-01 7.172769E+01 
 3.652400E-03 7.857551E+01  2.016395E-01 7.159825E+01  9.752349E-01 -1.790115E+01 
1.521438E+02  9.968038E-01 -1.796531E+01  4.416202E-03 7.561143E+01  3.712643E-03 7.790656E+01 
 4.463589E-03 7.549759E+01  9.725064E-01 -1.816192E+01  2.057530E-01 7.163027E+01 
 3.682468E-03 7.817884E+01  2.048002E-01 7.143676E+01  9.748975E-01 -1.816377E+01 
1.546375E+02  9.962946E-01 -1.826053E+01  4.505105E-03 7.553070E+01  3.655071E-03 7.750064E+01 
 4.476763E-03 7.562870E+01  9.715294E-01 -1.845542E+01  2.082895E-01 7.153147E+01 
 3.649318E-03 7.809932E+01  2.077482E-01 7.145855E+01  9.736287E-01 -1.842890E+01 
1.571312E+02  9.961241E-01 -1.854323E+01  4.714503E-03 7.440764E+01  3.879566E-03 7.638467E+01 
 4.721798E-03 7.448492E+01  9.717652E-01 -1.872183E+01  2.119943E-01 7.123542E+01 
 3.823784E-03 7.592024E+01  2.115982E-01 7.119588E+01  9.725548E-01 -1.868417E+01 
1.596250E+02  9.963232E-01 -1.883831E+01  4.413292E-03 7.470072E+01  3.667766E-03 7.840092E+01 
 4.458206E-03 7.457051E+01  9.707811E-01 -1.899438E+01  2.154913E-01 7.082394E+01 
 3.666460E-03 7.821867E+01  2.147662E-01 7.081469E+01  9.720235E-01 -1.896239E+01 
1.621188E+02  9.984097E-01 -1.896298E+01  4.771460E-03 7.484854E+01  3.959609E-03 7.693033E+01 
 4.784328E-03 7.493362E+01  9.732605E-01 -1.911255E+01  2.191116E-01 7.069790E+01 
 3.945597E-03 7.750202E+01  2.183556E-01 7.060570E+01  9.726924E-01 -1.917717E+01 
1.646125E+02  9.965929E-01 -1.943482E+01  4.883331E-03 7.408430E+01  4.028028E-03 7.609853E+01 
 4.867715E-03 7.389571E+01  9.717399E-01 -1.962748E+01  2.221278E-01 7.033036E+01 
 4.005967E-03 7.614424E+01  2.212218E-01 7.025197E+01  9.702797E-01 -1.954426E+01 
1.671062E+02  9.961221E-01 -1.970613E+01  4.867070E-03 7.457910E+01  3.961855E-03 7.745040E+01 
 4.865583E-03 7.463719E+01  9.680286E-01 -1.993752E+01  2.253795E-01 6.994570E+01 
 3.952914E-03 7.749075E+01  2.249131E-01 6.990903E+01  9.695467E-01 -1.983392E+01 
1.696000E+02  9.959022E-01 -1.994450E+01  4.952434E-03 7.500803E+01  4.115247E-03 7.750453E+01 
 4.966599E-03 7.507677E+01  9.676376E-01 -2.017536E+01  2.286212E-01 6.965685E+01 
 4.080402E-03 7.755203E+01  2.280441E-01 6.962220E+01  9.687441E-01 -2.005722E+01 
1.720938E+02  9.969253E-01 -2.023532E+01  5.013316E-03 7.562387E+01  4.118014E-03 7.677349E+01 
 5.019260E-03 7.546519E+01  9.667884E-01 -2.044442E+01  2.310458E-01 6.928228E+01 
 4.101128E-03 7.758039E+01  2.299210E-01 6.924705E+01  9.685941E-01 -2.035471E+01 
1.745875E+02  9.957496E-01 -2.048914E+01  5.230216E-03 7.369125E+01  4.256534E-03 7.645204E+01 
 5.244138E-03 7.374208E+01  9.665905E-01 -2.077817E+01  2.342496E-01 6.905051E+01 
 4.261034E-03 7.620419E+01  2.334502E-01 6.906068E+01  9.669892E-01 -2.062748E+01 
1.770813E+02  9.950156E-01 -2.075668E+01  4.985566E-03 7.100272E+01  4.018173E-03 7.468115E+01 
 4.977178E-03 7.070685E+01  9.654423E-01 -2.106056E+01  2.374870E-01 6.878529E+01 
 4.029458E-03 7.442142E+01  2.371237E-01 6.877090E+01  9.660167E-01 -2.096082E+01 
1.795750E+02  9.960815E-01 -2.099210E+01  5.164690E-03 7.295895E+01  4.205549E-03 7.593040E+01 
 5.146530E-03 7.297417E+01  9.650230E-01 -2.133860E+01  2.409793E-01 6.847711E+01 
 4.194581E-03 7.595005E+01  2.403391E-01 6.850493E+01  9.665763E-01 -2.121640E+01 
1.820687E+02  9.962199E-01 -2.127671E+01  5.293665E-03 7.418698E+01  4.368847E-03 7.660151E+01 
 5.300100E-03 7.391263E+01  9.643630E-01 -2.163214E+01  2.441217E-01 6.816276E+01 
 4.355515E-03 7.659379E+01  2.433160E-01 6.820163E+01  9.657423E-01 -2.144700E+01 
1.845625E+02  9.963211E-01 -2.165688E+01  5.373207E-03 7.356540E+01  4.381444E-03 7.671998E+01 
 5.354929E-03 7.374374E+01  9.629082E-01 -2.199749E+01  2.471844E-01 6.783668E+01 
 4.401069E-03 7.663424E+01  2.463368E-01 6.782468E+01  9.645932E-01 -2.175895E+01 
1.870563E+02  9.959908E-01 -2.186674E+01  5.481362E-03 7.271682E+01  4.505084E-03 7.582990E+01 
 5.434040E-03 7.281863E+01  9.610521E-01 -2.223555E+01  2.505186E-01 6.768053E+01 
 4.509124E-03 7.586137E+01  2.494340E-01 6.761820E+01  9.632560E-01 -2.199586E+01 
1.895500E+02  9.963958E-01 -2.213244E+01  5.497875E-03 7.377377E+01  4.465477E-03 7.537787E+01 
 5.529493E-03 7.392160E+01  9.605709E-01 -2.244372E+01  2.534259E-01 6.726999E+01 
 4.470628E-03 7.569627E+01  2.525096E-01 6.722894E+01  9.629517E-01 -2.227813E+01 
1.920437E+02  9.964538E-01 -2.237985E+01  5.621147E-03 7.263819E+01  4.602276E-03 7.566861E+01 
 5.640845E-03 7.271634E+01  9.603685E-01 -2.273483E+01  2.563245E-01 6.690791E+01 
 4.600977E-03 7.566285E+01  2.560302E-01 6.688371E+01  9.618163E-01 -2.258789E+01 
1.945375E+02  9.936634E-01 -2.267694E+01  5.573161E-03 6.874413E+01  4.559106E-03 7.079495E+01 
