! Matrix data file written by TouchstoneData, EPCOS AG
! FILENAME: "B3908.WB.s2p_newformat"
! COMMENT: "(B3908.WB.s2p)"
! INFO: nport=2, nfreq=1601
! DATE: "Thu Apr 29 09:37:00 2010"
! USER: "Michael Schemies"
!
! port | pin | signal
! -----|-----|--------
!   1  |  2  |  in
!   2  |  5  |  out
! --------------------
! 
# MHZ S MA R 50
! freq  magS11 angS11  magS21 angS21  magS12 angS12  magS22 angS22
1.000000E+01  9.906241E-01 -2.055359E+00  1.118337E-05 1.746659E+02  1.648385E-05 -1.798012E+02  9.866815E-01 -1.797901E+00 
1.374375E+01  9.987665E-01 -1.859469E+00  3.510607E-05 8.228733E+01  4.538624E-05 6.839773E+01  9.974704E-01 -1.707873E+00 
1.748750E+01  9.973187E-01 -2.185469E+00  5.166313E-05 1.500368E+02  3.867269E-05 1.524848E+02  9.974558E-01 -1.987361E+00 
2.123125E+01  9.987665E-01 -1.859469E+00  3.510607E-05 8.228733E+01  4.538624E-05 6.839773E+01  9.974704E-01 -1.707873E+00 
2.497500E+01  9.973187E-01 -2.185469E+00  5.166313E-05 1.500368E+02  3.867269E-05 1.524848E+02  9.974558E-01 -1.987361E+00 
2.871875E+01  9.987665E-01 -1.859469E+00  3.510607E-05 8.228733E+01  4.538624E-05 6.839773E+01  9.974704E-01 -1.707873E+00 
3.246250E+01  9.973187E-01 -2.185469E+00  5.166313E-05 1.500368E+02  3.867269E-05 1.524848E+02  9.974558E-01 -1.987361E+00 
3.620625E+01  9.987665E-01 -1.859469E+00  3.510607E-05 8.228733E+01  4.538624E-05 6.839773E+01  9.974704E-01 -1.707873E+00 
3.995000E+01  9.973187E-01 -2.185469E+00  5.166313E-05 1.500368E+02  3.867269E-05 1.524848E+02  9.974558E-01 -1.987361E+00 
4.369375E+01  9.987665E-01 -1.859469E+00  3.510607E-05 8.228733E+01  4.538624E-05 6.839773E+01  9.974704E-01 -1.707873E+00 
4.743750E+01  9.973187E-01 -2.185469E+00  5.166313E-05 1.500368E+02  3.867269E-05 1.524848E+02  9.974558E-01 -1.987361E+00 
5.118125E+01  9.987665E-01 -1.859469E+00  3.510607E-05 8.228733E+01  4.538624E-05 6.839773E+01  9.974704E-01 -1.707873E+00 
5.492500E+01  9.973187E-01 -2.185469E+00  5.166313E-05 1.500368E+02  3.867269E-05 1.524848E+02  9.974558E-01 -1.987361E+00 
5.866875E+01  9.987665E-01 -1.859469E+00  3.510607E-05 8.228733E+01  4.538624E-05 6.839773E+01  9.974704E-01 -1.707873E+00 
6.241250E+01  9.973187E-01 -2.185469E+00  5.166313E-05 1.500368E+02  3.867269E-05 1.524848E+02  9.974558E-01 -1.987361E+00 
6.615625E+01  9.987665E-01 -1.859469E+00  3.510607E-05 8.228733E+01  4.538624E-05 6.839773E+01  9.974704E-01 -1.707873E+00 
6.990000E+01  9.973187E-01 -2.185469E+00  5.166313E-05 1.500368E+02  3.867269E-05 1.524848E+02  9.974558E-01 -1.987361E+00 
7.364375E+01  9.987665E-01 -1.859469E+00  3.510607E-05 8.228733E+01  4.538624E-05 6.839773E+01  9.974704E-01 -1.707873E+00 
7.738750E+01  9.973187E-01 -2.185469E+00  5.166313E-05 1.500368E+02  3.867269E-05 1.524848E+02  9.974558E-01 -1.987361E+00 
8.113125E+01  9.987665E-01 -1.859469E+00  3.510607E-05 8.228733E+01  4.538624E-05 6.839773E+01  9.974704E-01 -1.707873E+00 
8.487500E+01  9.973187E-01 -2.185469E+00  5.166313E-05 1.500368E+02  3.867269E-05 1.524848E+02  9.974558E-01 -1.987361E+00 
8.861875E+01  9.987665E-01 -1.859469E+00  3.510607E-05 8.228733E+01  4.538624E-05 6.839773E+01  9.974704E-01 -1.707873E+00 
9.236250E+01  9.973187E-01 -2.185469E+00  5.166313E-05 1.500368E+02  3.867269E-05 1.524848E+02  9.974558E-01 -1.987361E+00 
9.610625E+01  9.987665E-01 -1.859469E+00  3.510607E-05 8.228733E+01  4.538624E-05 6.839773E+01  9.974704E-01 -1.707873E+00 
9.985000E+01  9.973187E-01 -2.185469E+00  5.166313E-05 1.500368E+02  3.867269E-05 1.524848E+02  9.974558E-01 -1.987361E+00 
1.035938E+02  9.987665E-01 -1.859469E+00  3.510607E-05 8.228733E+01  4.538624E-05 6.839773E+01  9.974704E-01 -1.707873E+00 
1.073375E+02  9.973187E-01 -2.185469E+00  5.166313E-05 1.500368E+02  3.867269E-05 1.524848E+02  9.974558E-01 -1.987361E+00 
1.110812E+02  9.987665E-01 -1.859469E+00  3.510607E-05 8.228733E+01  4.538624E-05 6.839773E+01  9.974704E-01 -1.707873E+00 
1.148250E+02  9.973187E-01 -2.185469E+00  5.166313E-05 1.500368E+02  3.867269E-05 1.524848E+02  9.974558E-01 -1.987361E+00 
1.185687E+02  9.998872E-01 -1.718086E+01  2.005110E-04 6.196552E+01  1.955441E-04 6.400527E+01  9.994069E-01 -1.649837E+01 
1.223125E+02  9.987665E-01 -1.859469E+00  3.510607E-05 8.228733E+01  4.538624E-05 6.839773E+01  9.974704E-01 -1.707873E+00 
1.260563E+02  9.973187E-01 -2.185469E+00  5.166313E-05 1.500368E+02  3.867269E-05 1.524848E+02  9.974558E-01 -1.987361E+00 
1.298000E+02  9.987665E-01 -1.859469E+00  3.510607E-05 8.228733E+01  4.538624E-05 6.839773E+01  9.974704E-01 -1.707873E+00 
1.335437E+02  9.973187E-01 -2.185469E+00  5.166313E-05 1.500368E+02  3.867269E-05 1.524848E+02  9.974558E-01 -1.987361E+00 
1.372875E+02  9.987665E-01 -1.859469E+00  3.510607E-05 8.228733E+01  4.538624E-05 6.839773E+01  9.974704E-01 -1.707873E+00 
1.410312E+02  9.973187E-01 -2.185469E+00  5.166313E-05 1.500368E+02  3.867269E-05 1.524848E+02  9.974558E-01 -1.987361E+00 
1.447750E+02  9.987665E-01 -1.859469E+00  3.510607E-05 8.228733E+01  4.538624E-05 6.839773E+01  9.974704E-01 -1.707873E+00 
1.485188E+02  9.973187E-01 -2.185469E+00  5.166313E-05 1.500368E+02  3.867269E-05 1.524848E+02  9.974558E-01 -1.987361E+00 
1.522625E+02  9.987665E-01 -1.859469E+00  3.510607E-05 8.228733E+01  4.538624E-05 6.839773E+01  9.974704E-01 -1.707873E+00 
1.560062E+02  9.973187E-01 -2.185469E+00  5.166313E-05 1.500368E+02  3.867269E-05 1.524848E+02  9.974558E-01 -1.987361E+00 
1.597500E+02  9.987665E-01 -1.859469E+00  3.510607E-05 8.228733E+01  4.538624E-05 6.839773E+01  9.974704E-01 -1.707873E+00 
1.634938E+02  9.973187E-01 -2.185469E+00  5.166313E-05 1.500368E+02  3.867269E-05 1.524848E+02  9.974558E-01 -1.987361E+00 
1.672375E+02  9.987665E-01 -1.859469E+00  3.510607E-05 8.228733E+01  4.538624E-05 6.839773E+01  9.974704E-01 -1.707873E+00 
1.709812E+02  9.973187E-01 -2.185469E+00  5.166313E-05 1.500368E+02  3.867269E-05 1.524848E+02  9.974558E-01 -1.987361E+00 
1.747250E+02  9.987665E-01 -1.859469E+00  3.510607E-05 8.228733E+01  4.538624E-05 6.839773E+01  9.974704E-01 -1.707873E+00 
1.784688E+02  9.993378E-01 -2.534914E+01  2.015479E-04 6.407010E+01  2.128914E-04 6.563545E+01  9.971102E-01 -2.463809E+01 
1.822125E+02  9.987665E-01 -1.859469E+00  3.510607E-05 8.228733E+01  4.538624E-05 6.839773E+01  9.974704E-01 -1.707873E+00 
1.859563E+02  9.973187E-01 -2.185469E+00  5.166313E-05 1.500368E+02  3.867269E-05 1.524848E+02  9.974558E-01 -1.987361E+00 
1.897000E+02  9.987665E-01 -1.859469E+00  3.510607E-05 8.228733E+01  4.538624E-05 6.839773E+01  9.974704E-01 -1.707873E+00 
1.934437E+02  9.973187E-01 -2.185469E+00  5.166313E-05 1.500368E+02  3.867269E-05 1.524848E+02  9.974558E-01 -1.987361E+00 
1.971875E+02  9.987665E-01 -1.859469E+00  3.510607E-05 8.228733E+01  4.538624E-05 6.839773E+01  9.974704E-01 -1.707873E+00 
2.009313E+02  9.973187E-01 -2.185469E+00  5.166313E-05 1.500368E+02  3.867269E-05 1.524848E+02  9.974558E-01 -1.987361E+00 
2.046750E+02  9.987665E-01 -1.859469E+00  3.510607E-05 8.228733E+01  4.538624E-05 6.839773E+01  9.974704E-01 -1.707873E+00 
2.084187E+02  9.973187E-01 -2.185469E+00  5.166313E-05 1.500368E+02  3.867269E-05 1.524848E+02  9.974558E-01 -1.987361E+00 
2.121625E+02  9.987665E-01 -1.859469E+00  3.510607E-05 8.228733E+01  4.538624E-05 6.839773E+01  9.974704E-01 -1.707873E+00 
2.159062E+02  9.973187E-01 -2.185469E+00  5.166313E-05 1.500368E+02  3.867269E-05 1.524848E+02  9.974558E-01 -1.987361E+00 
2.196500E+02  9.987665E-01 -1.859469E+00  3.510607E-05 8.228733E+01  4.538624E-05 6.839773E+01  9.974704E-01 -1.707873E+00 
2.233938E+02  9.995750E-01 -3.184731E+01  3.733349E-04 5.176540E+01  3.670273E-04 5.180945E+01  9.955936E-01 -3.085447E+01 
2.271375E+02  9.987665E-01 -1.859469E+00  3.510607E-05 8.228733E+01  4.538624E-05 6.839773E+01  9.974704E-01 -1.707873E+00 
2.308812E+02  9.973187E-01 -2.185469E+00  5.166313E-05 1.500368E+02  3.867269E-05 1.524848E+02  9.974558E-01 -1.987361E+00 
2.346250E+02  9.987665E-01 -1.859469E+00  3.510607E-05 8.228733E+01  4.538624E-05 6.839773E+01  9.974704E-01 -1.707873E+00 
2.383688E+02  9.973187E-01 -2.185469E+00  5.166313E-05 1.500368E+02  3.867269E-05 1.524848E+02  9.974558E-01 -1.987361E+00 
2.421125E+02  9.996269E-01 -3.456460E+01  3.277223E-04 5.763238E+01  3.282679E-04 5.817007E+01  9.967169E-01 -3.347015E+01 
2.458562E+02  9.987665E-01 -1.859469E+00  3.510607E-05 8.228733E+01  4.538624E-05 6.839773E+01  9.974704E-01 -1.707873E+00 
2.496000E+02  9.973187E-01 -2.185469E+00  5.166313E-05 1.500368E+02  3.867269E-05 1.524848E+02  9.974558E-01 -1.987361E+00 
2.533438E+02  9.987665E-01 -1.859469E+00  3.510607E-05 8.228733E+01  4.538624E-05 6.839773E+01  9.974704E-01 -1.707873E+00 
2.570875E+02  9.973187E-01 -2.185469E+00  5.166313E-05 1.500368E+02  3.867269E-05 1.524848E+02  9.974558E-01 -1.987361E+00 
2.608313E+02  9.997625E-01 -3.697320E+01  3.026340E-04 5.329163E+01  2.952747E-04 5.108768E+01  9.963106E-01 -3.590675E+01 
2.645750E+02  9.999062E-01 -3.750401E+01  3.265260E-04 5.589529E+01  3.358885E-04 5.461361E+01  9.962838E-01 -3.645368E+01 
2.683188E+02  9.990715E-01 -3.801106E+01  3.410972E-04 5.197808E+01  3.411639E-04 5.332546E+01  9.954529E-01 -3.699162E+01 
2.720625E+02  9.993566E-01 -3.849679E+01  3.324804E-04 5.593887E+01  3.310407E-04 5.571792E+01  9.955870E-01 -3.744411E+01 
2.758062E+02  9.990616E-01 -3.902660E+01  3.349236E-04 5.359569E+01  3.389514E-04 5.351865E+01  9.953705E-01 -3.798060E+01 
2.795500E+02  9.989939E-01 -3.949296E+01  3.569645E-04 4.914298E+01  3.413079E-04 4.920590E+01  9.953042E-01 -3.842930E+01 
2.832937E+02  9.987509E-01 -4.003803E+01  3.130317E-04 5.061292E+01  3.187627E-04 5.087451E+01  9.953508E-01 -3.897540E+01 
2.870375E+02  9.981687E-01 -4.052115E+01  3.426991E-04 4.756689E+01  3.314597E-04 4.835919E+01  9.949117E-01 -3.942914E+01 
2.907812E+02  9.984899E-01 -4.101236E+01  3.415180E-04 5.270426E+01  3.328775E-04 5.073935E+01  9.950106E-01 -3.995509E+01 
2.945250E+02  9.973551E-01 -4.160263E+01  3.328082E-04 5.180476E+01  3.412034E-04 5.227015E+01  9.941994E-01 -4.050326E+01 
2.982688E+02  9.976778E-01 -4.212024E+01  3.391044E-04 5.158582E+01  3.350554E-04 5.006488E+01  9.947962E-01 -4.101928E+01 
3.020125E+02  9.976988E-01 -4.266419E+01  3.457730E-04 4.825059E+01  3.486312E-04 5.079530E+01  9.946430E-01 -4.152499E+01 
3.057563E+02  9.972507E-01 -4.311724E+01  3.447841E-04 4.489334E+01  3.421074E-04 4.768310E+01  9.940704E-01 -4.192498E+01 
3.095000E+02  9.969815E-01 -4.374818E+01  3.784272E-04 4.485446E+01  3.730083E-04 4.503968E+01  9.937147E-01 -4.258314E+01 
3.132437E+02  9.962677E-01 -4.423139E+01  3.156320E-04 4.230691E+01  3.222739E-04 4.219684E+01  9.926809E-01 -4.302483E+01 
3.169875E+02  9.965422E-01 -4.474744E+01  3.139559E-04 4.110906E+01  3.092749E-04 4.048395E+01  9.927689E-01 -4.352749E+01 
3.207312E+02  9.959312E-01 -4.523081E+01  3.183333E-04 4.251727E+01  3.128131E-04 4.211211E+01  9.921799E-01 -4.401397E+01 
3.244750E+02  9.962934E-01 -4.575934E+01  3.274572E-04 4.891806E+01  3.157744E-04 4.935715E+01  9.925357E-01 -4.448292E+01 
3.282188E+02  9.959025E-01 -4.629785E+01  3.376492E-04 4.871945E+01  3.386148E-04 4.819229E+01  9.922507E-01 -4.500505E+01 
3.319625E+02  9.962058E-01 -4.674961E+01  3.327665E-04 4.325660E+01  3.300873E-04 4.303333E+01  9.922400E-01 -4.544117E+01 
3.357063E+02  9.964995E-01 -4.730674E+01  3.251578E-04 4.351047E+01  3.250583E-04 4.384684E+01  9.924877E-01 -4.597496E+01 
3.394500E+02  9.963570E-01 -4.786674E+01  3.020515E-04 4.047924E+01  3.087491E-04 4.017987E+01  9.919042E-01 -4.650895E+01 
3.431938E+02  9.969160E-01 -4.839863E+01  3.073964E-04 4.389172E+01  3.054725E-04 4.299111E+01  9.923668E-01 -4.702400E+01 
3.469375E+02  9.967215E-01 -4.896308E+01  3.146063E-04 4.891437E+01  3.117435E-04 4.820626E+01  9.917515E-01 -4.757215E+01 
3.506812E+02  9.963128E-01 -4.943553E+01  3.382673E-04 5.085369E+01  3.354648E-04 5.005200E+01  9.916043E-01 -4.804429E+01 
3.544250E+02  9.961429E-01 -4.997346E+01  3.548146E-04 4.494389E+01  3.548020E-04 4.381953E+01  9.911581E-01 -4.858546E+01 
3.581687E+02  9.954606E-01 -5.040415E+01  3.672356E-04 4.303956E+01  3.679638E-04 4.264513E+01  9.906297E-01 -4.901676E+01 
3.619125E+02  9.957375E-01 -5.094447E+01  3.636590E-04 4.322492E+01  3.651015E-04 4.150824E+01  9.908399E-01 -4.956327E+01 
3.656562E+02  9.950112E-01 -5.143078E+01  3.384765E-04 3.716057E+01  3.413501E-04 3.770949E+01  9.897821E-01 -5.005082E+01 
3.694000E+02  9.945140E-01 -5.196857E+01  3.206554E-04 3.364010E+01  3.158280E-04 3.367311E+01  9.892121E-01 -5.052088E+01 
3.731438E+02  9.953326E-01 -5.240192E+01  2.840436E-04 2.745088E+01  2.835783E-04 2.659963E+01  9.903810E-01 -5.100972E+01 
3.768875E+02  9.957317E-01 -5.285175E+01  2.713951E-04 3.344047E+01  2.716579E-04 3.366916E+01  9.904708E-01 -5.146707E+01 
3.806313E+02  9.960463E-01 -5.341610E+01  2.845767E-04 3.607974E+01  2.772215E-04 3.713136E+01  9.905375E-01 -5.208717E+01 
3.843750E+02  9.953878E-01 -5.387739E+01  3.016439E-04 3.965741E+01  2.984401E-04 3.988473E+01  9.898735E-01 -5.251209E+01 
3.881187E+02  9.956894E-01 -5.443026E+01  2.863067E-04 3.918330E+01  2.839215E-04 3.940883E+01  9.893581E-01 -5.298210E+01 
3.918625E+02  9.935609E-01 -5.494216E+01  2.838740E-04 3.871657E+01  2.838180E-04 3.985175E+01  9.890880E-01 -5.347327E+01 
3.956062E+02  9.929880E-01 -5.537627E+01  2.748277E-04 3.927619E+01  2.626062E-04 4.193106E+01  9.894308E-01 -5.389763E+01 
3.993500E+02  9.945790E-01 -5.593636E+01  2.989153E-04 4.040893E+01  2.907791E-04 4.073516E+01  9.904432E-01 -5.456723E+01 
4.030938E+02  9.935691E-01 -5.647703E+01  2.883287E-04 4.105422E+01  2.914378E-04 3.981191E+01  9.893885E-01 -5.500142E+01 
4.068375E+02  9.938379E-01 -5.695946E+01  3.081526E-04 4.309872E+01  3.108367E-04 4.451812E+01  9.895665E-01 -5.550541E+01 
4.105813E+02  9.947389E-01 -5.768909E+01  3.085612E-04 4.046447E+01  3.009788E-04 4.023801E+01  9.904142E-01 -5.621343E+01 
4.143250E+02  9.921897E-01 -5.799860E+01  2.964706E-04 3.863803E+01  3.031011E-04 3.919072E+01  9.882410E-01 -5.646483E+01 
4.180688E+02  9.903486E-01 -5.848349E+01  3.377298E-04 3.535346E+01  3.263371E-04 3.339185E+01  9.863204E-01 -5.693352E+01 
4.218125E+02  9.915079E-01 -5.899305E+01  3.050907E-04 2.708653E+01  3.051527E-04 2.757795E+01  9.870851E-01 -5.739494E+01 
4.255562E+02  9.917726E-01 -5.951754E+01  2.677258E-04 2.260430E+01  2.650823E-04 2.236903E+01  9.872417E-01 -5.788116E+01 
4.293000E+02  9.914103E-01 -6.000393E+01  2.524877E-04 2.195186E+01  2.473947E-04 2.224529E+01  9.869977E-01 -5.831368E+01 
4.330437E+02  9.918482E-01 -6.055080E+01  2.299863E-04 3.168796E+01  2.295321E-04 3.325232E+01  9.874757E-01 -5.879936E+01 
4.367875E+02  9.914703E-01 -6.107468E+01  2.356006E-04 3.391975E+01  2.253653E-04 3.428588E+01  9.867127E-01 -5.927838E+01 
4.405312E+02  9.930518E-01 -6.124986E+01  2.411499E-04 3.414087E+01  2.504016E-04 3.423148E+01  9.883181E-01 -5.944640E+01 
4.442750E+02  9.918022E-01 -6.215736E+01  2.357046E-04 3.157640E+01  2.355105E-04 3.251233E+01  9.869694E-01 -6.031666E+01 
4.480188E+02  9.917582E-01 -6.272515E+01  2.315451E-04 2.782027E+01  2.279590E-04 2.762262E+01  9.873888E-01 -6.082275E+01 
4.517625E+02  9.907025E-01 -6.324114E+01  2.230605E-04 2.649488E+01  2.233080E-04 2.721554E+01  9.859368E-01 -6.136162E+01 
4.555063E+02  9.900454E-01 -6.372743E+01  2.265722E-04 2.632163E+01  2.194122E-04 2.613497E+01  9.849463E-01 -6.182244E+01 
4.592500E+02  9.900501E-01 -6.423013E+01  2.044297E-04 3.386756E+01  2.126767E-04 3.293610E+01  9.844946E-01 -6.230457E+01 
4.629937E+02  9.895795E-01 -6.475979E+01  1.960137E-04 3.758009E+01  1.923204E-04 3.835529E+01  9.839562E-01 -6.283005E+01 
4.667375E+02  9.896224E-01 -6.513945E+01  2.255896E-04 4.082067E+01  2.213160E-04 4.057724E+01  9.845025E-01 -6.318145E+01 
4.704812E+02  9.895843E-01 -6.571936E+01  2.274489E-04 3.600013E+01  2.266548E-04 3.577211E+01  9.843401E-01 -6.375155E+01 
4.742250E+02  9.897787E-01 -6.617412E+01  2.089586E-04 3.190004E+01  2.175714E-04 3.048392E+01  9.845463E-01 -6.422097E+01 
4.779688E+02  9.902624E-01 -6.670354E+01  1.992957E-04 2.732310E+01  2.082952E-04 2.689598E+01  9.848548E-01 -6.476677E+01 
4.817125E+02  9.897193E-01 -6.719841E+01  1.984842E-04 2.621436E+01  1.987218E-04 2.609802E+01  9.839539E-01 -6.524828E+01 
4.854563E+02  9.900406E-01 -6.765332E+01  1.721956E-04 3.391992E+01  1.700699E-04 3.304912E+01  9.845659E-01 -6.570998E+01 
4.892000E+02  9.898381E-01 -6.823049E+01  1.789803E-04 4.211542E+01  1.755574E-04 4.193813E+01  9.842599E-01 -6.629370E+01 
4.929438E+02  9.893910E-01 -6.871514E+01  1.996193E-04 4.334796E+01  1.988377E-04 4.243499E+01  9.835263E-01 -6.678228E+01 
4.966875E+02  9.893617E-01 -6.928220E+01  2.143617E-04 3.377722E+01  2.019778E-04 3.270855E+01  9.836173E-01 -6.733989E+01 
5.004312E+02  9.881145E-01 -6.970231E+01  2.078010E-04 2.653185E+01  2.062996E-04 2.805505E+01  9.821910E-01 -6.776719E+01 
5.041750E+02  9.880470E-01 -7.020309E+01  2.084171E-04 1.985194E+01  1.986276E-04 2.048747E+01  9.819498E-01 -6.829826E+01 
5.079187E+02  9.866489E-01 -7.070142E+01  1.699620E-04 1.627502E+01  1.711434E-04 1.646810E+01  9.808557E-01 -6.875514E+01 
5.116625E+02  9.864151E-01 -7.118734E+01  1.538801E-04 1.274787E+01  1.470103E-04 1.469909E+01  9.806921E-01 -6.926022E+01 
5.154062E+02  9.860529E-01 -7.171739E+01  1.067057E-04 2.398676E+01  9.939948E-05 2.491265E+01  9.803012E-01 -6.979964E+01 
5.191500E+02  9.872456E-01 -7.214516E+01  8.841943E-05 2.803785E+01  8.502506E-05 2.380833E+01  9.815421E-01 -7.022417E+01 
5.228937E+02  9.871139E-01 -7.265754E+01  9.944042E-05 4.050622E+01  9.229700E-05 3.949589E+01  9.812731E-01 -7.068182E+01 
5.266375E+02  9.867865E-01 -7.319287E+01  1.080082E-04 4.397648E+01  1.087337E-04 4.247212E+01  9.808377E-01 -7.118977E+01 
5.303813E+02  9.873858E-01 -7.381018E+01  1.019210E-04 3.747458E+01  9.893381E-05 3.956611E+01  9.817536E-01 -7.175301E+01 
5.341250E+02  9.869034E-01 -7.432282E+01  9.414343E-05 3.789821E+01  9.895128E-05 3.356094E+01  9.812179E-01 -7.225663E+01 
5.378687E+02  9.865561E-01 -7.483938E+01  8.746486E-05 5.216208E+01  9.113772E-05 5.469948E+01  9.812209E-01 -7.274134E+01 
5.416125E+02  9.859827E-01 -7.541640E+01  8.375195E-05 6.932122E+01  8.294929E-05 7.129086E+01  9.805904E-01 -7.324885E+01 
5.453563E+02  9.848942E-01 -7.597154E+01  1.118357E-04 7.366309E+01  1.171466E-04 7.578787E+01  9.807672E-01 -7.374432E+01 
5.491000E+02  9.841667E-01 -7.644414E+01  1.518195E-04 6.145890E+01  1.571002E-04 6.169033E+01  9.793449E-01 -7.427214E+01 
5.528438E+02  9.833407E-01 -7.696701E+01  1.662584E-04 5.131263E+01  1.611504E-04 4.878351E+01  9.778345E-01 -7.473217E+01 
5.565875E+02  9.835357E-01 -7.747674E+01  1.687372E-04 3.024197E+01  1.679225E-04 3.065133E+01  9.780068E-01 -7.522309E+01 
5.603312E+02  9.832548E-01 -7.792616E+01  1.268145E-04 1.221165E+01  1.304385E-04 1.253694E+01  9.776826E-01 -7.564726E+01 
5.640750E+02  9.831764E-01 -7.841865E+01  1.013240E-04 -2.255429E+00  1.055872E-04 1.280272E+00  9.779647E-01 -7.612470E+01 
5.678188E+02  9.833863E-01 -7.893092E+01  5.853375E-05 -6.038289E+00  5.609442E-05 -8.388161E+00  9.782378E-01 -7.664290E+01 
5.715625E+02  9.833799E-01 -7.943202E+01  1.369244E-05 -3.494711E+01  1.196707E-05 -4.691584E+01  9.784918E-01 -7.714165E+01 
5.753062E+02  9.839486E-01 -7.997121E+01  1.439841E-05 1.661121E+02  1.347585E-05 1.379549E+02  9.789045E-01 -7.766852E+01 
5.790500E+02  9.835495E-01 -8.049280E+01  4.655893E-05 1.313007E+02  4.276759E-05 1.419866E+02  9.787148E-01 -7.818896E+01 
5.827938E+02  9.838445E-01 -8.104679E+01  4.739292E-05 1.165747E+02  4.542710E-05 1.194098E+02  9.788962E-01 -7.874759E+01 
5.865375E+02  9.835549E-01 -8.162325E+01  4.054874E-05 1.103373E+02  4.608851E-05 1.095369E+02  9.784066E-01 -7.932088E+01 
5.902812E+02  9.826152E-01 -8.209820E+01  4.487422E-05 1.385967E+02  4.179120E-05 1.344125E+02  9.776568E-01 -7.981947E+01 
5.940250E+02  9.823447E-01 -8.255786E+01  7.853785E-05 1.451909E+02  7.707979E-05 1.454305E+02  9.769228E-01 -8.031118E+01 
