! Matrix data file written by TouchstoneData, EPCOS AG
! FILENAME: "B3900_NB.s2p"
! COMMENT: "NWA-Port1 : 98.0ps NWA-Port2 : 98.0ps PCB2031"
! INFO: nport=2, nfreq=1601
! DATE: "Wed Nov 1 2012"
! USER: "Hiroshi Tanaka"
!
! port | pin | signal
! -----|-----|--------
!   1  |  2  |  in
!   2  |  5  |  out
! --------------------
! 
# MHZ S MA R 50
! freq  magS11 angS11  magS21 angS21  magS12 angS12  magS22 angS22
3.839200E+02    9.680146E-01  -1.290762E+02    6.982990E-04  -5.491437E+00    7.280626E-04  -5.357407E+00    9.822482E-01  -6.086257E+01 
3.839825E+02    9.675907E-01  -1.291143E+02    7.102227E-04  -7.047665E+00    6.825659E-04  -8.634171E+00    9.821819E-01  -6.091113E+01 
3.840450E+02    9.676701E-01  -1.291455E+02    6.837232E-04  -7.543712E+00    6.636384E-04  -8.297829E+00    9.820963E-01  -6.092672E+01 
3.841075E+02    9.673390E-01  -1.291830E+02    6.433647E-04  -7.081156E+00    6.382776E-04  -6.862173E+00    9.820179E-01  -6.093366E+01 
3.841700E+02    9.670211E-01  -1.292173E+02    6.085763E-04  -8.223732E+00    6.357475E-04  -8.635420E+00    9.819083E-01  -6.095487E+01 
3.842325E+02    9.672964E-01  -1.292607E+02    6.073837E-04  -4.473959E+00    6.317595E-04  -9.989321E+00    9.820181E-01  -6.098543E+01 
3.842950E+02    9.670538E-01  -1.293138E+02    6.197492E-04  -4.680072E+00    5.606459E-04  -5.429190E+00    9.818212E-01  -6.098767E+01 
3.843575E+02    9.667822E-01  -1.293555E+02    5.814445E-04  -2.992232E+00    5.597928E-04  -6.828457E+00    9.820206E-01  -6.099986E+01 
3.844200E+02    9.664479E-01  -1.293870E+02    5.442440E-04  -1.233199E+00    5.462849E-04  -4.459264E-01    9.818150E-01  -6.102854E+01 
3.844825E+02    9.663463E-01  -1.294183E+02    5.078427E-04   5.797845E-02    5.396970E-04  -2.160846E+00    9.820672E-01  -6.103610E+01 
3.845450E+02    9.661907E-01  -1.294564E+02    5.174936E-04  -1.155320E+00    5.088896E-04  -7.318893E-01    9.820883E-01  -6.107164E+01 
3.846075E+02    9.658685E-01  -1.294825E+02    5.181287E-04   1.052499E-01    4.868236E-04   1.456171E+00    9.823934E-01  -6.108505E+01 
3.846700E+02    9.656169E-01  -1.295223E+02    4.915704E-04  -6.227151E-02    4.941564E-04   2.116568E+00    9.821393E-01  -6.110546E+01 
3.847325E+02    9.655309E-01  -1.295570E+02    4.543208E-04   1.113810E+00    4.691841E-04   2.805838E+00    9.823417E-01  -6.111900E+01 
3.847950E+02    9.651732E-01  -1.295790E+02    4.657787E-04   7.479701E+00    4.653090E-04   3.955162E+00    9.821946E-01  -6.112741E+01 
3.848575E+02    9.648958E-01  -1.296203E+02    4.649972E-04   6.169843E+00    4.370818E-04   9.502231E+00    9.823811E-01  -6.114974E+01 
3.849200E+02    9.646124E-01  -1.296405E+02    4.284007E-04   1.004611E+01    4.450592E-04   1.023895E+01    9.822876E-01  -6.116581E+01 
3.849825E+02    9.645187E-01  -1.296866E+02    4.364330E-04   1.395865E+01    3.957946E-04   1.160421E+01    9.825379E-01  -6.118338E+01 
3.850450E+02    9.640624E-01  -1.297084E+02    4.285902E-04   1.330071E+01    4.422156E-04   1.756807E+01    9.825761E-01  -6.120509E+01 
3.851075E+02    9.638865E-01  -1.297131E+02    4.518195E-04   1.644225E+01    3.906268E-04   1.592397E+01    9.829079E-01  -6.122768E+01 
3.851700E+02    9.638815E-01  -1.297597E+02    4.626599E-04   2.661257E+01    4.576145E-04   2.191817E+01    9.828201E-01  -6.124818E+01 
3.852325E+02    9.635725E-01  -1.297795E+02    4.616984E-04   2.675388E+01    4.152323E-04   2.457714E+01    9.830265E-01  -6.126324E+01 
3.852950E+02    9.631416E-01  -1.298073E+02    4.639481E-04   2.904868E+01    4.478839E-04   2.944852E+01    9.832013E-01  -6.128316E+01 
3.853575E+02    9.630603E-01  -1.298279E+02    4.654351E-04   2.935563E+01    5.130080E-04   3.065894E+01    9.835038E-01  -6.130038E+01 
3.854200E+02    9.629577E-01  -1.298482E+02    5.074593E-04   2.659555E+01    5.234211E-04   3.114250E+01    9.836837E-01  -6.133809E+01 
3.854825E+02    9.626336E-01  -1.298709E+02    5.133747E-04   3.324499E+01    4.947352E-04   2.944797E+01    9.838412E-01  -6.134135E+01 
3.855450E+02    9.625545E-01  -1.299017E+02    4.879165E-04   2.909526E+01    4.914647E-04   3.434459E+01    9.839714E-01  -6.136540E+01 
3.856075E+02    9.623450E-01  -1.299102E+02    4.945393E-04   3.289175E+01    5.130753E-04   3.394988E+01    9.843872E-01  -6.138426E+01 
3.856700E+02    9.621048E-01  -1.299385E+02    5.082346E-04   3.397027E+01    5.075495E-04   3.490093E+01    9.845090E-01  -6.140437E+01 
3.857325E+02    9.619678E-01  -1.299506E+02    5.151252E-04   3.392922E+01    5.504412E-04   3.114238E+01    9.846974E-01  -6.142443E+01 
3.857950E+02    9.619915E-01  -1.299740E+02    5.513309E-04   3.240203E+01    5.242484E-04   3.517038E+01    9.851397E-01  -6.145599E+01 
3.858575E+02    9.620246E-01  -1.299856E+02    5.331347E-04   3.549188E+01    5.709172E-04   3.584973E+01    9.849020E-01  -6.148223E+01 
3.859200E+02    9.618416E-01  -1.300026E+02    5.562370E-04   3.631612E+01    5.360619E-04   3.681711E+01    9.849473E-01  -6.150172E+01 
3.859825E+02    9.618161E-01  -1.300059E+02    5.653934E-04   3.716156E+01    5.588562E-04   3.670340E+01    9.853144E-01  -6.152474E+01 
3.860450E+02    9.615555E-01  -1.300464E+02    5.736777E-04   3.636530E+01    5.540797E-04   3.839721E+01    9.852063E-01  -6.153496E+01 
3.861075E+02    9.616964E-01  -1.300534E+02    5.693236E-04   3.822861E+01    5.722157E-04   4.068685E+01    9.855522E-01  -6.157787E+01 
3.861700E+02    9.615570E-01  -1.300836E+02    5.751944E-04   3.900855E+01    5.723586E-04   3.812836E+01    9.855253E-01  -6.159656E+01 
3.862325E+02    9.614138E-01  -1.300972E+02    5.710706E-04   3.632454E+01    6.149343E-04   3.723086E+01    9.854687E-01  -6.163284E+01 
3.862950E+02    9.615555E-01  -1.301389E+02    6.191799E-04   3.853228E+01    5.961419E-04   3.885097E+01    9.855931E-01  -6.166691E+01 
3.863575E+02    9.618110E-01  -1.301554E+02    6.079695E-04   3.854257E+01    6.089234E-04   3.947706E+01    9.856145E-01  -6.170794E+01 
3.864200E+02    9.615515E-01  -1.301841E+02    5.972176E-04   3.905618E+01    6.390972E-04   3.694686E+01    9.854253E-01  -6.171949E+01 
3.864825E+02    9.615672E-01  -1.302154E+02    6.371191E-04   3.954117E+01    6.341447E-04   4.058396E+01    9.856313E-01  -6.175580E+01 
3.865450E+02    9.618173E-01  -1.302268E+02    6.493441E-04   4.002675E+01    6.428817E-04   4.087947E+01    9.856952E-01  -6.177408E+01 
3.866075E+02    9.617277E-01  -1.302665E+02    6.456881E-04   4.114153E+01    6.588185E-04   3.848002E+01    9.855304E-01  -6.181514E+01 
3.866700E+02    9.614856E-01  -1.302829E+02    6.463234E-04   4.065801E+01    6.733184E-04   4.166410E+01    9.856780E-01  -6.184243E+01 
3.867325E+02    9.617411E-01  -1.303086E+02    6.494924E-04   4.214292E+01    6.609000E-04   4.028609E+01    9.856292E-01  -6.187150E+01 
3.867950E+02    9.616891E-01  -1.303431E+02    6.821825E-04   3.904290E+01    6.751481E-04   4.079142E+01    9.855900E-01  -6.188566E+01 
3.868575E+02    9.619470E-01  -1.303706E+02    6.746725E-04   4.253192E+01    6.841413E-04   3.999894E+01    9.855966E-01  -6.192167E+01 
3.869200E+02    9.618712E-01  -1.304004E+02    7.023202E-04   3.972051E+01    7.152280E-04   4.037305E+01    9.855900E-01  -6.194597E+01 
3.869825E+02    9.619409E-01  -1.304269E+02    7.164265E-04   3.856883E+01    7.143349E-04   3.878764E+01    9.856681E-01  -6.198782E+01 
3.870450E+02    9.619331E-01  -1.304462E+02    7.107958E-04   4.042928E+01    7.430470E-04   3.901808E+01    9.856863E-01  -6.201455E+01 
3.871075E+02    9.621022E-01  -1.304839E+02    7.533371E-04   3.781247E+01    7.268198E-04   3.703897E+01    9.856639E-01  -6.204749E+01 
3.871700E+02    9.620001E-01  -1.305130E+02    7.409028E-04   3.793675E+01    7.494620E-04   3.794915E+01    9.856095E-01  -6.207398E+01 
3.872325E+02    9.622366E-01  -1.305489E+02    7.627789E-04   3.603716E+01    7.602065E-04   3.801729E+01    9.857058E-01  -6.210235E+01 
3.872950E+02    9.622109E-01  -1.305662E+02    7.494384E-04   3.589391E+01    7.463922E-04   3.422349E+01    9.855592E-01  -6.212473E+01 
3.873575E+02    9.624927E-01  -1.305992E+02    7.383998E-04   3.675826E+01    7.598938E-04   3.686411E+01    9.857676E-01  -6.215390E+01 
3.874200E+02    9.623552E-01  -1.306292E+02    7.598660E-04   3.545446E+01    7.647069E-04   3.525682E+01    9.856376E-01  -6.218123E+01 
3.874825E+02    9.623999E-01  -1.306557E+02    7.733330E-04   3.609966E+01    7.461123E-04   3.510406E+01    9.856906E-01  -6.221348E+01 
3.875450E+02    9.623544E-01  -1.306821E+02    7.856191E-04   3.342638E+01    7.706532E-04   3.348485E+01    9.857181E-01  -6.223151E+01 
3.876075E+02    9.623538E-01  -1.307274E+02    8.128865E-04   3.526373E+01    7.948852E-04   3.247814E+01    9.856499E-01  -6.227587E+01 
3.876700E+02    9.625021E-01  -1.307455E+02    7.575019E-04   3.130212E+01    7.968859E-04   3.339968E+01    9.857148E-01  -6.232464E+01 
3.877325E+02    9.627049E-01  -1.307782E+02    8.201924E-04   3.207367E+01    8.060799E-04   2.893598E+01    9.856123E-01  -6.234987E+01 
3.877950E+02    9.627569E-01  -1.307995E+02    7.985275E-04   2.901855E+01    8.164939E-04   2.991987E+01    9.859516E-01  -6.235315E+01 
3.878575E+02    9.627706E-01  -1.308266E+02    7.956502E-04   3.057683E+01    7.934549E-04   2.666506E+01    9.857734E-01  -6.239404E+01 
3.879200E+02    9.632418E-01  -1.308742E+02    8.012347E-04   2.682983E+01    7.944172E-04   2.736225E+01    9.859481E-01  -6.242487E+01 
3.879825E+02    9.631968E-01  -1.309032E+02    8.062728E-04   2.755494E+01    7.898991E-04   2.700310E+01    9.858462E-01  -6.246491E+01 
3.880450E+02    9.633914E-01  -1.309303E+02    8.077289E-04   2.636927E+01    8.131281E-04   2.635592E+01    9.856724E-01  -6.250010E+01 
3.881075E+02    9.636576E-01  -1.309643E+02    7.801803E-04   2.380047E+01    7.929321E-04   2.346122E+01    9.854696E-01  -6.251787E+01 
3.881700E+02    9.637338E-01  -1.309928E+02    7.701565E-04   2.288047E+01    7.914983E-04   2.292088E+01    9.858619E-01  -6.253896E+01 
3.882325E+02    9.638285E-01  -1.310308E+02    7.442570E-04   2.234126E+01    7.642206E-04   2.179413E+01    9.857646E-01  -6.257920E+01 
3.882950E+02    9.639871E-01  -1.310821E+02    7.756592E-04   2.163365E+01    7.663006E-04   2.212353E+01    9.856339E-01  -6.261389E+01 
3.883575E+02    9.643138E-01  -1.311047E+02    7.381506E-04   1.963653E+01    7.794143E-04   1.941112E+01    9.856039E-01  -6.265903E+01 
3.884200E+02    9.644337E-01  -1.311406E+02    7.207656E-04   1.674088E+01    7.510895E-04   1.814314E+01    9.858975E-01  -6.267601E+01 
3.884825E+02    9.644764E-01  -1.311827E+02    7.349911E-04   1.572948E+01    7.486638E-04   1.709871E+01    9.857665E-01  -6.270798E+01 
3.885450E+02    9.647335E-01  -1.312127E+02    7.464304E-04   1.733147E+01    7.350514E-04   1.609360E+01    9.857406E-01  -6.274074E+01 
3.886075E+02    9.645626E-01  -1.312590E+02    7.242259E-04   1.517129E+01    7.080481E-04   1.375443E+01    9.857398E-01  -6.276583E+01 
3.886700E+02    9.651423E-01  -1.312978E+02    6.876763E-04   1.176060E+01    7.011356E-04   1.289066E+01    9.855606E-01  -6.281206E+01 
3.887325E+02    9.652553E-01  -1.313357E+02    6.727952E-04   1.257914E+01    6.846047E-04   9.582568E+00    9.855803E-01  -6.283323E+01 
3.887950E+02    9.652224E-01  -1.313918E+02    6.517004E-04   9.578386E+00    6.923019E-04   1.205228E+01    9.856092E-01  -6.286197E+01 
3.888575E+02    9.653581E-01  -1.314203E+02    6.465914E-04   1.091992E+01    6.522046E-04   7.888070E+00    9.854506E-01  -6.290556E+01 
3.889200E+02    9.655369E-01  -1.314705E+02    6.335881E-04   8.707880E+00    6.442780E-04   7.921634E+00    9.858241E-01  -6.294189E+01 
3.889825E+02    9.656096E-01  -1.315174E+02    6.266873E-04   8.143142E+00    6.158144E-04   8.855795E+00    9.855666E-01  -6.296873E+01 
3.890450E+02    9.655208E-01  -1.315683E+02    5.921822E-04   6.493407E+00    6.197510E-04   4.290190E+00    9.854381E-01  -6.299405E+01 
3.891075E+02    9.657250E-01  -1.316139E+02    5.785654E-04   5.343966E+00    6.036707E-04   3.841199E+00    9.854976E-01  -6.302723E+01 
3.891700E+02    9.656281E-01  -1.316477E+02    5.551675E-04   2.785903E+00    5.240859E-04  -2.112676E-01    9.854725E-01  -6.304687E+01 
3.892325E+02    9.657448E-01  -1.316906E+02    5.251454E-04   1.830867E+00    5.235658E-04   1.930768E+00    9.854052E-01  -6.307698E+01 
3.892950E+02    9.659331E-01  -1.317361E+02    5.253132E-04   4.404754E+00    5.515132E-04   1.655645E+00    9.850999E-01  -6.312220E+01 
3.893575E+02    9.658235E-01  -1.317850E+02    4.908029E-04  -7.674173E-03    5.321452E-04   3.278618E+00    9.852476E-01  -6.315687E+01 
3.894200E+02    9.657642E-01  -1.318348E+02    4.950099E-04   7.299384E-01    4.856667E-04   8.812426E-01    9.853590E-01  -6.318133E+01 
3.894825E+02    9.659193E-01  -1.318726E+02    4.588224E-04   2.801277E+00    4.827979E-04   7.539221E-01    9.850843E-01  -6.322480E+01 
3.895450E+02    9.655569E-01  -1.319126E+02    4.353620E-04   1.065920E+00    4.273557E-04  -1.305430E+00    9.851819E-01  -6.324058E+01 
3.896075E+02    9.656473E-01  -1.319503E+02    3.950270E-04   1.179303E+00    4.226352E-04  -1.778448E+00    9.851350E-01  -6.328387E+01 
3.896700E+02    9.654342E-01  -1.320200E+02    3.594561E-04  -4.510319E-01    3.769312E-04  -6.143960E+00    9.849324E-01  -6.331751E+01 
3.897325E+02    9.653514E-01  -1.320566E+02    3.475228E-04  -2.406321E+00    3.843615E-04  -1.550923E+00    9.848642E-01  -6.335446E+01 
3.897950E+02    9.653920E-01  -1.320935E+02    3.555564E-04  -3.141551E+00    3.810986E-04  -7.522358E+00    9.849541E-01  -6.338046E+01 
3.898575E+02    9.654369E-01  -1.321393E+02    3.238661E-04  -5.493674E+00    2.968119E-04  -3.961239E+00    9.849336E-01  -6.340288E+01 
3.899200E+02    9.653636E-01  -1.321877E+02    2.818225E-04  -7.042074E+00    2.979051E-04  -5.513967E+00    9.849894E-01  -6.345833E+01 
3.899825E+02    9.653088E-01  -1.322323E+02    2.949306E-04  -6.098136E+00    2.788192E-04  -2.114642E+00    9.846190E-01  -6.348733E+01 
3.900450E+02    9.647932E-01  -1.322727E+02    2.324955E-04  -1.181218E+01    2.450207E-04  -6.047003E+00    9.845697E-01  -6.353450E+01 
3.901075E+02    9.648906E-01  -1.323223E+02    2.066520E-04  -7.578378E+00    2.353235E-04  -1.183912E+01    9.843915E-01  -6.356297E+01 
3.901700E+02    9.647300E-01  -1.323507E+02    1.939347E-04  -9.985017E+00    1.695758E-04  -3.919152E+00    9.842401E-01  -6.357263E+01 
3.902325E+02    9.646944E-01  -1.323905E+02    1.789496E-04  -1.588088E+01    1.731219E-04  -1.455937E+01    9.842602E-01  -6.360400E+01 
3.902950E+02    9.641976E-01  -1.324425E+02    1.576546E-04  -2.799801E+00    1.661093E-04  -1.584301E+01    9.842094E-01  -6.364159E+01 
3.903575E+02    9.640470E-01  -1.324755E+02    1.100278E-04  -8.369365E+00    1.533454E-04  -2.172669E+01    9.839302E-01  -6.368054E+01 
3.904200E+02    9.639266E-01  -1.325290E+02    8.372940E-05  -1.707150E+01    1.203198E-04  -1.325358E+01    9.840114E-01  -6.370626E+01 
3.904825E+02    9.637292E-01  -1.325783E+02    5.106603E-05  -2.722300E+01    5.930868E-05  -5.828830E+01    9.837133E-01  -6.374860E+01 
3.905450E+02    9.637146E-01  -1.326127E+02    2.188257E-05  -3.575227E+01    2.544057E-05  -4.134851E+01    9.836613E-01  -6.377295E+01 
3.906075E+02    9.633692E-01  -1.326470E+02    1.048862E-05   1.535445E+02    1.747154E-05  -6.115625E+01    9.836807E-01  -6.381618E+01 
3.906700E+02    9.632074E-01  -1.326876E+02    3.928032E-05  -1.627140E+02    1.180681E-05  -1.566411E+02    9.834949E-01  -6.384196E+01 
3.907325E+02    9.627274E-01  -1.327280E+02    5.647823E-05   1.702384E+02    5.439613E-05  -1.747542E+02    9.833646E-01  -6.387439E+01 
3.907950E+02    9.628271E-01  -1.327633E+02    9.783482E-05   1.541708E+02    8.661035E-05   1.752482E+02    9.832339E-01  -6.390699E+01 
3.908575E+02    9.624149E-01  -1.327842E+02    1.203067E-04   1.618828E+02    1.266117E-04   1.716204E+02    9.829836E-01  -6.392105E+01 
3.909200E+02    9.622823E-01  -1.328385E+02    1.820294E-04   1.660296E+02    2.020622E-04   1.693543E+02    9.831380E-01  -6.397110E+01 
3.909825E+02    9.615485E-01  -1.328846E+02    2.010558E-04   1.567303E+02    1.925018E-04   1.665173E+02    9.830320E-01  -6.400352E+01 
3.910450E+02    9.614645E-01  -1.329185E+02    2.460320E-04   1.581115E+02    2.494812E-04   1.542994E+02    9.829810E-01  -6.402517E+01 
3.911075E+02    9.610747E-01  -1.329429E+02    2.661828E-04   1.507376E+02    2.762051E-04   1.537947E+02    9.828310E-01  -6.405103E+01 
3.911700E+02    9.602482E-01  -1.330013E+02    3.146142E-04   1.538289E+02    3.370891E-04   1.528334E+02    9.826903E-01  -6.409644E+01 
3.912325E+02    9.599351E-01  -1.330217E+02    3.586765E-04   1.473564E+02    3.635458E-04   1.524293E+02    9.822818E-01  -6.410537E+01 
3.912950E+02    9.596499E-01  -1.330673E+02    4.037584E-04   1.511846E+02    4.019436E-04   1.460431E+02    9.823102E-01  -6.413434E+01 
3.913575E+02    9.593338E-01  -1.330889E+02    4.595695E-04   1.484401E+02    4.493218E-04   1.412430E+02    9.818789E-01  -6.417809E+01 
3.914200E+02    9.589329E-01  -1.331134E+02    4.876131E-04   1.445292E+02    4.525786E-04   1.408189E+02    9.816101E-01  -6.419276E+01 
3.914825E+02    9.584666E-01  -1.331342E+02    4.980653E-04   1.442482E+02    4.963704E-04   1.407467E+02    9.815654E-01  -6.421895E+01 
3.915450E+02    9.580990E-01  -1.331564E+02    5.425850E-04   1.371310E+02    5.552541E-04   1.402267E+02    9.814976E-01  -6.423749E+01 
3.916075E+02    9.576219E-01  -1.331956E+02    5.772997E-04   1.394902E+02    5.993736E-04   1.374624E+02    9.812069E-01  -6.428229E+01 
3.916700E+02    9.572059E-01  -1.332243E+02    6.469422E-04   1.391287E+02    6.398563E-04   1.384721E+02    9.811844E-01  -6.428973E+01 
3.917325E+02    9.568936E-01  -1.332316E+02    6.675672E-04   1.375837E+02    6.770224E-04   1.343177E+02    9.810303E-01  -6.432078E+01 
3.917950E+02    9.568024E-01  -1.332567E+02    6.857230E-04   1.326421E+02    6.989716E-04   1.338141E+02    9.807338E-01  -6.436217E+01 
3.918575E+02    9.566290E-01  -1.332702E+02    7.473459E-04   1.329269E+02    7.274683E-04   1.316908E+02    9.806695E-01  -6.437125E+01 
3.919200E+02    9.562216E-01  -1.332906E+02    7.796788E-04   1.300711E+02    7.817307E-04   1.298608E+02    9.803634E-01  -6.440176E+01 
3.919825E+02    9.562980E-01  -1.333165E+02    8.024745E-04   1.282990E+02    7.842092E-04   1.300663E+02    9.802666E-01  -6.442282E+01 
3.920450E+02    9.559076E-01  -1.333386E+02    8.136313E-04   1.268551E+02    8.511972E-04   1.273651E+02    9.801311E-01  -6.445186E+01 
3.921075E+02    9.558708E-01  -1.333529E+02    8.664036E-04   1.238007E+02    8.839807E-04   1.255654E+02    9.803869E-01  -6.446389E+01 
3.921700E+02    9.556912E-01  -1.333811E+02    8.888982E-04   1.231898E+02    8.946647E-04   1.239846E+02    9.802389E-01  -6.448664E+01 
3.922325E+02    9.556878E-01  -1.333855E+02    9.089276E-04   1.241142E+02    9.155543E-04   1.227511E+02    9.801225E-01  -6.453504E+01 
3.922950E+02    9.557928E-01  -1.334072E+02    9.601993E-04   1.226057E+02    9.414535E-04   1.221962E+02    9.798736E-01  -6.455149E+01 
3.923575E+02    9.555286E-01  -1.334235E+02    9.859297E-04   1.214069E+02    9.729279E-04   1.217969E+02    9.798312E-01  -6.457660E+01 
3.924200E+02    9.556788E-01  -1.334464E+02    1.008195E-03   1.182668E+02    1.012423E-03   1.194641E+02    9.797328E-01  -6.459009E+01 
3.924825E+02    9.559282E-01  -1.334673E+02    1.035388E-03   1.156296E+02    1.053346E-03   1.154794E+02    9.794545E-01  -6.463365E+01 
3.925450E+02    9.559768E-01  -1.334809E+02    1.030443E-03   1.167080E+02    1.012501E-03   1.149339E+02    9.794281E-01  -6.464784E+01 
3.926075E+02    9.560428E-01  -1.335115E+02    1.038368E-03   1.139802E+02    1.051370E-03   1.148767E+02    9.795551E-01  -6.469270E+01 
3.926700E+02    9.560881E-01  -1.335319E+02    1.085520E-03   1.148935E+02    1.080546E-03   1.139024E+02    9.792437E-01  -6.471216E+01 
