! Matrix data file written by TouchstoneData, EPCOS AG
! FILENAME: "LY02A_4_NB.s3p_newformat"
! COMMENT: "(LY02A_4_NB.s3p) EPCOS AG 30.07.2009 10:12:1"
! INFO: nport=3, nfreq=1601
! DATE: "Fri Aug  7 16:54:35 2009"
! USER: "Michael Schemies"
!
! port | pin | signal
! -----|-----|--------
!   1  |  2  |  in
!   2  |  4  |  out
!   3  |  6  |  out
! --------------------
! 
# MHZ S MA R 50
! freq  magS11 angS11  magS12 angS12  magS13 angS13  ...
7.690000E+02  9.686977E-01 -9.270785E+01  9.932069E-03 2.885744E+01  8.850710E-03 3.777826E+01 
 9.924187E-03 2.893148E+01  6.210668E-01 -7.966208E+01  7.452295E-01 9.255050E+00 
 8.848144E-03 3.790368E+01  7.433193E-01 9.142417E+00  6.246224E-01 -7.971553E+01 
7.691250E+02  9.684554E-01 -9.276195E+01  9.923679E-03 2.878642E+01  8.827648E-03 3.797121E+01 
 9.900464E-03 2.904337E+01  6.208171E-01 -7.969040E+01  7.457135E-01 9.236423E+00 
 8.821370E-03 3.798027E+01  7.433780E-01 9.127967E+00  6.243706E-01 -7.972363E+01 
7.692500E+02  9.681691E-01 -9.279916E+01  9.900326E-03 2.892039E+01  8.807543E-03 3.836873E+01 
 9.894346E-03 2.897680E+01  6.204616E-01 -7.970058E+01  7.459623E-01 9.231394E+00 
 8.822534E-03 3.825716E+01  7.438343E-01 9.114203E+00  6.241596E-01 -7.973463E+01 
7.693750E+02  9.679052E-01 -9.282050E+01  9.860335E-03 2.866228E+01  8.802448E-03 3.855671E+01 
 9.860090E-03 2.886671E+01  6.201712E-01 -7.971384E+01  7.461526E-01 9.208685E+00 
 8.813381E-03 3.871152E+01  7.441441E-01 9.114862E+00  6.238753E-01 -7.973312E+01 
7.695000E+02  9.678304E-01 -9.285491E+01  9.850398E-03 2.884474E+01  8.800947E-03 3.881370E+01 
 9.862587E-03 2.891610E+01  6.199111E-01 -7.972094E+01  7.464829E-01 9.202387E+00 
 8.809157E-03 3.875570E+01  7.443920E-01 9.091787E+00  6.236240E-01 -7.973588E+01 
7.696250E+02  9.677477E-01 -9.289177E+01  9.813206E-03 2.892310E+01  8.795813E-03 3.916998E+01 
 9.841431E-03 2.900607E+01  6.196304E-01 -7.973149E+01  7.466993E-01 9.181212E+00 
 8.786464E-03 3.924609E+01  7.445311E-01 9.078464E+00  6.233233E-01 -7.974979E+01 
7.697500E+02  9.673865E-01 -9.292779E+01  9.846065E-03 2.871809E+01  8.827977E-03 3.940232E+01 
 9.817589E-03 2.898745E+01  6.193579E-01 -7.975289E+01  7.469565E-01 9.156344E+00 
 8.849546E-03 3.945231E+01  7.447689E-01 9.065071E+00  6.231667E-01 -7.974390E+01 
7.698750E+02  9.671009E-01 -9.296097E+01  9.804631E-03 2.850480E+01  8.872208E-03 3.968866E+01 
 9.803145E-03 2.872944E+01  6.191786E-01 -7.977661E+01  7.472736E-01 9.126540E+00 
 8.899873E-03 3.959499E+01  7.449049E-01 9.039158E+00  6.230562E-01 -7.975996E+01 
7.700000E+02  9.668719E-01 -9.298264E+01  9.736540E-03 2.863129E+01  8.942745E-03 3.974524E+01 
 9.729476E-03 2.880354E+01  6.190102E-01 -7.978741E+01  7.473508E-01 9.109459E+00 
 8.941363E-03 3.955278E+01  7.451118E-01 9.022531E+00  6.228625E-01 -7.976631E+01 
7.701250E+02  9.668648E-01 -9.300406E+01  9.695005E-03 2.878656E+01  8.972575E-03 3.977237E+01 
 9.685808E-03 2.885984E+01  6.187995E-01 -7.979985E+01  7.474554E-01 9.102159E+00 
 9.020152E-03 3.951981E+01  7.452555E-01 9.009647E+00  6.225624E-01 -7.977587E+01 
7.702500E+02  9.665853E-01 -9.303350E+01  9.650178E-03 2.887687E+01  9.073664E-03 3.969114E+01 
 9.645541E-03 2.900034E+01  6.187258E-01 -7.981374E+01  7.476784E-01 9.079822E+00 
 9.049429E-03 3.963532E+01  7.455143E-01 8.986204E+00  6.225152E-01 -7.978740E+01 
7.703750E+02  9.662510E-01 -9.305115E+01  9.616974E-03 2.906751E+01  9.104568E-03 3.953256E+01 
 9.599093E-03 2.912603E+01  6.184087E-01 -7.983922E+01  7.478701E-01 9.053736E+00 
 9.083272E-03 3.936272E+01  7.454986E-01 8.957569E+00  6.223746E-01 -7.981845E+01 
7.705000E+02  9.664646E-01 -9.308515E+01  9.587373E-03 2.929280E+01  9.157449E-03 3.915009E+01 
 9.591623E-03 2.936712E+01  6.183153E-01 -7.986390E+01  7.481481E-01 9.034042E+00 
 9.153762E-03 3.908434E+01  7.455968E-01 8.928813E+00  6.221801E-01 -7.983652E+01 
7.706250E+02  9.662028E-01 -9.311873E+01  9.560344E-03 2.942175E+01  9.199680E-03 3.884276E+01 
 9.587249E-03 2.966282E+01  6.180856E-01 -7.988360E+01  7.483113E-01 9.003682E+00 
 9.173176E-03 3.898675E+01  7.457677E-01 8.898411E+00  6.221428E-01 -7.986228E+01 
7.707500E+02  9.656913E-01 -9.314820E+01  9.551646E-03 2.972843E+01  9.198090E-03 3.846488E+01 
 9.563941E-03 2.986583E+01  6.178857E-01 -7.989139E+01  7.484193E-01 8.991479E+00 
 9.244204E-03 3.855998E+01  7.459551E-01 8.889246E+00  6.220375E-01 -7.987897E+01 
7.708750E+02  9.655484E-01 -9.315190E+01  9.578315E-03 3.005389E+01  9.216642E-03 3.816625E+01 
 9.538991E-03 2.999025E+01  6.177872E-01 -7.990995E+01  7.485803E-01 8.976828E+00 
 9.206532E-03 3.811021E+01  7.463881E-01 8.882296E+00  6.219369E-01 -7.989236E+01 
7.710000E+02  9.655712E-01 -9.316660E+01  9.553504E-03 3.019834E+01  9.207676E-03 3.775966E+01 
 9.548182E-03 3.052056E+01  6.176548E-01 -7.993745E+01  7.487408E-01 8.945405E+00 
 9.212232E-03 3.788571E+01  7.464730E-01 8.852790E+00  6.217959E-01 -7.992131E+01 
7.711250E+02  9.654777E-01 -9.319358E+01  9.569435E-03 3.061814E+01  9.193023E-03 3.762396E+01 
 9.567237E-03 3.061534E+01  6.174294E-01 -7.996944E+01  7.490324E-01 8.929431E+00 
 9.206012E-03 3.748580E+01  7.466607E-01 8.825874E+00  6.218131E-01 -7.995124E+01 
7.712500E+02  9.655485E-01 -9.323147E+01  9.590825E-03 3.057158E+01  9.191216E-03 3.729138E+01 
 9.586947E-03 3.085763E+01  6.172399E-01 -7.999614E+01  7.491744E-01 8.903759E+00 
 9.185687E-03 3.735200E+01  7.466900E-01 8.782515E+00  6.215584E-01 -7.998678E+01 
7.713750E+02  9.652339E-01 -9.325463E+01  9.607463E-03 3.085937E+01  9.167861E-03 3.690582E+01 
 9.623240E-03 3.097470E+01  6.170608E-01 -8.002834E+01  7.495439E-01 8.879059E+00 
 9.157302E-03 3.709645E+01  7.467093E-01 8.774510E+00  6.213418E-01 -8.000414E+01 
7.715000E+02  9.650191E-01 -9.327077E+01  9.626455E-03 3.093154E+01  9.140080E-03 3.676714E+01 
 9.632492E-03 3.101254E+01  6.168436E-01 -8.005977E+01  7.495834E-01 8.858467E+00 
 9.174303E-03 3.677575E+01  7.469232E-01 8.745314E+00  6.210236E-01 -8.003724E+01 
7.716250E+02  9.649275E-01 -9.327385E+01  9.669228E-03 3.093791E+01  9.109696E-03 3.650401E+01 
 9.671818E-03 3.114781E+01  6.164238E-01 -8.007617E+01  7.495312E-01 8.851505E+00 
 9.090434E-03 3.665684E+01  7.472724E-01 8.737845E+00  6.209228E-01 -8.006075E+01 
7.717500E+02  9.647793E-01 -9.329114E+01  9.689739E-03 3.090272E+01  9.077571E-03 3.644144E+01 
 9.687423E-03 3.109671E+01  6.161259E-01 -8.008899E+01  7.497484E-01 8.834054E+00 
 9.078890E-03 3.650554E+01  7.472879E-01 8.713025E+00  6.205988E-01 -8.008838E+01 
7.718750E+02  9.651492E-01 -9.330822E+01  9.702037E-03 3.091599E+01  9.076897E-03 3.623477E+01 
 9.701801E-03 3.104692E+01  6.159223E-01 -8.010151E+01  7.500834E-01 8.804903E+00 
 9.067778E-03 3.635387E+01  7.474048E-01 8.688179E+00  6.203696E-01 -8.011124E+01 
7.720000E+02  9.651478E-01 -9.335035E+01  9.715001E-03 3.100044E+01  9.018782E-03 3.603053E+01 
 9.734917E-03 3.105740E+01  6.158014E-01 -8.012498E+01  7.504694E-01 8.780556E+00 
 9.023278E-03 3.631833E+01  7.475849E-01 8.657877E+00  6.201865E-01 -8.013276E+01 
7.721250E+02  9.652101E-01 -9.337861E+01  9.710201E-03 3.072420E+01  9.010835E-03 3.598647E+01 
 9.725794E-03 3.093183E+01  6.155953E-01 -8.014573E+01  7.505403E-01 8.771753E+00 
 8.959398E-03 3.596835E+01  7.476707E-01 8.636334E+00  6.199451E-01 -8.015800E+01 
7.722500E+02  9.650498E-01 -9.338632E+01  9.699060E-03 3.062229E+01  8.977108E-03 3.607696E+01 
 9.693813E-03 3.072603E+01  6.152807E-01 -8.016325E+01  7.506270E-01 8.750920E+00 
 8.981406E-03 3.607100E+01  7.480640E-01 8.622920E+00  6.197392E-01 -8.016521E+01 
7.723750E+02  9.652274E-01 -9.340927E+01  9.658192E-03 3.068868E+01  8.957021E-03 3.606518E+01 
 9.684078E-03 3.067900E+01  6.149350E-01 -8.017443E+01  7.507933E-01 8.737718E+00 
 8.959651E-03 3.602315E+01  7.482635E-01 8.610133E+00  6.194849E-01 -8.016949E+01 
7.725000E+02  9.654237E-01 -9.344682E+01  9.658500E-03 3.064820E+01  8.958660E-03 3.598371E+01 
 9.629117E-03 3.070112E+01  6.148404E-01 -8.019201E+01  7.511489E-01 8.708408E+00 
 8.963924E-03 3.596864E+01  7.484797E-01 8.586155E+00  6.193595E-01 -8.018143E+01 
7.726250E+02  9.653800E-01 -9.348390E+01  9.602888E-03 3.082434E+01  8.962077E-03 3.572619E+01 
 9.615471E-03 3.092548E+01  6.146715E-01 -8.020301E+01  7.514408E-01 8.693779E+00 
 8.976060E-03 3.573965E+01  7.488281E-01 8.564577E+00  6.192142E-01 -8.019477E+01 
7.727500E+02  9.650397E-01 -9.350703E+01  9.592027E-03 3.110704E+01  8.938128E-03 3.543237E+01 
 9.613151E-03 3.128223E+01  6.144307E-01 -8.020897E+01  7.516930E-01 8.675929E+00 
 8.949505E-03 3.537625E+01  7.489019E-01 8.550195E+00  6.188870E-01 -8.019891E+01 
7.728750E+02  9.651560E-01 -9.351347E+01  9.602981E-03 3.131847E+01  8.885672E-03 3.517937E+01 
 9.591766E-03 3.154639E+01  6.142956E-01 -8.022539E+01  7.520347E-01 8.649012E+00 
 8.903285E-03 3.517241E+01  7.493898E-01 8.524319E+00  6.188785E-01 -8.021118E+01 
7.730000E+02  9.653059E-01 -9.353315E+01  9.622321E-03 3.166107E+01  8.840229E-03 3.487851E+01 
 9.620158E-03 3.174327E+01  6.141423E-01 -8.024547E+01  7.522261E-01 8.625481E+00 
 8.863630E-03 3.502105E+01  7.496806E-01 8.509813E+00  6.186929E-01 -8.021160E+01 
7.731250E+02  9.653788E-01 -9.356594E+01  9.648881E-03 3.178844E+01  8.767139E-03 3.493412E+01 
 9.650273E-03 3.175728E+01  6.140431E-01 -8.024952E+01  7.524119E-01 8.610517E+00 
 8.793589E-03 3.495383E+01  7.499770E-01 8.481154E+00  6.185620E-01 -8.023732E+01 
7.732500E+02  9.656984E-01 -9.359858E+01  9.676239E-03 3.177711E+01  8.743827E-03 3.504736E+01 
 9.703298E-03 3.181955E+01  6.138801E-01 -8.028329E+01  7.526185E-01 8.575033E+00 
 8.743606E-03 3.493231E+01  7.502595E-01 8.455664E+00  6.184515E-01 -8.025541E+01 
7.733750E+02  9.653775E-01 -9.362785E+01  9.698454E-03 3.172514E+01  8.699838E-03 3.499620E+01 
 9.734006E-03 3.180664E+01  6.137874E-01 -8.030035E+01  7.529263E-01 8.542648E+00 
 8.683174E-03 3.494651E+01  7.505366E-01 8.421992E+00  6.183730E-01 -8.027385E+01 
7.735000E+02  9.654881E-01 -9.364961E+01  9.745942E-03 3.184539E+01  8.623015E-03 3.520084E+01 
 9.737584E-03 3.173094E+01  6.136779E-01 -8.033459E+01  7.531835E-01 8.506631E+00 
 8.634841E-03 3.517783E+01  7.506033E-01 8.392152E+00  6.181624E-01 -8.029147E+01 
7.736250E+02  9.655216E-01 -9.368107E+01  9.739304E-03 3.171939E+01  8.618658E-03 3.537231E+01 
 9.788053E-03 3.166821E+01  6.136109E-01 -8.036065E+01  7.534727E-01 8.482117E+00 
 8.593990E-03 3.530481E+01  7.509161E-01 8.362360E+00  6.180097E-01 -8.031139E+01 
7.737500E+02  9.655616E-01 -9.370423E+01  9.762526E-03 3.161728E+01  8.568651E-03 3.553275E+01 
 9.804541E-03 3.169011E+01  6.133405E-01 -8.038043E+01  7.535524E-01 8.458010E+00 
 8.600128E-03 3.575061E+01  7.512343E-01 8.339441E+00  6.178339E-01 -8.033848E+01 
7.738750E+02  9.656505E-01 -9.373086E+01  9.796680E-03 3.144889E+01  8.570457E-03 3.574382E+01 
 9.797846E-03 3.153608E+01  6.132130E-01 -8.040325E+01  7.537447E-01 8.430458E+00 
 8.550375E-03 3.586988E+01  7.515853E-01 8.319927E+00  6.177007E-01 -8.034796E+01 
7.740000E+02  9.654738E-01 -9.375879E+01  9.772049E-03 3.133823E+01  8.538089E-03 3.605293E+01 
 9.799322E-03 3.132370E+01  6.131504E-01 -8.042599E+01  7.540648E-01 8.397040E+00 
 8.551505E-03 3.593828E+01  7.516028E-01 8.289615E+00  6.174845E-01 -8.037142E+01 
7.741250E+02  9.656245E-01 -9.379270E+01  9.795163E-03 3.123288E+01  8.525107E-03 3.636907E+01 
 9.807969E-03 3.139256E+01  6.129087E-01 -8.045683E+01  7.542757E-01 8.362595E+00 
 8.540861E-03 3.623037E+01  7.516883E-01 8.259271E+00  6.172617E-01 -8.039324E+01 
7.742500E+02  9.654847E-01 -9.383041E+01  9.814563E-03 3.121856E+01  8.561611E-03 3.645306E+01 
 9.796207E-03 3.128690E+01  6.126268E-01 -8.048233E+01  7.542910E-01 8.328654E+00 
 8.511004E-03 3.643326E+01  7.518209E-01 8.223549E+00  6.170867E-01 -8.041806E+01 
7.743750E+02  9.654443E-01 -9.383509E+01  9.794613E-03 3.100063E+01  8.566860E-03 3.665388E+01 
 9.792963E-03 3.107858E+01  6.124713E-01 -8.049899E+01  7.543629E-01 8.303421E+00 
 8.556763E-03 3.672661E+01  7.521950E-01 8.203630E+00  6.170722E-01 -8.043287E+01 
7.745000E+02  9.656943E-01 -9.385553E+01  9.757733E-03 3.064755E+01  8.561232E-03 3.684194E+01 
 9.793036E-03 3.076196E+01  6.123545E-01 -8.051966E+01  7.544975E-01 8.283201E+00 
 8.561138E-03 3.699873E+01  7.522572E-01 8.179208E+00  6.166837E-01 -8.045452E+01 
7.746250E+02  9.657478E-01 -9.388153E+01  9.729611E-03 3.060330E+01  8.594357E-03 3.702717E+01 
 9.746430E-03 3.069611E+01  6.122006E-01 -8.054324E+01  7.545940E-01 8.259514E+00 
 8.608733E-03 3.724315E+01  7.524885E-01 8.158210E+00  6.166085E-01 -8.046996E+01 
7.747500E+02  9.661176E-01 -9.391864E+01  9.663254E-03 3.053529E+01  8.641378E-03 3.719223E+01 
 9.704169E-03 3.059562E+01  6.120428E-01 -8.058003E+01  7.547718E-01 8.221486E+00 
 8.661611E-03 3.716856E+01  7.525500E-01 8.130964E+00  6.164360E-01 -8.048994E+01 
7.748750E+02  9.660225E-01 -9.395163E+01  9.635485E-03 3.072275E+01  8.673122E-03 3.706332E+01 
 9.653828E-03 3.067667E+01  6.117929E-01 -8.060418E+01  7.549693E-01 8.194501E+00 
 8.664226E-03 3.689201E+01  7.525139E-01 8.102146E+00  6.161512E-01 -8.051792E+01 
7.750000E+02  9.659732E-01 -9.399101E+01  9.619503E-03 3.084642E+01  8.703257E-03 3.687454E+01 
 9.630780E-03 3.084677E+01  6.116845E-01 -8.063626E+01  7.551373E-01 8.169855E+00 
 8.713469E-03 3.701218E+01  7.526783E-01 8.071441E+00  6.159721E-01 -8.054122E+01 
7.751250E+02  9.661571E-01 -9.400925E+01  9.577465E-03 3.097820E+01  8.703342E-03 3.677433E+01 
 9.630832E-03 3.098621E+01  6.115479E-01 -8.066283E+01  7.551521E-01 8.151660E+00 
 8.734347E-03 3.668504E+01  7.527613E-01 8.057252E+00  6.157706E-01 -8.056319E+01 
7.752500E+02  9.662098E-01 -9.404172E+01  9.590412E-03 3.122058E+01  8.716181E-03 3.666195E+01 
 9.634133E-03 3.126387E+01  6.113060E-01 -8.069664E+01  7.552262E-01 8.119070E+00 
 8.724092E-03 3.672981E+01  7.530833E-01 8.034440E+00  6.155902E-01 -8.058060E+01 
7.753750E+02  9.662530E-01 -9.407376E+01  9.612362E-03 3.139614E+01  8.760513E-03 3.648277E+01 
 9.616163E-03 3.133153E+01  6.110810E-01 -8.071307E+01  7.552272E-01 8.103736E+00 
 8.750754E-03 3.663358E+01  7.533684E-01 8.018030E+00  6.154892E-01 -8.060269E+01 
7.755000E+02  9.663713E-01 -9.409840E+01  9.587797E-03 3.135480E+01  8.740919E-03 3.619356E+01 
 9.611697E-03 3.136297E+01  6.109397E-01 -8.074519E+01  7.554014E-01 8.079188E+00 
 8.745490E-03 3.629097E+01  7.533518E-01 7.992613E+00  6.151554E-01 -8.063804E+01 
7.756250E+02  9.664688E-01 -9.413643E+01  9.572982E-03 3.151304E+01  8.737440E-03 3.606215E+01 
 9.602398E-03 3.145100E+01  6.107596E-01 -8.079146E+01  7.557482E-01 8.039345E+00 
 8.760029E-03 3.607538E+01  7.535236E-01 7.965913E+00  6.150218E-01 -8.066303E+01 
7.757500E+02  9.664835E-01 -9.417970E+01  9.553795E-03 3.155345E+01  8.749660E-03 3.574677E+01 
 9.615287E-03 3.163104E+01  6.105226E-01 -8.082941E+01  7.559375E-01 8.018617E+00 
 8.749596E-03 3.605794E+01  7.536172E-01 7.934174E+00  6.148002E-01 -8.070038E+01 
7.758750E+02  9.664799E-01 -9.420759E+01  9.556432E-03 3.158848E+01  8.750605E-03 3.574304E+01 
 9.607533E-03 3.175713E+01  6.101805E-01 -8.087551E+01  7.558835E-01 7.991552E+00 
 8.780390E-03 3.597459E+01  7.538267E-01 7.925557E+00  6.145274E-01 -8.071656E+01 
7.760000E+02  9.667181E-01 -9.422976E+01  9.562423E-03 3.175974E+01  8.775412E-03 3.569468E+01 
 9.587268E-03 3.178375E+01  6.099071E-01 -8.089599E+01  7.560183E-01 7.971236E+00 
 8.775169E-03 3.568935E+01  7.540054E-01 7.903587E+00  6.142416E-01 -8.074392E+01 
7.761250E+02  9.666928E-01 -9.425943E+01  9.576243E-03 3.179220E+01  8.777764E-03 3.546256E+01 
 9.591449E-03 3.195834E+01  6.096330E-01 -8.092745E+01  7.562513E-01 7.943630E+00 
 8.769598E-03 3.556027E+01  7.541556E-01 7.886874E+00  6.138652E-01 -8.076153E+01 
7.762500E+02  9.668265E-01 -9.431255E+01  9.545999E-03 3.211698E+01  8.797682E-03 3.508545E+01 
 9.575259E-03 3.200022E+01  6.092665E-01 -8.094053E+01  7.563691E-01 7.922086E+00 
 8.782593E-03 3.519973E+01  7.544872E-01 7.864486E+00  6.136395E-01 -8.078861E+01 
7.763750E+02  9.665650E-01 -9.434811E+01  9.531431E-03 3.235591E+01  8.792383E-03 3.494906E+01 
 9.564045E-03 3.234384E+01  6.089133E-01 -8.097236E+01  7.565859E-01 7.898412E+00 
 8.794206E-03 3.495302E+01  7.544066E-01 7.833356E+00  6.132806E-01 -8.082811E+01 
7.765000E+02  9.665999E-01 -9.437675E+01  9.547381E-03 3.261378E+01  8.764628E-03 3.440754E+01 
 9.582696E-03 3.254465E+01  6.084157E-01 -8.098966E+01  7.565135E-01 7.880945E+00 
 8.786395E-03 3.454857E+01  7.545311E-01 7.811923E+00  6.128488E-01 -8.084569E+01 
7.766250E+02  9.666885E-01 -9.440464E+01  9.584878E-03 3.262148E+01  8.783208E-03 3.403006E+01 
 9.598185E-03 3.276522E+01  6.082052E-01 -8.099776E+01  7.566141E-01 7.866916E+00 
 8.783472E-03 3.400593E+01  7.547179E-01 7.797237E+00  6.125540E-01 -8.085935E+01 
7.767500E+02  9.666500E-01 -9.444741E+01  9.589480E-03 3.299427E+01  8.742121E-03 3.375512E+01 
 9.613026E-03 3.303802E+01  6.079736E-01 -8.101778E+01  7.568615E-01 7.849625E+00 
 8.753252E-03 3.366455E+01  7.548259E-01 7.763662E+00  6.123553E-01 -8.089576E+01 
7.768750E+02  9.667197E-01 -9.449628E+01  9.602309E-03 3.329287E+01  8.740267E-03 3.329251E+01 
 9.632479E-03 3.327217E+01  6.075987E-01 -8.103738E+01  7.570189E-01 7.824354E+00 
 8.704093E-03 3.321150E+01  7.548636E-01 7.740675E+00  6.120234E-01 -8.091015E+01 
7.770000E+02  9.665305E-01 -9.453140E+01  9.627665E-03 3.348392E+01  8.650677E-03 3.269879E+01 
 9.634157E-03 3.365087E+01  6.074478E-01 -8.107054E+01  7.573178E-01 7.788082E+00 
 8.661971E-03 3.286897E+01  7.547841E-01 7.714823E+00  6.116924E-01 -8.094135E+01 
7.771250E+02  9.664704E-01 -9.456286E+01  9.689528E-03 3.374822E+01  8.624509E-03 3.244342E+01 
 9.701444E-03 3.373870E+01  6.070034E-01 -8.107180E+01  7.572159E-01 7.771164E+00 
 8.587466E-03 3.238188E+01  7.550014E-01 7.690024E+00  6.114347E-01 -8.096057E+01 
7.772500E+02  9.664411E-01 -9.459619E+01  9.739617E-03 3.417711E+01  8.523694E-03 3.211170E+01 
 9.786551E-03 3.412116E+01  6.067473E-01 -8.108667E+01  7.573226E-01 7.758642E+00 
 8.544319E-03 3.226900E+01  7.552767E-01 7.685058E+00  6.112446E-01 -8.096943E+01 
7.773750E+02  9.664193E-01 -9.462989E+01  9.870897E-03 3.441637E+01  8.489756E-03 3.175265E+01 
 9.879445E-03 3.434172E+01  6.064340E-01 -8.109126E+01  7.572637E-01 7.738466E+00 
 8.460704E-03 3.183476E+01  7.554795E-01 7.672554E+00  6.109561E-01 -8.098384E+01 
7.775000E+02  9.662779E-01 -9.465921E+01  9.952738E-03 3.438412E+01  8.372196E-03 3.147842E+01 
 9.981462E-03 3.432598E+01  6.063818E-01 -8.111396E+01  7.575012E-01 7.722252E+00 
 8.388780E-03 3.139582E+01  7.555194E-01 7.633348E+00  6.107466E-01 -8.102010E+01 
7.776250E+02  9.663344E-01 -9.470130E+01  1.007344E-02 3.414211E+01  8.273188E-03 3.132050E+01 
 1.009413E-02 3.412546E+01  6.061055E-01 -8.113384E+01  7.577560E-01 7.703679E+00 
 8.263068E-03 3.122104E+01  7.556458E-01 7.634238E+00  6.105950E-01 -8.102851E+01 
7.777500E+02  9.662828E-01 -9.472817E+01  1.017331E-02 3.381962E+01  8.155670E-03 3.133055E+01 
 1.020093E-02 3.378368E+01  6.058633E-01 -8.117555E+01  7.578742E-01 7.660802E+00 
 8.175687E-03 3.130821E+01  7.556583E-01 7.601787E+00  6.104052E-01 -8.106615E+01 
7.778750E+02  9.661613E-01 -9.474955E+01  1.021062E-02 3.333073E+01  8.064353E-03 3.125589E+01 
 1.026154E-02 3.343851E+01  6.057916E-01 -8.119486E+01  7.580813E-01 7.644986E+00 
 8.100292E-03 3.149818E+01  7.557713E-01 7.575633E+00  6.101759E-01 -8.109271E+01 
7.780000E+02  9.662465E-01 -9.477316E+01  1.029949E-02 3.297999E+01  7.996331E-03 3.153438E+01 
 1.029599E-02 3.290326E+01  6.054114E-01 -8.120078E+01  7.579932E-01 7.644361E+00 
 7.991150E-03 3.140956E+01  7.560176E-01 7.552716E+00  6.098850E-01 -8.113028E+01 
7.781250E+02  9.663743E-01 -9.480551E+01  1.030943E-02 3.256942E+01  7.900141E-03 3.196514E+01 
 1.034342E-02 3.263256E+01  6.051177E-01 -8.122937E+01  7.579965E-01 7.627850E+00 
 7.879587E-03 3.171119E+01  7.562345E-01 7.543888E+00  6.096632E-01 -8.115106E+01 
7.782500E+02  9.664890E-01 -9.483812E+01  1.034772E-02 3.210599E+01  7.808925E-03 3.240714E+01 
