! Matrix data file written by TouchstoneData, EPCOS AG
! FILENAME: "B3908.NB.s2p_newformat"
! COMMENT: "(B3908.NB.s2p)"
! INFO: nport=2, nfreq=801
! DATE: "Thu Apr 29 09:36:48 2010"
! USER: "Michael Schemies"
!
! port | pin | signal
! -----|-----|--------
!   1  |  2  |  in
!   2  |  5  |  out
! --------------------
! 
# MHZ S MA R 50
! freq  magS11 angS11  magS21 angS21  magS12 angS12  magS22 angS22
6.500000E+02  9.759513E-01 -9.081215E+01  1.453933E-04 1.741330E+02  1.449937E-04 1.744545E+02  9.701057E-01 -8.837598E+01 
6.505000E+02  9.756305E-01 -9.087449E+01  1.415134E-04 1.696621E+02  1.410518E-04 1.709622E+02  9.699798E-01 -8.842063E+01 
6.510000E+02  9.752975E-01 -9.093440E+01  1.500368E-04 1.699760E+02  1.471151E-04 1.692818E+02  9.701297E-01 -8.849493E+01 
6.515000E+02  9.749965E-01 -9.099644E+01  1.528564E-04 1.693939E+02  1.510838E-04 1.713965E+02  9.705080E-01 -8.857446E+01 
6.520000E+02  9.755722E-01 -9.105331E+01  1.666285E-04 1.683643E+02  1.609662E-04 1.701926E+02  9.705956E-01 -8.864015E+01 
6.525000E+02  9.756622E-01 -9.111996E+01  1.729635E-04 1.668281E+02  1.707305E-04 1.675760E+02  9.702742E-01 -8.871307E+01 
6.530000E+02  9.757214E-01 -9.121720E+01  1.641222E-04 1.660918E+02  1.694452E-04 1.667061E+02  9.701283E-01 -8.877812E+01 
6.535000E+02  9.756378E-01 -9.129067E+01  1.777289E-04 1.644436E+02  1.730397E-04 1.629200E+02  9.701583E-01 -8.883861E+01 
6.540000E+02  9.755563E-01 -9.136479E+01  1.736243E-04 1.611072E+02  1.719697E-04 1.619224E+02  9.705176E-01 -8.890005E+01 
6.545000E+02  9.755706E-01 -9.143505E+01  1.803703E-04 1.631672E+02  1.703519E-04 1.630888E+02  9.706318E-01 -8.895273E+01 
6.550000E+02  9.757404E-01 -9.147660E+01  1.754710E-04 1.559002E+02  1.709869E-04 1.584613E+02  9.706131E-01 -8.903948E+01 
6.555000E+02  9.758747E-01 -9.158080E+01  1.818541E-04 1.587884E+02  1.789898E-04 1.585099E+02  9.704970E-01 -8.913908E+01 
6.560000E+02  9.761427E-01 -9.167655E+01  1.781597E-04 1.583969E+02  1.812112E-04 1.569112E+02  9.702607E-01 -8.920451E+01 
6.565000E+02  9.759174E-01 -9.176379E+01  1.838491E-04 1.525552E+02  1.858884E-04 1.541681E+02  9.699900E-01 -8.926312E+01 
6.570000E+02  9.759710E-01 -9.184956E+01  1.750521E-04 1.512381E+02  1.727293E-04 1.501776E+02  9.700725E-01 -8.930709E+01 
6.575000E+02  9.758019E-01 -9.193749E+01  1.840499E-04 1.492483E+02  1.817049E-04 1.482897E+02  9.702313E-01 -8.938667E+01 
6.580000E+02  9.756614E-01 -9.201455E+01  1.837039E-04 1.517285E+02  1.823837E-04 1.509235E+02  9.706363E-01 -8.946711E+01 
6.585000E+02  9.759595E-01 -9.209126E+01  1.751418E-04 1.487449E+02  1.796923E-04 1.494757E+02  9.707063E-01 -8.955155E+01 
6.590000E+02  9.758746E-01 -9.215333E+01  1.805353E-04 1.434194E+02  1.809745E-04 1.418011E+02  9.704337E-01 -8.962295E+01 
6.595000E+02  9.757931E-01 -9.223755E+01  1.770017E-04 1.430076E+02  1.753803E-04 1.449158E+02  9.704573E-01 -8.969849E+01 
6.600000E+02  9.758254E-01 -9.229929E+01  1.678293E-04 1.426823E+02  1.608876E-04 1.421149E+02  9.703210E-01 -8.975094E+01 
6.605000E+02  9.758144E-01 -9.236359E+01  1.640356E-04 1.395358E+02  1.676883E-04 1.404123E+02  9.707972E-01 -8.981196E+01 
6.610000E+02  9.758314E-01 -9.243118E+01  1.550568E-04 1.360072E+02  1.576660E-04 1.382025E+02  9.711162E-01 -8.987069E+01 
6.615000E+02  9.760363E-01 -9.249808E+01  1.448374E-04 1.360837E+02  1.428312E-04 1.377482E+02  9.712480E-01 -8.997228E+01 
6.620000E+02  9.761683E-01 -9.258659E+01  1.456672E-04 1.397845E+02  1.516596E-04 1.393904E+02  9.712901E-01 -9.006778E+01 
6.625000E+02  9.765030E-01 -9.268117E+01  1.440446E-04 1.423648E+02  1.384707E-04 1.412191E+02  9.712279E-01 -9.012734E+01 
6.630000E+02  9.764156E-01 -9.277078E+01  1.461456E-04 1.420715E+02  1.380283E-04 1.436071E+02  9.712956E-01 -9.022020E+01 
6.635000E+02  9.763227E-01 -9.285809E+01  1.566477E-04 1.397518E+02  1.507849E-04 1.414625E+02  9.714213E-01 -9.029281E+01 
6.640000E+02  9.761840E-01 -9.293519E+01  1.478824E-04 1.373688E+02  1.466316E-04 1.334192E+02  9.713871E-01 -9.036484E+01 
6.645000E+02  9.763883E-01 -9.301208E+01  1.301495E-04 1.379716E+02  1.251643E-04 1.378264E+02  9.718094E-01 -9.045033E+01 
6.650000E+02  9.765462E-01 -9.309329E+01  1.197146E-04 1.409218E+02  1.257863E-04 1.395716E+02  9.717699E-01 -9.052835E+01 
6.655000E+02  9.767010E-01 -9.317368E+01  1.142415E-04 1.444263E+02  1.220141E-04 1.431103E+02  9.717603E-01 -9.060013E+01 
6.660000E+02  9.766624E-01 -9.326710E+01  1.255682E-04 1.454394E+02  1.273819E-04 1.452212E+02  9.718395E-01 -9.068060E+01 
6.665000E+02  9.766682E-01 -9.334601E+01  1.243570E-04 1.460638E+02  1.240043E-04 1.472414E+02  9.718084E-01 -9.074949E+01 
6.670000E+02  9.766751E-01 -9.342474E+01  1.149052E-04 1.518708E+02  1.139001E-04 1.490882E+02  9.718234E-01 -9.082903E+01 
6.675000E+02  9.765498E-01 -9.351764E+01  1.169175E-04 1.480170E+02  1.131496E-04 1.473655E+02  9.718132E-01 -9.091477E+01 
6.680000E+02  9.765048E-01 -9.360447E+01  1.099374E-04 1.466471E+02  1.084329E-04 1.470995E+02  9.715915E-01 -9.100228E+01 
6.685000E+02  9.763916E-01 -9.368498E+01  9.865385E-05 1.518320E+02  9.912152E-05 1.519113E+02  9.715785E-01 -9.107072E+01 
6.690000E+02  9.764238E-01 -9.376768E+01  1.036696E-04 1.567994E+02  1.057414E-04 1.580376E+02  9.717331E-01 -9.114858E+01 
6.695000E+02  9.764277E-01 -9.384953E+01  1.032741E-04 1.654312E+02  1.105058E-04 1.620072E+02  9.717808E-01 -9.123053E+01 
6.700000E+02  9.765253E-01 -9.393325E+01  1.143169E-04 1.637371E+02  1.111237E-04 1.654966E+02  9.718275E-01 -9.130838E+01 
6.705000E+02  9.765695E-01 -9.402368E+01  1.213831E-04 1.688901E+02  1.239640E-04 1.685082E+02  9.718944E-01 -9.139092E+01 
6.710000E+02  9.765911E-01 -9.410792E+01  1.247333E-04 1.701077E+02  1.250065E-04 1.698614E+02  9.719434E-01 -9.147501E+01 
6.715000E+02  9.766451E-01 -9.419256E+01  1.331555E-04 1.691780E+02  1.338521E-04 1.693516E+02  9.719391E-01 -9.155520E+01 
6.720000E+02  9.767020E-01 -9.427925E+01  1.419368E-04 1.696296E+02  1.365294E-04 1.688065E+02  9.719934E-01 -9.164041E+01 
6.725000E+02  9.767261E-01 -9.436670E+01  1.414704E-04 1.699080E+02  1.471701E-04 1.682682E+02  9.719744E-01 -9.172663E+01 
6.730000E+02  9.767994E-01 -9.445593E+01  1.459496E-04 1.700557E+02  1.473960E-04 1.713621E+02  9.719013E-01 -9.181033E+01 
6.735000E+02  9.767297E-01 -9.456097E+01  1.442027E-04 1.698392E+02  1.532273E-04 1.702995E+02  9.719291E-01 -9.189639E+01 
6.740000E+02  9.766183E-01 -9.466443E+01  1.565817E-04 1.731046E+02  1.548861E-04 1.737993E+02  9.719311E-01 -9.198951E+01 
6.745000E+02  9.765669E-01 -9.474535E+01  1.744928E-04 1.746188E+02  1.695608E-04 1.759036E+02  9.717939E-01 -9.207088E+01 
6.750000E+02  9.764869E-01 -9.483178E+01  1.867462E-04 1.743899E+02  1.864978E-04 1.760000E+02  9.716947E-01 -9.215610E+01 
6.755000E+02  9.763351E-01 -9.492468E+01  1.883740E-04 1.729453E+02  1.953593E-04 1.720248E+02  9.715608E-01 -9.224473E+01 
6.760000E+02  9.761929E-01 -9.501384E+01  1.982921E-04 1.691374E+02  2.006947E-04 1.686230E+02  9.713879E-01 -9.232992E+01 
6.765000E+02  9.759704E-01 -9.510773E+01  2.036103E-04 1.662361E+02  2.056293E-04 1.666550E+02  9.712010E-01 -9.241892E+01 
6.770000E+02  9.757107E-01 -9.520041E+01  2.010961E-04 1.654024E+02  1.987015E-04 1.644172E+02  9.710464E-01 -9.250985E+01 
6.775000E+02  9.754717E-01 -9.528867E+01  2.092325E-04 1.656709E+02  2.119715E-04 1.666241E+02  9.708474E-01 -9.260377E+01 
6.780000E+02  9.753969E-01 -9.538876E+01  2.111087E-04 1.673120E+02  2.143789E-04 1.668979E+02  9.707119E-01 -9.271363E+01 
6.785000E+02  9.741863E-01 -9.568772E+01  2.362330E-04 1.649041E+02  2.436306E-04 1.648769E+02  9.656598E-01 -9.318344E+01 
6.790000E+02  9.751390E-01 -9.539421E+01  2.273194E-04 1.620659E+02  2.241932E-04 1.625779E+02  9.704411E-01 -9.273548E+01 
6.795000E+02  9.752667E-01 -9.554669E+01  2.427164E-04 1.565634E+02  2.350737E-04 1.556852E+02  9.705398E-01 -9.287265E+01 
6.800000E+02  9.751561E-01 -9.565365E+01  2.219586E-04 1.543390E+02  2.260570E-04 1.539106E+02  9.703294E-01 -9.296980E+01 
6.805000E+02  9.750086E-01 -9.573193E+01  2.136287E-04 1.510526E+02  2.191628E-04 1.510718E+02  9.703260E-01 -9.307734E+01 
6.810000E+02  9.749851E-01 -9.581482E+01  2.214350E-04 1.550726E+02  2.274881E-04 1.542686E+02  9.701970E-01 -9.316633E+01 
6.815000E+02  9.750928E-01 -9.590228E+01  2.333176E-04 1.545370E+02  2.371580E-04 1.543449E+02  9.699554E-01 -9.325442E+01 
6.820000E+02  9.749333E-01 -9.599256E+01  2.385562E-04 1.524265E+02  2.429052E-04 1.525522E+02  9.699048E-01 -9.332539E+01 
6.825000E+02  9.748165E-01 -9.607453E+01  2.488625E-04 1.492170E+02  2.507397E-04 1.485744E+02  9.698650E-01 -9.339697E+01 
6.830000E+02  9.743089E-01 -9.616700E+01  2.473938E-04 1.425269E+02  2.506690E-04 1.421720E+02  9.696460E-01 -9.346768E+01 
6.835000E+02  9.744297E-01 -9.625690E+01  2.349782E-04 1.438992E+02  2.255646E-04 1.431876E+02  9.698256E-01 -9.355356E+01 
6.840000E+02  9.738121E-01 -9.637112E+01  2.332702E-04 1.422451E+02  2.279236E-04 1.411628E+02  9.696894E-01 -9.365897E+01 
6.845000E+02  9.736536E-01 -9.643925E+01  2.293891E-04 1.419597E+02  2.265273E-04 1.429010E+02  9.696142E-01 -9.374276E+01 
6.850000E+02  9.735133E-01 -9.654205E+01  2.345045E-04 1.403135E+02  2.400800E-04 1.413105E+02  9.692262E-01 -9.383249E+01 
6.855000E+02  9.731251E-01 -9.663873E+01  2.357844E-04 1.391902E+02  2.392990E-04 1.394481E+02  9.686062E-01 -9.392427E+01 
6.860000E+02  9.727699E-01 -9.672721E+01  2.399256E-04 1.365254E+02  2.399749E-04 1.373033E+02  9.682576E-01 -9.398887E+01 
6.865000E+02  9.724837E-01 -9.679974E+01  2.254356E-04 1.317688E+02  2.131571E-04 1.335431E+02  9.680030E-01 -9.404679E+01 
6.870000E+02  9.720507E-01 -9.687115E+01  2.253883E-04 1.276072E+02  2.238729E-04 1.300241E+02  9.680067E-01 -9.413704E+01 
6.875000E+02  9.717469E-01 -9.693795E+01  2.105691E-04 1.311531E+02  2.179829E-04 1.307383E+02  9.675775E-01 -9.418808E+01 
6.880000E+02  9.721505E-01 -9.700122E+01  2.056018E-04 1.294102E+02  2.080924E-04 1.293625E+02  9.676299E-01 -9.429795E+01 
6.885000E+02  9.721510E-01 -9.709058E+01  2.043155E-04 1.319896E+02  1.994532E-04 1.307513E+02  9.675943E-01 -9.437639E+01 
6.890000E+02  9.721588E-01 -9.717309E+01  2.070270E-04 1.286446E+02  2.045450E-04 1.274285E+02  9.675065E-01 -9.444158E+01 
6.895000E+02  9.717252E-01 -9.723836E+01  2.012722E-04 1.198043E+02  2.066521E-04 1.184577E+02  9.672936E-01 -9.451298E+01 
6.900000E+02  9.717593E-01 -9.734071E+01  1.843766E-04 1.206133E+02  1.816110E-04 1.218510E+02  9.676330E-01 -9.459975E+01 
6.905000E+02  9.716658E-01 -9.738892E+01  1.765736E-04 1.137716E+02  1.811175E-04 1.183906E+02  9.674472E-01 -9.466004E+01 
6.910000E+02  9.716532E-01 -9.743871E+01  1.649270E-04 1.163466E+02  1.517554E-04 1.171611E+02  9.677795E-01 -9.475506E+01 
6.915000E+02  9.717237E-01 -9.752743E+01  1.488665E-04 1.132803E+02  1.470026E-04 1.176023E+02  9.674580E-01 -9.480847E+01 
6.920000E+02  9.717224E-01 -9.762989E+01  1.387321E-04 1.237368E+02  1.355545E-04 1.218316E+02  9.674384E-01 -9.491158E+01 
6.925000E+02  9.715002E-01 -9.773646E+01  1.420253E-04 1.261373E+02  1.441008E-04 1.259491E+02  9.672784E-01 -9.500880E+01 
6.930000E+02  9.713687E-01 -9.780850E+01  1.240191E-04 1.226139E+02  1.132535E-04 1.234501E+02  9.670645E-01 -9.506747E+01 
6.935000E+02  9.708154E-01 -9.788970E+01  1.449467E-04 1.292509E+02  1.432242E-04 1.306672E+02  9.666469E-01 -9.515280E+01 
6.940000E+02  9.706795E-01 -9.796252E+01  1.282925E-04 1.259349E+02  1.334454E-04 1.299203E+02  9.673534E-01 -9.522384E+01 
6.945000E+02  9.706676E-01 -9.802980E+01  1.456666E-04 1.197145E+02  1.457560E-04 1.199280E+02  9.665513E-01 -9.534484E+01 
6.950000E+02  9.705204E-01 -9.810289E+01  1.208147E-04 1.120363E+02  1.156368E-04 1.114890E+02  9.662547E-01 -9.540174E+01 
6.955000E+02  9.703300E-01 -9.818302E+01  9.975248E-05 1.193107E+02  1.014370E-04 1.229858E+02  9.658295E-01 -9.544368E+01 
6.960000E+02  9.697405E-01 -9.821334E+01  9.423666E-05 1.098736E+02  8.747930E-05 1.050810E+02  9.655471E-01 -9.547759E+01 
6.965000E+02  9.700789E-01 -9.829429E+01  7.748741E-05 1.243320E+02  7.631143E-05 1.244433E+02  9.660015E-01 -9.554773E+01 
6.970000E+02  9.703578E-01 -9.834012E+01  4.832580E-05 1.385397E+02  6.499615E-05 1.285170E+02  9.660177E-01 -9.561420E+01 
6.975000E+02  9.704281E-01 -9.840611E+01  5.440388E-05 1.400093E+02  6.385456E-05 1.411650E+02  9.663578E-01 -9.573589E+01 
6.980000E+02  9.708441E-01 -9.849789E+01  4.892199E-05 1.264487E+02  4.716667E-05 1.354316E+02  9.662961E-01 -9.579420E+01 
6.985000E+02  9.708654E-01 -9.857379E+01  3.248585E-05 1.594427E+02  4.131435E-05 1.618068E+02  9.660768E-01 -9.588637E+01 
6.990000E+02  9.709098E-01 -9.866964E+01  4.798335E-05 -1.457268E+02  4.185636E-05 -1.547866E+02  9.662077E-01 -9.598279E+01 
6.995000E+02  9.711658E-01 -9.874574E+01  6.730801E-05 -1.478666E+02  6.504235E-05 -1.519652E+02  9.663520E-01 -9.604050E+01 
7.000000E+02  9.709490E-01 -9.882279E+01  9.287408E-05 -1.564228E+02  9.344631E-05 -1.567004E+02  9.664647E-01 -9.613072E+01 
7.005000E+02  9.711143E-01 -9.891201E+01  1.077077E-04 -1.567986E+02  1.066545E-04 -1.578687E+02  9.669099E-01 -9.621711E+01 
7.010000E+02  9.712309E-01 -9.898555E+01  1.175773E-04 -1.649845E+02  1.210095E-04 -1.624206E+02  9.664767E-01 -9.630767E+01 
7.015000E+02  9.715388E-01 -9.907380E+01  1.334504E-04 -1.622705E+02  1.351729E-04 -1.620350E+02  9.669783E-01 -9.640218E+01 
7.020000E+02  9.715762E-01 -9.917956E+01  1.345507E-04 -1.585035E+02  1.298536E-04 -1.638087E+02  9.666054E-01 -9.647882E+01 
7.025000E+02  9.713747E-01 -9.925655E+01  1.548864E-04 -1.630656E+02  1.525444E-04 -1.592113E+02  9.661754E-01 -9.654681E+01 
7.030000E+02  9.712692E-01 -9.936256E+01  1.708029E-04 -1.658428E+02  1.577561E-04 -1.684256E+02  9.664379E-01 -9.661745E+01 
7.035000E+02  9.712662E-01 -9.946003E+01  1.710591E-04 -1.692837E+02  1.754219E-04 -1.679402E+02  9.664380E-01 -9.672045E+01 
7.040000E+02  9.710111E-01 -9.954130E+01  1.760226E-04 -1.663217E+02  1.779662E-04 -1.679843E+02  9.665741E-01 -9.683606E+01 
7.045000E+02  9.712674E-01 -9.964877E+01  1.755092E-04 -1.697889E+02  1.773865E-04 -1.732189E+02  9.667986E-01 -9.693331E+01 
7.050000E+02  9.714633E-01 -9.975758E+01  1.823743E-04 -1.629705E+02  1.777582E-04 -1.668334E+02  9.665798E-01 -9.706277E+01 
7.055000E+02  9.714783E-01 -9.986481E+01  1.913463E-04 -1.659755E+02  1.911334E-04 -1.663983E+02  9.667338E-01 -9.717894E+01 
7.060000E+02  9.717373E-01 -9.997470E+01  2.145314E-04 -1.685354E+02  2.135697E-04 -1.668578E+02  9.665760E-01 -9.729157E+01 
7.065000E+02  9.716990E-01 -1.000537E+02  2.242323E-04 -1.699975E+02  2.306940E-04 -1.700065E+02  9.664857E-01 -9.735855E+01 
7.070000E+02  9.715748E-01 -1.001575E+02  2.341856E-04 -1.766274E+02  2.389115E-04 -1.769887E+02  9.667043E-01 -9.742560E+01 
7.075000E+02  9.711336E-01 -1.002771E+02  2.338776E-04 -1.779645E+02  2.293556E-04 -1.779111E+02  9.664785E-01 -9.753591E+01 
7.080000E+02  9.674908E-01 -1.004027E+02  2.354551E-04 -1.714831E+02  2.313488E-04 -1.735034E+02  9.648752E-01 -9.768534E+01 
7.085000E+02  9.663315E-01 -1.000416E+02  2.605360E-04 -1.761398E+02  2.683427E-04 -1.773077E+02  9.595910E-01 -9.752664E+01 
7.090000E+02  9.711253E-01 -1.000991E+02  2.584436E-04 1.766769E+02  2.630034E-04 1.761993E+02  9.650580E-01 -9.738478E+01 
7.095000E+02  9.723477E-01 -1.002685E+02  2.526895E-04 1.755840E+02  2.545504E-04 1.760635E+02  9.669059E-01 -9.754250E+01 
7.100000E+02  9.727614E-01 -1.004011E+02  2.667243E-04 1.745664E+02  2.680815E-04 1.718879E+02  9.676745E-01 -9.766991E+01 
7.105000E+02  9.729498E-01 -1.005176E+02  2.750295E-04 1.695497E+02  2.665785E-04 1.699092E+02  9.680023E-01 -9.779036E+01 
7.110000E+02  9.729200E-01 -1.006326E+02  2.607741E-04 1.687820E+02  2.569858E-04 1.687835E+02  9.681321E-01 -9.791027E+01 
7.115000E+02  9.730515E-01 -1.007271E+02  2.556805E-04 1.677437E+02  2.574283E-04 1.663322E+02  9.681165E-01 -9.801856E+01 
7.120000E+02  9.730612E-01 -1.008310E+02  2.652297E-04 1.680278E+02  2.644462E-04 1.679185E+02  9.680573E-01 -9.812649E+01 
7.125000E+02  9.731828E-01 -1.009264E+02  2.633322E-04 1.656825E+02  2.549757E-04 1.642999E+02  9.679767E-01 -9.821756E+01 
7.130000E+02  9.731136E-01 -1.010204E+02  2.487951E-04 1.633542E+02  2.573469E-04 1.620250E+02  9.681062E-01 -9.831319E+01 
7.135000E+02  9.732504E-01 -1.011098E+02  2.548986E-04 1.655777E+02  2.505166E-04 1.646517E+02  9.683055E-01 -9.840737E+01 
7.140000E+02  9.733965E-01 -1.012127E+02  2.481009E-04 1.629219E+02  2.528881E-04 1.631116E+02  9.685003E-01 -9.851350E+01 
7.145000E+02  9.733510E-01 -1.013134E+02  2.518899E-04 1.640390E+02  2.429658E-04 1.632548E+02  9.685521E-01 -9.862507E+01 
7.150000E+02  9.734428E-01 -1.014076E+02  2.504253E-04 1.599210E+02  2.506780E-04 1.610151E+02  9.684965E-01 -9.872600E+01 
7.155000E+02  9.734938E-01 -1.015130E+02  2.412047E-04 1.593450E+02  2.504598E-04 1.598135E+02  9.686629E-01 -9.882795E+01 
7.160000E+02  9.733991E-01 -1.016146E+02  2.428423E-04 1.598548E+02  2.477321E-04 1.603676E+02  9.686101E-01 -9.893782E+01 
7.165000E+02  9.735347E-01 -1.017125E+02  2.370276E-04 1.575786E+02  2.331618E-04 1.572802E+02  9.685463E-01 -9.903183E+01 
7.170000E+02  9.735660E-01 -1.018187E+02  2.245658E-04 1.559932E+02  2.261530E-04 1.557074E+02  9.686105E-01 -9.913865E+01 
7.175000E+02  9.734357E-01 -1.019281E+02  2.138255E-04 1.572410E+02  2.123032E-04 1.574234E+02  9.685658E-01 -9.924712E+01 
7.180000E+02  9.733901E-01 -1.020234E+02  2.026374E-04 1.617168E+02  2.054029E-04 1.616427E+02  9.684622E-01 -9.935076E+01 
7.185000E+02  9.734338E-01 -1.021281E+02  2.049304E-04 1.630121E+02  2.102669E-04 1.635880E+02  9.684764E-01 -9.945211E+01 
7.190000E+02  9.733412E-01 -1.022389E+02  2.090155E-04 1.668419E+02  2.141677E-04 1.670706E+02  9.684453E-01 -9.956551E+01 
7.195000E+02  9.731560E-01 -1.023484E+02  2.335764E-04 1.672458E+02  2.209454E-04 1.661803E+02  9.682103E-01 -9.967501E+01 
7.200000E+02  9.730084E-01 -1.024457E+02  2.266598E-04 1.652034E+02  2.241586E-04 1.642843E+02  9.680274E-01 -9.977829E+01 
7.205000E+02  9.729190E-01 -1.025539E+02  2.208729E-04 1.644391E+02  2.166272E-04 1.637748E+02  9.678558E-01 -9.988092E+01 
7.210000E+02  9.727071E-01 -1.026671E+02  2.219139E-04 1.677029E+02  2.086513E-04 1.686043E+02  9.676484E-01 -9.999747E+01 
7.215000E+02  9.722153E-01 -1.027929E+02  2.117650E-04 1.725378E+02  2.195594E-04 1.690778E+02  9.675844E-01 -1.001431E+02 
7.220000E+02  9.719392E-01 -1.029000E+02  2.340072E-04 1.721134E+02  2.309636E-04 1.730089E+02  9.674462E-01 -1.002751E+02 
7.225000E+02  9.718275E-01 -1.029935E+02  2.407617E-04 1.702144E+02  2.386003E-04 1.728431E+02  9.674573E-01 -1.003719E+02 
7.230000E+02  9.717167E-01 -1.030942E+02  2.447775E-04 1.729993E+02  2.445767E-04 1.717371E+02  9.673800E-01 -1.004757E+02 
7.235000E+02  9.715904E-01 -1.031799E+02  2.414896E-04 1.716571E+02  2.476890E-04 1.711733E+02  9.670569E-01 -1.005885E+02 
7.240000E+02  9.715604E-01 -1.032733E+02  2.598263E-04 1.734435E+02  2.641514E-04 1.733164E+02  9.666642E-01 -1.006839E+02 
7.245000E+02  9.716515E-01 -1.033787E+02  2.713142E-04 1.709950E+02  2.681652E-04 1.719031E+02  9.664157E-01 -1.007662E+02 
7.250000E+02  9.714243E-01 -1.034805E+02  2.801434E-04 1.712700E+02  2.777623E-04 1.705568E+02  9.660729E-01 -1.008789E+02 
7.255000E+02  9.711895E-01 -1.035864E+02  2.754694E-04 1.716607E+02  2.824681E-04 1.709232E+02  9.658446E-01 -1.009615E+02 
7.260000E+02  9.709905E-01 -1.036814E+02  2.855817E-04 1.709239E+02  2.895255E-04 1.724874E+02  9.654268E-01 -1.010543E+02 
7.265000E+02  9.706340E-01 -1.037739E+02  2.942844E-04 1.691926E+02  2.969179E-04 1.703349E+02  9.650706E-01 -1.011467E+02 
7.270000E+02  9.705736E-01 -1.038900E+02  2.928252E-04 1.712401E+02  3.006918E-04 1.713910E+02  9.644502E-01 -1.012251E+02 
7.275000E+02  9.702330E-01 -1.039991E+02  3.182422E-04 1.699546E+02  3.198167E-04 1.690280E+02  9.639676E-01 -1.013143E+02 
7.280000E+02  9.697371E-01 -1.041240E+02  3.336183E-04 1.685145E+02  3.320028E-04 1.688406E+02  9.640159E-01 -1.014031E+02 
