! Matrix data file written by TouchstoneData, EPCOS AG
! FILENAME: "LY09A.NB.s3p_newformat"
! COMMENT: "(LY09A.NB.s3p)"
! INFO: nport=3, nfreq=1601
! DATE: "Wed Sep  9 09:42:43 2009"
! USER: "Michael Schemies"
!
! port | pin | signal
! -----|-----|--------
!   1  |  2  |  in
!   2  |  4  |  out
!   3  |  6  |  out
! --------------------
! 
# MHZ S MA R 50
! freq  magS11 angS11  magS12 angS12  magS13 angS13  ...
2.900000E+02  9.783831E-01 -8.133202E+01  6.382646E-03 4.221139E+01  6.061891E-03 4.301147E+01 
 6.380361E-03 4.235061E+01  9.340943E-01 -3.189626E+01  3.394193E-01 5.762864E+01 
 6.051493E-03 4.314743E+01  3.393007E-01 5.762709E+01  9.279068E-01 -3.156315E+01 
2.900312E+02  9.784654E-01 -8.136798E+01  6.381354E-03 4.223662E+01  6.055874E-03 4.304386E+01 
 6.378440E-03 4.237266E+01  9.340528E-01 -3.190750E+01  3.396655E-01 5.761887E+01 
 6.044446E-03 4.311998E+01  3.395358E-01 5.761703E+01  9.278254E-01 -3.157392E+01 
2.900625E+02  9.785417E-01 -8.140471E+01  6.381027E-03 4.224732E+01  6.054125E-03 4.304163E+01 
 6.381235E-03 4.237901E+01  9.340129E-01 -3.192218E+01  3.399087E-01 5.760740E+01 
 6.040661E-03 4.316356E+01  3.397825E-01 5.760607E+01  9.277579E-01 -3.158490E+01 
2.900938E+02  9.786312E-01 -8.144164E+01  6.382006E-03 4.224606E+01  6.048666E-03 4.302204E+01 
 6.381435E-03 4.238206E+01  9.339592E-01 -3.193506E+01  3.401632E-01 5.759579E+01 
 6.039321E-03 4.311525E+01  3.400264E-01 5.759581E+01  9.277083E-01 -3.159552E+01 
2.901250E+02  9.787533E-01 -8.147741E+01  6.386985E-03 4.226014E+01  6.043142E-03 4.299388E+01 
 6.383641E-03 4.235845E+01  9.339266E-01 -3.194903E+01  3.404099E-01 5.758467E+01 
 6.031498E-03 4.310930E+01  3.402687E-01 5.758270E+01  9.276613E-01 -3.160620E+01 
2.901562E+02  9.788515E-01 -8.151639E+01  6.389795E-03 4.223629E+01  6.035140E-03 4.300199E+01 
 6.386535E-03 4.236162E+01  9.338687E-01 -3.196264E+01  3.406574E-01 5.757075E+01 
 6.022814E-03 4.312796E+01  3.405136E-01 5.757045E+01  9.276249E-01 -3.161852E+01 
2.901875E+02  9.789508E-01 -8.155421E+01  6.392494E-03 4.222164E+01  6.029396E-03 4.302335E+01 
 6.390701E-03 4.232523E+01  9.338168E-01 -3.197749E+01  3.409017E-01 5.755747E+01 
 6.019750E-03 4.315913E+01  3.407469E-01 5.755663E+01  9.275912E-01 -3.163152E+01 
2.902188E+02  9.790843E-01 -8.159008E+01  6.394396E-03 4.217018E+01  6.027217E-03 4.308781E+01 
 6.393039E-03 4.229012E+01  9.337864E-01 -3.199124E+01  3.411350E-01 5.754553E+01 
 6.012337E-03 4.319871E+01  3.409904E-01 5.754434E+01  9.275104E-01 -3.164305E+01 
2.902500E+02  9.792169E-01 -8.162961E+01  6.395433E-03 4.211817E+01  6.027245E-03 4.313309E+01 
 6.392426E-03 4.220822E+01  9.337246E-01 -3.200538E+01  3.413677E-01 5.753186E+01 
 6.016395E-03 4.325590E+01  3.412213E-01 5.753146E+01  9.274555E-01 -3.165599E+01 
2.902812E+02  9.793037E-01 -8.167038E+01  6.393806E-03 4.203572E+01  6.025801E-03 4.310098E+01 
 6.391818E-03 4.216300E+01  9.336591E-01 -3.202068E+01  3.416008E-01 5.752049E+01 
 6.014629E-03 4.325290E+01  3.414638E-01 5.751902E+01  9.274247E-01 -3.166778E+01 
2.903125E+02  9.794506E-01 -8.170935E+01  6.391816E-03 4.200670E+01  6.019872E-03 4.314079E+01 
 6.389029E-03 4.211791E+01  9.336208E-01 -3.203500E+01  3.418533E-01 5.750721E+01 
 6.009499E-03 4.325502E+01  3.417052E-01 5.750658E+01  9.274363E-01 -3.168077E+01 
2.903438E+02  9.795751E-01 -8.175064E+01  6.392964E-03 4.195546E+01  6.020522E-03 4.321974E+01 
 6.389259E-03 4.210234E+01  9.335706E-01 -3.204981E+01  3.420906E-01 5.749153E+01 
 6.006970E-03 4.330953E+01  3.419533E-01 5.749093E+01  9.273710E-01 -3.169584E+01 
2.903750E+02  9.796838E-01 -8.179140E+01  6.385379E-03 4.188625E+01  6.023238E-03 4.324401E+01 
 6.387501E-03 4.201752E+01  9.334838E-01 -3.206619E+01  3.423354E-01 5.747775E+01 
 6.008368E-03 4.337675E+01  3.421925E-01 5.747483E+01  9.273675E-01 -3.170986E+01 
2.904062E+02  9.797754E-01 -8.183488E+01  6.386076E-03 4.183637E+01  6.028428E-03 4.327477E+01 
 6.381589E-03 4.195719E+01  9.334503E-01 -3.208106E+01  3.425742E-01 5.746287E+01 
 6.014784E-03 4.335975E+01  3.424297E-01 5.746131E+01  9.273320E-01 -3.172494E+01 
2.904375E+02  9.798989E-01 -8.187695E+01  6.379121E-03 4.183180E+01  6.028171E-03 4.327403E+01 
 6.375016E-03 4.192460E+01  9.333744E-01 -3.209751E+01  3.428060E-01 5.744962E+01 
 6.016218E-03 4.340139E+01  3.426700E-01 5.744662E+01  9.272720E-01 -3.173909E+01 
2.904688E+02  9.799807E-01 -8.192089E+01  6.369686E-03 4.182374E+01  6.034715E-03 4.327551E+01 
 6.366661E-03 4.189037E+01  9.333030E-01 -3.211168E+01  3.430368E-01 5.743426E+01 
 6.022311E-03 4.340397E+01  3.428974E-01 5.743242E+01  9.272466E-01 -3.175497E+01 
2.905000E+02  9.800937E-01 -8.196452E+01  6.363347E-03 4.180691E+01  6.036625E-03 4.326876E+01 
 6.362839E-03 4.188095E+01  9.332177E-01 -3.212738E+01  3.432710E-01 5.741989E+01 
 6.024940E-03 4.339466E+01  3.431348E-01 5.741909E+01  9.271952E-01 -3.177095E+01 
2.905312E+02  9.801717E-01 -8.200915E+01  6.358735E-03 4.180193E+01  6.038706E-03 4.323268E+01 
 6.358744E-03 4.192628E+01  9.331907E-01 -3.214301E+01  3.435156E-01 5.740577E+01 
 6.028021E-03 4.337777E+01  3.433855E-01 5.740602E+01  9.271897E-01 -3.178666E+01 
2.905625E+02  9.802324E-01 -8.205347E+01  6.359010E-03 4.180396E+01  6.042233E-03 4.318997E+01 
 6.356204E-03 4.193765E+01  9.330875E-01 -3.215969E+01  3.437355E-01 5.739237E+01 
 6.030723E-03 4.329235E+01  3.436029E-01 5.739122E+01  9.271137E-01 -3.180252E+01 
2.905938E+02  9.803028E-01 -8.209847E+01  6.355553E-03 4.182507E+01  6.046939E-03 4.315362E+01 
 6.354142E-03 4.192655E+01  9.330256E-01 -3.217632E+01  3.439851E-01 5.737892E+01 
 6.030992E-03 4.328960E+01  3.438399E-01 5.737547E+01  9.270939E-01 -3.181927E+01 
2.906250E+02  9.803538E-01 -8.214424E+01  6.355450E-03 4.183276E+01  6.044004E-03 4.307492E+01 
 6.352994E-03 4.192462E+01  9.329566E-01 -3.219189E+01  3.442208E-01 5.736610E+01 
 6.030482E-03 4.325108E+01  3.440851E-01 5.736234E+01  9.270272E-01 -3.183506E+01 
2.906562E+02  9.804373E-01 -8.218829E+01  6.358106E-03 4.178747E+01  6.045584E-03 4.309679E+01 
 6.353817E-03 4.191876E+01  9.328870E-01 -3.220759E+01  3.444582E-01 5.735102E+01 
 6.031077E-03 4.319699E+01  3.443141E-01 5.735088E+01  9.269630E-01 -3.185384E+01 
2.906875E+02  9.804578E-01 -8.223547E+01  6.357082E-03 4.179824E+01  6.042518E-03 4.304862E+01 
 6.355232E-03 4.191517E+01  9.328030E-01 -3.222437E+01  3.447016E-01 5.733943E+01 
 6.032691E-03 4.318210E+01  3.445536E-01 5.733404E+01  9.268834E-01 -3.186920E+01 
2.907188E+02  9.804915E-01 -8.227971E+01  6.354079E-03 4.177913E+01  6.043469E-03 4.301481E+01 
 6.349273E-03 4.190560E+01  9.327044E-01 -3.224166E+01  3.449373E-01 5.732439E+01 
 6.032590E-03 4.315389E+01  3.447922E-01 5.732089E+01  9.267994E-01 -3.188701E+01 
2.907500E+02  9.805393E-01 -8.232544E+01  6.353263E-03 4.177140E+01  6.046233E-03 4.299838E+01 
 6.351425E-03 4.185691E+01  9.326363E-01 -3.225682E+01  3.451734E-01 5.731121E+01 
 6.031012E-03 4.311524E+01  3.450357E-01 5.730697E+01  9.267416E-01 -3.190264E+01 
2.907812E+02  9.805795E-01 -8.237042E+01  6.350756E-03 4.176108E+01  6.040960E-03 4.295799E+01 
 6.347684E-03 4.185591E+01  9.325582E-01 -3.227380E+01  3.454252E-01 5.729730E+01 
 6.029675E-03 4.308610E+01  3.452868E-01 5.729273E+01  9.266816E-01 -3.192112E+01 
2.908125E+02  9.805969E-01 -8.241610E+01  6.347758E-03 4.173684E+01  6.039262E-03 4.293333E+01 
 6.347681E-03 4.184172E+01  9.324277E-01 -3.228972E+01  3.456733E-01 5.728022E+01 
 6.028176E-03 4.304257E+01  3.455253E-01 5.727893E+01  9.266057E-01 -3.194063E+01 
2.908438E+02  9.805882E-01 -8.246375E+01  6.348799E-03 4.172432E+01  6.038581E-03 4.292135E+01 
 6.348130E-03 4.185108E+01  9.323447E-01 -3.230628E+01  3.459266E-01 5.727066E+01 
 6.025270E-03 4.302684E+01  3.457863E-01 5.726457E+01  9.265439E-01 -3.195589E+01 
2.908750E+02  9.806203E-01 -8.250937E+01  6.351447E-03 4.173078E+01  6.038148E-03 4.289338E+01 
 6.345405E-03 4.183911E+01  9.322412E-01 -3.232148E+01  3.461593E-01 5.725537E+01 
 6.023948E-03 4.301829E+01  3.460237E-01 5.725168E+01  9.264320E-01 -3.197429E+01 
2.909062E+02  9.806372E-01 -8.255727E+01  6.348705E-03 4.169869E+01  6.036064E-03 4.286821E+01 
 6.345957E-03 4.182094E+01  9.321487E-01 -3.233985E+01  3.464212E-01 5.724020E+01 
 6.022923E-03 4.298426E+01  3.462779E-01 5.723462E+01  9.263532E-01 -3.199273E+01 
2.909375E+02  9.806292E-01 -8.260296E+01  6.350899E-03 4.171899E+01  6.034324E-03 4.286275E+01 
 6.347115E-03 4.180078E+01  9.320369E-01 -3.235647E+01  3.466795E-01 5.722467E+01 
 6.024515E-03 4.297972E+01  3.465250E-01 5.721990E+01  9.262521E-01 -3.201229E+01 
2.909688E+02  9.806597E-01 -8.264995E+01  6.353463E-03 4.168577E+01  6.034312E-03 4.289534E+01 
 6.349463E-03 4.181505E+01  9.319524E-01 -3.237302E+01  3.469384E-01 5.720791E+01 
 6.021742E-03 4.299783E+01  3.467928E-01 5.720586E+01  9.261543E-01 -3.203051E+01 
2.910000E+02  9.806611E-01 -8.269673E+01  6.351929E-03 4.167844E+01  6.032951E-03 4.289430E+01 
 6.350424E-03 4.177379E+01  9.318585E-01 -3.238900E+01  3.471843E-01 5.719494E+01 
 6.019848E-03 4.299454E+01  3.470424E-01 5.718940E+01  9.260490E-01 -3.204767E+01 
2.910312E+02  9.806360E-01 -8.274420E+01  6.353150E-03 4.161629E+01  6.036128E-03 4.288706E+01 
 6.348617E-03 4.170421E+01  9.317378E-01 -3.240521E+01  3.474415E-01 5.717842E+01 
 6.024345E-03 4.300234E+01  3.472975E-01 5.717452E+01  9.259314E-01 -3.206576E+01 
2.910625E+02  9.806426E-01 -8.279121E+01  6.349242E-03 4.156708E+01  6.035317E-03 4.291039E+01 
 6.348522E-03 4.170891E+01  9.316533E-01 -3.242188E+01  3.477053E-01 5.716106E+01 
 6.027286E-03 4.299593E+01  3.475641E-01 5.715767E+01  9.258120E-01 -3.208465E+01 
2.910938E+02  9.806002E-01 -8.283795E+01  6.348360E-03 4.164745E+01  6.052731E-03 4.288969E+01 
 6.346902E-03 4.173441E+01  9.315061E-01 -3.244046E+01  3.479727E-01 5.714686E+01 
 6.037804E-03 4.302808E+01  3.478209E-01 5.714138E+01  9.256633E-01 -3.210043E+01 
2.911250E+02  9.805337E-01 -8.288553E+01  6.352764E-03 4.150502E+01  6.045534E-03 4.281645E+01 
 6.349130E-03 4.163662E+01  9.314165E-01 -3.245550E+01  3.482180E-01 5.712856E+01 
 6.031321E-03 4.292043E+01  3.480684E-01 5.712243E+01  9.255515E-01 -3.211502E+01 
2.911562E+02  9.805433E-01 -8.293232E+01  6.344025E-03 4.158973E+01  6.052155E-03 4.276645E+01 
 6.340784E-03 4.170701E+01  9.312881E-01 -3.247251E+01  3.484700E-01 5.711355E+01 
 6.041676E-03 4.287015E+01  3.483269E-01 5.711212E+01  9.254176E-01 -3.213379E+01 
2.911875E+02  9.805113E-01 -8.298039E+01  6.358772E-03 4.151008E+01  6.052221E-03 4.269043E+01 
 6.354443E-03 4.162530E+01  9.311849E-01 -3.248676E+01  3.487433E-01 5.709955E+01 
 6.041045E-03 4.281846E+01  3.486078E-01 5.709386E+01  9.253023E-01 -3.215056E+01 
2.912188E+02  9.804747E-01 -8.302671E+01  6.356866E-03 4.144611E+01  6.049651E-03 4.267248E+01 
 6.352333E-03 4.156728E+01  9.310900E-01 -3.250499E+01  3.490060E-01 5.707934E+01 
 6.042755E-03 4.276420E+01  3.488682E-01 5.707549E+01  9.251554E-01 -3.216873E+01 
2.912500E+02  9.804196E-01 -8.307786E+01  6.352113E-03 4.142458E+01  6.050554E-03 4.262987E+01 
 6.347041E-03 4.154535E+01  9.309902E-01 -3.252211E+01  3.492786E-01 5.706169E+01 
 6.040957E-03 4.273203E+01  3.491384E-01 5.705732E+01  9.250369E-01 -3.218534E+01 
2.912812E+02  9.803796E-01 -8.312323E+01  6.348093E-03 4.140345E+01  6.053255E-03 4.260356E+01 
 6.349221E-03 4.150724E+01  9.308592E-01 -3.254005E+01  3.495406E-01 5.704239E+01 
 6.036906E-03 4.271495E+01  3.493957E-01 5.703933E+01  9.249143E-01 -3.220124E+01 
2.913125E+02  9.803278E-01 -8.317139E+01  6.349152E-03 4.139017E+01  6.055074E-03 4.255069E+01 
 6.348709E-03 4.148857E+01  9.307263E-01 -3.255644E+01  3.498124E-01 5.702550E+01 
 6.042555E-03 4.265862E+01  3.496584E-01 5.702102E+01  9.247842E-01 -3.221755E+01 
2.913438E+02  9.802474E-01 -8.322088E+01  6.356310E-03 4.137616E+01  6.054418E-03 4.250867E+01 
 6.348462E-03 4.147383E+01  9.306160E-01 -3.257366E+01  3.500640E-01 5.700700E+01 
 6.043234E-03 4.262101E+01  3.499312E-01 5.700184E+01  9.246255E-01 -3.223559E+01 
2.913750E+02  9.802147E-01 -8.326895E+01  6.357804E-03 4.129831E+01  6.058435E-03 4.247708E+01 
 6.352141E-03 4.140859E+01  9.304802E-01 -3.259049E+01  3.503450E-01 5.698705E+01 
 6.045092E-03 4.257015E+01  3.501901E-01 5.698380E+01  9.245056E-01 -3.225181E+01 
2.914062E+02  9.801491E-01 -8.331651E+01  6.354980E-03 4.124439E+01  6.056191E-03 4.242898E+01 
 6.349939E-03 4.133225E+01  9.303710E-01 -3.260731E+01  3.506058E-01 5.696873E+01 
 6.045167E-03 4.253400E+01  3.504594E-01 5.696427E+01  9.243614E-01 -3.226834E+01 
2.914375E+02  9.801050E-01 -8.336556E+01  6.353167E-03 4.123557E+01  6.055929E-03 4.235649E+01 
 6.347749E-03 4.130103E+01  9.302515E-01 -3.262541E+01  3.508740E-01 5.694992E+01 
 6.045701E-03 4.247825E+01  3.507201E-01 5.694369E+01  9.242302E-01 -3.228465E+01 
2.914688E+02  9.800053E-01 -8.341427E+01  6.349269E-03 4.117198E+01  6.062137E-03 4.229284E+01 
 6.348766E-03 4.125595E+01  9.301202E-01 -3.264353E+01  3.511406E-01 5.693161E+01 
 6.047466E-03 4.239442E+01  3.509951E-01 5.692404E+01  9.240683E-01 -3.229964E+01 
2.915000E+02  9.799667E-01 -8.346295E+01  6.350064E-03 4.114384E+01  6.054925E-03 4.221720E+01 
 6.347166E-03 4.123062E+01  9.299895E-01 -3.266171E+01  3.514065E-01 5.691074E+01 
 6.044502E-03 4.235446E+01  3.512604E-01 5.690512E+01  9.239612E-01 -3.231692E+01 
2.915312E+02  9.798828E-01 -8.351058E+01  6.347845E-03 4.108761E+01  6.056490E-03 4.219978E+01 
 6.345463E-03 4.118425E+01  9.297946E-01 -3.267967E+01  3.516777E-01 5.689107E+01 
 6.043221E-03 4.230786E+01  3.515189E-01 5.688486E+01  9.238430E-01 -3.233338E+01 
2.915625E+02  9.797975E-01 -8.356054E+01  6.346893E-03 4.103707E+01  6.054962E-03 4.217070E+01 
 6.345294E-03 4.113597E+01  9.296780E-01 -3.269623E+01  3.519462E-01 5.686930E+01 
 6.041222E-03 4.227296E+01  3.518021E-01 5.686515E+01  9.237016E-01 -3.235071E+01 
2.915938E+02  9.796613E-01 -8.361035E+01  6.350180E-03 4.101107E+01  6.052303E-03 4.213337E+01 
 6.342082E-03 4.108535E+01  9.295345E-01 -3.271433E+01  3.522163E-01 5.685188E+01 
 6.039283E-03 4.227529E+01  3.520622E-01 5.684413E+01  9.235451E-01 -3.236579E+01 
2.916250E+02  9.795899E-01 -8.366041E+01  6.344166E-03 4.094474E+01  6.053008E-03 4.215112E+01 
 6.338545E-03 4.106269E+01  9.293991E-01 -3.273267E+01  3.525022E-01 5.683104E+01 
 6.040754E-03 4.224629E+01  3.523431E-01 5.682255E+01  9.234501E-01 -3.238298E+01 
2.916562E+02  9.794846E-01 -8.370799E+01  6.340425E-03 4.089977E+01  6.058036E-03 4.212508E+01 
 6.339292E-03 4.102159E+01  9.292351E-01 -3.274937E+01  3.527727E-01 5.680767E+01 
 6.048045E-03 4.225136E+01  3.526212E-01 5.680383E+01  9.233199E-01 -3.240110E+01 
2.916875E+02  9.793740E-01 -8.375826E+01  6.339541E-03 4.088367E+01  6.068354E-03 4.208006E+01 
 6.335581E-03 4.096855E+01  9.290767E-01 -3.276730E+01  3.530567E-01 5.678809E+01 
 6.052342E-03 4.217273E+01  3.528861E-01 5.678186E+01  9.231926E-01 -3.241723E+01 
2.917188E+02  9.792874E-01 -8.380836E+01  6.340852E-03 4.084302E+01  6.075564E-03 4.196936E+01 
 6.337702E-03 4.093378E+01  9.289155E-01 -3.278618E+01  3.533294E-01 5.676540E+01 
 6.060351E-03 4.210755E+01  3.531719E-01 5.676021E+01  9.230621E-01 -3.243473E+01 
2.917500E+02  9.791485E-01 -8.385835E+01  6.339827E-03 4.078479E+01  6.079153E-03 4.189481E+01 
 6.336586E-03 4.088478E+01  9.287368E-01 -3.280246E+01  3.536064E-01 5.674409E+01 
 6.063140E-03 4.201277E+01  3.534318E-01 5.673853E+01  9.229032E-01 -3.245174E+01 
2.917812E+02  9.790421E-01 -8.390668E+01  6.340080E-03 4.074304E+01  6.080705E-03 4.177021E+01 
 6.338454E-03 4.082479E+01  9.285688E-01 -3.282021E+01  3.538818E-01 5.672131E+01 
 6.064412E-03 4.190259E+01  3.537190E-01 5.671803E+01  9.227598E-01 -3.247063E+01 
2.918125E+02  9.789013E-01 -8.395836E+01  6.337739E-03 4.067044E+01  6.076055E-03 4.168291E+01 
 6.336086E-03 4.078634E+01  9.284347E-01 -3.283729E+01  3.541700E-01 5.670164E+01 
 6.067514E-03 4.179933E+01  3.540140E-01 5.669623E+01  9.226374E-01 -3.248664E+01 
2.918438E+02  9.788269E-01 -8.401006E+01  6.339702E-03 4.061168E+01  6.085668E-03 4.157980E+01 
 6.335901E-03 4.071754E+01  9.282205E-01 -3.285470E+01  3.544311E-01 5.667858E+01 
 6.067132E-03 4.169173E+01  3.542773E-01 5.667366E+01  9.224689E-01 -3.250392E+01 
2.918750E+02  9.786780E-01 -8.405865E+01  6.337065E-03 4.052193E+01  6.081487E-03 4.145109E+01 
 6.332348E-03 4.063499E+01  9.280547E-01 -3.287111E+01  3.547211E-01 5.665658E+01 
 6.066532E-03 4.156084E+01  3.545625E-01 5.665244E+01  9.223219E-01 -3.252324E+01 
2.919062E+02  9.785277E-01 -8.411029E+01  6.331359E-03 4.043887E+01  6.080123E-03 4.134097E+01 
 6.331058E-03 4.053712E+01  9.278858E-01 -3.288965E+01  3.550092E-01 5.663436E+01 
 6.067156E-03 4.145679E+01  3.548364E-01 5.662855E+01  9.221450E-01 -3.253895E+01 
2.919375E+02  9.783461E-01 -8.416184E+01  6.323276E-03 4.037060E+01  6.079348E-03 4.124194E+01 
 6.320504E-03 4.045082E+01  9.276950E-01 -3.290505E+01  3.552894E-01 5.661217E+01 
 6.064600E-03 4.129789E+01  3.551396E-01 5.661005E+01  9.219853E-01 -3.255790E+01 
2.919688E+02  9.781692E-01 -8.421425E+01  6.314453E-03 4.032044E+01  6.070248E-03 4.111439E+01 
 6.311625E-03 4.038318E+01  9.275023E-01 -3.292130E+01  3.555938E-01 5.658922E+01 
 6.056317E-03 4.118887E+01  3.554284E-01 5.658652E+01  9.218012E-01 -3.257561E+01 
2.920000E+02  9.779850E-01 -8.426523E+01  6.306821E-03 4.026836E+01  6.066652E-03 4.100492E+01 
 6.301611E-03 4.035902E+01  9.273269E-01 -3.293732E+01  3.558782E-01 5.656695E+01 
 6.054562E-03 4.109288E+01  3.557192E-01 5.656296E+01  9.216463E-01 -3.259233E+01 
2.920312E+02  9.777645E-01 -8.431515E+01  6.296381E-03 4.025490E+01  6.059007E-03 4.089626E+01 
 6.295578E-03 4.034065E+01  9.271082E-01 -3.295429E+01  3.561781E-01 5.654499E+01 
 6.044181E-03 4.098110E+01  3.560235E-01 5.653809E+01  9.214737E-01 -3.260884E+01 
2.920625E+02  9.775671E-01 -8.436505E+01  6.286422E-03 4.024774E+01  6.053292E-03 4.078926E+01 
 6.287020E-03 4.033961E+01  9.269494E-01 -3.296962E+01  3.564701E-01 5.651939E+01 
 6.040529E-03 4.091620E+01  3.563239E-01 5.651460E+01  9.212791E-01 -3.262544E+01 
2.920938E+02  9.773575E-01 -8.441642E+01  6.282168E-03 4.024634E+01  6.045833E-03 4.073545E+01 
 6.276285E-03 4.036498E+01  9.267433E-01 -3.298531E+01  3.567828E-01 5.649294E+01 
 6.032793E-03 4.084302E+01  3.566287E-01 5.648871E+01  9.211015E-01 -3.264203E+01 
2.921250E+02  9.771317E-01 -8.446734E+01  6.276288E-03 4.028081E+01  6.037766E-03 4.067404E+01 
 6.274825E-03 4.037869E+01  9.265761E-01 -3.300310E+01  3.571157E-01 5.646679E+01 
 6.025629E-03 4.075676E+01  3.569509E-01 5.646245E+01  9.209445E-01 -3.265954E+01 
2.921562E+02  9.769158E-01 -8.451763E+01  6.274123E-03 4.029088E+01  6.034338E-03 4.064178E+01 
 6.265935E-03 4.039675E+01  9.263848E-01 -3.301642E+01  3.574129E-01 5.644131E+01 
 6.023614E-03 4.070863E+01  3.572682E-01 5.643783E+01  9.207757E-01 -3.267501E+01 
2.921875E+02  9.767194E-01 -8.456805E+01  6.274810E-03 4.030602E+01  6.031012E-03 4.050327E+01 
 6.273126E-03 4.039522E+01  9.261810E-01 -3.303303E+01  3.577361E-01 5.641071E+01 
 6.017850E-03 4.062129E+01  3.575716E-01 5.640714E+01  9.205731E-01 -3.269295E+01 
2.922188E+02  9.764919E-01 -8.461797E+01  6.275113E-03 4.025374E+01  6.025163E-03 4.044524E+01 
 6.271556E-03 4.036328E+01  9.259809E-01 -3.304756E+01  3.580604E-01 5.638280E+01 
 6.014173E-03 4.053425E+01  3.578830E-01 5.637821E+01  9.204305E-01 -3.270761E+01 
2.922500E+02  9.762472E-01 -8.466896E+01  6.271941E-03 4.021937E+01  6.021752E-03 4.039826E+01 
 6.267821E-03 4.031471E+01  9.257984E-01 -3.306391E+01  3.583722E-01 5.635202E+01 
 6.006452E-03 4.048025E+01  3.581976E-01 5.634581E+01  9.202380E-01 -3.272312E+01 
2.922812E+02  9.759801E-01 -8.471891E+01  6.264448E-03 4.024685E+01  6.013263E-03 4.030525E+01 
 6.260526E-03 4.030863E+01  9.255999E-01 -3.307814E+01  3.586916E-01 5.631952E+01 
 6.004600E-03 4.042795E+01  3.584979E-01 5.631507E+01  9.200267E-01 -3.274082E+01 
2.923125E+02  9.757151E-01 -8.476935E+01  6.264792E-03 4.021652E+01  6.014750E-03 4.026606E+01 
 6.256832E-03 4.034572E+01  9.254304E-01 -3.309399E+01  3.589974E-01 5.628764E+01 
