! Matrix data file written by TouchstoneData, EPCOS AG
! FILENAME: "LY31A_WB.snp"
! COMMENT: "(LY31A_1_WB.s2p) EPCOS AG 27.09.2010 09:56:4"
! INFO: nport=2, nfreq=1601
! DATE: "Tue Oct 19 15:52:21 2010"
! USER: "Michael Schemies"
!
! port | pin | signal
! -----|-----|--------
!   1  |  2  |  in
!   2  |  5  |  out
! --------------------
! 
# MHZ S MA R 50
! freq  magS11 angS11  magS21 angS21  magS12 angS12  magS22 angS22
1.000000E+02  9.965746E-01 -1.014308E+01  1.295041E-03 7.113185E+01  1.302367E-03 6.976814E+01  9.930461E-01 -1.077260E+01 
1.036875E+02  9.959589E-01 -1.051913E+01  1.252612E-03 8.305863E+01  1.250779E-03 8.398087E+01  9.931287E-01 -1.113651E+01 
1.073750E+02  9.960145E-01 -1.092731E+01  1.404052E-03 7.903216E+01  1.381776E-03 7.879877E+01  9.936806E-01 -1.156982E+01 
1.110625E+02  9.973310E-01 -1.126456E+01  1.426846E-03 7.562041E+01  1.421456E-03 7.614911E+01  9.923913E-01 -1.199148E+01 
1.147500E+02  9.980857E-01 -1.162665E+01  1.456960E-03 7.613311E+01  1.442784E-03 7.682104E+01  9.922026E-01 -1.234331E+01 
1.184375E+02  9.966713E-01 -1.201841E+01  1.453083E-03 7.432549E+01  1.471170E-03 7.350094E+01  9.907196E-01 -1.275127E+01 
1.221250E+02  9.966503E-01 -1.236844E+01  1.637911E-03 7.608690E+01  1.623101E-03 7.608717E+01  9.914727E-01 -1.312030E+01 
1.258125E+02  9.972062E-01 -1.275178E+01  1.597529E-03 7.799316E+01  1.587097E-03 7.691510E+01  9.913740E-01 -1.354161E+01 
1.295000E+02  9.970283E-01 -1.313690E+01  1.731623E-03 7.710391E+01  1.705236E-03 7.637653E+01  9.906297E-01 -1.389119E+01 
1.331875E+02  9.973500E-01 -1.349300E+01  1.666146E-03 7.414069E+01  1.654861E-03 7.397122E+01  9.913701E-01 -1.428683E+01 
1.368750E+02  9.958898E-01 -1.383070E+01  1.660066E-03 7.346991E+01  1.680085E-03 7.383737E+01  9.883126E-01 -1.466508E+01 
1.405625E+02  9.960052E-01 -1.416598E+01  1.738686E-03 7.337102E+01  1.762527E-03 7.329782E+01  9.900595E-01 -1.498746E+01 
1.442500E+02  9.961193E-01 -1.454087E+01  1.774521E-03 7.213624E+01  1.792721E-03 7.178687E+01  9.906320E-01 -1.545174E+01 
1.479375E+02  9.965871E-01 -1.490253E+01  1.898513E-03 7.096403E+01  1.905685E-03 7.084820E+01  9.896545E-01 -1.573218E+01 
1.516250E+02  9.965538E-01 -1.538387E+01  1.847647E-03 7.056788E+01  1.824986E-03 7.133980E+01  9.909201E-01 -1.617077E+01 
1.553125E+02  9.959837E-01 -1.561671E+01  1.917045E-03 7.455270E+01  1.923953E-03 7.429231E+01  9.898475E-01 -1.658298E+01 
1.590000E+02  9.969705E-01 -1.600843E+01  1.977609E-03 7.108848E+01  1.983615E-03 7.131221E+01  9.908287E-01 -1.695259E+01 
1.626875E+02  9.977845E-01 -1.637420E+01  2.027962E-03 7.206531E+01  2.013961E-03 7.137727E+01  9.912769E-01 -1.735639E+01 
1.663750E+02  9.967166E-01 -1.676056E+01  2.051078E-03 7.409995E+01  2.067776E-03 7.486118E+01  9.903594E-01 -1.766934E+01 
1.700625E+02  9.965751E-01 -1.714277E+01  2.020402E-03 7.091237E+01  2.005225E-03 7.038718E+01  9.902483E-01 -1.807563E+01 
1.737500E+02  9.966425E-01 -1.741483E+01  2.098044E-03 7.189479E+01  2.103108E-03 7.116215E+01  9.896923E-01 -1.834363E+01 
1.774375E+02  9.976213E-01 -1.789565E+01  2.123637E-03 6.970913E+01  2.155358E-03 6.992577E+01  9.914756E-01 -1.888575E+01 
1.811250E+02  9.964434E-01 -1.812419E+01  2.106486E-03 6.661743E+01  2.105112E-03 6.683678E+01  9.898738E-01 -1.915822E+01 
1.848125E+02  9.974078E-01 -1.855885E+01  2.256207E-03 6.809755E+01  2.232650E-03 6.779806E+01  9.910561E-01 -1.949961E+01 
1.885000E+02  9.972110E-01 -1.896543E+01  2.277021E-03 6.912251E+01  2.263054E-03 6.891334E+01  9.914450E-01 -1.989533E+01 
1.921875E+02  9.982975E-01 -1.926206E+01  2.238673E-03 7.023939E+01  2.249112E-03 6.995656E+01  9.913510E-01 -2.018845E+01 
1.958750E+02  9.967951E-01 -1.964410E+01  2.410980E-03 6.942724E+01  2.397476E-03 6.999594E+01  9.920884E-01 -2.062325E+01 
1.995625E+02  9.955996E-01 -1.999688E+01  2.386557E-03 6.832632E+01  2.398686E-03 6.821068E+01  9.900054E-01 -2.109820E+01 
2.032500E+02  9.978164E-01 -2.041828E+01  2.438499E-03 6.481075E+01  2.435735E-03 6.484304E+01  9.907949E-01 -2.139325E+01 
2.069375E+02  9.974401E-01 -2.084753E+01  2.552676E-03 6.719086E+01  2.532172E-03 6.695160E+01  9.919286E-01 -2.184546E+01 
2.106250E+02  9.969496E-01 -2.102524E+01  2.474281E-03 6.811662E+01  2.456235E-03 6.862461E+01  9.932010E-01 -2.211845E+01 
2.143125E+02  9.962056E-01 -2.152285E+01  2.476102E-03 6.817604E+01  2.466166E-03 6.836931E+01  9.919087E-01 -2.243409E+01 
2.180000E+02  9.949221E-01 -2.187825E+01  2.599262E-03 6.752685E+01  2.614975E-03 6.755877E+01  9.908496E-01 -2.289479E+01 
2.216875E+02  9.957922E-01 -2.222620E+01  2.656405E-03 6.444860E+01  2.662313E-03 6.481430E+01  9.918819E-01 -2.327334E+01 
2.253750E+02  9.979216E-01 -2.262136E+01  2.725779E-03 6.533826E+01  2.750364E-03 6.580579E+01  9.916889E-01 -2.368381E+01 
2.290625E+02  9.969174E-01 -2.296558E+01  2.708829E-03 6.305531E+01  2.700402E-03 6.312057E+01  9.909684E-01 -2.399600E+01 
2.327500E+02  9.978177E-01 -2.305046E+01  2.838467E-03 6.548896E+01  2.833336E-03 6.504428E+01  9.931294E-01 -2.412143E+01 
2.364375E+02  9.972659E-01 -2.364719E+01  2.723428E-03 6.350492E+01  2.743452E-03 6.326403E+01  9.901617E-01 -2.474156E+01 
2.401250E+02  9.964652E-01 -2.396198E+01  2.815808E-03 6.444734E+01  2.819634E-03 6.471326E+01  9.914545E-01 -2.504903E+01 
2.438125E+02  9.953046E-01 -2.441055E+01  2.806426E-03 6.372663E+01  2.787334E-03 6.373971E+01  9.915760E-01 -2.557725E+01 
2.475000E+02  9.971634E-01 -2.475386E+01  2.910188E-03 6.290598E+01  2.916630E-03 6.330465E+01  9.907817E-01 -2.580138E+01 
2.511875E+02  9.962833E-01 -2.514563E+01  2.872232E-03 6.310918E+01  2.836312E-03 6.351020E+01  9.912249E-01 -2.624219E+01 
2.548750E+02  9.958072E-01 -2.546168E+01  3.068145E-03 6.283355E+01  3.039387E-03 6.319073E+01  9.895865E-01 -2.657668E+01 
2.585625E+02  9.954223E-01 -2.583554E+01  3.035064E-03 6.387361E+01  3.022369E-03 6.354409E+01  9.907482E-01 -2.695248E+01 
2.622500E+02  9.942723E-01 -2.625339E+01  3.060508E-03 6.199066E+01  3.059850E-03 6.174439E+01  9.888145E-01 -2.746882E+01 
2.659375E+02  9.961795E-01 -2.657374E+01  3.112918E-03 6.089373E+01  3.090542E-03 6.077300E+01  9.899820E-01 -2.775779E+01 
2.696250E+02  9.952783E-01 -2.688658E+01  3.113915E-03 6.172620E+01  3.121583E-03 6.168781E+01  9.900502E-01 -2.815307E+01 
2.733125E+02  9.952014E-01 -2.726383E+01  3.152942E-03 6.229272E+01  3.149915E-03 6.166925E+01  9.881551E-01 -2.848122E+01 
2.770000E+02  9.950511E-01 -2.767784E+01  3.165655E-03 6.102539E+01  3.166073E-03 6.160292E+01  9.889967E-01 -2.890902E+01 
2.806875E+02  9.944487E-01 -2.797135E+01  3.167657E-03 6.064134E+01  3.146469E-03 6.088467E+01  9.860208E-01 -2.932789E+01 
2.843750E+02  9.938392E-01 -2.834880E+01  3.244610E-03 6.036758E+01  3.230762E-03 6.021459E+01  9.884216E-01 -2.964005E+01 
2.880625E+02  9.943420E-01 -2.873975E+01  3.326594E-03 6.003633E+01  3.293821E-03 6.010724E+01  9.880070E-01 -3.009592E+01 
2.917500E+02  9.943213E-01 -2.901971E+01  3.380242E-03 5.937271E+01  3.362934E-03 5.931218E+01  9.868335E-01 -3.038028E+01 
2.954375E+02  9.939447E-01 -2.943665E+01  3.403128E-03 5.910696E+01  3.410049E-03 5.896903E+01  9.876267E-01 -3.086532E+01 
2.991250E+02  9.934206E-01 -2.978736E+01  3.402363E-03 5.749034E+01  3.403463E-03 5.752115E+01  9.846773E-01 -3.122776E+01 
3.028125E+02  9.933485E-01 -3.019214E+01  3.491984E-03 5.681596E+01  3.458316E-03 5.681933E+01  9.858916E-01 -3.157965E+01 
3.065000E+02  9.931876E-01 -3.054358E+01  3.473055E-03 5.503631E+01  3.459089E-03 5.538715E+01  9.857622E-01 -3.202033E+01 
3.101875E+02  9.930483E-01 -3.087815E+01  3.449770E-03 5.550655E+01  3.472473E-03 5.548925E+01  9.851031E-01 -3.232846E+01 
3.138750E+02  9.928846E-01 -3.125455E+01  3.416542E-03 5.637384E+01  3.393506E-03 5.646060E+01  9.850363E-01 -3.270766E+01 
3.175625E+02  9.925688E-01 -3.150832E+01  3.456220E-03 5.715680E+01  3.445981E-03 5.738060E+01  9.828370E-01 -3.305512E+01 
3.212500E+02  9.936233E-01 -3.194260E+01  3.510845E-03 5.627846E+01  3.500552E-03 5.619826E+01  9.847157E-01 -3.348728E+01 
3.249375E+02  9.926872E-01 -3.225540E+01  3.613475E-03 5.553306E+01  3.586459E-03 5.530558E+01  9.833818E-01 -3.392338E+01 
3.286250E+02  9.922770E-01 -3.259767E+01  3.614306E-03 5.453766E+01  3.585364E-03 5.427682E+01  9.822353E-01 -3.417182E+01 
3.323125E+02  9.950028E-01 -3.302440E+01  3.601696E-03 5.349407E+01  3.584987E-03 5.347782E+01  9.829207E-01 -3.460525E+01 
3.360000E+02  9.921391E-01 -3.328414E+01  3.584904E-03 5.361431E+01  3.614270E-03 5.398225E+01  9.814371E-01 -3.490469E+01 
3.396875E+02  9.923966E-01 -3.366534E+01  3.613798E-03 5.497965E+01  3.598306E-03 5.441189E+01  9.825599E-01 -3.526955E+01 
3.433750E+02  9.919774E-01 -3.403928E+01  3.640230E-03 5.480666E+01  3.665231E-03 5.443611E+01  9.811608E-01 -3.569203E+01 
3.470625E+02  9.918344E-01 -3.436126E+01  3.641528E-03 5.491903E+01  3.635902E-03 5.486847E+01  9.816486E-01 -3.593875E+01 
3.507500E+02  9.920012E-01 -3.473685E+01  3.698689E-03 5.362595E+01  3.700614E-03 5.313528E+01  9.814680E-01 -3.637509E+01 
3.544375E+02  9.902688E-01 -3.496350E+01  3.790144E-03 5.465355E+01  3.786905E-03 5.450016E+01  9.793566E-01 -3.657352E+01 
3.581250E+02  9.916565E-01 -3.543292E+01  3.761766E-03 5.365184E+01  3.768282E-03 5.443335E+01  9.829769E-01 -3.711997E+01 
3.618125E+02  9.913449E-01 -3.577914E+01  3.858371E-03 5.317757E+01  3.841975E-03 5.347556E+01  9.807595E-01 -3.750325E+01 
3.655000E+02  9.917943E-01 -3.604889E+01  3.852087E-03 5.284259E+01  3.831828E-03 5.284968E+01  9.819218E-01 -3.775015E+01 
3.691875E+02  9.916028E-01 -3.649181E+01  3.874321E-03 5.271623E+01  3.864150E-03 5.214273E+01  9.815059E-01 -3.823565E+01 
3.728750E+02  9.915046E-01 -3.678432E+01  3.875088E-03 5.219504E+01  3.866134E-03 5.196370E+01  9.803443E-01 -3.852311E+01 
3.765625E+02  9.923796E-01 -3.715392E+01  4.002565E-03 5.227498E+01  3.969591E-03 5.187173E+01  9.813320E-01 -3.887665E+01 
3.802500E+02  9.906734E-01 -3.746344E+01  3.966622E-03 5.191689E+01  3.962414E-03 5.222087E+01  9.805128E-01 -3.928334E+01 
3.839375E+02  9.911851E-01 -3.781547E+01  4.016846E-03 5.202033E+01  3.979797E-03 5.217843E+01  9.819196E-01 -3.955285E+01 
3.876250E+02  9.913463E-01 -3.817082E+01  4.044015E-03 5.105201E+01  4.022074E-03 5.107193E+01  9.809529E-01 -3.999335E+01 
3.913125E+02  9.898793E-01 -3.843783E+01  4.059603E-03 5.046756E+01  4.062114E-03 5.055234E+01  9.799652E-01 -4.027587E+01 
3.950000E+02  9.899321E-01 -3.879580E+01  4.179502E-03 5.130789E+01  4.182099E-03 5.087658E+01  9.805600E-01 -4.064695E+01 
3.986875E+02  9.918146E-01 -3.916150E+01  4.311599E-03 4.934982E+01  4.298511E-03 4.961112E+01  9.792908E-01 -4.097255E+01 
4.023750E+02  9.926654E-01 -3.956538E+01  4.286694E-03 4.731121E+01  4.288271E-03 4.750731E+01  9.818080E-01 -4.134190E+01 
4.060625E+02  9.923682E-01 -3.989971E+01  4.207428E-03 4.613563E+01  4.191102E-03 4.614146E+01  9.818294E-01 -4.174443E+01 
4.097500E+02  9.919227E-01 -4.067748E+01  4.187996E-03 4.511755E+01  4.180231E-03 4.456627E+01  9.827947E-01 -4.222894E+01 
4.134375E+02  9.909164E-01 -4.054554E+01  4.004503E-03 4.658873E+01  3.975016E-03 4.654964E+01  9.822010E-01 -4.239206E+01 
4.171250E+02  9.901002E-01 -4.083372E+01  4.056262E-03 4.781702E+01  4.059485E-03 4.785356E+01  9.801983E-01 -4.266208E+01 
4.208125E+02  9.906645E-01 -4.128044E+01  4.126324E-03 4.762590E+01  4.141353E-03 4.759433E+01  9.827766E-01 -4.302592E+01 
4.245000E+02  9.914336E-01 -4.158903E+01  4.217194E-03 4.705520E+01  4.215183E-03 4.700958E+01  9.819408E-01 -4.353850E+01 
4.281875E+02  9.920181E-01 -4.190591E+01  4.265675E-03 4.664502E+01  4.261029E-03 4.629312E+01  9.811362E-01 -4.375426E+01 
4.318750E+02  9.915320E-01 -4.222701E+01  4.267825E-03 4.568605E+01  4.261836E-03 4.564863E+01  9.814990E-01 -4.410310E+01 
4.355625E+02  9.905652E-01 -4.251611E+01  4.193589E-03 4.514976E+01  4.204476E-03 4.520822E+01  9.807334E-01 -4.437132E+01 
4.392500E+02  9.917117E-01 -4.211869E+01  4.183843E-03 4.558961E+01  4.189436E-03 4.661990E+01  9.827599E-01 -4.446678E+01 
4.429375E+02  9.901860E-01 -4.330283E+01  4.213004E-03 4.468825E+01  4.192173E-03 4.472528E+01  9.799600E-01 -4.518983E+01 
4.466250E+02  9.912651E-01 -4.357712E+01  4.287639E-03 4.526596E+01  4.287281E-03 4.534175E+01  9.818354E-01 -4.540573E+01 
4.503125E+02  9.914494E-01 -4.392487E+01  4.306995E-03 4.471913E+01  4.307452E-03 4.478133E+01  9.830525E-01 -4.583579E+01 
4.540000E+02  9.900413E-01 -4.422498E+01  4.339226E-03 4.454874E+01  4.353879E-03 4.462294E+01  9.811903E-01 -4.613730E+01 
4.576875E+02  9.901272E-01 -4.460442E+01  4.364038E-03 4.433708E+01  4.340851E-03 4.410303E+01  9.824912E-01 -4.651102E+01 
4.613750E+02  9.901317E-01 -4.493624E+01  4.381971E-03 4.447728E+01  4.378294E-03 4.428843E+01  9.797508E-01 -4.694778E+01 
4.650625E+02  9.908185E-01 -4.526714E+01  4.402144E-03 4.343446E+01  4.403859E-03 4.342817E+01  9.809183E-01 -4.721368E+01 
4.687500E+02  9.897860E-01 -4.562871E+01  4.409021E-03 4.328243E+01  4.429320E-03 4.316201E+01  9.812439E-01 -4.764015E+01 
4.724375E+02  9.887538E-01 -4.586204E+01  4.435586E-03 4.223887E+01  4.427286E-03 4.243806E+01  9.794684E-01 -4.789759E+01 
4.761250E+02  9.889751E-01 -4.624135E+01  4.430275E-03 4.268898E+01  4.429637E-03 4.237192E+01  9.800767E-01 -4.828624E+01 
4.798125E+02  9.893747E-01 -4.658637E+01  4.524889E-03 4.254358E+01  4.491406E-03 4.246657E+01  9.787083E-01 -4.870668E+01 
4.835000E+02  9.896896E-01 -4.708689E+01  4.507682E-03 4.205815E+01  4.489164E-03 4.188577E+01  9.798169E-01 -4.911789E+01 
4.871875E+02  9.890233E-01 -4.736149E+01  4.521443E-03 4.214206E+01  4.519265E-03 4.178951E+01  9.797685E-01 -4.940758E+01 
4.908750E+02  9.881314E-01 -4.761672E+01  4.563364E-03 4.157199E+01  4.560055E-03 4.150387E+01  9.803289E-01 -4.968892E+01 
4.945625E+02  9.883758E-01 -4.795563E+01  4.604306E-03 4.129207E+01  4.607089E-03 4.139006E+01  9.801512E-01 -5.011868E+01 
4.982500E+02  9.879983E-01 -4.822543E+01  4.672404E-03 4.146850E+01  4.676538E-03 4.113672E+01  9.761224E-01 -5.037107E+01 
5.019375E+02  9.881770E-01 -4.863400E+01  4.661740E-03 3.903736E+01  4.677277E-03 3.914330E+01  9.775380E-01 -5.079427E+01 
5.056250E+02  9.879599E-01 -4.899403E+01  4.675687E-03 3.759589E+01  4.682504E-03 3.748558E+01  9.766613E-01 -5.124913E+01 
5.093125E+02  9.887767E-01 -4.931794E+01  4.628508E-03 3.699642E+01  4.639559E-03 3.711012E+01  9.765321E-01 -5.140406E+01 
5.130000E+02  9.879824E-01 -4.967352E+01  4.502052E-03 3.720194E+01  4.504645E-03 3.704438E+01  9.762856E-01 -5.182199E+01 
5.166875E+02  9.874941E-01 -4.999083E+01  4.500444E-03 3.695201E+01  4.496008E-03 3.693031E+01  9.747853E-01 -5.206865E+01 
5.203750E+02  9.874815E-01 -5.033170E+01  4.481437E-03 3.801707E+01  4.465448E-03 3.829798E+01  9.766762E-01 -5.249329E+01 
5.240625E+02  9.877172E-01 -5.066925E+01  4.561622E-03 3.892485E+01  4.564788E-03 3.859288E+01  9.756498E-01 -5.300399E+01 
5.277500E+02  9.870850E-01 -5.099123E+01  4.617878E-03 3.740749E+01  4.623364E-03 3.711120E+01  9.753068E-01 -5.321044E+01 
5.314375E+02  9.878342E-01 -5.139011E+01  4.591595E-03 3.640556E+01  4.580295E-03 3.639987E+01  9.749701E-01 -5.362958E+01 
5.351250E+02  9.859015E-01 -5.166172E+01  4.601405E-03 3.601060E+01  4.588003E-03 3.616598E+01  9.738782E-01 -5.390601E+01 
5.388125E+02  9.868037E-01 -5.194419E+01  4.568054E-03 3.594744E+01  4.537538E-03 3.644642E+01  9.748649E-01 -5.429686E+01 
5.425000E+02  9.865886E-01 -5.231609E+01  4.553585E-03 3.664760E+01  4.530351E-03 3.639479E+01  9.726062E-01 -5.465229E+01 
5.461875E+02  9.862693E-01 -5.269156E+01  4.565182E-03 3.639625E+01  4.549788E-03 3.658965E+01  9.738046E-01 -5.495081E+01 
5.498750E+02  9.861609E-01 -5.295499E+01  4.617471E-03 3.680016E+01  4.649780E-03 3.697828E+01  9.744791E-01 -5.536718E+01 
5.535625E+02  9.862953E-01 -5.329292E+01  4.621651E-03 3.580834E+01  4.637165E-03 3.547580E+01  9.737214E-01 -5.565542E+01 
5.572500E+02  9.859327E-01 -5.360086E+01  4.659670E-03 3.542651E+01  4.664616E-03 3.527014E+01  9.731550E-01 -5.600005E+01 
5.609375E+02  9.848600E-01 -5.388959E+01  4.677332E-03 3.568981E+01  4.677656E-03 3.521067E+01  9.711929E-01 -5.635835E+01 
5.646250E+02  9.844836E-01 -5.422142E+01  4.679156E-03 3.487871E+01  4.687328E-03 3.509526E+01  9.722635E-01 -5.665326E+01 
5.683125E+02  9.846249E-01 -5.456177E+01  4.725984E-03 3.426137E+01  4.729360E-03 3.441054E+01  9.729741E-01 -5.708376E+01 
5.720000E+02  9.853060E-01 -5.489723E+01  4.661774E-03 3.351909E+01  4.652830E-03 3.313825E+01  9.712148E-01 -5.731903E+01 
5.756875E+02  9.844908E-01 -5.520391E+01  4.597954E-03 3.365092E+01  4.594954E-03 3.366203E+01  9.717708E-01 -5.767696E+01 
5.793750E+02  9.845252E-01 -5.555075E+01  4.635744E-03 3.340456E+01  4.634728E-03 3.337802E+01  9.697342E-01 -5.796847E+01 
5.830625E+02  9.847518E-01 -5.585194E+01  4.627914E-03 3.347810E+01  4.629632E-03 3.336110E+01  9.715351E-01 -5.832101E+01 
5.867500E+02  9.843852E-01 -5.622385E+01  4.697730E-03 3.342154E+01  4.712792E-03 3.344377E+01  9.720045E-01 -5.872164E+01 
5.904375E+02  9.845416E-01 -5.650660E+01  4.704818E-03 3.259069E+01  4.724147E-03 3.275882E+01  9.723561E-01 -5.894358E+01 
5.941250E+02  9.828723E-01 -5.673938E+01  4.704324E-03 3.326456E+01  4.718660E-03 3.334471E+01  9.721012E-01 -5.925443E+01 
5.978125E+02  9.834993E-01 -5.712310E+01  4.782211E-03 3.219691E+01  4.763213E-03 3.225687E+01  9.707867E-01 -5.961303E+01 
6.015000E+02  9.838819E-01 -5.747940E+01  4.764546E-03 3.150420E+01  4.741603E-03 3.156648E+01  9.708340E-01 -5.996448E+01 
6.051875E+02  9.837980E-01 -5.782657E+01  4.754011E-03 3.082323E+01  4.755422E-03 3.069552E+01  9.699624E-01 -6.035966E+01 
6.088750E+02  9.837588E-01 -5.810029E+01  4.640814E-03 3.031818E+01  4.632554E-03 3.016038E+01  9.709265E-01 -6.046137E+01 
6.125625E+02  9.842838E-01 -5.836932E+01  4.698929E-03 2.922722E+01  4.687054E-03 2.906885E+01  9.714292E-01 -6.087087E+01 
6.162500E+02  9.843732E-01 -5.863527E+01  4.571177E-03 2.927571E+01  4.569226E-03 2.953708E+01  9.709755E-01 -6.113036E+01 
6.199375E+02  9.846587E-01 -5.897566E+01  4.572002E-03 3.042207E+01  4.553145E-03 3.028830E+01  9.728844E-01 -6.146913E+01 
6.236250E+02  9.839472E-01 -5.927123E+01  4.635379E-03 3.078727E+01  4.612098E-03 3.066389E+01  9.717697E-01 -6.189874E+01 
6.273125E+02  9.849187E-01 -5.958353E+01  4.679304E-03 3.053660E+01  4.685079E-03 3.041828E+01  9.734469E-01 -6.210524E+01 
6.310000E+02  9.840977E-01 -5.994290E+01  4.671957E-03 2.974045E+01  4.672241E-03 2.955261E+01  9.739646E-01 -6.247210E+01 
6.346875E+02  9.842197E-01 -6.024962E+01  4.660666E-03 2.871124E+01  4.633136E-03 2.862140E+01  9.730177E-01 -6.272949E+01 
6.383750E+02  9.843947E-01 -6.054679E+01  4.622447E-03 2.929922E+01  4.628167E-03 2.906267E+01  9.743939E-01 -6.305324E+01 
6.420625E+02  9.848948E-01 -6.095295E+01  4.654561E-03 2.867560E+01  4.651776E-03 2.850815E+01  9.739629E-01 -6.350086E+01 
6.457500E+02  9.838520E-01 -6.114689E+01  4.629013E-03 2.878600E+01  4.616982E-03 2.868803E+01  9.742361E-01 -6.368017E+01 
6.494375E+02  9.837348E-01 -6.149303E+01  4.671936E-03 2.860357E+01  4.664196E-03 2.838193E+01  9.746276E-01 -6.403717E+01 
6.531250E+02  9.844363E-01 -6.175936E+01  4.681131E-03 2.866550E+01  4.693369E-03 2.848255E+01  9.740578E-01 -6.430954E+01 
6.568125E+02  9.847236E-01 -6.206649E+01  4.675788E-03 2.821002E+01  4.653522E-03 2.817130E+01  9.746384E-01 -6.468299E+01 
6.605000E+02  9.838194E-01 -6.236990E+01  4.728909E-03 2.775713E+01  4.692603E-03 2.785826E+01  9.730367E-01 -6.498988E+01 
6.641875E+02  9.856879E-01 -6.267566E+01  4.713020E-03 2.711680E+01  4.710421E-03 2.705442E+01  9.749088E-01 -6.533127E+01 
6.678750E+02  9.847938E-01 -6.302459E+01  4.744978E-03 2.623002E+01  4.765096E-03 2.618191E+01  9.741735E-01 -6.570476E+01 
6.715625E+02  9.850517E-01 -6.331175E+01  4.755212E-03 2.454971E+01  4.737699E-03 2.470704E+01  9.741394E-01 -6.592146E+01 
6.752500E+02  9.864808E-01 -6.358579E+01  4.651380E-03 2.424090E+01  4.657181E-03 2.443040E+01  9.747542E-01 -6.628773E+01 
