! Matrix data file written by TouchstoneData, EPCOS AG
! FILENAME: "newformat_B3592_NB_6.s2p"
! COMMENT: "(B3592_NB_6.s2p)"
! INFO: nport=2, nfreq=1001
! DATE: "Tue Jan 10 10:25:52 2012"
! USER: "Daniel Harbusch"
!
! port | pin | signal
! -----|-----|--------
!   1  |  2  |  IN
!   2  |  6  |  OUT
! --------------------
! 
# MHZ S MA R 50
! freq  magS11 angS11  magS21 angS21  magS12 angS12  magS22 angS22
9.865000E+01  9.701274E-01 -5.658238E+01  5.106941E-04 1.465681E+00  5.068571E-04 1.420222E+00  9.677248E-01 -5.778147E+01 
9.876000E+01  9.705692E-01 -5.674137E+01  1.869325E-04 7.680175E+01  1.880626E-04 7.540377E+01  9.678127E-01 -5.794832E+01 
9.887000E+01  9.705357E-01 -5.691230E+01  7.638897E-04 7.931816E+01  7.671785E-04 7.840418E+01  9.671532E-01 -5.809634E+01 
9.898000E+01  9.699582E-01 -5.707153E+01  5.567280E-04 6.137351E+01  5.549442E-04 5.944762E+01  9.669455E-01 -5.823665E+01 
9.909000E+01  9.690104E-01 -5.723253E+01  6.712114E-04 7.297415E+01  6.756438E-04 7.321304E+01  9.663677E-01 -5.841222E+01 
9.920000E+01  9.681953E-01 -5.740117E+01  1.503081E-03 6.397737E+01  1.509920E-03 6.386876E+01  9.656857E-01 -5.853985E+01 
9.931000E+01  9.659809E-01 -5.751745E+01  1.256191E-03 2.158211E+01  1.252875E-03 2.172012E+01  9.649130E-01 -5.867599E+01 
9.942000E+01  9.646282E-01 -5.757948E+01  6.342806E-04 -9.752520E+00  6.221610E-04 -9.532249E+00  9.649095E-01 -5.880281E+01 
9.953000E+01  9.647237E-01 -5.757315E+01  6.040013E-04 9.324907E+01  6.146159E-04 9.397420E+01  9.636220E-01 -5.889281E+01 
9.964000E+01  9.660858E-01 -5.760809E+01  1.451655E-03 7.495935E+01  1.439250E-03 7.525380E+01  9.637493E-01 -5.898340E+01 
9.975000E+01  9.675729E-01 -5.777295E+01  1.606706E-03 4.609374E+01  1.621576E-03 4.650730E+01  9.640751E-01 -5.912691E+01 
9.986000E+01  9.679132E-01 -5.795622E+01  1.273876E-03 3.407528E+01  1.288553E-03 3.427616E+01  9.646078E-01 -5.925858E+01 
9.997000E+01  9.672189E-01 -5.815709E+01  1.321118E-03 3.097550E+01  1.317849E-03 3.091979E+01  9.642708E-01 -5.942392E+01 
1.000800E+02  9.665550E-01 -5.826734E+01  1.118046E-03 1.586765E+01  1.124500E-03 1.631144E+01  9.638564E-01 -5.955692E+01 
1.001900E+02  9.658798E-01 -5.837748E+01  1.143195E-03 9.690560E+00  1.140682E-03 9.436486E+00  9.640337E-01 -5.967206E+01 
1.003000E+02  9.664955E-01 -5.845809E+01  1.028211E-03 -9.605030E+00  1.036553E-03 -9.497572E+00  9.643429E-01 -5.983284E+01 
1.004100E+02  9.667213E-01 -5.864035E+01  3.669728E-04 -2.545633E+01  3.641872E-04 -2.596481E+01  9.644517E-01 -5.999536E+01 
1.005200E+02  9.668551E-01 -5.879445E+01  4.223685E-04 3.316828E+01  4.324753E-04 3.359498E+01  9.644077E-01 -6.012912E+01 
1.006300E+02  9.660854E-01 -5.896013E+01  6.642706E-04 8.465861E+01  6.674727E-04 8.468585E+01  9.643334E-01 -6.031147E+01 
1.007400E+02  9.652888E-01 -5.904606E+01  1.157633E-03 6.199599E+01  1.161753E-03 6.147658E+01  9.638219E-01 -6.047070E+01 
1.008500E+02  9.658056E-01 -5.916418E+01  1.413597E-03 4.724917E+01  1.417356E-03 4.736833E+01  9.638484E-01 -6.059169E+01 
1.009600E+02  9.653859E-01 -5.935071E+01  1.511591E-03 3.458518E+01  1.515862E-03 3.452050E+01  9.641001E-01 -6.077663E+01 
1.010700E+02  9.650206E-01 -5.942057E+01  1.679018E-03 -2.339037E+00  1.664366E-03 -2.087940E+00  9.632258E-01 -6.094117E+01 
1.011800E+02  9.655306E-01 -5.957141E+01  6.379954E-04 -1.544879E+01  6.356356E-04 -1.436585E+01  9.627164E-01 -6.110813E+01 
1.012900E+02  9.656768E-01 -5.970839E+01  6.844377E-04 -1.772005E-01  6.791659E-04 -1.546909E-01  9.620977E-01 -6.123371E+01 
1.014000E+02  9.645409E-01 -5.990835E+01  5.764739E-04 2.789493E+01  5.779940E-04 2.833765E+01  9.620687E-01 -6.137455E+01 
1.015100E+02  9.644379E-01 -5.996396E+01  6.552458E-04 2.316501E+01  6.428035E-04 2.254643E+01  9.611506E-01 -6.149786E+01 
1.016200E+02  9.645471E-01 -6.007258E+01  1.077205E-03 2.008276E+01  1.078671E-03 2.034983E+01  9.613167E-01 -6.160446E+01 
1.017300E+02  9.652819E-01 -6.024950E+01  7.313863E-04 3.998632E+01  7.242543E-04 3.932939E+01  9.622144E-01 -6.175265E+01 
1.018400E+02  9.640978E-01 -6.039016E+01  1.052054E-03 1.794315E+01  1.055435E-03 1.756455E+01  9.614963E-01 -6.194378E+01 
1.019500E+02  9.649930E-01 -6.049692E+01  8.218707E-04 2.945594E+01  8.169176E-04 2.932825E+01  9.615332E-01 -6.205927E+01 
1.020600E+02  9.654018E-01 -6.068941E+01  7.911405E-04 2.828485E+01  7.847041E-04 2.808128E+01  9.618695E-01 -6.221358E+01 
1.021700E+02  9.654696E-01 -6.081981E+01  7.847364E-04 3.592405E+01  7.955942E-04 3.559225E+01  9.618613E-01 -6.236010E+01 
1.022800E+02  9.654622E-01 -6.103563E+01  8.157752E-04 3.441262E+01  8.135196E-04 3.474043E+01  9.623157E-01 -6.252703E+01 
1.023900E+02  9.651658E-01 -6.117905E+01  8.341574E-04 3.842370E+01  8.349746E-04 3.833352E+01  9.623202E-01 -6.269672E+01 
1.025000E+02  9.644772E-01 -6.137984E+01  1.238056E-03 3.633274E+01  1.240955E-03 3.615281E+01  9.626200E-01 -6.290393E+01 
1.026100E+02  9.634144E-01 -6.148568E+01  1.247679E-03 1.807021E+01  1.255642E-03 1.784337E+01  9.617733E-01 -6.309732E+01 
1.027200E+02  9.636493E-01 -6.160791E+01  1.133334E-03 1.076820E+01  1.131857E-03 1.111808E+01  9.613460E-01 -6.326484E+01 
1.028300E+02  9.640767E-01 -6.178061E+01  9.568867E-04 1.790775E+01  9.633771E-04 1.784269E+01  9.610892E-01 -6.343215E+01 
1.029400E+02  9.638787E-01 -6.196064E+01  1.184619E-03 1.985102E+01  1.192875E-03 2.038435E+01  9.603586E-01 -6.359307E+01 
1.030500E+02  9.635465E-01 -6.216763E+01  1.610552E-03 1.070754E+01  1.602499E-03 1.086326E+01  9.600148E-01 -6.377838E+01 
1.031600E+02  9.613716E-01 -6.232975E+01  1.282651E-03 -3.301858E+01  1.289869E-03 -3.312939E+01  9.593675E-01 -6.392347E+01 
1.032700E+02  9.603993E-01 -6.240581E+01  4.866815E-04 -9.424342E+01  4.762151E-04 -9.208066E+01  9.588259E-01 -6.408211E+01 
1.033800E+02  9.607152E-01 -6.252341E+01  5.015986E-04 1.411680E+01  4.958657E-04 1.408189E+01  9.582793E-01 -6.421367E+01 
1.034900E+02  9.603497E-01 -6.265370E+01  6.327082E-05 6.691205E+01  5.706057E-05 7.301629E+01  9.579874E-01 -6.435046E+01 
1.036000E+02  9.594259E-01 -6.284923E+01  6.504939E-04 5.227462E+01  6.602684E-04 5.323242E+01  9.578080E-01 -6.452366E+01 
1.037100E+02  9.576527E-01 -6.283519E+01  8.550224E-04 4.115762E+01  8.580395E-04 4.154061E+01  9.562841E-01 -6.467671E+01 
1.038200E+02  9.588181E-01 -6.296713E+01  6.035643E-04 6.055373E+01  6.020526E-04 5.943441E+01  9.563462E-01 -6.475387E+01 
1.039300E+02  9.592534E-01 -6.308143E+01  1.135123E-03 3.655696E+01  1.129435E-03 3.641798E+01  9.565741E-01 -6.487408E+01 
1.040400E+02  9.597746E-01 -6.319802E+01  8.668399E-04 1.188744E+01  8.656717E-04 1.140762E+01  9.567931E-01 -6.500892E+01 
1.041500E+02  9.592515E-01 -6.330386E+01  9.403782E-04 4.853013E+00  9.367510E-04 5.018556E+00  9.569058E-01 -6.515530E+01 
1.042600E+02  9.611199E-01 -6.343674E+01  3.519681E-04 8.293270E+00  3.583784E-04 9.153092E+00  9.573381E-01 -6.531113E+01 
1.043700E+02  9.615223E-01 -6.363221E+01  2.583464E-04 1.054878E+02  2.597115E-04 1.063931E+02  9.582895E-01 -6.547629E+01 
1.044800E+02  9.618700E-01 -6.382517E+01  9.256416E-04 7.984435E+01  9.213965E-04 7.972159E+01  9.579295E-01 -6.567000E+01 
1.045900E+02  9.607502E-01 -6.400717E+01  1.158864E-03 8.094141E+01  1.164348E-03 8.083755E+01  9.582890E-01 -6.587209E+01 
1.047000E+02  9.607375E-01 -6.411174E+01  1.684603E-03 4.839336E+01  1.685281E-03 4.792785E+01  9.572748E-01 -6.604997E+01 
1.048100E+02  9.612102E-01 -6.427222E+01  1.617659E-03 4.764551E+01  1.630156E-03 4.728014E+01  9.572968E-01 -6.619902E+01 
1.049200E+02  9.606624E-01 -6.442657E+01  2.282716E-03 2.793295E+01  2.274776E-03 2.803229E+01  9.566503E-01 -6.637982E+01 
1.050300E+02  9.612349E-01 -6.458238E+01  1.820208E-03 4.630498E+00  1.824360E-03 4.915592E+00  9.570427E-01 -6.649813E+01 
1.051400E+02  9.611306E-01 -6.474070E+01  1.444005E-03 -5.842084E-01  1.442639E-03 -6.121749E-01  9.573790E-01 -6.669692E+01 
1.052500E+02  9.614435E-01 -6.493152E+01  1.535272E-03 -6.025217E+00  1.549473E-03 -5.910767E+00  9.569655E-01 -6.687332E+01 
1.053600E+02  9.607573E-01 -6.511337E+01  1.456478E-03 -2.147763E+01  1.449142E-03 -2.138110E+01  9.570507E-01 -6.704902E+01 
1.054700E+02  9.602443E-01 -6.526200E+01  8.909981E-04 -6.312828E+01  8.943532E-04 -6.249829E+01  9.568963E-01 -6.722773E+01 
1.055800E+02  9.601658E-01 -6.539310E+01  1.396312E-04 -5.573133E+01  1.348406E-04 -5.828433E+01  9.565492E-01 -6.738041E+01 
1.056900E+02  9.596334E-01 -6.554171E+01  3.667579E-04 1.806181E+01  3.709682E-04 1.650594E+01  9.568224E-01 -6.756694E+01 
1.058000E+02  9.587184E-01 -6.565351E+01  8.588463E-04 4.446008E+01  8.631692E-04 4.456739E+01  9.557841E-01 -6.777704E+01 
1.059100E+02  9.605409E-01 -6.570762E+01  5.091105E-04 2.247831E+01  5.225329E-04 2.373041E+01  9.559920E-01 -6.783588E+01 
1.060200E+02  9.618485E-01 -6.595107E+01  6.380446E-04 4.602281E+01  6.412017E-04 4.515578E+01  9.570400E-01 -6.805258E+01 
1.061300E+02  9.616203E-01 -6.617685E+01  8.660415E-04 3.529665E+01  8.532846E-04 3.574307E+01  9.568861E-01 -6.827140E+01 
1.062400E+02  9.618151E-01 -6.631959E+01  9.584263E-04 2.235647E+01  9.622823E-04 2.308380E+01  9.568473E-01 -6.845821E+01 
1.063500E+02  9.622912E-01 -6.653530E+01  6.983351E-04 2.377203E+01  7.107369E-04 2.435110E+01  9.569318E-01 -6.865138E+01 
1.064600E+02  9.617583E-01 -6.677182E+01  8.668090E-04 3.712320E+01  8.740349E-04 3.694765E+01  9.567155E-01 -6.886623E+01 
1.065700E+02  9.606489E-01 -6.691783E+01  9.791667E-04 2.507857E+01  9.761275E-04 2.567434E+01  9.558529E-01 -6.906917E+01 
1.066800E+02  9.606520E-01 -6.707234E+01  1.185042E-03 2.856293E+01  1.178205E-03 2.918923E+01  9.556329E-01 -6.923688E+01 
1.067900E+02  9.610438E-01 -6.728123E+01  1.362009E-03 6.848313E+00  1.351642E-03 5.899156E+00  9.553637E-01 -6.940328E+01 
1.069000E+02  9.595475E-01 -6.749476E+01  1.153911E-03 -2.217634E+01  1.152659E-03 -2.254895E+01  9.552862E-01 -6.959594E+01 
1.070100E+02  9.586614E-01 -6.761655E+01  7.760650E-04 -3.495577E+01  7.704937E-04 -3.442637E+01  9.552271E-01 -6.979529E+01 
1.071200E+02  9.580324E-01 -6.773309E+01  2.917950E-04 -1.088511E+01  2.909743E-04 -1.093006E+01  9.543772E-01 -6.997871E+01 
1.072300E+02  9.587638E-01 -6.781535E+01  8.994731E-05 9.572715E+01  8.947928E-05 9.378611E+01  9.546880E-01 -7.015230E+01 
1.073400E+02  9.599655E-01 -6.802433E+01  7.334775E-04 7.273789E+01  7.302351E-04 7.286936E+01  9.543466E-01 -7.035842E+01 
1.074500E+02  9.601151E-01 -6.824399E+01  8.980859E-04 5.882583E+01  8.927981E-04 5.942882E+01  9.545165E-01 -7.054815E+01 
1.075600E+02  9.586731E-01 -6.850423E+01  1.053881E-03 5.237234E+01  1.048976E-03 5.243855E+01  9.535085E-01 -7.079589E+01 
1.076700E+02  9.570935E-01 -6.865955E+01  1.428054E-03 2.735319E+01  1.417096E-03 2.784131E+01  9.521201E-01 -7.094166E+01 
1.077800E+02  9.563730E-01 -6.875124E+01  1.184845E-03 1.579317E+01  1.177840E-03 1.598629E+01  9.523138E-01 -7.107947E+01 
1.078900E+02  9.572573E-01 -6.889817E+01  8.694543E-04 2.117412E+01  8.591210E-04 2.063118E+01  9.529333E-01 -7.128237E+01 
1.080000E+02  9.573100E-01 -6.905943E+01  9.703110E-04 1.161773E+01  9.732611E-04 1.162300E+01  9.524863E-01 -7.148041E+01 
1.081100E+02  9.573830E-01 -6.924336E+01  8.218494E-04 5.453935E+00  8.275252E-04 6.024645E+00  9.523752E-01 -7.167799E+01 
1.082200E+02  9.572564E-01 -6.939665E+01  8.583730E-04 2.904152E+01  8.581208E-04 2.931571E+01  9.520079E-01 -7.187913E+01 
1.083300E+02  9.572590E-01 -6.958975E+01  7.400211E-04 1.692527E+01  7.470692E-04 1.629638E+01  9.517484E-01 -7.206457E+01 
1.084400E+02  9.574170E-01 -6.975741E+01  7.163421E-04 2.496167E+01  7.100646E-04 2.475494E+01  9.515593E-01 -7.225902E+01 
1.085500E+02  9.573544E-01 -6.994122E+01  7.494205E-04 2.322157E+01  7.494495E-04 2.326042E+01  9.513895E-01 -7.245465E+01 
1.086600E+02  9.573774E-01 -7.012876E+01  7.406365E-04 1.745431E+01  7.515040E-04 1.724510E+01  9.508546E-01 -7.261181E+01 
1.087700E+02  9.573299E-01 -7.032337E+01  6.670863E-04 3.562628E+01  6.506176E-04 3.485524E+01  9.514639E-01 -7.282592E+01 
1.088800E+02  9.569228E-01 -7.051651E+01  8.311371E-04 3.694671E+01  8.201759E-04 3.755412E+01  9.511209E-01 -7.304469E+01 
1.089900E+02  9.566277E-01 -7.070020E+01  7.876959E-04 4.968988E+01  7.913817E-04 4.979757E+01  9.510776E-01 -7.323218E+01 
1.091000E+02  9.568016E-01 -7.088333E+01  9.511636E-04 4.021040E+01  9.497926E-04 3.969381E+01  9.511681E-01 -7.344094E+01 
1.092100E+02  9.564729E-01 -7.110555E+01  1.283019E-03 3.578333E+01  1.276409E-03 3.583902E+01  9.511579E-01 -7.368303E+01 
1.093200E+02  9.551939E-01 -7.129673E+01  1.083534E-03 2.048814E+01  1.085817E-03 2.012953E+01  9.501308E-01 -7.392320E+01 
1.094300E+02  9.552086E-01 -7.146212E+01  9.438794E-04 4.436599E+01  9.360856E-04 4.478743E+01  9.493642E-01 -7.408943E+01 
1.095400E+02  9.551543E-01 -7.164994E+01  1.386201E-03 3.888529E+01  1.383632E-03 3.925001E+01  9.496978E-01 -7.427589E+01 
1.096500E+02  9.546974E-01 -7.187110E+01  1.618224E-03 1.742894E+01  1.606244E-03 1.747111E+01  9.494603E-01 -7.453867E+01 
1.097600E+02  9.537721E-01 -7.210720E+01  1.199542E-03 2.008939E+01  1.203820E-03 1.980955E+01  9.487711E-01 -7.476009E+01 
1.098700E+02  9.521184E-01 -7.226824E+01  1.371411E-03 1.835745E+01  1.368477E-03 1.884635E+01  9.479005E-01 -7.498739E+01 
1.099800E+02  9.511838E-01 -7.242772E+01  1.305537E-03 9.089036E+00  1.307670E-03 8.920405E+00  9.464317E-01 -7.519305E+01 
1.100900E+02  9.498601E-01 -7.252589E+01  1.622072E-03 5.709025E+00  1.611782E-03 5.281053E+00  9.451874E-01 -7.536130E+01 
1.102000E+02  9.508350E-01 -7.263910E+01  1.195330E-03 -6.466116E+00  1.193334E-03 -6.521454E+00  9.448196E-01 -7.547111E+01 
1.103100E+02  9.515402E-01 -7.283424E+01  1.204458E-03 -1.866420E+00  1.212738E-03 -1.679313E+00  9.456872E-01 -7.562264E+01 
1.104200E+02  9.509268E-01 -7.302809E+01  1.095013E-03 -5.361178E+00  1.096811E-03 -5.040590E+00  9.457925E-01 -7.587191E+01 
1.105300E+02  9.509582E-01 -7.321173E+01  1.033412E-03 -6.769527E+00  1.041910E-03 -6.343282E+00  9.456715E-01 -7.604551E+01 
1.106400E+02  9.507716E-01 -7.342523E+01  8.446309E-04 -2.889760E+01  8.367289E-04 -2.925651E+01  9.459932E-01 -7.627189E+01 
1.107500E+02  9.493144E-01 -7.356816E+01  3.345504E-04 -6.242312E+01  3.380358E-04 -6.430821E+01  9.457542E-01 -7.650530E+01 
1.108600E+02  9.498986E-01 -7.364213E+01  7.162072E-04 4.608011E+01  7.254997E-04 4.577292E+01  9.456243E-01 -7.673616E+01 
1.109700E+02  9.511048E-01 -7.385377E+01  1.085153E-03 1.307533E+01  1.088075E-03 1.353685E+01  9.452413E-01 -7.693854E+01 
1.110800E+02  9.512480E-01 -7.410703E+01  7.865946E-04 -3.769022E+00  7.734841E-04 -4.053098E+00  9.455425E-01 -7.718906E+01 
1.111900E+02  9.507295E-01 -7.431757E+01  7.227242E-04 3.846564E+00  7.262602E-04 3.067866E+00  9.444703E-01 -7.744545E+01 
1.113000E+02  9.515785E-01 -7.451631E+01  5.093528E-04 2.251158E+01  5.100058E-04 2.268675E+01  9.444784E-01 -7.764002E+01 
1.114100E+02  9.512778E-01 -7.483664E+01  6.288973E-04 4.048208E+01  6.305016E-04 4.196944E+01  9.439692E-01 -7.795974E+01 
1.115200E+02  9.488311E-01 -7.508970E+01  6.679137E-04 6.413988E+01  6.657174E-04 6.409361E+01  9.414699E-01 -7.817382E+01 
1.116300E+02  9.466307E-01 -7.527147E+01  1.319796E-03 4.612196E+01  1.311802E-03 4.624453E+01  9.403031E-01 -7.832651E+01 
1.117400E+02  9.444651E-01 -7.532564E+01  1.505323E-03 4.931695E+01  1.513448E-03 4.958554E+01  9.389978E-01 -7.847778E+01 
1.118500E+02  9.459319E-01 -7.537962E+01  1.951535E-03 2.119845E+01  1.955413E-03 2.122741E+01  9.399273E-01 -7.857362E+01 
1.119600E+02  9.451703E-01 -7.558307E+01  1.449516E-03 9.370379E+00  1.443722E-03 9.209447E+00  9.397378E-01 -7.886336E+01 
1.120700E+02  9.444677E-01 -7.568152E+01  1.604089E-03 2.881576E+00  1.602739E-03 2.933426E+00  9.385075E-01 -7.900335E+01 
1.121800E+02  9.468290E-01 -7.584368E+01  1.492824E-03 -1.080257E+01  1.495756E-03 -1.052666E+01  9.391636E-01 -7.912752E+01 
1.122900E+02  9.468477E-01 -7.604344E+01  1.106794E-03 -3.159229E+01  1.110921E-03 -3.179432E+01  9.404175E-01 -7.935353E+01 
1.124000E+02  9.479536E-01 -7.624211E+01  6.400077E-04 -6.316956E+00  6.334286E-04 -5.668382E+00  9.410335E-01 -7.961264E+01 
1.125100E+02  9.477342E-01 -7.650864E+01  1.121723E-03 6.824272E+00  1.115962E-03 7.328440E+00  9.404728E-01 -7.987385E+01 
1.126200E+02  9.466758E-01 -7.670147E+01  8.279369E-04 7.495040E+00  8.358005E-04 6.943629E+00  9.405496E-01 -8.005910E+01 
1.127300E+02  9.470182E-01 -7.687742E+01  9.094314E-04 6.462456E+00  9.109942E-04 6.352245E+00  9.402761E-01 -8.029671E+01 
1.128400E+02  9.470483E-01 -7.704939E+01  5.585418E-04 -9.086974E+00  5.467924E-04 -1.004659E+01  9.404630E-01 -8.050954E+01 
1.129500E+02  9.478263E-01 -7.726291E+01  7.718098E-04 1.766133E-01  7.600327E-04 -5.935778E-01  9.409080E-01 -8.074983E+01 
1.130600E+02  9.483012E-01 -7.750928E+01  7.085819E-04 2.803548E+00  7.031415E-04 2.794074E+00  9.413088E-01 -8.104309E+01 
1.131700E+02  9.481103E-01 -7.777993E+01  8.093301E-04 3.826745E+01  8.041274E-04 3.743853E+01  9.405958E-01 -8.133870E+01 
1.132800E+02  9.473896E-01 -7.801015E+01  7.959358E-04 1.804078E+01  7.977214E-04 1.809315E+01  9.392635E-01 -8.162542E+01 
1.133900E+02  9.462038E-01 -7.823177E+01  1.267715E-03 2.381675E+01  1.275560E-03 2.358498E+01  9.375729E-01 -8.178393E+01 
1.135000E+02  9.461272E-01 -7.841672E+01  1.208913E-03 9.283654E+00  1.212282E-03 9.155128E+00  9.381498E-01 -8.200150E+01 
1.136100E+02  9.460262E-01 -7.869223E+01  1.108764E-03 1.303296E+01  1.124306E-03 1.293326E+01  9.378761E-01 -8.226261E+01 
1.137200E+02  9.444261E-01 -7.891951E+01  9.360295E-04 -4.232277E+00  9.330596E-04 -4.669298E+00  9.368412E-01 -8.254056E+01 
1.138300E+02  9.420509E-01 -7.915791E+01  1.291135E-03 1.162446E+00  1.274255E-03 1.765347E+00  9.351650E-01 -8.275906E+01 
1.139400E+02  9.405412E-01 -7.917283E+01  9.122042E-04 -2.129170E+01  8.983686E-04 -2.095536E+01  9.348082E-01 -8.290669E+01 
1.140500E+02  9.404267E-01 -7.930194E+01  9.308327E-04 5.249369E+00  9.328798E-04 5.101702E+00  9.338137E-01 -8.311087E+01 
1.141600E+02  9.425941E-01 -7.937122E+01  5.955627E-04 -2.351522E+01  5.907792E-04 -2.358656E+01  9.343452E-01 -8.324363E+01 
1.142700E+02  9.439749E-01 -7.962538E+01  8.387974E-04 1.593239E+01  8.442493E-04 1.527786E+01  9.348961E-01 -8.341098E+01 
1.143800E+02  9.451020E-01 -7.991023E+01  9.680968E-04 7.419956E+00  9.420154E-04 8.089540E+00  9.365131E-01 -8.368557E+01 
1.144900E+02  9.445620E-01 -8.024711E+01  9.603101E-04 -2.532660E+01  9.572185E-04 -2.391888E+01  9.366984E-01 -8.400532E+01 
1.146000E+02  9.423637E-01 -8.046405E+01  5.003426E-04 -6.437386E+01  5.029260E-04 -6.463450E+01  9.365431E-01 -8.429066E+01 
1.147100E+02  9.424821E-01 -8.059851E+01  1.524355E-04 1.635570E+02  1.508794E-04 1.627953E+02  9.358662E-01 -8.455620E+01 
1.148200E+02  9.421275E-01 -8.080857E+01  7.732508E-04 9.653494E+01  7.774756E-04 9.631597E+01  9.356097E-01 -8.482987E+01 
1.149300E+02  9.425341E-01 -8.099935E+01  1.182860E-03 5.539109E+01  1.179899E-03 5.595482E+01  9.346326E-01 -8.507088E+01 
1.150400E+02  9.430182E-01 -8.123733E+01  1.092865E-03 5.213207E+01  1.096537E-03 5.199756E+01  9.347497E-01 -8.529599E+01 
1.151500E+02  9.437257E-01 -8.147590E+01  1.224618E-03 4.260488E+01  1.225521E-03 4.278207E+01  9.350519E-01 -8.557586E+01 
1.152600E+02  9.437123E-01 -8.183547E+01  1.384827E-03 2.335357E+01  1.375991E-03 2.268497E+01  9.345738E-01 -8.590145E+01 
1.153700E+02  9.408058E-01 -8.211016E+01  1.000984E-03 1.241454E+01  1.000838E-03 1.350404E+01  9.322383E-01 -8.618737E+01 
1.154800E+02  9.390090E-01 -8.224893E+01  1.229851E-03 4.708703E+01  1.229568E-03 4.642067E+01  9.316312E-01 -8.634887E+01 
1.155900E+02  9.393149E-01 -8.240969E+01  1.360819E-03 3.946854E+01  1.357144E-03 3.936887E+01  9.318719E-01 -8.656338E+01 
1.157000E+02  9.382434E-01 -8.263477E+01  2.027915E-03 2.591220E+01  2.036878E-03 2.604154E+01  9.320169E-01 -8.684863E+01 
1.158100E+02  9.378380E-01 -8.281559E+01  1.819351E-03 1.096732E+01  1.825539E-03 1.078176E+01  9.307884E-01 -8.711900E+01 
