! Matrix data file written by TouchstoneData, EPCOS AG
! FILENAME: "B3917.NB.s2p"
! COMMENT: "1 Sep 2011 S11-NoP:801;Caltype:;"
! INFO: nport=2, nfreq=801
! DATE: "Thu Sep 29 10:33:34 2011"
! USER: "WeiLong Lin"
!
! port | pin | signal
! -----|-----|--------
!   1  |  2  |  In
!   2  |  5  |  Out
! --------------------
! 
# MHZ S MA R 50
! freq  magS11 angS11  magS21 angS21  magS12 angS12  magS22 angS22
2.800000E+02  9.886267E-01 -4.837778E+01  7.099782E-05 1.765916E+02  7.086064E-05 -1.771161E+02  9.873254E-01 -4.823582E+01 
2.800875E+02  9.889610E-01 -4.842962E+01  5.278791E-05 -1.792010E+02  5.611369E-05 1.693647E+02  9.874717E-01 -4.828083E+01 
2.801750E+02  9.892057E-01 -4.849185E+01  7.309563E-05 1.733917E+02  4.563469E-05 1.658179E+02  9.874737E-01 -4.826730E+01 
2.802625E+02  9.892243E-01 -4.854865E+01  4.635638E-05 1.587247E+02  5.868343E-05 1.653932E+02  9.878225E-01 -4.836199E+01 
2.803500E+02  9.893141E-01 -4.860923E+01  4.668586E-05 1.586766E+02  5.863371E-05 1.667372E+02  9.879809E-01 -4.841679E+01 
2.804375E+02  9.894279E-01 -4.866933E+01  5.571580E-05 1.446880E+02  5.919277E-05 1.715125E+02  9.881485E-01 -4.847346E+01 
2.805250E+02  9.892869E-01 -4.871966E+01  3.980220E-05 -1.781536E+02  5.537986E-05 1.443320E+02  9.880100E-01 -4.846626E+01 
2.806125E+02  9.892061E-01 -4.877345E+01  3.164415E-05 1.499607E+02  4.544642E-05 1.535845E+02  9.884760E-01 -4.855794E+01 
2.807000E+02  9.891659E-01 -4.882134E+01  3.115923E-05 1.539226E+02  4.549515E-05 1.593807E+02  9.883552E-01 -4.860950E+01 
2.807875E+02  9.892476E-01 -4.885959E+01  3.478246E-05 1.188909E+02  3.211615E-05 1.484637E+02  9.882853E-01 -4.866370E+01 
2.808750E+02  9.891194E-01 -4.890637E+01  4.732989E-05 -1.709453E+02  6.534293E-05 -1.597715E+02  9.883642E-01 -4.869235E+01 
2.809625E+02  9.890649E-01 -4.895368E+01  3.530237E-05 1.451659E+02  3.488120E-05 1.241802E+02  9.885742E-01 -4.873688E+01 
2.810500E+02  9.889355E-01 -4.899794E+01  4.023886E-05 1.160313E+02  3.734464E-05 1.416553E+02  9.887626E-01 -4.878095E+01 
2.811375E+02  9.891194E-01 -4.902638E+01  1.159394E-05 1.107678E+02  7.465932E-06 9.738230E+01  9.886110E-01 -4.884302E+01 
2.812250E+02  9.893384E-01 -4.907330E+01  2.522951E-05 1.350331E+02  1.465560E-05 1.013091E+02  9.888227E-01 -4.888231E+01 
2.813125E+02  9.894032E-01 -4.911894E+01  1.291707E-05 -6.578112E+01  1.883934E-05 -1.137514E+02  9.887419E-01 -4.888469E+01 
2.814000E+02  9.896278E-01 -4.918306E+01  1.592963E-05 -1.437540E+02  1.245091E-05 -1.335470E+02  9.893472E-01 -4.898728E+01 
2.814875E+02  9.899362E-01 -4.923035E+01  3.154192E-05 -1.492595E+02  2.149387E-05 -1.648423E+02  9.889833E-01 -4.904645E+01 
2.815750E+02  9.899879E-01 -4.929319E+01  1.890301E-05 -3.693052E+00  4.202849E-05 -1.478744E+02  9.892256E-01 -4.909248E+01 
2.816625E+02  9.898875E-01 -4.935009E+01  2.854416E-05 -1.526906E+02  3.147547E-05 -1.346272E+02  9.893505E-01 -4.914515E+01 
2.817500E+02  9.899382E-01 -4.940238E+01  2.862346E-05 -1.141922E+02  4.287756E-05 -9.338836E+01  9.891567E-01 -4.921032E+01 
2.818375E+02  9.900985E-01 -4.946025E+01  1.230165E-05 -8.489343E+01  3.296283E-05 -1.163793E+02  9.892680E-01 -4.924717E+01 
2.819250E+02  9.899185E-01 -4.951634E+01  2.664476E-05 -1.513886E+02  3.192903E-05 -1.170203E+02  9.892740E-01 -4.932289E+01 
2.820125E+02  9.899301E-01 -4.957639E+01  5.067954E-05 -1.470071E+02  3.104394E-05 -1.384581E+02  9.891197E-01 -4.937613E+01 
2.821000E+02  9.899254E-01 -4.963061E+01  5.363560E-05 -1.548465E+02  3.411079E-05 -1.043013E+02  9.890571E-01 -4.941573E+01 
2.821875E+02  9.899019E-01 -4.968421E+01  2.641785E-05 -1.312121E+02  4.324061E-05 -1.680453E+02  9.890084E-01 -4.948148E+01 
2.822750E+02  9.897282E-01 -4.973556E+01  5.400664E-05 -1.214317E+02  5.325806E-05 -1.195412E+02  9.889222E-01 -4.953443E+01 
2.823625E+02  9.898070E-01 -4.979480E+01  3.509980E-05 -1.608275E+02  3.741208E-05 -1.520202E+02  9.889129E-01 -4.957683E+01 
2.824500E+02  9.893802E-01 -4.984897E+01  1.909894E-05 -1.603804E+02  4.459942E-05 -1.731380E+02  9.889994E-01 -4.964441E+01 
2.825375E+02  9.894958E-01 -4.989564E+01  4.765971E-05 1.740205E+02  3.791162E-05 -1.606303E+02  9.889083E-01 -4.969588E+01 
2.826250E+02  9.894895E-01 -4.995876E+01  2.133091E-05 1.786007E+02  3.314133E-05 -1.335517E+02  9.888311E-01 -4.975138E+01 
2.827125E+02  9.892568E-01 -5.002344E+01  2.517158E-05 -1.230621E+02  2.774362E-05 -1.377570E+02  9.884587E-01 -4.982022E+01 
2.828000E+02  9.892050E-01 -5.006935E+01  4.303959E-05 -1.530195E+02  5.182889E-05 -1.375013E+02  9.887228E-01 -4.987798E+01 
2.828875E+02  9.892034E-01 -5.013717E+01  2.922254E-05 1.793130E+02  4.727894E-05 -1.550483E+02  9.884191E-01 -4.994924E+01 
2.829750E+02  9.890340E-01 -5.019001E+01  2.507768E-05 -1.265558E+02  1.827105E-05 1.559593E+02  9.881824E-01 -5.001771E+01 
2.830625E+02  9.889018E-01 -5.025410E+01  2.474661E-05 -1.257086E+02  4.165111E-05 -1.010105E+02  9.881406E-01 -5.005764E+01 
2.831500E+02  9.886989E-01 -5.030590E+01  4.568064E-05 -1.211960E+02  4.007869E-05 -1.101531E+02  9.879637E-01 -5.012899E+01 
2.832375E+02  9.887325E-01 -5.037022E+01  5.199706E-05 -1.426624E+02  4.230033E-05 -1.525109E+02  9.876585E-01 -5.018807E+01 
2.833250E+02  9.882925E-01 -5.042573E+01  5.333613E-05 -1.294030E+02  6.838599E-05 -1.425086E+02  9.873693E-01 -5.024952E+01 
2.834125E+02  9.880960E-01 -5.049218E+01  6.244098E-05 -1.276901E+02  5.773214E-05 -1.440301E+02  9.868582E-01 -5.028928E+01 
2.835000E+02  9.878538E-01 -5.052998E+01  6.062255E-05 -1.458914E+02  5.853509E-05 -1.279874E+02  9.868734E-01 -5.032519E+01 
2.835875E+02  9.877578E-01 -5.059394E+01  3.458902E-05 -1.628206E+02  4.746852E-05 1.743604E+02  9.866739E-01 -5.037729E+01 
2.836750E+02  9.873949E-01 -5.064975E+01  2.689921E-05 -1.070574E+02  4.489519E-05 -1.446201E+02  9.866412E-01 -5.041132E+01 
2.837625E+02  9.874981E-01 -5.069730E+01  5.677733E-05 -1.272378E+02  4.030184E-05 -1.505449E+02  9.864095E-01 -5.047172E+01 
2.838500E+02  9.872278E-01 -5.076739E+01  7.982535E-05 -1.414489E+02  6.879836E-05 -1.540632E+02  9.865528E-01 -5.051628E+01 
2.839375E+02  9.871343E-01 -5.082468E+01  5.423303E-05 -1.360997E+02  5.483982E-05 -1.538565E+02  9.862659E-01 -5.053879E+01 
2.840250E+02  9.869027E-01 -5.088280E+01  6.242073E-05 -1.686466E+02  5.841298E-05 -1.583900E+02  9.863173E-01 -5.064206E+01 
2.841125E+02  9.867394E-01 -5.094770E+01  6.345988E-05 -1.693430E+02  8.386726E-05 -1.622588E+02  9.861485E-01 -5.071145E+01 
2.842000E+02  9.862621E-01 -5.102265E+01  5.598444E-05 -1.762404E+02  7.036561E-05 -1.521246E+02  9.860566E-01 -5.075992E+01 
2.842875E+02  9.858522E-01 -5.107846E+01  5.123378E-05 -1.637114E+02  4.608829E-05 -1.649753E+02  9.858165E-01 -5.083457E+01 
2.843750E+02  9.852720E-01 -5.113070E+01  5.420071E-05 1.790093E+02  4.231948E-05 -1.433444E+02  9.854088E-01 -5.083711E+01 
2.844625E+02  9.846614E-01 -5.116997E+01  4.655313E-05 -1.614556E+02  4.482982E-05 -1.736723E+02  9.855344E-01 -5.095743E+01 
2.845500E+02  9.842101E-01 -5.121301E+01  4.540668E-05 -1.569170E+02  4.308237E-05 -1.635527E+02  9.851265E-01 -5.101113E+01 
2.846375E+02  9.839464E-01 -5.122753E+01  6.378984E-05 -1.322991E+02  4.992499E-05 -1.396627E+02  9.850636E-01 -5.106943E+01 
2.847250E+02  9.841713E-01 -5.126079E+01  9.154814E-05 -1.349063E+02  7.609067E-05 -1.266799E+02  9.848630E-01 -5.113545E+01 
2.848125E+02  9.842359E-01 -5.130383E+01  9.576459E-05 -1.495822E+02  1.073964E-04 -1.478832E+02  9.849997E-01 -5.119619E+01 
2.849000E+02  9.846599E-01 -5.135803E+01  9.284398E-05 -1.737132E+02  7.178869E-05 -1.598523E+02  9.844573E-01 -5.128066E+01 
2.849875E+02  9.846144E-01 -5.144352E+01  6.459334E-05 -1.717204E+02  9.628284E-05 -1.615433E+02  9.840933E-01 -5.135985E+01 
2.850750E+02  9.847050E-01 -5.151622E+01  6.554963E-05 -1.382003E+02  8.835603E-05 -1.661567E+02  9.837370E-01 -5.143491E+01 
2.851625E+02  9.842809E-01 -5.161054E+01  8.932177E-05 -1.528987E+02  9.542706E-05 -1.524337E+02  9.830683E-01 -5.152511E+01 
2.852500E+02  9.839802E-01 -5.169272E+01  1.480499E-04 -1.578864E+02  1.407059E-04 -1.563995E+02  9.818517E-01 -5.159813E+01 
2.853375E+02  9.831371E-01 -5.178407E+01  8.498752E-05 -1.732350E+02  1.053014E-04 -1.634034E+02  9.807337E-01 -5.160981E+01 
2.854250E+02  9.823547E-01 -5.185771E+01  1.042047E-04 1.796696E+02  1.019815E-04 1.787781E+02  9.795761E-01 -5.171672E+01 
2.855125E+02  9.811272E-01 -5.193589E+01  1.372690E-04 1.792233E+02  1.250499E-04 -1.745001E+02  9.780932E-01 -5.173048E+01 
2.856000E+02  9.798408E-01 -5.198599E+01  1.556391E-04 1.721086E+02  1.438911E-04 1.731120E+02  9.765262E-01 -5.168152E+01 
2.856875E+02  9.780671E-01 -5.200084E+01  1.389024E-04 1.564951E+02  1.586671E-04 1.617615E+02  9.758838E-01 -5.167980E+01 
2.857750E+02  9.769953E-01 -5.196815E+01  1.340885E-04 1.472403E+02  1.191495E-04 1.386661E+02  9.754679E-01 -5.160652E+01 
2.858625E+02  9.763300E-01 -5.190420E+01  7.428364E-05 1.652928E+02  7.025346E-05 1.613795E+02  9.761416E-01 -5.160502E+01 
2.859500E+02  9.770671E-01 -5.187849E+01  1.018185E-04 1.623914E+02  1.075836E-04 1.735435E+02  9.766922E-01 -5.161615E+01 
2.860375E+02  9.779178E-01 -5.188370E+01  1.270055E-04 1.597267E+02  1.337954E-04 1.536449E+02  9.775418E-01 -5.159288E+01 
2.861250E+02  9.787001E-01 -5.195200E+01  1.390384E-04 1.478921E+02  1.116198E-04 1.513049E+02  9.785165E-01 -5.168675E+01 
2.862125E+02  9.791211E-01 -5.201480E+01  1.386892E-04 1.440230E+02  1.226777E-04 1.418232E+02  9.791933E-01 -5.173663E+01 
2.863000E+02  9.792589E-01 -5.210515E+01  1.153356E-04 1.327834E+02  1.104708E-04 1.335362E+02  9.793612E-01 -5.177915E+01 
2.863875E+02  9.789573E-01 -5.218111E+01  1.299873E-04 1.253846E+02  1.259134E-04 1.291034E+02  9.796399E-01 -5.189747E+01 
2.864750E+02  9.785055E-01 -5.226395E+01  1.277586E-04 1.347262E+02  1.205556E-04 1.312259E+02  9.797284E-01 -5.197526E+01 
2.865625E+02  9.777074E-01 -5.232699E+01  1.274960E-04 1.339247E+02  1.050052E-04 1.377797E+02  9.792987E-01 -5.204691E+01 
2.866500E+02  9.767585E-01 -5.238012E+01  1.478359E-04 1.378965E+02  1.304987E-04 1.286679E+02  9.790910E-01 -5.210167E+01 
2.867375E+02  9.759931E-01 -5.239654E+01  1.324935E-04 1.177592E+02  1.302432E-04 1.174937E+02  9.784126E-01 -5.212072E+01 
2.868250E+02  9.753020E-01 -5.238045E+01  1.685556E-04 1.153547E+02  1.562638E-04 1.218661E+02  9.785252E-01 -5.220680E+01 
2.869125E+02  9.753171E-01 -5.236985E+01  1.681735E-04 1.009487E+02  1.563977E-04 9.980375E+01  9.781519E-01 -5.228054E+01 
2.870000E+02  9.757985E-01 -5.234974E+01  1.443458E-04 8.020782E+01  1.425576E-04 7.681367E+01  9.778280E-01 -5.228063E+01 
2.870875E+02  9.768756E-01 -5.237920E+01  7.300996E-05 7.318696E+01  7.747512E-05 6.538709E+01  9.777301E-01 -5.238781E+01 
2.871750E+02  9.778101E-01 -5.242646E+01  4.868779E-05 1.420574E+02  6.389743E-05 1.346421E+02  9.777732E-01 -5.247372E+01 
2.872625E+02  9.786712E-01 -5.252573E+01  1.528894E-04 1.377448E+02  1.361824E-04 1.296136E+02  9.773330E-01 -5.249407E+01 
2.873500E+02  9.789590E-01 -5.262771E+01  1.832105E-04 1.138139E+02  1.860478E-04 1.193174E+02  9.770132E-01 -5.262019E+01 
2.874375E+02  9.788426E-01 -5.273690E+01  2.059371E-04 9.771042E+01  1.913095E-04 1.012431E+02  9.763316E-01 -5.271834E+01 
2.875250E+02  9.786184E-01 -5.284126E+01  2.163283E-04 9.026191E+01  2.339984E-04 9.905319E+01  9.750541E-01 -5.274273E+01 
2.876125E+02  9.777783E-01 -5.294289E+01  2.120639E-04 7.928679E+01  2.508454E-04 7.527161E+01  9.737480E-01 -5.284658E+01 
2.877000E+02  9.764396E-01 -5.304842E+01  2.175067E-04 7.082378E+01  2.064074E-04 6.968777E+01  9.722042E-01 -5.289224E+01 
2.877875E+02  9.749699E-01 -5.312707E+01  2.118970E-04 6.105124E+01  2.067679E-04 6.321467E+01  9.703999E-01 -5.289341E+01 
2.878750E+02  9.731087E-01 -5.316374E+01  2.329907E-04 4.836323E+01  2.178779E-04 4.952834E+01  9.684833E-01 -5.279885E+01 
2.879625E+02  9.710719E-01 -5.316416E+01  1.447817E-04 3.724897E+01  1.439219E-04 4.521222E+01  9.675761E-01 -5.273592E+01 
2.880500E+02  9.694325E-01 -5.309418E+01  1.453913E-04 5.818730E+01  1.389153E-04 4.905904E+01  9.679466E-01 -5.261858E+01 
2.881375E+02  9.688366E-01 -5.297790E+01  1.362005E-04 6.019391E+01  1.523720E-04 5.974345E+01  9.692898E-01 -5.252677E+01 
2.882250E+02  9.697332E-01 -5.286858E+01  2.102384E-04 7.931168E+01  2.311592E-04 8.010335E+01  9.711174E-01 -5.245962E+01 
2.883125E+02  9.718163E-01 -5.282563E+01  2.915275E-04 5.919495E+01  2.844236E-04 6.464929E+01  9.732537E-01 -5.249060E+01 
2.884000E+02  9.737234E-01 -5.284631E+01  3.239136E-04 4.760730E+01  3.149670E-04 4.683917E+01  9.750280E-01 -5.261842E+01 
2.884875E+02  9.755318E-01 -5.293422E+01  3.243036E-04 3.288508E+01  3.015863E-04 3.203872E+01  9.763874E-01 -5.270750E+01 
2.885750E+02  9.765426E-01 -5.303684E+01  3.317856E-04 2.474680E+01  3.198823E-04 2.052403E+01  9.775361E-01 -5.281074E+01 
2.886625E+02  9.773949E-01 -5.313938E+01  3.259654E-04 1.413074E+01  3.275483E-04 1.731084E+01  9.778695E-01 -5.292474E+01 
2.887500E+02  9.774934E-01 -5.323056E+01  2.995357E-04 4.904128E+00  3.275231E-04 8.656046E+00  9.779460E-01 -5.301856E+01 
2.888375E+02  9.773612E-01 -5.334061E+01  2.826903E-04 -1.662039E+00  3.091731E-04 -1.099017E+00  9.780891E-01 -5.310442E+01 
2.889250E+02  9.768087E-01 -5.343077E+01  2.698760E-04 -4.278725E+00  2.709900E-04 -5.019714E+00  9.778636E-01 -5.319214E+01 
2.890125E+02  9.763451E-01 -5.348321E+01  2.728523E-04 -5.662540E+00  2.449509E-04 -3.666783E+00  9.776995E-01 -5.326020E+01 
2.891000E+02  9.756830E-01 -5.352733E+01  2.614943E-04 -7.687783E+00  2.649548E-04 -4.517109E+00  9.776886E-01 -5.332232E+01 
2.891875E+02  9.752815E-01 -5.354283E+01  2.896384E-04 -7.891572E+00  2.956415E-04 -1.080522E+01  9.776642E-01 -5.338399E+01 
2.892750E+02  9.754343E-01 -5.352440E+01  3.061539E-04 -2.056410E+01  2.699257E-04 -1.831504E+01  9.776966E-01 -5.344065E+01 
2.893625E+02  9.764037E-01 -5.354063E+01  2.795296E-04 -1.893006E+01  2.774383E-04 -1.889264E+01  9.777295E-01 -5.349554E+01 
2.894500E+02  9.777148E-01 -5.359859E+01  3.124738E-04 -1.619772E+01  3.000180E-04 -1.617554E+01  9.779771E-01 -5.358036E+01 
2.895375E+02  9.786835E-01 -5.368802E+01  2.945978E-04 -2.247790E+01  3.241508E-04 -2.189241E+01  9.778718E-01 -5.361006E+01 
2.896250E+02  9.794360E-01 -5.379084E+01  3.019840E-04 -1.803066E+01  3.006641E-04 -2.123637E+01  9.779886E-01 -5.374786E+01 
2.897125E+02  9.797987E-01 -5.391637E+01  3.604819E-04 -2.710011E+01  3.445194E-04 -2.585597E+01  9.778310E-01 -5.382231E+01 
2.898000E+02  9.797350E-01 -5.402936E+01  3.918153E-04 -2.103239E+01  3.916504E-04 -2.033668E+01  9.774769E-01 -5.392722E+01 
2.898875E+02  9.794672E-01 -5.413636E+01  4.833303E-04 -3.080458E+01  4.725653E-04 -2.906433E+01  9.764299E-01 -5.396769E+01 
2.899750E+02  9.786517E-01 -5.423256E+01  5.386615E-04 -3.803040E+01  5.227940E-04 -3.924102E+01  9.753960E-01 -5.406538E+01 
2.900625E+02  9.779184E-01 -5.431200E+01  5.726705E-04 -4.622058E+01  5.504020E-04 -4.742686E+01  9.740829E-01 -5.410174E+01 
2.901500E+02  9.768252E-01 -5.437933E+01  6.276851E-04 -5.834774E+01  6.259714E-04 -5.875080E+01  9.729161E-01 -5.409871E+01 
2.902375E+02  9.755184E-01 -5.441322E+01  6.368431E-04 -7.209657E+01  6.242428E-04 -7.302641E+01  9.722624E-01 -5.401490E+01 
2.903250E+02  9.743856E-01 -5.441057E+01  6.231328E-04 -8.456231E+01  6.357543E-04 -8.367538E+01  9.727133E-01 -5.399651E+01 
2.904125E+02  9.737918E-01 -5.435753E+01  6.223945E-04 -9.775976E+01  5.869752E-04 -9.781132E+01  9.739376E-01 -5.394304E+01 
2.905000E+02  9.744040E-01 -5.429388E+01  5.490451E-04 -1.117564E+02  5.640318E-04 -1.096058E+02  9.758596E-01 -5.393953E+01 
2.905875E+02  9.760446E-01 -5.427225E+01  4.704328E-04 -1.224419E+02  4.744505E-04 -1.229304E+02  9.777403E-01 -5.399740E+01 
2.906750E+02  9.779936E-01 -5.432042E+01  3.654078E-04 -1.277591E+02  3.743786E-04 -1.283961E+02  9.795624E-01 -5.407984E+01 
2.907625E+02  9.797976E-01 -5.441319E+01  2.840914E-04 -1.282134E+02  2.969494E-04 -1.282831E+02  9.808728E-01 -5.419967E+01 
2.908500E+02  9.809023E-01 -5.452038E+01  2.760347E-04 -1.222370E+02  2.729158E-04 -1.232708E+02  9.819933E-01 -5.429994E+01 
2.909375E+02  9.816247E-01 -5.462750E+01  2.445909E-04 -1.235968E+02  2.707511E-04 -1.222913E+02  9.824278E-01 -5.438384E+01 
2.910250E+02  9.821726E-01 -5.475176E+01  2.417877E-04 -1.254927E+02  2.484910E-04 -1.280310E+02  9.831285E-01 -5.455360E+01 
2.911125E+02  9.828026E-01 -5.484062E+01  2.176014E-04 -1.247097E+02  2.133869E-04 -1.252680E+02  9.834114E-01 -5.465711E+01 
2.912000E+02  9.829391E-01 -5.494682E+01  1.844246E-04 -1.232319E+02  1.593999E-04 -1.170163E+02  9.833015E-01 -5.477283E+01 
2.912875E+02  9.832305E-01 -5.504812E+01  2.237452E-04 -1.160504E+02  2.290285E-04 -1.111013E+02  9.833795E-01 -5.486273E+01 
2.913750E+02  9.833468E-01 -5.514651E+01  2.500430E-04 -1.177084E+02  2.293752E-04 -1.183693E+02  9.837013E-01 -5.496151E+01 
2.914625E+02  9.834906E-01 -5.523260E+01  2.263813E-04 -1.233331E+02  2.105424E-04 -1.190804E+02  9.838332E-01 -5.505479E+01 
2.915500E+02  9.839530E-01 -5.531561E+01  2.435788E-04 -1.186757E+02  2.249422E-04 -1.208509E+02  9.840027E-01 -5.515107E+01 
2.916375E+02  9.843010E-01 -5.540801E+01  2.382089E-04 -1.258385E+02  2.527301E-04 -1.205041E+02  9.839210E-01 -5.518857E+01 
2.917250E+02  9.847235E-01 -5.550258E+01  2.470762E-04 -1.335988E+02  2.675119E-04 -1.414435E+02  9.843860E-01 -5.532782E+01 
2.918125E+02  9.851913E-01 -5.560824E+01  2.002202E-04 -1.396806E+02  2.221875E-04 -1.379250E+02  9.847277E-01 -5.541322E+01 
2.919000E+02  9.854934E-01 -5.571846E+01  1.701818E-04 -1.390437E+02  1.655484E-04 -1.372545E+02  9.850262E-01 -5.551916E+01 
2.919875E+02  9.858016E-01 -5.582720E+01  1.528519E-04 -1.369559E+02  1.583497E-04 -1.339264E+02  9.851712E-01 -5.561671E+01 
2.920750E+02  9.858923E-01 -5.594034E+01  1.522803E-04 -1.353008E+02  1.650577E-04 -1.345762E+02  9.850819E-01 -5.572992E+01 
2.921625E+02  9.858997E-01 -5.605090E+01  1.513696E-04 -1.350458E+02  1.453589E-04 -1.270358E+02  9.850808E-01 -5.582343E+01 
2.922500E+02  9.859833E-01 -5.615689E+01  1.434554E-04 -1.307027E+02  1.593001E-04 -1.263156E+02  9.852608E-01 -5.593738E+01 
2.923375E+02  9.859486E-01 -5.626404E+01  1.678717E-04 -1.218273E+02  1.637080E-04 -1.238720E+02  9.850559E-01 -5.597583E+01 
2.924250E+02  9.857615E-01 -5.638133E+01  1.823233E-04 -1.297879E+02  1.899738E-04 -1.219864E+02  9.852167E-01 -5.611946E+01 
2.925125E+02  9.857670E-01 -5.647776E+01  1.742933E-04 -1.307987E+02  1.942740E-04 -1.318153E+02  9.855117E-01 -5.621429E+01 
2.926000E+02  9.857265E-01 -5.657744E+01  1.831669E-04 -1.373540E+02  1.864788E-04 -1.336519E+02  9.855761E-01 -5.631398E+01 
2.926875E+02  9.857929E-01 -5.667202E+01  2.148699E-04 -1.445745E+02  2.367088E-04 -1.379192E+02  9.860924E-01 -5.641812E+01 
2.927750E+02  9.861751E-01 -5.676465E+01  1.871601E-04 -1.433756E+02  2.119464E-04 -1.431655E+02  9.861369E-01 -5.653288E+01 
2.928625E+02  9.863213E-01 -5.686786E+01  1.758385E-04 -1.477288E+02  1.871640E-04 -1.486652E+02  9.866167E-01 -5.663041E+01 
2.929500E+02  9.865363E-01 -5.698349E+01  1.528332E-04 -1.548174E+02  1.761876E-04 -1.493761E+02  9.866393E-01 -5.675824E+01 
2.930375E+02  9.866998E-01 -5.710171E+01  1.577004E-04 -1.463195E+02  1.736582E-04 -1.545800E+02  9.867915E-01 -5.688799E+01 
2.931250E+02  9.868359E-01 -5.722151E+01  1.589067E-04 -1.479428E+02  1.643002E-04 -1.481270E+02  9.866554E-01 -5.701070E+01 
2.932125E+02  9.868075E-01 -5.733839E+01  1.338184E-04 -1.515191E+02  1.426799E-04 -1.462411E+02  9.865245E-01 -5.708767E+01 
2.933000E+02  9.867836E-01 -5.746086E+01  1.640554E-04 -1.573668E+02  1.580049E-04 -1.595214E+02  9.865443E-01 -5.726215E+01 
2.933875E+02  9.867376E-01 -5.759358E+01  1.439585E-04 -1.600368E+02  1.631551E-04 -1.572361E+02  9.863729E-01 -5.739010E+01 
2.934750E+02  9.865067E-01 -5.772652E+01  1.231915E-04 -1.679498E+02  1.147799E-04 -1.617966E+02  9.862920E-01 -5.750987E+01 
2.935625E+02  9.864188E-01 -5.785382E+01  1.283252E-04 -1.702542E+02  1.273890E-04 -1.585259E+02  9.861029E-01 -5.763407E+01 
