! Matrix data file written by TouchstoneData, EPCOS AG
! FILENAME: "B3918.PCB3.NB.snp"
! COMMENT: "(TS/B3918.PCB3.NB.s2p)"
! INFO: nport=2, nfreq=1601
! DATE: "Fri Dec  6 11:18:46 2013"
! USER: "Dan Wang"
!
! port | pin | signal
! -----|-----|--------
!   1  |  2  |  Input
!   2  |  5  |  Output
! --------------------
! 
# MHZ S RI R 50
! freq  reS11 imS11  reS21 imS21  reS12 imS12  reS22 imS22
2242  -0.268056096779054 -0.912146319962925  0.00253378696287433 -0.000528684135051744  0.00253378696287433 -0.000528684135051744  -0.711249103957012 -0.622954059529341 
2242.25  -0.268487021736022 -0.912097893328613  0.0025152858370921 -0.000517027562497295  0.0025152858370921 -0.000517027562497295  -0.711757859676364 -0.622391731879461 
2242.5  -0.268833066622509 -0.912115039758396  0.00249865478782102 -0.000513664378985193  0.00249865478782102 -0.000513664378985193  -0.712220809142523 -0.621919194846396 
2242.75  -0.269152946517328 -0.912083481673275  0.00248533723818415 -0.000501222736010733  0.00248533723818415 -0.000501222736010733  -0.712583155942904 -0.621539475324807 
2243  -0.269550995181595 -0.912026835629784  0.00246940084731339 -0.000494361344611913  0.00246940084731339 -0.000494361344611913  -0.713025080754921 -0.621124563494092 
2243.25  -0.270006046607152 -0.911980222875119  0.00245724919083358 -0.000486341128460276  0.00245724919083358 -0.000486341128460276  -0.713621431657857 -0.620613108162925 
2243.5  -0.270469528942924 -0.911850482216541  0.00244279650275297 -0.000483045659019868  0.00244279650275297 -0.000483045659019868  -0.714070952305366 -0.620008765118343 
2243.75  -0.271001589391521 -0.9118215230485  0.00242742002269975 -0.000476383922010076  0.00242742002269975 -0.000476383922010076  -0.714567197948654 -0.619517076012712 
2244  -0.271389284108476 -0.911791697899367  0.00241413494527197 -0.000472326815230022  0.00241413494527197 -0.000472326815230022  -0.714996225352985 -0.619141574528052 
2244.25  -0.2718453487313 -0.911698486152984  0.00239870904046681 -0.00046909366438649  0.00239870904046681 -0.00046909366438649  -0.715492895621696 -0.618676204432035 
2244.5  -0.272318115317107 -0.911666434586084  0.00238155543157854 -0.000456295286525622  0.00238155543157854 -0.000456295286525622  -0.716013346845561 -0.618043949304759 
2244.75  -0.272808901204725 -0.911538836839901  0.00236961507736454 -0.000441735027090251  0.00236961507736454 -0.000441735027090251  -0.716472654142039 -0.617475521113887 
2245  -0.273383049313501 -0.911391584486455  0.00234890095877999 -0.000440899998968034  0.00234890095877999 -0.000440899998968034  -0.7168867350213 -0.616933883961695 
2245.25  -0.273798292019265 -0.9113116943809  0.00234115810458856 -0.000435678194515784  0.00234115810458856 -0.000435678194515784  -0.7172028177354 -0.616477718069223 
2245.5  -0.274174548039204 -0.911231208728359  0.00232392630809887 -0.000423815409682618  0.00232392630809887 -0.000423815409682618  -0.717609017475448 -0.61611180711635 
2245.75  -0.274688530665683 -0.911098381107114  0.00230750401365955 -0.000416199176008996  0.00230750401365955 -0.000416199176008996  -0.718095973286256 -0.615618817449714 
2246  -0.275196470803975 -0.910982069544079  0.00230031603056718 -0.000414156917741995  0.00230031603056718 -0.000414156917741995  -0.718626712240279 -0.615188415326884 
2246.25  -0.275672890453324 -0.910848698756823  0.00228588382968024 -0.000407578199681833  0.00228588382968024 -0.000407578199681833  -0.719188982802718 -0.614768669430953 
2246.5  -0.276179713370995 -0.910724928322805  0.00226723285015772 -0.000399937111623459  0.00226723285015772 -0.000399937111623459  -0.719677652791674 -0.614342756079924 
2246.75  -0.27651605695978 -0.910594526279294  0.00224793761861451 -0.0003930043844163  0.00224793761861451 -0.0003930043844163  -0.720254333069696 -0.613967212603861 
2247  -0.277025874274482 -0.91047191552644  0.00222719309702819 -0.000384880022688706  0.00222719309702819 -0.000384880022688706  -0.720835659406385 -0.613360648498917 
2247.25  -0.277503584557373 -0.910307314465927  0.00221205227123037 -0.00036979264762535  0.00221205227123037 -0.00036979264762535  -0.721319084621768 -0.612841949190108 
2247.5  -0.27802747147759 -0.910100264642417  0.00220577790013708 -0.000363681916509829  0.00220577790013708 -0.000363681916509829  -0.721914493207814 -0.6123325131244 
2247.75  -0.27850922172325 -0.909904035591098  0.00218518894534625 -0.000360274061909308  0.00218518894534625 -0.000360274061909308  -0.722453078018363 -0.611871392997028 
2248  -0.279002119111527 -0.909805725074922  0.00216945058130905 -0.000349274133671226  0.00216945058130905 -0.000349274133671226  -0.723004689409364 -0.611463434457038 
2248.25  -0.27954954213621 -0.909616888490931  0.00216770548996468 -0.000333446028327853  0.00216770548996468 -0.000333446028327853  -0.723644347945112 -0.610978595118588 
2248.5  -0.280110919275112 -0.909427431800359  0.00214750025004923 -0.000330538292872333  0.00214750025004923 -0.000330538292872333  -0.724327943348632 -0.610454641569654 
2248.75  -0.280537176376489 -0.909275849479577  0.00214247917228616 -0.00032324101528245  0.00214247917228616 -0.00032324101528245  -0.725073307517191 -0.609884373855525 
2249  -0.281113252589245 -0.909088406703689  0.00212726966793045 -0.00032074885199047  0.00212726966793045 -0.00032074885199047  -0.725791617222491 -0.609343616751167 
2249.25  -0.281563079185872 -0.908850849655507  0.00210839304670257 -0.000311900646271266  0.00210839304670257 -0.000311900646271266  -0.726559443033396 -0.608727236600022 
2249.5  -0.281990363794898 -0.908674137296456  0.00208947686842139 -0.000305534536296916  0.00208947686842139 -0.000305534536296916  -0.727311093958065 -0.608163669634604 
2249.75  -0.282472164610253 -0.908470250879199  0.00207531663068894 -0.00030009133619659  0.00207531663068894 -0.00030009133619659  -0.727970750076016 -0.607399062837902 
2250  -0.282923292184159 -0.908269350230106  0.00205959762503977 -0.000284540049142528  0.00205959762503977 -0.000284540049142528  -0.728624120482822 -0.606680238603531 
2250.25  -0.283435977323071 -0.908027894961486  0.0020455293515013 -0.000280566585887596  0.0020455293515013 -0.000280566585887596  -0.729338021914731 -0.606007960330318 
2250.5  -0.283802107492596 -0.907807332079915  0.00203331506882247 -0.000275218242310892  0.00203331506882247 -0.000275218242310892  -0.729965632554079 -0.605420939220848 
2250.75  -0.28408593058851 -0.907553378557784  0.00202179259371832 -0.000264307632778933  0.00202179259371832 -0.000264307632778933  -0.730724034639089 -0.604656044941874 
2251  -0.284539387565235 -0.907454395963205  0.00200870973572639 -0.000255491293454182  0.00200870973572639 -0.000255491293454182  -0.731445318726709 -0.603975944360125 
2251.25  -0.284909325741583 -0.907291726574911  0.00199194984245278 -0.000251922513053001  0.00199194984245278 -0.000251922513053001  -0.732108964281318 -0.60328173733103 
2251.5  -0.285347911976031 -0.907062193489776  0.00198371777932179 -0.000243310904202458  0.00198371777932179 -0.000243310904202458  -0.732797427396767 -0.602405654428532 
2251.75  -0.285648893457068 -0.906936478570512  0.00196653598348949 -0.000241387304737818  0.00196653598348949 -0.000241387304737818  -0.733423784915896 -0.601626345068161 
2252  -0.286001061273979 -0.906852044812163  0.00194926483666751 -0.000238042067313125  0.00194926483666751 -0.000238042067313125  -0.734071177560436 -0.600831867735788 
2252.25  -0.28641767071312 -0.906778161574127  0.00192608677142475 -0.000226158294460792  0.00192608677142475 -0.000226158294460792  -0.734683339217689 -0.600074316368083 
2252.5  -0.286805940767041 -0.906572510339134  0.00191242425230559 -0.000212142241702081  0.00191242425230559 -0.000212142241702081  -0.735363619038009 -0.599201684440509 
2252.75  -0.287271116869681 -0.906546869117703  0.00190386342590799 -0.000203950044793332  0.00190386342590799 -0.000203950044793332  -0.73595292156519 -0.59824634424928 
2253  -0.287723048264087 -0.906510767393114  0.00188363177759204 -0.000200172801155035  0.00188363177759204 -0.000200172801155035  -0.736526986507083 -0.597312567607525 
2253.25  -0.288195969839861 -0.906456920285199  0.00186083804838097 -0.000196317930727354  0.00186083804838097 -0.000196317930727354  -0.736995675588103 -0.596472959826312 
2253.5  -0.288693055763953 -0.906496920690881  0.00184700809844767 -0.000181130288669659  0.00184700809844767 -0.000181130288669659  -0.737546237957263 -0.595663797627515 
2253.75  -0.289103392977976 -0.906392551243057  0.0018357254422983 -0.000166323231692227  0.0018357254422983 -0.000166323231692227  -0.738100078303398 -0.59477023318875 
2254  -0.289647663680445 -0.906318877556155  0.00182392303150255 -0.000158153208849526  0.00182392303150255 -0.000158153208849526  -0.738667217617583 -0.593907854458487 
2254.25  -0.29021936858252 -0.906279270479343  0.00180984391232971 -0.000152331763665875  0.00180984391232971 -0.000152331763665875  -0.73927606947753 -0.593008732795397 
2254.5  -0.290766255956544 -0.90616278051882  0.00178907148077365 -0.000139384869601179  0.00178907148077365 -0.000139384869601179  -0.739849439295144 -0.592135662598641 
2254.75  -0.29127519529021 -0.906196549648559  0.00177757134513128 -0.000132400882709793  0.00177757134513128 -0.000132400882709793  -0.740319994029057 -0.591185932281343 
2255  -0.291808582320202 -0.90612322241515  0.00175785799828357 -0.000116151814764803  0.00175785799828357 -0.000116151814764803  -0.740803841092516 -0.590242875947248 
2255.25  -0.292407369853433 -0.905949673140684  0.00175294077008103 -0.000105413744371781  0.00175294077008103 -0.000105413744371781  -0.741243914609696 -0.589324814781794 
2255.5  -0.292965213331566 -0.905879405931251  0.00173170343002418 -9.57377981674514e-05  0.00173170343002418 -9.57377981674514e-05  -0.741697546749036 -0.588372630497678 
2255.75  -0.293645266522686 -0.905770351050908  0.00172212576663595 -8.28831986792173e-05  0.00172212576663595 -8.28831986792173e-05  -0.742087966632727 -0.587479585269881 
2256  -0.294216523194887 -0.905636766600734  0.00171557141277747 -7.73282254250429e-05  0.00171557141277747 -7.73282254250429e-05  -0.742479331717673 -0.586657749270138 
2256.25  -0.294732416911265 -0.905557459872766  0.00169788427104262 -6.9295853223939e-05  0.00169788427104262 -6.9295853223939e-05  -0.742899297802893 -0.585878078081532 
2256.5  -0.295289784901324 -0.905363624913019  0.00167995320933884 -5.21778516528775e-05  0.00167995320933884 -5.21778516528775e-05  -0.743304422012572 -0.584987551183922 
2256.75  -0.295906195459512 -0.905179082410243  0.00167443339240495 -3.74909883490513e-05  0.00167443339240495 -3.74909883490513e-05  -0.743698688264392 -0.584076679425423 
2257  -0.296596129046153 -0.904952681027956  0.00166245672705694 -3.83349197682692e-05  0.00166245672705694 -3.83349197682692e-05  -0.744146465783272 -0.583200102547552 
2257.25  -0.297167521940936 -0.904854333261143  0.00165100739633333 -2.79685256203076e-05  0.00165100739633333 -2.79685256203076e-05  -0.744552423858989 -0.582427695745966 
2257.5  -0.297769042898366 -0.904683342320867  0.00163403092203135 -1.81175027633235e-05  0.00163403092203135 -1.81175027633235e-05  -0.744921534417431 -0.581497453814922 
2257.75  -0.298352850530997 -0.904407430565801  0.00162279936426982 -2.17632454093146e-06  0.00162279936426982 -2.17632454093146e-06  -0.745240934671339 -0.58047856370404 
2258  -0.299052776895811 -0.904175880629271  0.00160821595924552 1.19239667913253e-05  0.00160821595924552 1.19239667913253e-05  -0.745587173823103 -0.579445506900333 
2258.25  -0.299757284250262 -0.90395926784796  0.00159655336939822 1.90598619072982e-05  0.00159655336939822 1.90598619072982e-05  -0.745910375823705 -0.578595539329067 
2258.5  -0.300316203093267 -0.903701955215876  0.00158777006473298 3.55911546891906e-05  0.00158777006473298 3.55911546891906e-05  -0.746282012490395 -0.577789462955337 
2258.75  -0.300891072392956 -0.903507146022655  0.0015841865450211 3.81540422237162e-05  0.0015841865450211 3.81540422237162e-05  -0.746523166420198 -0.576963581162372 
2259  -0.301522882620885 -0.903337209985746  0.00156970635729589 5.62738953230731e-05  0.00156970635729589 5.62738953230731e-05  -0.746843703978195 -0.576122357546993 
2259.25  -0.302163971069284 -0.902999672868992  0.00156165662911443 6.34135451810891e-05  0.00156165662911443 6.34135451810891e-05  -0.747131580742376 -0.575212146748424 
2259.5  -0.302743539458915 -0.90276109463542  0.00155184404862637 7.25235228150068e-05  0.00155184404862637 7.25235228150068e-05  -0.747477567085807 -0.574387642202414 
2259.75  -0.303371811671076 -0.90249570489577  0.00154211708134801 7.76723424081414e-05  0.00154211708134801 7.76723424081414e-05  -0.747795688901761 -0.573540937251479 
2260  -0.303927898920764 -0.902307816822726  0.00152898850279643 8.88102408071565e-05  0.00152898850279643 8.88102408071565e-05  -0.748028668531342 -0.572707512440497 
2260.25  -0.304492580800433 -0.902053390588089  0.00152923977728576 9.24647543289499e-05  0.00152923977728576 9.24647543289499e-05  -0.748230343015501 -0.57181099967613 
2260.5  -0.305087509539037 -0.901693369020669  0.00151323200222378 0.000100453781132515  0.00151323200222378 0.000100453781132515  -0.748496444699249 -0.570995664222799 
2260.75  -0.30562935464873 -0.901352564907718  0.00150886187278247 0.000113290340056949  0.00150886187278247 0.000113290340056949  -0.748659595429688 -0.570124678882254 
2261  -0.306149719059632 -0.901024153292661  0.00150425227043662 0.000122995865210468  0.00150425227043662 0.000122995865210468  -0.748735809441494 -0.569406040497246 
2261.25  -0.306690896964561 -0.900690661498708  0.00150127069252067 0.000122097589166598  0.00150127069252067 0.000122097589166598  -0.748822681117379 -0.568690950371858 
2261.5  -0.307209054308208 -0.900401361183409  0.00150198515924061 0.000126434669122378  0.00150198515924061 0.000126434669122378  -0.748986877859343 -0.568023504704903 
2261.75  -0.30770666410634 -0.900111148258078  0.00148896139766409 0.000118860136001813  0.00148896139766409 0.000118860136001813  -0.749162117311845 -0.567387508051606 
2262  -0.308221195062504 -0.899656729780023  0.00147235986384984 0.000127280042030834  0.00147235986384984 0.000127280042030834  -0.749297474901371 -0.566866663609028 
2262.25  -0.308716984469129 -0.899374379190839  0.0014655458163522 0.000126544591963919  0.0014655458163522 0.000126544591963919  -0.749480838940648 -0.566264575900676 
2262.5  -0.30913933137162 -0.899117872191442  0.00145729351201507 0.000121177343821737  0.00145729351201507 0.000121177343821737  -0.74963784476782 -0.565746296856458 
2262.75  -0.309646773495413 -0.898820237882671  0.00142974367575159 0.000119275487656544  0.00142974367575159 0.000119275487656544  -0.749950778264867 -0.565248396135442 
2263  -0.310102259017116 -0.898498369584445  0.00141796416319131 0.000124448239442577  0.00141796416319131 0.000124448239442577  -0.750182788698689 -0.564679207182996 
2263.25  -0.310536559991518 -0.898243460396939  0.00140044791585679 0.000124507367704606  0.00140044791585679 0.000124507367704606  -0.750501017054169 -0.564238648699682 
2263.5  -0.310948599607566 -0.897975007032401  0.0013825451334522 0.000117440051931092  0.0013825451334522 0.000117440051931092  -0.750799208485132 -0.563710090684698 
2263.75  -0.311389836518813 -0.897716475527498  0.00136010871437547 0.000130341335944701  0.00136010871437547 0.000130341335944701  -0.751146115935609 -0.563362585846682 
2264  -0.311767486603585 -0.897470159846033  0.00134333326621491 0.000137035332543488  0.00134333326621491 0.000137035332543488  -0.751496714361131 -0.562980570508645 
2264.25  -0.312232695288042 -0.897286235307192  0.00133078656139774 0.000140864228541065  0.00133078656139774 0.000140864228541065  -0.751866347409591 -0.562630819635793 
2264.5  -0.312684856518818 -0.897014248083613  0.00130494179260905 0.000148205162719468  0.00130494179260905 0.000148205162719468  -0.752416979231653 -0.562245318631873 
2264.75  -0.313095538756565 -0.896730215899637  0.00128549424332897 0.00015896019224219  0.00128549424332897 0.00015896019224219  -0.753031726946267 -0.561852106889266 
2265  -0.313488369301586 -0.896508032976191  0.00127343610757811 0.000172687146649434  0.00127343610757811 0.000172687146649434  -0.753585612399154 -0.561543165581849 
2265.25  -0.313867806934325 -0.896270217979353  0.00125801930531985 0.000175964653034788  0.00125801930531985 0.000175964653034788  -0.754233321907698 -0.561217682713842 
2265.5  -0.314239721981943 -0.896110225404759  0.0012319954323151 0.000191336209048906  0.0012319954323151 0.000191336209048906  -0.754903502359872 -0.560809488770133 
2265.75  -0.314624285470977 -0.895853032082701  0.00122071777559761 0.000201234485581532  0.00122071777559761 0.000201234485581532  -0.755717287040074 -0.560319371695558 
2266  -0.315042673266245 -0.895669572146068  0.00119745802612333 0.000204381314731394  0.00119745802612333 0.000204381314731394  -0.756430875683642 -0.559824868317741 
2266.25  -0.315425559957819 -0.895444623734515  0.0011874788669189 0.000224402879109053  0.0011874788669189 0.000224402879109053  -0.757241421833844 -0.559306305644526 
2266.5  -0.31585505213889 -0.895316383517621  0.00117339583069897 0.000225488086176438  0.00117339583069897 0.000225488086176438  -0.758071845726169 -0.558833579175167 
2266.75  -0.316219731301286 -0.895051155705791  0.00115767628974596 0.000239373371498876  0.00115767628974596 0.000239373371498876  -0.758811347476811 -0.558326112691156 
2267  -0.316599330987933 -0.89486255558667  0.00114650628394507 0.000258361435088401  0.00114650628394507 0.000258361435088401  -0.759783427679137 -0.557715792797517 
2267.25  -0.317061006900554 -0.894733092110246  0.00113485268861421 0.000266271993090571  0.00113485268861421 0.000266271993090571  -0.760687323944256 -0.55700082306197 
2267.5  -0.317500962232889 -0.894522913733669  0.00112307298403866 0.000270045947404147  0.00112307298403866 0.000270045947404147  -0.76158552424617 -0.55628224592296 
2267.75  -0.318015514966172 -0.894377239302097  0.00112079173228217 0.000282478116988089  0.00112079173228217 0.000282478116988089  -0.762567577772267 -0.55562094568392 
2268  -0.318406419104496 -0.894200512878052  0.00109854421679011 0.000293936490099144  0.00109854421679011 0.000293936490099144  -0.763484938117282 -0.554853847029639 
2268.25  -0.31876153145771 -0.894003558951944  0.00109870355200751 0.000289853380360019  0.00109870355200751 0.000289853380360019  -0.764381643536407 -0.553986059238995 
2268.5  -0.319219849039311 -0.89386179958679  0.00107401355199886 0.000299678983415755  0.00107401355199886 0.000299678983415755  -0.765336691607454 -0.553155997697072 
2268.75  -0.319571195203096 -0.893700943630741  0.00106876963589013 0.000300726494353531  0.00106876963589013 0.000300726494353531  -0.766324590299917 -0.552199950889246 
2269  -0.319991487836213 -0.893525405397246  0.00105182869530512 0.000312014999625505  0.00105182869530512 0.000312014999625505  -0.767115615798877 -0.551265935429936 
2269.25  -0.320344375229872 -0.893463357564444  0.001035617905744 0.000312755850669826  0.001035617905744 0.000312755850669826  -0.768027281349917 -0.55037188626588 
2269.5  -0.320677493619218 -0.89336225631  0.00102276116012985 0.000324046667864888  0.00102276116012985 0.000324046667864888  -0.768763951463603 -0.549445012229754 
2269.75  -0.321048157474352 -0.893263589069963  0.00100916105050045 0.000325465397813004  0.00100916105050045 0.000325465397813004  -0.769639864946597 -0.548443286875559 
2270  -0.321480742745657 -0.893137114912213  0.00100590756185124 0.000332175148019888  0.00100590756185124 0.000332175148019888  -0.770516771702765 -0.547500970998172 
2270.25  -0.321908742237543 -0.893083241462302  0.000978155934171699 0.000334693054719751  0.000978155934171699 0.000334693054719751  -0.771435829588391 -0.546545437009083 
2270.5  -0.322266298171538 -0.893070054321228  0.000956255232281836 0.000339241968999354  0.000956255232281836 0.000339241968999354  -0.772291030175424 -0.545482586558663 
