! Matrix data file written by TouchstoneData, EPCOS AG
! FILENAME: "B3916_NB.s2p"
! COMMENT: "NWA-Port1 : 98.0ps NWA-Port2 : 98.0ps PCB2031"
! INFO: nport=2, nfreq=1601
! DATE: "Wed Jul  4 2012"
! USER: "Hiroshi Tanaka"
!
! port | pin | signal
! -----|-----|--------
!   1  |  2  |  in
!   2  |  5  |  out
! --------------------
! 
# MHZ S RI R 50
! freq  reS11 imS11  reS21 imS21  reS12 imS12  reS22 imS22
8.258000E+02   -1.101564E-01  -9.548105E-01    2.958078E-02  -1.462893E-02    2.953099E-02  -1.458109E-02   -7.707166E-01  -5.763054E-01 
8.259250E+02   -1.108374E-01  -9.545003E-01    2.952209E-02  -1.466201E-02    2.948512E-02  -1.464101E-02   -7.708719E-01  -5.759287E-01 
8.260500E+02   -1.115505E-01  -9.546512E-01    2.947711E-02  -1.461157E-02    2.945440E-02  -1.461747E-02   -7.711417E-01  -5.752499E-01 
8.261750E+02   -1.121055E-01  -9.543329E-01    2.943731E-02  -1.462061E-02    2.942905E-02  -1.457402E-02   -7.715094E-01  -5.748727E-01 
8.263000E+02   -1.126946E-01  -9.546168E-01    2.940778E-02  -1.462870E-02    2.942564E-02  -1.456984E-02   -7.717094E-01  -5.745401E-01 
8.264250E+02   -1.134824E-01  -9.544650E-01    2.935941E-02  -1.464535E-02    2.935737E-02  -1.461000E-02   -7.722183E-01  -5.739099E-01 
8.265500E+02   -1.140774E-01  -9.544668E-01    2.931389E-02  -1.460405E-02    2.930872E-02  -1.459406E-02   -7.726117E-01  -5.732294E-01 
8.266750E+02   -1.146609E-01  -9.543926E-01    2.930745E-02  -1.461823E-02    2.927696E-02  -1.461579E-02   -7.727999E-01  -5.726396E-01 
8.268000E+02   -1.152323E-01  -9.541274E-01    2.923341E-02  -1.462541E-02    2.923115E-02  -1.463712E-02   -7.732200E-01  -5.722738E-01 
8.269250E+02   -1.158639E-01  -9.541701E-01    2.918702E-02  -1.461596E-02    2.921263E-02  -1.460085E-02   -7.734583E-01  -5.716546E-01 
8.270500E+02   -1.163389E-01  -9.540269E-01    2.915406E-02  -1.461346E-02    2.911925E-02  -1.457610E-02   -7.739258E-01  -5.709961E-01 
8.271750E+02   -1.169283E-01  -9.542001E-01    2.912568E-02  -1.460859E-02    2.910072E-02  -1.457705E-02   -7.743539E-01  -5.703649E-01 
8.273000E+02   -1.177599E-01  -9.540799E-01    2.906444E-02  -1.459464E-02    2.908679E-02  -1.456000E-02   -7.745830E-01  -5.697832E-01 
8.274250E+02   -1.182563E-01  -9.539452E-01    2.907141E-02  -1.460627E-02    2.906616E-02  -1.457031E-02   -7.747059E-01  -5.690198E-01 
8.275500E+02   -1.187048E-01  -9.540049E-01    2.903368E-02  -1.455181E-02    2.906225E-02  -1.458795E-02   -7.747734E-01  -5.685761E-01 
8.276750E+02   -1.194612E-01  -9.542206E-01    2.905815E-02  -1.458986E-02    2.900915E-02  -1.459193E-02   -7.751245E-01  -5.681763E-01 
8.278000E+02   -1.199731E-01  -9.541508E-01    2.898771E-02  -1.460609E-02    2.896817E-02  -1.456164E-02   -7.754466E-01  -5.674580E-01 
8.279250E+02   -1.207404E-01  -9.540662E-01    2.894153E-02  -1.460940E-02    2.897259E-02  -1.457936E-02   -7.757223E-01  -5.666937E-01 
8.280500E+02   -1.213678E-01  -9.540106E-01    2.887513E-02  -1.460482E-02    2.894401E-02  -1.459017E-02   -7.759106E-01  -5.662208E-01 
8.281750E+02   -1.221443E-01  -9.539242E-01    2.884642E-02  -1.467265E-02    2.886397E-02  -1.460508E-02   -7.762490E-01  -5.656107E-01 
8.283000E+02   -1.229664E-01  -9.539586E-01    2.882023E-02  -1.460549E-02    2.881327E-02  -1.460990E-02   -7.763196E-01  -5.647872E-01 
8.284250E+02   -1.236253E-01  -9.538351E-01    2.874622E-02  -1.465229E-02    2.875066E-02  -1.460162E-02   -7.765394E-01  -5.639136E-01 
8.285500E+02   -1.242850E-01  -9.535636E-01    2.869493E-02  -1.463211E-02    2.871328E-02  -1.458677E-02   -7.767884E-01  -5.631900E-01 
8.286750E+02   -1.248648E-01  -9.535835E-01    2.867691E-02  -1.460464E-02    2.868657E-02  -1.458514E-02   -7.766828E-01  -5.628135E-01 
8.288000E+02   -1.255390E-01  -9.533553E-01    2.863083E-02  -1.457544E-02    2.863905E-02  -1.460459E-02   -7.766810E-01  -5.619630E-01 
8.289250E+02   -1.262322E-01  -9.532808E-01    2.860812E-02  -1.459001E-02    2.866701E-02  -1.456360E-02   -7.767035E-01  -5.613558E-01 
8.290500E+02   -1.267267E-01  -9.531084E-01    2.862360E-02  -1.459082E-02    2.855669E-02  -1.456381E-02   -7.764128E-01  -5.607642E-01 
8.291750E+02   -1.276219E-01  -9.531491E-01    2.852075E-02  -1.465055E-02    2.851173E-02  -1.462407E-02   -7.765272E-01  -5.604365E-01 
8.293000E+02   -1.282966E-01  -9.528117E-01    2.845844E-02  -1.460296E-02    2.844858E-02  -1.457818E-02   -7.766576E-01  -5.596838E-01 
8.294250E+02   -1.287950E-01  -9.526424E-01    2.844644E-02  -1.458651E-02    2.840176E-02  -1.454804E-02   -7.766795E-01  -5.590737E-01 
8.295500E+02   -1.297000E-01  -9.526035E-01    2.837748E-02  -1.460449E-02    2.839432E-02  -1.458136E-02   -7.764598E-01  -5.585844E-01 
8.296750E+02   -1.303216E-01  -9.522878E-01    2.831286E-02  -1.457059E-02    2.833096E-02  -1.456473E-02   -7.763025E-01  -5.584136E-01 
8.298000E+02   -1.311944E-01  -9.523611E-01    2.830562E-02  -1.454829E-02    2.827952E-02  -1.453649E-02   -7.763122E-01  -5.580732E-01 
8.299250E+02   -1.320137E-01  -9.520927E-01    2.824799E-02  -1.453702E-02    2.821807E-02  -1.452084E-02   -7.763394E-01  -5.578421E-01 
8.300500E+02   -1.324227E-01  -9.516309E-01    2.818148E-02  -1.449206E-02    2.822663E-02  -1.445863E-02   -7.763968E-01  -5.575094E-01 
8.301750E+02   -1.332415E-01  -9.514926E-01    2.816862E-02  -1.449767E-02    2.816178E-02  -1.447070E-02   -7.763157E-01  -5.568805E-01 
8.303000E+02   -1.337301E-01  -9.514201E-01    2.817927E-02  -1.446641E-02    2.812859E-02  -1.447936E-02   -7.763760E-01  -5.564621E-01 
8.304250E+02   -1.344499E-01  -9.512092E-01    2.812539E-02  -1.445994E-02    2.810821E-02  -1.445635E-02   -7.761908E-01  -5.562187E-01 
8.305500E+02   -1.352754E-01  -9.508491E-01    2.809599E-02  -1.447443E-02    2.809176E-02  -1.441271E-02   -7.762875E-01  -5.559620E-01 
8.306750E+02   -1.356057E-01  -9.507729E-01    2.807873E-02  -1.445644E-02    2.806968E-02  -1.444839E-02   -7.761647E-01  -5.557859E-01 
8.308000E+02   -1.364339E-01  -9.502856E-01    2.802571E-02  -1.441217E-02    2.798895E-02  -1.444800E-02   -7.761543E-01  -5.554998E-01 
8.309250E+02   -1.370609E-01  -9.500106E-01    2.795225E-02  -1.442719E-02    2.801191E-02  -1.442068E-02   -7.761767E-01  -5.554032E-01 
8.310500E+02   -1.375968E-01  -9.497873E-01    2.792014E-02  -1.445650E-02    2.794593E-02  -1.442243E-02   -7.765251E-01  -5.554148E-01 
8.311750E+02   -1.383961E-01  -9.495155E-01    2.787472E-02  -1.440470E-02    2.786839E-02  -1.441185E-02   -7.764512E-01  -5.550772E-01 
8.313000E+02   -1.391617E-01  -9.491197E-01    2.788669E-02  -1.435926E-02    2.788527E-02  -1.431481E-02   -7.768167E-01  -5.549125E-01 
8.314250E+02   -1.396880E-01  -9.490585E-01    2.785205E-02  -1.441375E-02    2.784681E-02  -1.432409E-02   -7.769348E-01  -5.544380E-01 
8.315500E+02   -1.401939E-01  -9.488287E-01    2.781648E-02  -1.438584E-02    2.782948E-02  -1.433426E-02   -7.769474E-01  -5.545718E-01 
8.316750E+02   -1.409074E-01  -9.482991E-01    2.777816E-02  -1.436994E-02    2.780356E-02  -1.435974E-02   -7.773436E-01  -5.543387E-01 
8.318000E+02   -1.414952E-01  -9.480872E-01    2.775789E-02  -1.436166E-02    2.774281E-02  -1.432341E-02   -7.775469E-01  -5.543363E-01 
8.319250E+02   -1.422058E-01  -9.477993E-01    2.773581E-02  -1.430193E-02    2.771793E-02  -1.431542E-02   -7.778543E-01  -5.539250E-01 
8.320500E+02   -1.429160E-01  -9.472512E-01    2.767801E-02  -1.433370E-02    2.765951E-02  -1.430907E-02   -7.780439E-01  -5.535261E-01 
8.321750E+02   -1.434904E-01  -9.468534E-01    2.764630E-02  -1.433557E-02    2.766854E-02  -1.428577E-02   -7.779210E-01  -5.536513E-01 
8.323000E+02   -1.439909E-01  -9.465516E-01    2.761990E-02  -1.430239E-02    2.759264E-02  -1.426202E-02   -7.779832E-01  -5.536751E-01 
8.324250E+02   -1.443946E-01  -9.461994E-01    2.759729E-02  -1.424689E-02    2.757365E-02  -1.424882E-02   -7.785608E-01  -5.537281E-01 
8.325500E+02   -1.449797E-01  -9.459116E-01    2.757960E-02  -1.427716E-02    2.757236E-02  -1.425119E-02   -7.792077E-01  -5.533960E-01 
8.326750E+02   -1.454500E-01  -9.449556E-01    2.757492E-02  -1.423558E-02    2.750630E-02  -1.417549E-02   -7.795281E-01  -5.530834E-01 
8.328000E+02   -1.457215E-01  -9.447511E-01    2.754159E-02  -1.423388E-02    2.753011E-02  -1.421494E-02   -7.799591E-01  -5.528082E-01 
8.329250E+02   -1.461430E-01  -9.442511E-01    2.748597E-02  -1.426717E-02    2.749095E-02  -1.420093E-02   -7.804056E-01  -5.530469E-01 
8.330500E+02   -1.463655E-01  -9.440577E-01    2.749788E-02  -1.422291E-02    2.749580E-02  -1.422909E-02   -7.809236E-01  -5.525995E-01 
8.331750E+02   -1.468169E-01  -9.437094E-01    2.746921E-02  -1.424682E-02    2.745906E-02  -1.420705E-02   -7.813192E-01  -5.520959E-01 
8.333000E+02   -1.472341E-01  -9.432340E-01    2.739133E-02  -1.422279E-02    2.740139E-02  -1.421134E-02   -7.816283E-01  -5.518359E-01 
8.334250E+02   -1.473811E-01  -9.431266E-01    2.735842E-02  -1.421255E-02    2.734719E-02  -1.414338E-02   -7.822167E-01  -5.515785E-01 
8.335500E+02   -1.477662E-01  -9.430943E-01    2.736975E-02  -1.415802E-02    2.735555E-02  -1.418535E-02   -7.825566E-01  -5.510578E-01 
8.336750E+02   -1.481035E-01  -9.427383E-01    2.731045E-02  -1.417099E-02    2.734597E-02  -1.413556E-02   -7.828879E-01  -5.508416E-01 
8.338000E+02   -1.484896E-01  -9.423829E-01    2.729798E-02  -1.415666E-02    2.729720E-02  -1.412724E-02   -7.836320E-01  -5.505497E-01 
8.339250E+02   -1.488748E-01  -9.422148E-01    2.730206E-02  -1.414123E-02    2.728991E-02  -1.409462E-02   -7.838379E-01  -5.500019E-01 
8.340500E+02   -1.491318E-01  -9.419591E-01    2.725224E-02  -1.413536E-02    2.726099E-02  -1.412040E-02   -7.840179E-01  -5.495138E-01 
8.341750E+02   -1.493937E-01  -9.417355E-01    2.721776E-02  -1.411892E-02    2.725314E-02  -1.408528E-02   -7.844800E-01  -5.493763E-01 
8.343000E+02   -1.496767E-01  -9.417659E-01    2.722964E-02  -1.409646E-02    2.721544E-02  -1.407480E-02   -7.849680E-01  -5.490017E-01 
8.344250E+02   -1.500308E-01  -9.415618E-01    2.723502E-02  -1.407181E-02    2.721687E-02  -1.406675E-02   -7.854994E-01  -5.483960E-01 
8.345500E+02   -1.503987E-01  -9.415389E-01    2.719503E-02  -1.412130E-02    2.718170E-02  -1.407080E-02   -7.859881E-01  -5.478317E-01 
8.346750E+02   -1.507450E-01  -9.410756E-01    2.718520E-02  -1.410178E-02    2.715921E-02  -1.408374E-02   -7.860223E-01  -5.474888E-01 
8.348000E+02   -1.508885E-01  -9.409546E-01    2.714605E-02  -1.405309E-02    2.711957E-02  -1.406606E-02   -7.862288E-01  -5.470805E-01 
8.349250E+02   -1.510575E-01  -9.409038E-01    2.715755E-02  -1.410170E-02    2.718550E-02  -1.403481E-02   -7.868627E-01  -5.470223E-01 
8.350500E+02   -1.512151E-01  -9.406316E-01    2.711608E-02  -1.407935E-02    2.714240E-02  -1.408531E-02   -7.871780E-01  -5.466589E-01 
8.351750E+02   -1.514005E-01  -9.409621E-01    2.712203E-02  -1.408024E-02    2.711202E-02  -1.404737E-02   -7.876198E-01  -5.462936E-01 
8.353000E+02   -1.516330E-01  -9.409096E-01    2.710571E-02  -1.407546E-02    2.713449E-02  -1.403601E-02   -7.881319E-01  -5.459075E-01 
8.354250E+02   -1.521189E-01  -9.408094E-01    2.705520E-02  -1.410843E-02    2.707218E-02  -1.412270E-02   -7.884803E-01  -5.452695E-01 
8.355500E+02   -1.525780E-01  -9.409928E-01    2.703733E-02  -1.411706E-02    2.700164E-02  -1.408624E-02   -7.886344E-01  -5.448229E-01 
8.356750E+02   -1.527912E-01  -9.411536E-01    2.700940E-02  -1.412788E-02    2.703384E-02  -1.409738E-02   -7.893382E-01  -5.443023E-01 
8.358000E+02   -1.530908E-01  -9.410004E-01    2.701935E-02  -1.409028E-02    2.702758E-02  -1.408417E-02   -7.896631E-01  -5.440689E-01 
8.359250E+02   -1.533770E-01  -9.412130E-01    2.699886E-02  -1.416961E-02    2.698949E-02  -1.409820E-02   -7.896661E-01  -5.437174E-01 
8.360500E+02   -1.536973E-01  -9.413909E-01    2.697863E-02  -1.417275E-02    2.694869E-02  -1.413568E-02   -7.902559E-01  -5.432639E-01 
8.361750E+02   -1.542670E-01  -9.415218E-01    2.695421E-02  -1.415069E-02    2.697069E-02  -1.415327E-02   -7.907607E-01  -5.430664E-01 
8.363000E+02   -1.546585E-01  -9.416937E-01    2.692438E-02  -1.417659E-02    2.687922E-02  -1.410868E-02   -7.914090E-01  -5.427924E-01 
8.364250E+02   -1.550719E-01  -9.420383E-01    2.684218E-02  -1.419161E-02    2.684766E-02  -1.415122E-02   -7.917009E-01  -5.422310E-01 
8.365500E+02   -1.557899E-01  -9.423664E-01    2.683769E-02  -1.416750E-02    2.687027E-02  -1.414231E-02   -7.924275E-01  -5.419062E-01 
8.366750E+02   -1.562316E-01  -9.423793E-01    2.685321E-02  -1.418043E-02    2.681176E-02  -1.417438E-02   -7.929777E-01  -5.412309E-01 
8.368000E+02   -1.567487E-01  -9.427744E-01    2.684053E-02  -1.423709E-02    2.682729E-02  -1.417842E-02   -7.931938E-01  -5.407434E-01 
8.369250E+02   -1.574540E-01  -9.428207E-01    2.678259E-02  -1.428638E-02    2.673909E-02  -1.421330E-02   -7.935713E-01  -5.403397E-01 
8.370500E+02   -1.581248E-01  -9.428883E-01    2.675105E-02  -1.426181E-02    2.676455E-02  -1.422490E-02   -7.940558E-01  -5.397451E-01 
8.371750E+02   -1.588760E-01  -9.430223E-01    2.672438E-02  -1.432687E-02    2.669060E-02  -1.428048E-02   -7.945099E-01  -5.393466E-01 
8.373000E+02   -1.593545E-01  -9.433331E-01    2.670073E-02  -1.433866E-02    2.668147E-02  -1.433781E-02   -7.951634E-01  -5.385726E-01 
8.374250E+02   -1.601721E-01  -9.432316E-01    2.664321E-02  -1.435656E-02    2.662780E-02  -1.430328E-02   -7.954417E-01  -5.386314E-01 
8.375500E+02   -1.609482E-01  -9.434686E-01    2.655121E-02  -1.433194E-02    2.655784E-02  -1.434207E-02   -7.959130E-01  -5.379523E-01 
8.376750E+02   -1.614735E-01  -9.432799E-01    2.653367E-02  -1.435214E-02    2.652125E-02  -1.438610E-02   -7.963917E-01  -5.373692E-01 
8.378000E+02   -1.622298E-01  -9.433987E-01    2.649818E-02  -1.442206E-02    2.642181E-02  -1.437765E-02   -7.972322E-01  -5.368860E-01 
8.379250E+02   -1.628169E-01  -9.435833E-01    2.641454E-02  -1.437973E-02    2.640502E-02  -1.436105E-02   -7.975986E-01  -5.363500E-01 
8.380500E+02   -1.635755E-01  -9.434804E-01    2.634262E-02  -1.439464E-02    2.637328E-02  -1.440003E-02   -7.980835E-01  -5.356148E-01 
8.381750E+02   -1.642471E-01  -9.437552E-01    2.633828E-02  -1.447218E-02    2.630568E-02  -1.438064E-02   -7.984454E-01  -5.351405E-01 
8.383000E+02   -1.654603E-01  -9.440469E-01    2.628283E-02  -1.444905E-02    2.628362E-02  -1.441917E-02   -7.990533E-01  -5.344693E-01 
8.384250E+02   -1.658918E-01  -9.441684E-01    2.622907E-02  -1.445973E-02    2.617160E-02  -1.443477E-02   -7.994412E-01  -5.339072E-01 
8.385500E+02   -1.667262E-01  -9.441154E-01    2.613245E-02  -1.447910E-02    2.615658E-02  -1.445523E-02   -7.998805E-01  -5.332301E-01 
8.386750E+02   -1.677463E-01  -9.441466E-01    2.609492E-02  -1.453160E-02    2.609821E-02  -1.447633E-02   -8.002551E-01  -5.326894E-01 
8.388000E+02   -1.684539E-01  -9.442341E-01    2.601649E-02  -1.451093E-02    2.601992E-02  -1.445103E-02   -8.008364E-01  -5.322800E-01 
8.389250E+02   -1.692909E-01  -9.440272E-01    2.595313E-02  -1.454506E-02    2.591764E-02  -1.449873E-02   -8.015012E-01  -5.314843E-01 
8.390500E+02   -1.700394E-01  -9.442353E-01    2.591676E-02  -1.449157E-02    2.587946E-02  -1.447097E-02   -8.021652E-01  -5.305813E-01 
8.391750E+02   -1.710024E-01  -9.438869E-01    2.586055E-02  -1.447756E-02    2.582767E-02  -1.446903E-02   -8.027264E-01  -5.300486E-01 
8.393000E+02   -1.717874E-01  -9.439269E-01    2.578615E-02  -1.449647E-02    2.576170E-02  -1.445839E-02   -8.029709E-01  -5.288607E-01 
8.394250E+02   -1.724424E-01  -9.438599E-01    2.571450E-02  -1.448707E-02    2.569080E-02  -1.446002E-02   -8.033477E-01  -5.283975E-01 
8.395500E+02   -1.734641E-01  -9.438510E-01    2.564013E-02  -1.447692E-02    2.561875E-02  -1.443577E-02   -8.035782E-01  -5.276976E-01 
8.396750E+02   -1.743157E-01  -9.439896E-01    2.556219E-02  -1.444425E-02    2.557929E-02  -1.445028E-02   -8.038405E-01  -5.269367E-01 
8.398000E+02   -1.751407E-01  -9.437705E-01    2.552719E-02  -1.442813E-02    2.553937E-02  -1.443281E-02   -8.043321E-01  -5.260755E-01 
8.399250E+02   -1.763442E-01  -9.435983E-01    2.547035E-02  -1.447302E-02    2.544389E-02  -1.443306E-02   -8.046632E-01  -5.256287E-01 
8.400500E+02   -1.772404E-01  -9.435870E-01    2.537983E-02  -1.437456E-02    2.540223E-02  -1.441229E-02   -8.049759E-01  -5.249114E-01 
8.401750E+02   -1.783674E-01  -9.432877E-01    2.538775E-02  -1.444183E-02    2.539813E-02  -1.443990E-02   -8.053609E-01  -5.242173E-01 
8.403000E+02   -1.791064E-01  -9.426712E-01    2.526506E-02  -1.441994E-02    2.530305E-02  -1.440214E-02   -8.059778E-01  -5.233401E-01 
8.404250E+02   -1.799563E-01  -9.425952E-01    2.522802E-02  -1.438813E-02    2.522632E-02  -1.439500E-02   -8.060890E-01  -5.224089E-01 
8.405500E+02   -1.806228E-01  -9.426117E-01    2.514454E-02  -1.438294E-02    2.511613E-02  -1.437858E-02   -8.064192E-01  -5.215642E-01 
8.406750E+02   -1.814028E-01  -9.423034E-01    2.506580E-02  -1.437799E-02    2.505990E-02  -1.432257E-02   -8.067671E-01  -5.209908E-01 
8.408000E+02   -1.823592E-01  -9.421329E-01    2.501844E-02  -1.432948E-02    2.501744E-02  -1.429079E-02   -8.069639E-01  -5.201365E-01 
8.409250E+02   -1.834632E-01  -9.418967E-01    2.493215E-02  -1.434809E-02    2.495387E-02  -1.428977E-02   -8.072662E-01  -5.191913E-01 
8.410500E+02   -1.841159E-01  -9.417262E-01    2.489037E-02  -1.430066E-02    2.488768E-02  -1.425814E-02   -8.072950E-01  -5.183438E-01 
8.411750E+02   -1.851420E-01  -9.415365E-01    2.485248E-02  -1.425631E-02    2.481929E-02  -1.423364E-02   -8.074285E-01  -5.177591E-01 
8.413000E+02   -1.858008E-01  -9.411035E-01    2.476806E-02  -1.426020E-02    2.477782E-02  -1.417521E-02   -8.078789E-01  -5.168986E-01 
8.414250E+02   -1.871866E-01  -9.406986E-01    2.469335E-02  -1.422293E-02    2.468893E-02  -1.417986E-02   -8.079699E-01  -5.163687E-01 
8.415500E+02   -1.881508E-01  -9.402275E-01    2.463244E-02  -1.420479E-02    2.463487E-02  -1.418828E-02   -8.081868E-01  -5.154094E-01 
8.416750E+02   -1.888900E-01  -9.396843E-01    2.455418E-02  -1.416529E-02    2.457279E-02  -1.415445E-02   -8.084735E-01  -5.147034E-01 
8.418000E+02   -1.894964E-01  -9.392560E-01    2.454464E-02  -1.414214E-02    2.452300E-02  -1.408112E-02   -8.086447E-01  -5.141561E-01 
8.419250E+02   -1.904436E-01  -9.388277E-01    2.449515E-02  -1.406939E-02    2.445067E-02  -1.404554E-02   -8.087755E-01  -5.132586E-01 
8.420500E+02   -1.912019E-01  -9.385545E-01    2.441791E-02  -1.400735E-02    2.442337E-02  -1.400363E-02   -8.090110E-01  -5.122501E-01 
8.421750E+02   -1.920226E-01  -9.379793E-01    2.435792E-02  -1.398474E-02    2.434741E-02  -1.396006E-02   -8.089293E-01  -5.114708E-01 
8.423000E+02   -1.927416E-01  -9.374605E-01    2.432141E-02  -1.390368E-02    2.425974E-02  -1.387537E-02   -8.091841E-01  -5.111240E-01 
8.424250E+02   -1.932469E-01  -9.372062E-01    2.432006E-02  -1.388627E-02    2.429508E-02  -1.383541E-02   -8.094216E-01  -5.102114E-01 
8.425500E+02   -1.940745E-01  -9.366316E-01    2.425195E-02  -1.387044E-02    2.425718E-02  -1.377677E-02   -8.095093E-01  -5.095681E-01 
8.426750E+02   -1.948822E-01  -9.360717E-01    2.424865E-02  -1.379346E-02    2.421206E-02  -1.376250E-02   -8.098448E-01  -5.087793E-01 
8.428000E+02   -1.954933E-01  -9.354313E-01    2.419807E-02  -1.375538E-02    2.416860E-02  -1.372656E-02   -8.098624E-01  -5.078524E-01 
8.429250E+02   -1.962332E-01  -9.347260E-01    2.417273E-02  -1.369071E-02    2.418753E-02  -1.366077E-02   -8.099484E-01  -5.071878E-01 
8.430500E+02   -1.968535E-01  -9.341207E-01    2.419794E-02  -1.367671E-02    2.416654E-02  -1.362472E-02   -8.101323E-01  -5.062524E-01 
8.431750E+02   -1.972293E-01  -9.334650E-01    2.417983E-02  -1.361733E-02    2.419927E-02  -1.356274E-02   -8.102845E-01  -5.054179E-01 
8.433000E+02   -1.976869E-01  -9.330863E-01    2.419965E-02  -1.360105E-02    2.415498E-02  -1.358596E-02   -8.101154E-01  -5.044977E-01 
