! Matrix data file written by TouchstoneData, EPCOS AG
! FILENAME: "LY31A_NB.snp"
! COMMENT: "(LY31A_1_NB.s2p) EPCOS AG 27.09.2010 09:56:4"
! INFO: nport=2, nfreq=1601
! DATE: "Tue Oct 19 15:52:06 2010"
! USER: "Michael Schemies"
!
! port | pin | signal
! -----|-----|--------
!   1  |  2  |  in
!   2  |  5  |  out
! --------------------
! 
# MHZ S MA R 50
! freq  magS11 angS11  magS21 angS21  magS12 angS12  magS22 angS22
1.380000E+03  9.561763E-01 -1.199273E+02  3.829710E-03 1.366237E+02  3.824558E-03 1.365009E+02  9.506281E-01 -1.227180E+02 
1.380250E+03  9.563896E-01 -1.199554E+02  3.845577E-03 1.371586E+02  3.828752E-03 1.367068E+02  9.505414E-01 -1.227163E+02 
1.380500E+03  9.565381E-01 -1.199861E+02  3.862809E-03 1.370247E+02  3.867225E-03 1.372142E+02  9.505945E-01 -1.227397E+02 
1.380750E+03  9.563225E-01 -1.200077E+02  3.900072E-03 1.371458E+02  3.894051E-03 1.371887E+02  9.505009E-01 -1.227708E+02 
1.381000E+03  9.564740E-01 -1.200374E+02  3.896831E-03 1.371632E+02  3.892445E-03 1.371980E+02  9.505198E-01 -1.228172E+02 
1.381250E+03  9.566195E-01 -1.200663E+02  3.913310E-03 1.373246E+02  3.916381E-03 1.374290E+02  9.504775E-01 -1.228591E+02 
1.381500E+03  9.565000E-01 -1.200989E+02  3.929018E-03 1.380154E+02  3.936290E-03 1.378354E+02  9.501981E-01 -1.228920E+02 
1.381750E+03  9.563595E-01 -1.201269E+02  3.960407E-03 1.382467E+02  3.967658E-03 1.381521E+02  9.502330E-01 -1.229240E+02 
1.382000E+03  9.563398E-01 -1.201562E+02  3.976760E-03 1.385206E+02  3.995265E-03 1.386123E+02  9.503985E-01 -1.229465E+02 
1.382250E+03  9.561728E-01 -1.201859E+02  4.041769E-03 1.386428E+02  4.039235E-03 1.387129E+02  9.502707E-01 -1.229856E+02 
1.382500E+03  9.560758E-01 -1.202276E+02  4.084015E-03 1.388791E+02  4.090464E-03 1.385207E+02  9.502569E-01 -1.230094E+02 
1.382750E+03  9.562297E-01 -1.202493E+02  4.116041E-03 1.385216E+02  4.122831E-03 1.384262E+02  9.503133E-01 -1.230496E+02 
1.383000E+03  9.560436E-01 -1.202751E+02  4.141288E-03 1.383735E+02  4.144519E-03 1.384234E+02  9.503634E-01 -1.230933E+02 
1.383250E+03  9.560003E-01 -1.203060E+02  4.188030E-03 1.384676E+02  4.168171E-03 1.387740E+02  9.503991E-01 -1.231398E+02 
1.383500E+03  9.558781E-01 -1.203358E+02  4.233097E-03 1.387558E+02  4.194738E-03 1.388013E+02  9.502058E-01 -1.231678E+02 
1.383750E+03  9.559001E-01 -1.203618E+02  4.275590E-03 1.387992E+02  4.285214E-03 1.388626E+02  9.501821E-01 -1.231872E+02 
1.384000E+03  9.557095E-01 -1.203844E+02  4.326682E-03 1.385320E+02  4.331826E-03 1.383358E+02  9.502207E-01 -1.232287E+02 
1.384250E+03  9.556927E-01 -1.204115E+02  4.392135E-03 1.379727E+02  4.367903E-03 1.379173E+02  9.502686E-01 -1.232769E+02 
1.384500E+03  9.556378E-01 -1.204376E+02  4.411736E-03 1.375546E+02  4.401709E-03 1.374418E+02  9.502553E-01 -1.233152E+02 
1.384750E+03  9.556926E-01 -1.204625E+02  4.434339E-03 1.372817E+02  4.447674E-03 1.370292E+02  9.501805E-01 -1.233577E+02 
1.385000E+03  9.555570E-01 -1.204931E+02  4.476844E-03 1.367167E+02  4.465262E-03 1.367118E+02  9.501075E-01 -1.233911E+02 
1.385250E+03  9.556128E-01 -1.205279E+02  4.465398E-03 1.363566E+02  4.489984E-03 1.363200E+02  9.500868E-01 -1.234234E+02 
1.385500E+03  9.556766E-01 -1.205648E+02  4.513537E-03 1.362916E+02  4.534381E-03 1.360700E+02  9.501313E-01 -1.234605E+02 
1.385750E+03  9.556396E-01 -1.205895E+02  4.542161E-03 1.353539E+02  4.534248E-03 1.355131E+02  9.500432E-01 -1.234982E+02 
1.386000E+03  9.556742E-01 -1.206198E+02  4.560987E-03 1.350326E+02  4.550990E-03 1.350686E+02  9.501552E-01 -1.235370E+02 
1.386250E+03  9.557598E-01 -1.206515E+02  4.579535E-03 1.345982E+02  4.562889E-03 1.345230E+02  9.499768E-01 -1.235876E+02 
1.386500E+03  9.558060E-01 -1.206963E+02  4.552662E-03 1.341199E+02  4.538036E-03 1.340400E+02  9.500402E-01 -1.236254E+02 
1.386750E+03  9.559506E-01 -1.207261E+02  4.550549E-03 1.339953E+02  4.548160E-03 1.339031E+02  9.499792E-01 -1.236716E+02 
1.387000E+03  9.557876E-01 -1.207762E+02  4.550084E-03 1.333432E+02  4.567436E-03 1.334689E+02  9.495944E-01 -1.237142E+02 
1.387250E+03  9.559694E-01 -1.208114E+02  4.543562E-03 1.329927E+02  4.573596E-03 1.329859E+02  9.494496E-01 -1.237502E+02 
1.387500E+03  9.559961E-01 -1.208472E+02  4.544582E-03 1.325469E+02  4.566471E-03 1.324567E+02  9.492715E-01 -1.237865E+02 
1.387750E+03  9.556506E-01 -1.208861E+02  4.554151E-03 1.323481E+02  4.559324E-03 1.324084E+02  9.492926E-01 -1.238315E+02 
1.388000E+03  9.557239E-01 -1.209262E+02  4.543537E-03 1.320488E+02  4.555820E-03 1.319713E+02  9.491075E-01 -1.238727E+02 
1.388250E+03  9.556194E-01 -1.209723E+02  4.551068E-03 1.312804E+02  4.556554E-03 1.313830E+02  9.489102E-01 -1.239188E+02 
1.388500E+03  9.555750E-01 -1.209970E+02  4.529874E-03 1.312240E+02  4.536485E-03 1.310508E+02  9.486642E-01 -1.239576E+02 
1.388750E+03  9.553572E-01 -1.210362E+02  4.519641E-03 1.307705E+02  4.538249E-03 1.307443E+02  9.484204E-01 -1.240024E+02 
1.389000E+03  9.554476E-01 -1.210766E+02  4.509189E-03 1.302097E+02  4.510405E-03 1.302831E+02  9.481198E-01 -1.240440E+02 
1.389250E+03  9.553540E-01 -1.211152E+02  4.480929E-03 1.301877E+02  4.490617E-03 1.301034E+02  9.480211E-01 -1.240904E+02 
1.389500E+03  9.553787E-01 -1.211467E+02  4.467929E-03 1.300426E+02  4.493160E-03 1.300022E+02  9.477026E-01 -1.241208E+02 
1.389750E+03  9.553629E-01 -1.211971E+02  4.445201E-03 1.295761E+02  4.453019E-03 1.296959E+02  9.472937E-01 -1.241586E+02 
1.390000E+03  9.551619E-01 -1.212401E+02  4.423136E-03 1.293479E+02  4.442005E-03 1.291411E+02  9.470297E-01 -1.242068E+02 
1.390250E+03  9.550597E-01 -1.212686E+02  4.386237E-03 1.291930E+02  4.395809E-03 1.292131E+02  9.465811E-01 -1.242393E+02 
1.390500E+03  9.549256E-01 -1.213033E+02  4.373136E-03 1.288573E+02  4.367754E-03 1.286823E+02  9.462020E-01 -1.242729E+02 
1.390750E+03  9.547639E-01 -1.213418E+02  4.334530E-03 1.285523E+02  4.326087E-03 1.284243E+02  9.457541E-01 -1.243073E+02 
1.391000E+03  9.546160E-01 -1.213739E+02  4.267390E-03 1.284868E+02  4.260003E-03 1.282186E+02  9.453533E-01 -1.243254E+02 
1.391250E+03  9.546254E-01 -1.214294E+02  4.210274E-03 1.287889E+02  4.228385E-03 1.286261E+02  9.452237E-01 -1.243564E+02 
1.391500E+03  9.543415E-01 -1.214550E+02  4.210182E-03 1.289900E+02  4.197921E-03 1.287490E+02  9.450503E-01 -1.243847E+02 
1.391750E+03  9.543060E-01 -1.215019E+02  4.157881E-03 1.288583E+02  4.152937E-03 1.289267E+02  9.446676E-01 -1.244255E+02 
1.392000E+03  9.539171E-01 -1.215483E+02  4.122867E-03 1.294083E+02  4.135244E-03 1.290788E+02  9.443911E-01 -1.244478E+02 
1.392250E+03  9.537820E-01 -1.215803E+02  4.113933E-03 1.297637E+02  4.114460E-03 1.295411E+02  9.442260E-01 -1.244664E+02 
1.392500E+03  9.538478E-01 -1.216187E+02  4.078183E-03 1.297700E+02  4.094612E-03 1.299704E+02  9.440222E-01 -1.244992E+02 
1.392750E+03  9.532683E-01 -1.216507E+02  4.093345E-03 1.299472E+02  4.087187E-03 1.301915E+02  9.439649E-01 -1.245302E+02 
1.393000E+03  9.530317E-01 -1.216589E+02  4.046967E-03 1.300237E+02  4.058517E-03 1.300954E+02  9.437524E-01 -1.245614E+02 
1.393250E+03  9.528543E-01 -1.216840E+02  4.020455E-03 1.304476E+02  4.009355E-03 1.305254E+02  9.436417E-01 -1.245934E+02 
1.393500E+03  9.526750E-01 -1.217060E+02  3.989963E-03 1.308364E+02  4.005050E-03 1.309351E+02  9.434963E-01 -1.246182E+02 
1.393750E+03  9.525725E-01 -1.217301E+02  3.963017E-03 1.310969E+02  3.975022E-03 1.310099E+02  9.432065E-01 -1.246584E+02 
1.394000E+03  9.522335E-01 -1.217541E+02  3.954857E-03 1.311605E+02  3.954794E-03 1.313424E+02  9.429255E-01 -1.246962E+02 
1.394250E+03  9.521502E-01 -1.217698E+02  3.902747E-03 1.317936E+02  3.912052E-03 1.315536E+02  9.427808E-01 -1.247267E+02 
1.394500E+03  9.520721E-01 -1.217762E+02  3.879988E-03 1.323044E+02  3.862354E-03 1.322347E+02  9.423972E-01 -1.247407E+02 
1.394750E+03  9.522485E-01 -1.218084E+02  3.847358E-03 1.330278E+02  3.845134E-03 1.331449E+02  9.421399E-01 -1.247825E+02 
1.395000E+03  9.522408E-01 -1.218271E+02  3.805410E-03 1.339719E+02  3.822253E-03 1.340993E+02  9.415388E-01 -1.248090E+02 
1.395250E+03  9.521010E-01 -1.218504E+02  3.812313E-03 1.349778E+02  3.812637E-03 1.348829E+02  9.411459E-01 -1.248238E+02 
1.395500E+03  9.522665E-01 -1.218775E+02  3.801984E-03 1.354647E+02  3.792013E-03 1.354391E+02  9.409458E-01 -1.248247E+02 
1.395750E+03  9.522286E-01 -1.219064E+02  3.793432E-03 1.362786E+02  3.776082E-03 1.363562E+02  9.406411E-01 -1.248498E+02 
1.396000E+03  9.522468E-01 -1.219355E+02  3.773024E-03 1.375578E+02  3.792231E-03 1.374749E+02  9.403725E-01 -1.248627E+02 
1.396250E+03  9.522758E-01 -1.219506E+02  3.799523E-03 1.382519E+02  3.791927E-03 1.383873E+02  9.401530E-01 -1.248746E+02 
1.396500E+03  9.525010E-01 -1.219884E+02  3.806903E-03 1.392573E+02  3.797792E-03 1.393942E+02  9.399684E-01 -1.248979E+02 
1.396750E+03  9.526273E-01 -1.220259E+02  3.793178E-03 1.404653E+02  3.790816E-03 1.404229E+02  9.395546E-01 -1.249124E+02 
1.397000E+03  9.527342E-01 -1.220516E+02  3.847457E-03 1.414121E+02  3.828421E-03 1.413417E+02  9.392717E-01 -1.249223E+02 
1.397250E+03  9.529484E-01 -1.220889E+02  3.847523E-03 1.426214E+02  3.851547E-03 1.425532E+02  9.390973E-01 -1.249261E+02 
1.397500E+03  9.531262E-01 -1.221332E+02  3.901187E-03 1.436540E+02  3.906144E-03 1.436485E+02  9.388077E-01 -1.249417E+02 
1.397750E+03  9.532127E-01 -1.221679E+02  3.957381E-03 1.444157E+02  3.966902E-03 1.445579E+02  9.385840E-01 -1.249436E+02 
1.398000E+03  9.532700E-01 -1.221933E+02  4.038130E-03 1.452383E+02  4.035999E-03 1.454710E+02  9.383949E-01 -1.249426E+02 
1.398250E+03  9.534759E-01 -1.222331E+02  4.122016E-03 1.457152E+02  4.122342E-03 1.459050E+02  9.385607E-01 -1.249530E+02 
1.398500E+03  9.534143E-01 -1.222693E+02  4.164845E-03 1.460056E+02  4.178289E-03 1.459702E+02  9.384132E-01 -1.249745E+02 
1.398750E+03  9.535108E-01 -1.223128E+02  4.260010E-03 1.466860E+02  4.265628E-03 1.464966E+02  9.385095E-01 -1.249828E+02 
1.399000E+03  9.534412E-01 -1.223429E+02  4.306560E-03 1.464925E+02  4.288654E-03 1.465275E+02  9.384164E-01 -1.250091E+02 
1.399250E+03  9.533672E-01 -1.223800E+02  4.351113E-03 1.473874E+02  4.348476E-03 1.472809E+02  9.381589E-01 -1.250187E+02 
1.399500E+03  9.534897E-01 -1.224129E+02  4.453559E-03 1.475636E+02  4.472405E-03 1.476219E+02  9.381344E-01 -1.250120E+02 
1.399750E+03  9.536057E-01 -1.224480E+02  4.536688E-03 1.475776E+02  4.524037E-03 1.474952E+02  9.384496E-01 -1.250293E+02 
1.400000E+03  9.535642E-01 -1.224759E+02  4.583555E-03 1.476230E+02  4.593313E-03 1.479431E+02  9.383511E-01 -1.250505E+02 
1.400250E+03  9.537341E-01 -1.225137E+02  4.685549E-03 1.476585E+02  4.703684E-03 1.476399E+02  9.382479E-01 -1.250589E+02 
1.400500E+03  9.538120E-01 -1.225448E+02  4.741789E-03 1.473894E+02  4.748746E-03 1.473492E+02  9.385356E-01 -1.250885E+02 
1.400750E+03  9.536390E-01 -1.225742E+02  4.812117E-03 1.472115E+02  4.805143E-03 1.468454E+02  9.388750E-01 -1.251125E+02 
1.401000E+03  9.536468E-01 -1.226067E+02  4.826355E-03 1.470753E+02  4.830959E-03 1.470710E+02  9.389433E-01 -1.251503E+02 
1.401250E+03  9.536985E-01 -1.226354E+02  4.890119E-03 1.471248E+02  4.901344E-03 1.470961E+02  9.391644E-01 -1.251689E+02 
1.401500E+03  9.537049E-01 -1.226673E+02  4.955498E-03 1.471075E+02  4.978029E-03 1.468692E+02  9.391772E-01 -1.252010E+02 
1.401750E+03  9.538262E-01 -1.226995E+02  5.006329E-03 1.468844E+02  5.002912E-03 1.469642E+02  9.391246E-01 -1.252405E+02 
1.402000E+03  9.539788E-01 -1.227369E+02  5.042192E-03 1.470736E+02  5.037587E-03 1.471555E+02  9.390866E-01 -1.252595E+02 
1.402250E+03  9.540058E-01 -1.227709E+02  5.100823E-03 1.471264E+02  5.139076E-03 1.469381E+02  9.391189E-01 -1.252837E+02 
1.402500E+03  9.540087E-01 -1.228146E+02  5.182369E-03 1.467735E+02  5.184746E-03 1.467797E+02  9.391313E-01 -1.253096E+02 
1.402750E+03  9.541209E-01 -1.228465E+02  5.254759E-03 1.467214E+02  5.269550E-03 1.467041E+02  9.391477E-01 -1.253286E+02 
1.403000E+03  9.540720E-01 -1.228814E+02  5.342385E-03 1.463853E+02  5.342104E-03 1.464699E+02  9.393393E-01 -1.253411E+02 
1.403250E+03  9.539233E-01 -1.229193E+02  5.403680E-03 1.457721E+02  5.403667E-03 1.459630E+02  9.396818E-01 -1.253775E+02 
1.403500E+03  9.539219E-01 -1.229643E+02  5.459476E-03 1.454363E+02  5.470961E-03 1.454694E+02  9.397940E-01 -1.254142E+02 
1.403750E+03  9.537374E-01 -1.229960E+02  5.507859E-03 1.449709E+02  5.533951E-03 1.449985E+02  9.400351E-01 -1.254436E+02 
1.404000E+03  9.539291E-01 -1.230412E+02  5.547351E-03 1.444846E+02  5.558829E-03 1.445629E+02  9.402537E-01 -1.254554E+02 
1.404250E+03  9.538631E-01 -1.230802E+02  5.585143E-03 1.441491E+02  5.585544E-03 1.442843E+02  9.405068E-01 -1.254981E+02 
1.404500E+03  9.536980E-01 -1.231320E+02  5.641792E-03 1.436737E+02  5.657273E-03 1.437678E+02  9.405698E-01 -1.255247E+02 
1.404750E+03  9.537975E-01 -1.231748E+02  5.685877E-03 1.432950E+02  5.684308E-03 1.431909E+02  9.409400E-01 -1.255585E+02 
1.405000E+03  9.539414E-01 -1.232174E+02  5.707902E-03 1.427309E+02  5.711530E-03 1.426347E+02  9.412856E-01 -1.256041E+02 
1.405250E+03  9.537645E-01 -1.232584E+02  5.708143E-03 1.423759E+02  5.716948E-03 1.423795E+02  9.411605E-01 -1.256432E+02 
1.405500E+03  9.538812E-01 -1.233029E+02  5.728911E-03 1.418930E+02  5.746441E-03 1.419817E+02  9.413461E-01 -1.256693E+02 
1.405750E+03  9.539510E-01 -1.233533E+02  5.748961E-03 1.416176E+02  5.754600E-03 1.415914E+02  9.414905E-01 -1.257114E+02 
1.406000E+03  9.540163E-01 -1.233937E+02  5.744065E-03 1.412043E+02  5.742032E-03 1.412747E+02  9.414417E-01 -1.257534E+02 
1.406250E+03  9.540121E-01 -1.234392E+02  5.763689E-03 1.414101E+02  5.761935E-03 1.411495E+02  9.414662E-01 -1.258048E+02 
1.406500E+03  9.538935E-01 -1.234920E+02  5.819203E-03 1.410476E+02  5.812972E-03 1.409793E+02  9.415234E-01 -1.258348E+02 
1.406750E+03  9.540776E-01 -1.235444E+02  5.824094E-03 1.405462E+02  5.834854E-03 1.406312E+02  9.414538E-01 -1.258776E+02 
1.407000E+03  9.540399E-01 -1.235978E+02  5.821960E-03 1.403093E+02  5.811098E-03 1.403487E+02  9.414159E-01 -1.259242E+02 
1.407250E+03  9.538831E-01 -1.236510E+02  5.829538E-03 1.403941E+02  5.843616E-03 1.404292E+02  9.410394E-01 -1.259552E+02 
1.407500E+03  9.539691E-01 -1.236864E+02  5.873635E-03 1.402687E+02  5.893336E-03 1.403185E+02  9.409012E-01 -1.259885E+02 
1.407750E+03  9.538337E-01 -1.237415E+02  5.914892E-03 1.402572E+02  5.926212E-03 1.401437E+02  9.410070E-01 -1.260273E+02 
1.408000E+03  9.538502E-01 -1.237815E+02  5.954369E-03 1.404511E+02  5.944352E-03 1.402864E+02  9.407876E-01 -1.260561E+02 
1.408250E+03  9.538065E-01 -1.238395E+02  6.040474E-03 1.400019E+02  6.038575E-03 1.401218E+02  9.406738E-01 -1.260965E+02 
1.408500E+03  9.535847E-01 -1.238793E+02  6.071224E-03 1.395657E+02  6.060580E-03 1.395660E+02  9.403999E-01 -1.261148E+02 
1.408750E+03  9.532878E-01 -1.239201E+02  6.106949E-03 1.391924E+02  6.129190E-03 1.391998E+02  9.402026E-01 -1.261345E+02 
1.409000E+03  9.530817E-01 -1.239635E+02  6.157161E-03 1.387010E+02  6.144681E-03 1.386613E+02  9.401055E-01 -1.261502E+02 
1.409250E+03  9.528581E-01 -1.239927E+02  6.179453E-03 1.383962E+02  6.172113E-03 1.384278E+02  9.401367E-01 -1.261752E+02 
1.409500E+03  9.527464E-01 -1.240359E+02  6.212336E-03 1.378581E+02  6.226615E-03 1.379690E+02  9.400985E-01 -1.262039E+02 
1.409750E+03  9.525398E-01 -1.240660E+02  6.262402E-03 1.373619E+02  6.282336E-03 1.371718E+02  9.402365E-01 -1.262094E+02 
1.410000E+03  9.524545E-01 -1.241017E+02  6.296093E-03 1.366046E+02  6.295159E-03 1.364515E+02  9.405291E-01 -1.262398E+02 
1.410250E+03  9.523205E-01 -1.241479E+02  6.300066E-03 1.359273E+02  6.282033E-03 1.359552E+02  9.405672E-01 -1.262684E+02 
1.410500E+03  9.521995E-01 -1.241677E+02  6.281591E-03 1.354819E+02  6.282724E-03 1.353220E+02  9.407445E-01 -1.262848E+02 
1.410750E+03  9.521848E-01 -1.242080E+02  6.273948E-03 1.349299E+02  6.297954E-03 1.349306E+02  9.409811E-01 -1.263081E+02 
1.411000E+03  9.518721E-01 -1.242386E+02  6.275880E-03 1.344009E+02  6.274636E-03 1.342055E+02  9.413193E-01 -1.263377E+02 
1.411250E+03  9.518536E-01 -1.242679E+02  6.252867E-03 1.338375E+02  6.251935E-03 1.337415E+02  9.415520E-01 -1.263747E+02 
1.411500E+03  9.518722E-01 -1.243052E+02  6.244320E-03 1.333187E+02  6.239109E-03 1.333566E+02  9.417875E-01 -1.264126E+02 
1.411750E+03  9.519109E-01 -1.243524E+02  6.204675E-03 1.331492E+02  6.210727E-03 1.329376E+02  9.420442E-01 -1.264450E+02 
1.412000E+03  9.517265E-01 -1.243862E+02  6.175226E-03 1.324601E+02  6.168351E-03 1.323671E+02  9.422396E-01 -1.264690E+02 
1.412250E+03  9.515677E-01 -1.244348E+02  6.115390E-03 1.322239E+02  6.126751E-03 1.322838E+02  9.426286E-01 -1.265064E+02 
1.412500E+03  9.516775E-01 -1.244750E+02  6.082414E-03 1.322615E+02  6.091705E-03 1.323704E+02  9.431137E-01 -1.265552E+02 
1.412750E+03  9.517017E-01 -1.245104E+02  6.064550E-03 1.322307E+02  6.042464E-03 1.321473E+02  9.431927E-01 -1.266196E+02 
1.413000E+03  9.514899E-01 -1.245604E+02  6.049896E-03 1.323790E+02  6.042673E-03 1.322282E+02  9.434345E-01 -1.266668E+02 
1.413250E+03  9.512580E-01 -1.245994E+02  6.055164E-03 1.320397E+02  6.026171E-03 1.323163E+02  9.434532E-01 -1.267251E+02 
1.413500E+03  9.510809E-01 -1.246451E+02  6.047367E-03 1.319289E+02  6.022038E-03 1.318399E+02  9.435821E-01 -1.267792E+02 
1.413750E+03  9.510017E-01 -1.246812E+02  5.993594E-03 1.317534E+02  5.998733E-03 1.316729E+02  9.436463E-01 -1.268296E+02 
1.414000E+03  9.509093E-01 -1.247117E+02  6.001312E-03 1.317689E+02  5.988688E-03 1.318319E+02  9.437326E-01 -1.268876E+02 
1.414250E+03  9.507087E-01 -1.247559E+02  5.967579E-03 1.317720E+02  5.952180E-03 1.318004E+02  9.438416E-01 -1.269344E+02 
1.414500E+03  9.506289E-01 -1.247868E+02  5.928410E-03 1.316840E+02  5.940604E-03 1.318807E+02  9.439101E-01 -1.269931E+02 
1.414750E+03  9.504601E-01 -1.248279E+02  5.934705E-03 1.317528E+02  5.922124E-03 1.319478E+02  9.438950E-01 -1.270551E+02 
1.415000E+03  9.504321E-01 -1.248663E+02  5.926937E-03 1.318635E+02  5.925971E-03 1.320044E+02  9.440069E-01 -1.271068E+02 
1.415250E+03  9.502275E-01 -1.249118E+02  5.942365E-03 1.320386E+02  5.921607E-03 1.318625E+02  9.439660E-01 -1.271617E+02 
1.415500E+03  9.499103E-01 -1.249375E+02  5.902008E-03 1.317782E+02  5.891902E-03 1.317948E+02  9.438325E-01 -1.272119E+02 
1.415750E+03  9.498745E-01 -1.249650E+02  5.909267E-03 1.320881E+02  5.893849E-03 1.318277E+02  9.437830E-01 -1.272660E+02 
1.416000E+03  9.496434E-01 -1.250051E+02  5.877203E-03 1.321305E+02  5.890392E-03 1.321862E+02  9.438361E-01 -1.273180E+02 
1.416250E+03  9.496297E-01 -1.250366E+02  5.891231E-03 1.321251E+02  5.893959E-03 1.323740E+02  9.439133E-01 -1.273778E+02 
1.416500E+03  9.496505E-01 -1.250604E+02  5.904208E-03 1.324952E+02  5.901590E-03 1.325237E+02  9.437259E-01 -1.274173E+02 
1.416750E+03  9.495409E-01 -1.251006E+02  5.906062E-03 1.322646E+02  5.898012E-03 1.324802E+02  9.435497E-01 -1.274652E+02 
1.417000E+03  9.492635E-01 -1.251195E+02  5.901770E-03 1.322265E+02  5.905285E-03 1.323167E+02  9.433725E-01 -1.275124E+02 
1.417250E+03  9.491582E-01 -1.251401E+02  5.882442E-03 1.322633E+02  5.898173E-03 1.324010E+02  9.433036E-01 -1.275418E+02 
1.417500E+03  9.491764E-01 -1.251704E+02  5.880889E-03 1.325387E+02  5.868507E-03 1.325124E+02  9.431738E-01 -1.275889E+02 
1.417750E+03  9.491525E-01 -1.251951E+02  5.894134E-03 1.325619E+02  5.857356E-03 1.326531E+02  9.431990E-01 -1.276329E+02 
1.418000E+03  9.490849E-01 -1.252203E+02  5.874433E-03 1.328813E+02  5.893559E-03 1.327970E+02  9.429066E-01 -1.276692E+02 
1.418250E+03  9.490866E-01 -1.252392E+02  5.875441E-03 1.330070E+02  5.884456E-03 1.329468E+02  9.428832E-01 -1.277077E+02 
1.418500E+03  9.493240E-01 -1.252536E+02  5.880520E-03 1.331251E+02  5.884239E-03 1.330407E+02  9.427054E-01 -1.277607E+02 
1.418750E+03  9.495471E-01 -1.252747E+02  5.901090E-03 1.331737E+02  5.892622E-03 1.332258E+02  9.425877E-01 -1.277971E+02 
1.419000E+03  9.498806E-01 -1.253145E+02  5.912065E-03 1.331452E+02  5.921283E-03 1.332052E+02  9.425539E-01 -1.278336E+02 
