! Matrix data file written by TouchstoneData, EPCOS AG
! FILENAME: "LU60B1_1_WB.s2p_newformat"
! COMMENT: "(LU60B1_1_WB.s2p) EPCOS AG 11.03.2011 15:22:"
! INFO: nport=2, nfreq=1601
! DATE: "Mon Mar 14 16:58:44 2011"
! USER: "Sergey Rostovtsev"
!
! port | pin | signal
! -----|-----|--------
!   1  |  2  |  in
!   2  |  5  |  out
! --------------------
! 
# MHZ S MA R 50
! freq  magS11 angS11  magS21 angS21  magS12 angS12  magS22 angS22
1.000000E+02  9.992223E-01 -6.030585E+00  5.362007E-03 8.388867E+01  5.363627E-03 8.370793E+01  9.992517E-01 -5.653259E+00 
1.036875E+02  9.986857E-01 -6.232729E+00  5.531471E-03 8.353624E+01  5.543052E-03 8.347693E+01  1.000240E+00 -5.819989E+00 
1.073750E+02  9.976867E-01 -6.462856E+00  5.643997E-03 8.340549E+01  5.647482E-03 8.319712E+01  9.997737E-01 -5.993237E+00 
1.110625E+02  9.979840E-01 -6.669198E+00  5.920659E-03 8.329421E+01  5.906332E-03 8.322662E+01  9.998234E-01 -6.207315E+00 
1.147500E+02  9.984708E-01 -6.908499E+00  6.078295E-03 8.350411E+01  6.124229E-03 8.346871E+01  9.984606E-01 -6.471209E+00 
1.184375E+02  9.991873E-01 -7.088986E+00  6.333862E-03 8.266223E+01  6.353081E-03 8.275049E+01  9.992676E-01 -6.554911E+00 
1.221250E+02  9.983807E-01 -7.312150E+00  6.508312E-03 8.273417E+01  6.539137E-03 8.297166E+01  9.997848E-01 -6.777959E+00 
1.258125E+02  9.986857E-01 -7.524941E+00  6.721918E-03 8.236786E+01  6.734323E-03 8.250853E+01  9.997582E-01 -6.966830E+00 
1.295000E+02  9.999775E-01 -7.739523E+00  6.915125E-03 8.228229E+01  6.902453E-03 8.216008E+01  1.000717E+00 -7.242898E+00 
1.331875E+02  9.981325E-01 -7.928024E+00  7.100436E-03 8.171624E+01  7.133996E-03 8.172078E+01  1.000090E+00 -7.391573E+00 
1.368750E+02  9.985114E-01 -8.194875E+00  7.299502E-03 8.185893E+01  7.282262E-03 8.183897E+01  9.992017E-01 -7.549413E+00 
1.405625E+02  9.985031E-01 -8.436173E+00  7.503273E-03 8.160673E+01  7.469882E-03 8.163002E+01  1.000604E+00 -7.846554E+00 
1.442500E+02  9.993518E-01 -8.627047E+00  7.686799E-03 8.141250E+01  7.722921E-03 8.150087E+01  9.995567E-01 -8.060887E+00 
1.479375E+02  9.993346E-01 -8.924302E+00  7.903756E-03 8.103094E+01  7.936803E-03 8.113104E+01  1.001211E+00 -8.277883E+00 
1.516250E+02  9.984420E-01 -9.089123E+00  8.053612E-03 8.094689E+01  8.043476E-03 8.079216E+01  9.991273E-01 -8.505220E+00 
1.553125E+02  9.979080E-01 -9.309682E+00  8.265589E-03 8.076458E+01  8.263303E-03 8.061787E+01  9.999300E-01 -8.764873E+00 
1.590000E+02  9.981719E-01 -9.585786E+00  8.475733E-03 7.967963E+01  8.452848E-03 7.955523E+01  9.993468E-01 -8.970267E+00 
1.626875E+02  9.997332E-01 -9.752442E+00  8.671736E-03 8.021631E+01  8.689166E-03 8.020986E+01  1.001206E+00 -9.125085E+00 
1.663750E+02  9.980721E-01 -9.991987E+00  8.834186E-03 8.015233E+01  8.822655E-03 8.003789E+01  1.000565E+00 -9.405072E+00 
1.700625E+02  9.978702E-01 -1.018305E+01  9.024919E-03 7.966784E+01  9.029638E-03 7.970371E+01  9.994238E-01 -9.612984E+00 
1.737500E+02  9.981202E-01 -1.035554E+01  9.233774E-03 7.969299E+01  9.211871E-03 7.972159E+01  9.990553E-01 -9.795683E+00 
1.774375E+02  9.978342E-01 -1.068526E+01  9.397026E-03 7.978865E+01  9.428676E-03 7.958687E+01  9.993370E-01 -1.013737E+01 
1.811250E+02  9.986635E-01 -1.080043E+01  9.595158E-03 7.921029E+01  9.584628E-03 7.906448E+01  1.000376E+00 -1.020037E+01 
1.848125E+02  9.977782E-01 -1.104969E+01  9.818587E-03 7.909187E+01  9.796679E-03 7.901286E+01  1.000094E+00 -1.045506E+01 
1.885000E+02  9.981257E-01 -1.128667E+01  1.003608E-02 7.864907E+01  1.003107E-02 7.866111E+01  1.000514E+00 -1.062810E+01 
1.921875E+02  9.979326E-01 -1.142874E+01  1.018679E-02 7.845031E+01  1.019270E-02 7.838351E+01  1.000109E+00 -1.086341E+01 
1.958750E+02  9.971384E-01 -1.166966E+01  1.032705E-02 7.814368E+01  1.034811E-02 7.822058E+01  9.985099E-01 -1.104403E+01 
1.995625E+02  9.981709E-01 -1.188517E+01  1.057794E-02 7.823297E+01  1.057760E-02 7.803401E+01  9.994562E-01 -1.127513E+01 
2.032500E+02  9.964044E-01 -1.211905E+01  1.071841E-02 7.800735E+01  1.069824E-02 7.785437E+01  9.971668E-01 -1.150466E+01 
2.069375E+02  9.975464E-01 -1.240763E+01  1.094795E-02 7.766545E+01  1.094360E-02 7.761280E+01  9.991370E-01 -1.169983E+01 
2.106250E+02  9.979811E-01 -1.250384E+01  1.110949E-02 7.758573E+01  1.113610E-02 7.739648E+01  1.000422E+00 -1.189350E+01 
2.143125E+02  9.980522E-01 -1.279566E+01  1.131789E-02 7.728810E+01  1.132407E-02 7.724364E+01  9.983903E-01 -1.203002E+01 
2.180000E+02  9.975090E-01 -1.304868E+01  1.151537E-02 7.699749E+01  1.151522E-02 7.697138E+01  9.992030E-01 -1.230064E+01 
2.216875E+02  9.970904E-01 -1.326308E+01  1.168447E-02 7.702766E+01  1.168245E-02 7.680901E+01  9.983237E-01 -1.248601E+01 
2.253750E+02  9.981355E-01 -1.347692E+01  1.189714E-02 7.667089E+01  1.189512E-02 7.665935E+01  9.984531E-01 -1.264909E+01 
2.290625E+02  9.974523E-01 -1.374559E+01  1.210742E-02 7.643104E+01  1.211572E-02 7.640246E+01  9.981457E-01 -1.293122E+01 
2.327500E+02  9.986354E-01 -1.360375E+01  1.225954E-02 7.659966E+01  1.223974E-02 7.659574E+01  9.975337E-01 -1.279006E+01 
2.364375E+02  9.984190E-01 -1.413564E+01  1.244816E-02 7.605738E+01  1.244321E-02 7.599027E+01  9.984029E-01 -1.327241E+01 
2.401250E+02  9.981104E-01 -1.427281E+01  1.266272E-02 7.579856E+01  1.267464E-02 7.572299E+01  9.982481E-01 -1.354274E+01 
2.438125E+02  9.982366E-01 -1.460826E+01  1.286514E-02 7.537418E+01  1.280870E-02 7.544958E+01  9.972077E-01 -1.374295E+01 
2.475000E+02  9.966484E-01 -1.483014E+01  1.298746E-02 7.510671E+01  1.298738E-02 7.510731E+01  9.963373E-01 -1.390331E+01 
2.511875E+02  9.975207E-01 -1.503711E+01  1.325745E-02 7.498560E+01  1.317982E-02 7.493531E+01  9.973461E-01 -1.408129E+01 
2.548750E+02  9.975806E-01 -1.527537E+01  1.339213E-02 7.478800E+01  1.337976E-02 7.478136E+01  9.974280E-01 -1.430883E+01 
2.585625E+02  9.967241E-01 -1.543207E+01  1.357372E-02 7.479409E+01  1.356290E-02 7.457107E+01  9.975434E-01 -1.450076E+01 
2.622500E+02  9.969962E-01 -1.563802E+01  1.372070E-02 7.470986E+01  1.373097E-02 7.459958E+01  9.978756E-01 -1.472388E+01 
2.659375E+02  9.970395E-01 -1.588347E+01  1.392626E-02 7.411455E+01  1.395375E-02 7.416653E+01  9.979982E-01 -1.494151E+01 
2.696250E+02  9.971975E-01 -1.612075E+01  1.410401E-02 7.393141E+01  1.411197E-02 7.404798E+01  9.978069E-01 -1.508783E+01 
2.733125E+02  9.955486E-01 -1.636367E+01  1.430167E-02 7.383313E+01  1.430180E-02 7.375536E+01  9.979567E-01 -1.531438E+01 
2.770000E+02  9.969382E-01 -1.651095E+01  1.449529E-02 7.374726E+01  1.447875E-02 7.358174E+01  9.984994E-01 -1.550175E+01 
2.806875E+02  9.973827E-01 -1.669327E+01  1.473752E-02 7.357636E+01  1.473147E-02 7.344022E+01  9.985024E-01 -1.575395E+01 
2.843750E+02  9.965646E-01 -1.695731E+01  1.485818E-02 7.345788E+01  1.485908E-02 7.317093E+01  9.977757E-01 -1.590150E+01 
2.880625E+02  9.972501E-01 -1.716233E+01  1.511079E-02 7.293695E+01  1.508380E-02 7.298498E+01  9.985528E-01 -1.618506E+01 
2.917500E+02  9.962968E-01 -1.734146E+01  1.520361E-02 7.267006E+01  1.519330E-02 7.258447E+01  9.981886E-01 -1.629203E+01 
2.954375E+02  9.977174E-01 -1.752529E+01  1.548505E-02 7.255283E+01  1.545908E-02 7.259520E+01  9.989127E-01 -1.653085E+01 
2.991250E+02  9.969050E-01 -1.775774E+01  1.563941E-02 7.234724E+01  1.562837E-02 7.237270E+01  9.984276E-01 -1.673353E+01 
3.028125E+02  9.962143E-01 -1.792521E+01  1.579554E-02 7.207224E+01  1.576478E-02 7.209738E+01  9.980156E-01 -1.692024E+01 
3.065000E+02  9.960543E-01 -1.814789E+01  1.595297E-02 7.212699E+01  1.594871E-02 7.200876E+01  9.982148E-01 -1.718926E+01 
3.101875E+02  9.959001E-01 -1.832909E+01  1.618083E-02 7.182472E+01  1.618759E-02 7.176944E+01  9.979339E-01 -1.736671E+01 
3.138750E+02  9.959861E-01 -1.856293E+01  1.634117E-02 7.148631E+01  1.634621E-02 7.146736E+01  9.980123E-01 -1.761235E+01 
3.175625E+02  9.959343E-01 -1.875606E+01  1.654406E-02 7.137763E+01  1.655398E-02 7.123993E+01  9.980105E-01 -1.786050E+01 
3.212500E+02  9.969416E-01 -1.898567E+01  1.672664E-02 7.121847E+01  1.674439E-02 7.120562E+01  9.979606E-01 -1.805853E+01 
3.249375E+02  9.954596E-01 -1.921555E+01  1.691612E-02 7.097727E+01  1.689119E-02 7.087085E+01  9.973326E-01 -1.829079E+01 
3.286250E+02  9.964511E-01 -1.930765E+01  1.707565E-02 7.085451E+01  1.708643E-02 7.067714E+01  9.977119E-01 -1.845767E+01 
3.323125E+02  9.961062E-01 -1.949950E+01  1.727258E-02 7.056215E+01  1.727167E-02 7.049236E+01  9.984306E-01 -1.867695E+01 
3.360000E+02  9.955610E-01 -1.974472E+01  1.742773E-02 7.032140E+01  1.743920E-02 7.022948E+01  9.980488E-01 -1.889561E+01 
3.396875E+02  9.975772E-01 -1.992242E+01  1.763003E-02 7.026711E+01  1.767062E-02 7.006063E+01  9.972136E-01 -1.903964E+01 
3.433750E+02  9.963714E-01 -2.012245E+01  1.781015E-02 6.990829E+01  1.778178E-02 7.000142E+01  9.965815E-01 -1.926223E+01 
3.470625E+02  9.961478E-01 -2.034048E+01  1.798516E-02 6.969690E+01  1.797746E-02 6.958388E+01  9.971989E-01 -1.948486E+01 
3.507500E+02  9.957096E-01 -2.054736E+01  1.815356E-02 6.939645E+01  1.817338E-02 6.938579E+01  9.975429E-01 -1.974463E+01 
3.544375E+02  9.948016E-01 -2.063913E+01  1.829030E-02 6.944411E+01  1.831971E-02 6.932423E+01  9.961677E-01 -1.980283E+01 
3.581250E+02  9.961513E-01 -2.098936E+01  1.851442E-02 6.895923E+01  1.854361E-02 6.901510E+01  9.966556E-01 -2.013625E+01 
3.618125E+02  9.953253E-01 -2.118881E+01  1.871095E-02 6.879077E+01  1.870104E-02 6.883988E+01  9.960488E-01 -2.035383E+01 
3.655000E+02  9.956025E-01 -2.128586E+01  1.885706E-02 6.889663E+01  1.886744E-02 6.886173E+01  9.963554E-01 -2.045493E+01 
3.691875E+02  9.948710E-01 -2.153920E+01  1.904493E-02 6.852235E+01  1.904849E-02 6.851347E+01  9.955152E-01 -2.077483E+01 
3.728750E+02  9.944621E-01 -2.178025E+01  1.926527E-02 6.825852E+01  1.924783E-02 6.822451E+01  9.959923E-01 -2.093078E+01 
3.765625E+02  9.952585E-01 -2.200473E+01  1.944723E-02 6.814889E+01  1.943198E-02 6.800904E+01  9.967953E-01 -2.115089E+01 
3.802500E+02  9.947955E-01 -2.216348E+01  1.956814E-02 6.798569E+01  1.958335E-02 6.786187E+01  9.955143E-01 -2.130141E+01 
3.839375E+02  9.959609E-01 -2.240148E+01  1.976472E-02 6.775651E+01  1.977730E-02 6.764472E+01  9.954839E-01 -2.153025E+01 
3.876250E+02  9.946760E-01 -2.261240E+01  1.996193E-02 6.751227E+01  1.998203E-02 6.751690E+01  9.962372E-01 -2.170418E+01 
3.913125E+02  9.938268E-01 -2.281897E+01  2.008988E-02 6.734196E+01  2.014449E-02 6.734012E+01  9.959532E-01 -2.194895E+01 
3.950000E+02  9.946138E-01 -2.301710E+01  2.029920E-02 6.714191E+01  2.035597E-02 6.710764E+01  9.962815E-01 -2.213125E+01 
3.986875E+02  9.949626E-01 -2.323613E+01  2.051075E-02 6.689742E+01  2.051621E-02 6.697783E+01  9.959829E-01 -2.229705E+01 
4.023750E+02  9.947413E-01 -2.353610E+01  2.066540E-02 6.660563E+01  2.064686E-02 6.653652E+01  9.955735E-01 -2.255883E+01 
4.060625E+02  9.947507E-01 -2.373680E+01  2.082571E-02 6.618416E+01  2.080908E-02 6.634189E+01  9.951495E-01 -2.274366E+01 
4.097500E+02  9.977778E-01 -2.439431E+01  2.106066E-02 6.608750E+01  2.107088E-02 6.552776E+01  9.985074E-01 -2.314770E+01 
4.134375E+02  9.950543E-01 -2.420737E+01  2.118632E-02 6.591293E+01  2.116203E-02 6.589048E+01  9.960384E-01 -2.317665E+01 
4.171250E+02  9.948420E-01 -2.441074E+01  2.137655E-02 6.581950E+01  2.136006E-02 6.572914E+01  9.960511E-01 -2.329320E+01 
4.208125E+02  9.951867E-01 -2.459200E+01  2.154591E-02 6.578333E+01  2.155625E-02 6.569428E+01  9.964227E-01 -2.344278E+01 
4.245000E+02  9.945011E-01 -2.481597E+01  2.172376E-02 6.557051E+01  2.173848E-02 6.561679E+01  9.960769E-01 -2.360291E+01 
4.281875E+02  9.947616E-01 -2.502183E+01  2.186920E-02 6.521005E+01  2.186941E-02 6.523209E+01  9.951154E-01 -2.392808E+01 
4.318750E+02  9.947049E-01 -2.535015E+01  2.195728E-02 6.511765E+01  2.202023E-02 6.498871E+01  9.948892E-01 -2.410711E+01 
4.355625E+02  9.950185E-01 -2.547753E+01  2.217266E-02 6.481916E+01  2.222702E-02 6.478880E+01  9.962915E-01 -2.428452E+01 
4.392500E+02  9.929138E-01 -2.493319E+01  2.236824E-02 6.450868E+01  2.233953E-02 6.576381E+01  9.961779E-01 -2.416916E+01 
4.429375E+02  9.937155E-01 -2.601768E+01  2.251023E-02 6.410571E+01  2.255504E-02 6.415897E+01  9.956553E-01 -2.467652E+01 
4.466250E+02  9.933517E-01 -2.624136E+01  2.264879E-02 6.391853E+01  2.271085E-02 6.395000E+01  9.956304E-01 -2.493607E+01 
4.503125E+02  9.936030E-01 -2.645867E+01  2.287889E-02 6.380012E+01  2.290939E-02 6.374268E+01  9.945710E-01 -2.518635E+01 
4.540000E+02  9.937333E-01 -2.662865E+01  2.305223E-02 6.369221E+01  2.305835E-02 6.364149E+01  9.941657E-01 -2.537057E+01 
4.576875E+02  9.932628E-01 -2.686370E+01  2.322099E-02 6.339821E+01  2.320020E-02 6.337242E+01  9.943416E-01 -2.553722E+01 
4.613750E+02  9.945899E-01 -2.705665E+01  2.339227E-02 6.317675E+01  2.339682E-02 6.319572E+01  9.948216E-01 -2.573169E+01 
4.650625E+02  9.945371E-01 -2.728515E+01  2.356355E-02 6.303209E+01  2.356984E-02 6.308468E+01  9.937382E-01 -2.590412E+01 
4.687500E+02  9.937834E-01 -2.747721E+01  2.373173E-02 6.279458E+01  2.369576E-02 6.276371E+01  9.951307E-01 -2.605309E+01 
4.724375E+02  9.944653E-01 -2.774147E+01  2.387746E-02 6.269790E+01  2.384167E-02 6.264059E+01  9.946955E-01 -2.627699E+01 
4.761250E+02  9.934690E-01 -2.791847E+01  2.405754E-02 6.233241E+01  2.405668E-02 6.244555E+01  9.947552E-01 -2.651754E+01 
4.798125E+02  9.935002E-01 -2.815304E+01  2.421452E-02 6.216476E+01  2.424964E-02 6.217801E+01  9.950304E-01 -2.667958E+01 
4.835000E+02  9.933276E-01 -2.848287E+01  2.437526E-02 6.175114E+01  2.441677E-02 6.167361E+01  9.947897E-01 -2.703615E+01 
4.871875E+02  9.943492E-01 -2.862725E+01  2.458348E-02 6.161221E+01  2.460789E-02 6.166687E+01  9.945996E-01 -2.711660E+01 
4.908750E+02  9.950525E-01 -2.886585E+01  2.473967E-02 6.143148E+01  2.476066E-02 6.135964E+01  9.943755E-01 -2.737550E+01 
4.945625E+02  9.940523E-01 -2.908444E+01  2.487195E-02 6.120570E+01  2.489195E-02 6.115511E+01  9.939510E-01 -2.760795E+01 
4.982500E+02  9.934879E-01 -2.921687E+01  2.501405E-02 6.105060E+01  2.505319E-02 6.099407E+01  9.944031E-01 -2.774344E+01 
5.019375E+02  9.941276E-01 -2.952277E+01  2.521046E-02 6.076507E+01  2.518151E-02 6.070703E+01  9.945241E-01 -2.801488E+01 
5.056250E+02  9.943201E-01 -2.973730E+01  2.538965E-02 6.055373E+01  2.537875E-02 6.050413E+01  9.942917E-01 -2.821440E+01 
5.093125E+02  9.939104E-01 -2.997689E+01  2.553356E-02 6.026839E+01  2.556578E-02 6.021315E+01  9.941422E-01 -2.839103E+01 
5.130000E+02  9.927825E-01 -3.019393E+01  2.566408E-02 6.005940E+01  2.568256E-02 6.006887E+01  9.946251E-01 -2.858357E+01 
5.166875E+02  9.938657E-01 -3.042180E+01  2.582402E-02 5.982306E+01  2.585707E-02 5.971431E+01  9.944514E-01 -2.888111E+01 
5.203750E+02  9.934800E-01 -3.067798E+01  2.591418E-02 5.949715E+01  2.596508E-02 5.956534E+01  9.940814E-01 -2.915721E+01 
5.240625E+02  9.925062E-01 -3.075413E+01  2.614953E-02 5.938894E+01  2.615402E-02 5.947696E+01  9.945562E-01 -2.928365E+01 
5.277500E+02  9.945328E-01 -3.098575E+01  2.631023E-02 5.937133E+01  2.632323E-02 5.922268E+01  9.946075E-01 -2.953290E+01 
5.314375E+02  9.943782E-01 -3.122149E+01  2.642012E-02 5.898845E+01  2.643108E-02 5.904510E+01  9.938989E-01 -2.968857E+01 
5.351250E+02  9.933780E-01 -3.138227E+01  2.660214E-02 5.887423E+01  2.665453E-02 5.891220E+01  9.942442E-01 -2.986282E+01 
5.388125E+02  9.922823E-01 -3.155920E+01  2.675004E-02 5.876824E+01  2.681414E-02 5.869911E+01  9.930935E-01 -3.007618E+01 
5.425000E+02  9.934678E-01 -3.178027E+01  2.687672E-02 5.847750E+01  2.693614E-02 5.835663E+01  9.939254E-01 -3.032697E+01 
5.461875E+02  9.936653E-01 -3.202715E+01  2.702893E-02 5.822377E+01  2.705358E-02 5.816466E+01  9.938175E-01 -3.056512E+01 
5.498750E+02  9.938772E-01 -3.217218E+01  2.724805E-02 5.809858E+01  2.725254E-02 5.809224E+01  9.939183E-01 -3.072186E+01 
5.535625E+02  9.943395E-01 -3.238625E+01  2.742069E-02 5.786013E+01  2.745020E-02 5.782902E+01  9.938201E-01 -3.098278E+01 
5.572500E+02  9.936134E-01 -3.254292E+01  2.757543E-02 5.771915E+01  2.757744E-02 5.752200E+01  9.932971E-01 -3.118480E+01 
5.609375E+02  9.932494E-01 -3.271489E+01  2.766322E-02 5.764264E+01  2.769798E-02 5.750978E+01  9.932477E-01 -3.141557E+01 
5.646250E+02  9.930185E-01 -3.292761E+01  2.791644E-02 5.727800E+01  2.786839E-02 5.712757E+01  9.943996E-01 -3.161093E+01 
5.683125E+02  9.938837E-01 -3.321290E+01  2.810830E-02 5.704054E+01  2.805326E-02 5.675847E+01  9.946021E-01 -3.182576E+01 
5.720000E+02  9.936434E-01 -3.340571E+01  2.810744E-02 5.683822E+01  2.821134E-02 5.674181E+01  9.938573E-01 -3.200756E+01 
5.756875E+02  9.934974E-01 -3.355294E+01  2.832295E-02 5.669241E+01  2.830737E-02 5.664312E+01  9.932347E-01 -3.215286E+01 
5.793750E+02  9.934149E-01 -3.379888E+01  2.850838E-02 5.641986E+01  2.845282E-02 5.640707E+01  9.932952E-01 -3.240535E+01 
5.830625E+02  9.919797E-01 -3.397799E+01  2.855329E-02 5.617090E+01  2.854990E-02 5.622824E+01  9.924827E-01 -3.259314E+01 
5.867500E+02  9.926946E-01 -3.422673E+01  2.871685E-02 5.600505E+01  2.876710E-02 5.594735E+01  9.937760E-01 -3.278256E+01 
5.904375E+02  9.931697E-01 -3.449448E+01  2.889647E-02 5.571463E+01  2.893595E-02 5.569733E+01  9.939365E-01 -3.298950E+01 
5.941250E+02  9.920261E-01 -3.463621E+01  2.903906E-02 5.560884E+01  2.905135E-02 5.555542E+01  9.927799E-01 -3.310164E+01 
5.978125E+02  9.928457E-01 -3.485858E+01  2.922470E-02 5.539923E+01  2.920910E-02 5.534675E+01  9.940524E-01 -3.336662E+01 
6.015000E+02  9.925693E-01 -3.501263E+01  2.930440E-02 5.520101E+01  2.930747E-02 5.520523E+01  9.937541E-01 -3.352711E+01 
6.051875E+02  9.925270E-01 -3.527033E+01  2.949103E-02 5.512338E+01  2.950925E-02 5.493530E+01  9.935466E-01 -3.372897E+01 
6.088750E+02  9.923774E-01 -3.543720E+01  2.966461E-02 5.484300E+01  2.964908E-02 5.471702E+01  9.934291E-01 -3.391619E+01 
6.125625E+02  9.931113E-01 -3.564080E+01  2.982695E-02 5.460919E+01  2.985270E-02 5.468100E+01  9.948606E-01 -3.412943E+01 
6.162500E+02  9.936755E-01 -3.592759E+01  2.995219E-02 5.428374E+01  3.000803E-02 5.428085E+01  9.942698E-01 -3.434313E+01 
6.199375E+02  9.929845E-01 -3.609414E+01  3.011177E-02 5.415311E+01  3.007779E-02 5.423660E+01  9.939074E-01 -3.454237E+01 
6.236250E+02  9.928715E-01 -3.628989E+01  3.020419E-02 5.397735E+01  3.021407E-02 5.396523E+01  9.942913E-01 -3.471090E+01 
6.273125E+02  9.920368E-01 -3.651808E+01  3.039338E-02 5.385592E+01  3.032991E-02 5.374688E+01  9.932888E-01 -3.481530E+01 
6.310000E+02  9.921671E-01 -3.670246E+01  3.054983E-02 5.358079E+01  3.050066E-02 5.342986E+01  9.939681E-01 -3.504655E+01 
6.346875E+02  9.918680E-01 -3.695824E+01  3.065968E-02 5.333402E+01  3.071883E-02 5.329859E+01  9.937751E-01 -3.524427E+01 
6.383750E+02  9.919173E-01 -3.717165E+01  3.080918E-02 5.324782E+01  3.082371E-02 5.309955E+01  9.940526E-01 -3.541949E+01 
6.420625E+02  9.943311E-01 -3.751949E+01  3.103290E-02 5.291004E+01  3.097011E-02 5.271995E+01  9.948595E-01 -3.572526E+01 
6.457500E+02  9.932019E-01 -3.755481E+01  3.115839E-02 5.273672E+01  3.110817E-02 5.271171E+01  9.939250E-01 -3.577493E+01 
6.494375E+02  9.937147E-01 -3.779968E+01  3.123518E-02 5.252247E+01  3.127154E-02 5.255831E+01  9.942185E-01 -3.599074E+01 
6.531250E+02  9.932982E-01 -3.806802E+01  3.135983E-02 5.226328E+01  3.141809E-02 5.221391E+01  9.938729E-01 -3.625495E+01 
6.568125E+02  9.925173E-01 -3.820843E+01  3.149428E-02 5.208825E+01  3.153117E-02 5.213117E+01  9.940257E-01 -3.642192E+01 
6.605000E+02  9.923107E-01 -3.846467E+01  3.167220E-02 5.200306E+01  3.162019E-02 5.184001E+01  9.934741E-01 -3.666416E+01 
6.641875E+02  9.941368E-01 -3.869436E+01  3.175564E-02 5.174279E+01  3.182752E-02 5.163763E+01  9.938684E-01 -3.679563E+01 
6.678750E+02  9.932674E-01 -3.890622E+01  3.194905E-02 5.149380E+01  3.192254E-02 5.143151E+01  9.945075E-01 -3.701791E+01 
6.715625E+02  9.939612E-01 -3.906009E+01  3.204400E-02 5.141810E+01  3.209681E-02 5.123339E+01  9.940511E-01 -3.716818E+01 
6.752500E+02  9.943208E-01 -3.929179E+01  3.220191E-02 5.125610E+01  3.230980E-02 5.104374E+01  9.950583E-01 -3.738519E+01 
