! Matrix data file written by TouchstoneData, EPCOS AG
! FILENAME: "newformat_B3592_WB_6.s2p"
! COMMENT: "(B3592_WB_6.s2p)"
! INFO: nport=2, nfreq=1001
! DATE: "Tue Jan 10 10:25:55 2012"
! USER: "Daniel Harbusch"
!
! port | pin | signal
! -----|-----|--------
!   1  |  2  |  IN
!   2  |  6  |  OUT
! --------------------
! 
# MHZ S MA R 50
! freq  magS11 angS11  magS21 angS21  magS12 angS12  magS22 angS22
1.000000E+01  9.975523E-01 -4.029175E+00  5.707583E-05 4.072816E+01  2.729335E-05 7.835852E+01  9.996765E-01 -3.747751E+00 
1.119000E+01  9.990440E-01 -4.295543E+00  2.059112E-04 8.804853E+01  1.941523E-04 8.727859E+01  9.980808E-01 -4.141875E+00 
1.238000E+01  9.975523E-01 -4.227726E+00  1.058480E-04 1.294640E+01  5.381925E-05 9.952843E+00  9.971749E-01 -4.115105E+00 
1.357000E+01  9.960361E-01 -4.279375E+00  1.197027E-04 1.062471E+02  8.407501E-05 7.786378E+01  9.963284E-01 -4.134831E+00 
1.476000E+01  9.945348E-01 -4.553753E+00  1.588288E-04 6.571983E+01  1.762368E-04 7.841613E+01  9.944996E-01 -4.404523E+00 
1.595000E+01  9.947059E-01 -4.902946E+00  1.074745E-04 -8.775631E+01  1.021648E-04 -5.577873E+01  9.952375E-01 -4.825979E+00 
1.714000E+01  9.949240E-01 -5.254598E+00  1.528256E-04 4.877490E+01  1.263331E-04 3.374194E+01  9.957602E-01 -5.131209E+00 
1.833000E+01  9.965933E-01 -5.737803E+00  3.450261E-05 -9.303135E+01  3.175010E-05 -3.443593E+01  9.964509E-01 -5.610735E+00 
1.952000E+01  9.983554E-01 -6.062497E+00  1.917620E-04 7.981083E+01  2.179061E-04 7.419136E+01  9.979903E-01 -5.952099E+00 
2.071000E+01  9.980572E-01 -6.551755E+00  7.033243E-04 1.494165E+02  6.691613E-04 1.477112E+02  9.990538E-01 -6.399588E+00 
2.190000E+01  9.970387E-01 -7.003404E+00  7.772269E-05 1.408897E+02  1.255536E-05 -1.975837E+01  9.970387E-01 -6.792707E+00 
2.309000E+01  9.983554E-01 -7.386941E+00  1.100404E-04 1.993285E+01  1.447136E-04 4.389857E+01  9.983554E-01 -7.193680E+00 
2.428000E+01  9.988266E-01 -7.751278E+00  1.385172E-04 -1.526484E+02  1.191677E-04 -1.797864E+02  9.977714E-01 -7.580831E+00 
2.547000E+01  9.982383E-01 -8.137310E+00  2.177810E-04 1.219124E+02  1.989768E-04 1.316831E+02  9.978429E-01 -7.968451E+00 
2.666000E+01  9.994186E-01 -8.681439E+00  1.527404E-04 4.681256E+01  1.522886E-04 4.311600E+01  9.992182E-01 -8.441220E+00 
2.785000E+01  9.997787E-01 -9.103924E+00  1.162446E-04 8.092438E+01  8.920195E-05 6.358316E+01  9.994699E-01 -8.922855E+00 
2.904000E+01  9.975523E-01 -9.577607E+00  1.037565E-03 1.355876E+02  9.749758E-04 1.328096E+02  9.980511E-01 -9.248369E+00 
3.023000E+01  9.964572E-01 -9.756240E+00  1.309503E-04 3.094292E+01  9.418890E-05 4.649891E+01  9.978372E-01 -9.618071E+00 
3.142000E+01  9.976978E-01 -1.020759E+01  7.010772E-05 9.655227E+01  6.864561E-05 7.814122E+01  9.983554E-01 -9.732786E+00 
3.261000E+01  9.964421E-01 -1.065118E+01  1.670718E-04 7.506699E+01  1.413457E-04 5.241092E+01  9.971634E-01 -1.047417E+01 
3.380000E+01  9.952754E-01 -1.122902E+01  2.200318E-04 7.839251E+01  1.948839E-04 7.178310E+01  9.936175E-01 -1.086965E+01 
3.499000E+01  9.960149E-01 -1.145316E+01  1.739946E-04 2.100870E+01  2.006675E-04 2.959270E+01  9.937513E-01 -1.135282E+01 
3.618000E+01  9.949549E-01 -1.206547E+01  1.359614E-04 1.065485E+02  1.272827E-04 8.511598E+01  9.952464E-01 -1.178278E+01 
3.737000E+01  9.977214E-01 -1.232958E+01  2.629914E-04 4.555345E+01  2.609580E-04 4.500669E+01  9.987061E-01 -1.209961E+01 
3.856000E+01  9.962685E-01 -1.282177E+01  3.760052E-04 5.497608E+01  3.430890E-04 4.754411E+01  9.970387E-01 -1.266683E+01 
3.975000E+01  9.980007E-01 -1.321989E+01  5.010682E-04 6.964162E+01  5.251340E-04 6.850553E+01  9.987061E-01 -1.312207E+01 
4.094000E+01  9.977062E-01 -1.374912E+01  1.158494E-04 1.474608E+02  1.163413E-04 1.331853E+02  9.991679E-01 -1.355470E+01 
4.213000E+01  9.955947E-01 -1.419897E+01  1.931031E-04 7.765598E+01  1.589591E-04 8.351988E+01  9.970387E-01 -1.389469E+01 
4.332000E+01  9.946270E-01 -1.466224E+01  4.605653E-04 1.068860E+02  4.647176E-04 1.085997E+02  9.950867E-01 -1.436109E+01 
4.451000E+01  9.952977E-01 -1.510524E+01  2.023174E-04 3.244622E+01  2.311012E-04 2.814767E+01  9.956585E-01 -1.485271E+01 
4.570000E+01  9.952781E-01 -1.558118E+01  2.996842E-04 1.097662E+02  2.888913E-04 1.139040E+02  9.952127E-01 -1.528638E+01 
4.689000E+01  9.955119E-01 -1.607288E+01  2.017715E-04 7.028559E+01  2.376740E-04 6.362622E+01  9.953738E-01 -1.574401E+01 
4.808000E+01  9.948988E-01 -1.652742E+01  3.376909E-04 9.754723E+01  3.381972E-04 9.111374E+01  9.950717E-01 -1.619676E+01 
4.927000E+01  9.937367E-01 -1.699983E+01  4.262475E-04 5.505801E+01  4.184811E-04 5.696862E+01  9.939128E-01 -1.667346E+01 
5.046000E+01  9.921138E-01 -1.740941E+01  4.397339E-04 7.453699E+01  4.495013E-04 7.414558E+01  9.921017E-01 -1.708296E+01 
5.165000E+01  9.899361E-01 -1.802298E+01  1.069129E-03 1.316415E+01  1.060648E-03 1.359663E+01  9.914931E-01 -1.772493E+01 
5.284000E+01  9.921379E-01 -1.853762E+01  3.040184E-04 1.477244E+01  3.098064E-04 1.511559E+01  9.921429E-01 -1.821564E+01 
5.403000E+01  9.899528E-01 -1.898331E+01  5.503006E-04 7.905733E+01  5.566918E-04 7.796911E+01  9.911180E-01 -1.868468E+01 
5.522000E+01  9.919062E-01 -1.955386E+01  3.149670E-04 9.519910E+01  3.183461E-04 9.541058E+01  9.926012E-01 -1.927637E+01 
5.641000E+01  9.915110E-01 -2.009419E+01  3.214077E-04 5.922804E+01  3.221196E-04 5.568195E+01  9.916979E-01 -1.977195E+01 
5.760000E+01  9.909800E-01 -2.071121E+01  5.481286E-05 4.474561E+01  5.186574E-05 5.141442E+01  9.914215E-01 -2.039375E+01 
5.879000E+01  9.905972E-01 -2.124956E+01  4.796345E-04 9.535048E+01  4.821129E-04 9.567088E+01  9.915149E-01 -2.090350E+01 
5.998000E+01  9.902007E-01 -2.175527E+01  1.894077E-04 5.556510E+01  1.959145E-04 5.770066E+01  9.907026E-01 -2.143321E+01 
6.117000E+01  9.897008E-01 -2.237994E+01  3.105739E-04 3.109137E+01  3.161843E-04 2.996530E+01  9.908914E-01 -2.203492E+01 
6.236000E+01  9.898727E-01 -2.289050E+01  5.125791E-04 8.256849E+01  5.165352E-04 8.228618E+01  9.906452E-01 -2.261143E+01 
6.355000E+01  9.897812E-01 -2.353955E+01  5.323627E-04 6.418983E+01  5.246054E-04 6.573945E+01  9.904908E-01 -2.322774E+01 
6.474000E+01  9.893431E-01 -2.414173E+01  5.221327E-04 5.248866E+01  5.204887E-04 5.306675E+01  9.907545E-01 -2.380127E+01 
6.593000E+01  9.878298E-01 -2.471893E+01  5.124994E-04 5.394427E+01  5.167092E-04 5.393960E+01  9.894654E-01 -2.446484E+01 
6.712000E+01  9.881494E-01 -2.535257E+01  3.450226E-04 1.331662E+02  3.494716E-04 1.355866E+02  9.887518E-01 -2.508611E+01 
6.831000E+01  9.857244E-01 -2.595674E+01  3.915552E-04 4.060871E+01  3.955538E-04 4.091854E+01  9.873504E-01 -2.571941E+01 
6.950000E+01  9.857382E-01 -2.661943E+01  5.615097E-04 7.767709E+01  5.540779E-04 7.800358E+01  9.874524E-01 -2.645730E+01 
7.069000E+01  9.877954E-01 -2.735872E+01  1.812049E-04 6.780526E+01  1.802707E-04 6.735100E+01  9.882749E-01 -2.716689E+01 
7.188000E+01  9.877317E-01 -2.807514E+01  8.019936E-04 8.320867E+01  7.965853E-04 8.358765E+01  9.879851E-01 -2.788369E+01 
7.307000E+01  9.864501E-01 -2.881833E+01  7.186430E-04 8.934592E+01  7.222464E-04 9.016058E+01  9.867974E-01 -2.862467E+01 
7.426000E+01  9.844919E-01 -2.946311E+01  7.493218E-04 5.366430E+01  7.599527E-04 5.406481E+01  9.856287E-01 -2.930621E+01 
7.545000E+01  9.850577E-01 -3.022394E+01  4.885783E-04 9.064369E+01  4.929851E-04 9.026327E+01  9.858817E-01 -3.007115E+01 
7.664000E+01  9.828386E-01 -3.102823E+01  2.120517E-04 1.219206E+02  2.148993E-04 1.201292E+02  9.840273E-01 -3.086218E+01 
7.783000E+01  9.833746E-01 -3.173028E+01  7.473096E-04 4.015581E+01  7.502950E-04 3.951827E+01  9.833707E-01 -3.166929E+01 
7.902000E+01  9.821772E-01 -3.244120E+01  9.776298E-04 5.170647E+01  9.780704E-04 5.214574E+01  9.825963E-01 -3.236919E+01 
8.021000E+01  9.813386E-01 -3.344036E+01  8.602284E-04 5.694836E+00  8.618430E-04 5.302750E+00  9.831337E-01 -3.331121E+01 
8.140000E+01  9.810355E-01 -3.399582E+01  1.012820E-03 8.084828E+01  1.018554E-03 8.088140E+01  9.813021E-01 -3.400085E+01 
8.259000E+01  9.816270E-01 -3.490222E+01  5.028669E-04 2.541555E+01  5.051092E-04 2.513737E+01  9.810870E-01 -3.490098E+01 
8.378000E+01  9.813011E-01 -3.586273E+01  8.567967E-04 4.871542E+01  8.665171E-04 4.854961E+01  9.815722E-01 -3.590066E+01 
8.497000E+01  9.798628E-01 -3.668476E+01  6.100685E-04 1.933639E+01  6.036023E-04 2.003532E+01  9.794362E-01 -3.681069E+01 
8.616000E+01  9.794158E-01 -3.772018E+01  1.086171E-03 7.344180E+01  1.086056E-03 7.346341E+01  9.800912E-01 -3.788153E+01 
8.735000E+01  9.795517E-01 -3.870117E+01  7.745086E-04 5.970381E+01  7.821571E-04 6.041799E+01  9.791273E-01 -3.887090E+01 
8.854000E+01  9.746439E-01 -3.975813E+01  8.081697E-04 4.786740E+01  8.261598E-04 4.754628E+01  9.757977E-01 -4.002580E+01 
8.973000E+01  9.757559E-01 -4.056374E+01  3.660592E-04 1.393152E+02  3.531740E-04 1.405065E+02  9.765810E-01 -4.091514E+01 
9.092000E+01  9.749661E-01 -4.172367E+01  1.126980E-03 5.428877E+01  1.128385E-03 5.448647E+01  9.745068E-01 -4.208676E+01 
9.211000E+01  9.743507E-01 -4.273029E+01  5.091304E-04 6.595858E+01  5.159169E-04 6.640239E+01  9.743840E-01 -4.325161E+01 
9.330000E+01  9.714058E-01 -4.375230E+01  9.069140E-04 1.258299E+01  8.896504E-04 1.271328E+01  9.714890E-01 -4.436114E+01 
9.449000E+01  9.738013E-01 -4.499112E+01  5.133867E-04 2.976848E+01  5.135799E-04 3.058283E+01  9.714908E-01 -4.566057E+01 
9.568000E+01  9.688993E-01 -4.601790E+01  1.619075E-04 7.089285E+01  1.661509E-04 7.135751E+01  9.693639E-01 -4.691743E+01 
9.687000E+01  9.708267E-01 -4.733194E+01  1.129831E-03 7.429370E+01  1.131541E-03 7.415768E+01  9.696926E-01 -4.813705E+01 
9.806000E+01  9.710817E-01 -4.856132E+01  7.095387E-04 1.611081E+01  7.048795E-04 1.553426E+01  9.690451E-01 -4.951947E+01 
9.925000E+01  9.668947E-01 -5.008697E+01  1.573902E-03 4.803405E+01  1.583771E-03 4.782351E+01  9.653140E-01 -5.104798E+01 
1.004400E+02  9.662204E-01 -5.118713E+01  2.927847E-04 2.185505E+01  2.914193E-04 1.861393E+01  9.643073E-01 -5.239164E+01 
1.016300E+02  9.642810E-01 -5.251972E+01  1.005647E-03 2.239891E+01  1.011893E-03 2.320287E+01  9.612703E-01 -5.388581E+01 
1.028200E+02  9.635368E-01 -5.410917E+01  9.588316E-04 2.580335E+01  9.638819E-04 2.624089E+01  9.611923E-01 -5.559224E+01 
1.040100E+02  9.590076E-01 -5.540811E+01  1.055131E-03 2.101168E+01  1.049186E-03 2.084765E+01  9.565318E-01 -5.705824E+01 
1.052000E+02  9.610947E-01 -5.701355E+01  1.496634E-03 7.185190E+00  1.504827E-03 7.216304E+00  9.571211E-01 -5.879470E+01 
1.063900E+02  9.617817E-01 -5.870470E+01  6.976693E-04 3.982703E+01  7.112380E-04 3.903576E+01  9.566666E-01 -6.063802E+01 
1.075800E+02  9.577535E-01 -6.053220E+01  1.128748E-03 6.134234E+01  1.131587E-03 6.151880E+01  9.530372E-01 -6.264718E+01 
1.087700E+02  9.567511E-01 -6.223253E+01  6.556938E-04 4.310393E+01  6.541201E-04 4.458851E+01  9.513516E-01 -6.454954E+01 
1.099600E+02  9.507783E-01 -6.421933E+01  1.387251E-03 1.768080E+01  1.362758E-03 1.767586E+01  9.465522E-01 -6.679438E+01 
1.111500E+02  9.503091E-01 -6.598355E+01  6.910912E-04 1.709435E+01  6.969438E-04 1.635403E+01  9.447986E-01 -6.891108E+01 
1.123400E+02  9.464304E-01 -6.776332E+01  7.064405E-04 -2.108939E+01  7.118662E-04 -2.035633E+01  9.404735E-01 -7.090485E+01 
1.135300E+02  9.454894E-01 -7.003919E+01  1.153176E-03 1.193816E+01  1.149362E-03 1.153741E+01  9.379592E-01 -7.344379E+01 
1.147200E+02  9.416878E-01 -7.209330E+01  2.105421E-04 1.547344E+02  2.167750E-04 1.567076E+02  9.358100E-01 -7.584996E+01 
1.159100E+02  9.352526E-01 -7.439504E+01  1.815769E-03 1.254481E+01  1.823135E-03 1.262025E+01  9.298609E-01 -7.850176E+01 
1.171000E+02  9.382486E-01 -7.683988E+01  1.280199E-03 -1.047077E+01  1.285147E-03 -1.054713E+01  9.286984E-01 -8.137352E+01 
1.182900E+02  9.354026E-01 -7.943249E+01  8.266111E-04 -3.469225E+01  8.252819E-04 -3.408734E+01  9.252186E-01 -8.437070E+01 
1.194800E+02  9.292369E-01 -8.189982E+01  1.528596E-03 6.096929E+01  1.530218E-03 6.092904E+01  9.166174E-01 -8.731626E+01 
1.206700E+02  9.286545E-01 -8.489059E+01  8.073800E-04 4.834603E+00  8.142055E-04 5.661883E+00  9.134193E-01 -9.069139E+01 
1.218600E+02  9.251893E-01 -8.807068E+01  1.652313E-03 -9.916167E+00  1.643539E-03 -9.487689E+00  9.085075E-01 -9.447444E+01 
1.230500E+02  9.121123E-01 -9.128224E+01  1.340712E-03 5.771323E+00  1.323421E-03 6.129359E+00  8.983488E-01 -9.792674E+01 
1.242400E+02  9.035101E-01 -9.449301E+01  4.286998E-04 -1.757359E+01  4.296481E-04 -1.675697E+01  8.891344E-01 -1.017640E+02 
1.254300E+02  9.044627E-01 -9.740025E+01  5.123077E-04 5.842439E+01  5.270984E-04 5.741191E+01  8.921951E-01 -1.056701E+02 
1.266200E+02  8.974388E-01 -1.008933E+02  1.069380E-03 7.010886E+01  1.073250E-03 6.993962E+01  8.811969E-01 -1.100797E+02 
1.278100E+02  8.982596E-01 -1.047742E+02  7.560057E-04 1.158539E+02  7.679082E-04 1.161134E+02  8.807556E-01 -1.148484E+02 
1.290000E+02  8.974746E-01 -1.091504E+02  2.148772E-04 2.550848E+01  2.251384E-04 2.575384E+01  8.762116E-01 -1.202439E+02 
1.301900E+02  8.919928E-01 -1.140557E+02  1.132280E-03 7.233576E+00  1.144799E-03 7.209553E+00  8.643471E-01 -1.261456E+02 
1.313800E+02  8.728004E-01 -1.191685E+02  4.917196E-04 -1.482609E+02  5.023960E-04 -1.479708E+02  8.366559E-01 -1.319158E+02 
1.325700E+02  8.685802E-01 -1.246789E+02  1.296963E-03 1.290763E+02  1.294469E-03 1.290638E+02  8.296375E-01 -1.380736E+02 
1.337600E+02  8.448970E-01 -1.293269E+02  3.332868E-03 6.804053E+01  3.301583E-03 6.710756E+01  8.176422E-01 -1.440795E+02 
1.349500E+02  8.346132E-01 -1.350806E+02  2.497248E-03 -1.730232E+01  2.490960E-03 -1.690758E+01  8.110949E-01 -1.502994E+02 
1.361400E+02  8.337612E-01 -1.414420E+02  4.169249E-03 -1.049795E+02  4.146574E-03 -1.050269E+02  8.036209E-01 -1.590429E+02 
1.373300E+02  8.272720E-01 -1.472185E+02  8.797993E-04 -1.492517E+02  8.748131E-04 -1.494660E+02  8.304973E-01 -1.673776E+02 
1.385200E+02  8.089888E-01 -1.580234E+02  1.367165E-03 1.323290E+02  1.336984E-03 1.313603E+02  8.144799E-01 -1.784018E+02 
1.397100E+02  8.410855E-01 -1.638809E+02  1.661629E-03 7.865382E+01  1.673965E-03 7.867855E+01  8.222263E-01 1.678709E+02 
1.409000E+02  8.454619E-01 -1.763835E+02  2.113323E-03 7.099305E+01  2.128905E-03 7.140631E+01  7.916080E-01 1.522834E+02 
1.420900E+02  8.350371E-01 1.688470E+02  1.833491E-03 4.608327E+01  1.840381E-03 4.601984E+01  7.785416E-01 1.327939E+02 
1.432800E+02  7.619968E-01 1.508915E+02  4.741908E-03 1.253700E+02  4.518003E-03 1.238269E+02  6.366918E-01 1.196544E+02 
1.444700E+02  7.433181E-01 1.285544E+02  1.488709E-02 1.156533E+02  1.500614E-02 1.158401E+02  6.540907E-01 8.564089E+01 
1.456600E+02  4.748924E-01 1.268759E+02  6.558985E-02 -2.437433E+01  6.560129E-02 -2.447194E+01  4.483652E-01 9.395828E+01 
1.468500E+02  6.685501E-01 7.599777E+01  5.444440E-02 -1.417566E+01  5.456409E-02 -1.387534E+01  5.874269E-01 3.117259E+01 
1.480400E+02  2.547214E-01 8.428381E+01  2.676171E-01 -1.039021E+02  2.674539E-01 -1.039905E+02  2.582496E-01 2.922181E+01 
1.492300E+02  5.960344E-01 -2.909147E+01  3.873697E-02 -1.413876E+02  3.872729E-02 -1.413279E+02  5.849076E-01 -6.799372E+01 
1.504200E+02  8.508244E-02 1.006696E+02  6.819630E-01 -1.601126E+02  6.815441E-01 -1.601219E+02  7.844229E-02 1.131281E+02 
1.516100E+02  8.351541E-02 -1.585579E+02  7.715808E-01 1.048522E+02  7.710637E-01 1.048290E+02  8.837356E-02 -1.400105E+02 
1.528000E+02  5.944467E-02 1.784162E+01  7.897399E-01 3.630985E+01  7.893087E-01 3.628252E+01  2.021283E-02 -7.158546E+01 
1.539900E+02  9.409489E-02 -7.579574E+01  7.765374E-01 -2.428049E+01  7.759386E-01 -2.432404E+01  8.705777E-02 -9.477293E+01 
1.551800E+02  1.172381E-02 1.079426E+02  7.531956E-01 -8.456477E+01  7.527140E-01 -8.460636E+01  5.147621E-02 -1.053478E+02 
1.563700E+02  1.580308E-01 -1.443298E+01  7.272181E-01 -1.534169E+02  7.267667E-01 -1.534514E+02  1.265138E-01 -5.965461E+01 
1.575600E+02  4.457496E-01 -7.064601E+00  4.563891E-01 1.115488E+02  4.561079E-01 1.115243E+02  4.053363E-01 -3.171410E+01 
1.587500E+02  7.141973E-01 -8.091694E+01  7.695447E-02 1.165815E+02  7.690246E-02 1.166220E+02  6.691458E-01 -1.055301E+02 
1.599400E+02  6.367530E-01 -1.061621E+02  1.286117E-01 7.315479E+01  1.285794E-01 7.317121E+01  6.422215E-01 -1.317674E+02 
1.611300E+02  6.495048E-01 -1.329820E+02  7.660511E-02 7.267833E+01  7.661270E-02 7.271047E+01  6.703054E-01 -1.539484E+02 
1.623200E+02  5.320018E-01 -1.327863E+02  1.254505E-01 1.882626E+00  1.253577E-01 1.891381E+00  6.087132E-01 -1.606769E+02 
1.635100E+02  5.924358E-01 -1.466513E+02  3.306454E-02 -5.213314E+01  3.306815E-02 -5.209672E+01  6.918224E-01 -1.748879E+02 
1.647000E+02  7.284654E-01 -1.560697E+02  1.536828E-02 -4.970580E+01  1.536519E-02 -4.974397E+01  7.322632E-01 1.704390E+02 
1.658900E+02  7.612042E-01 -1.697119E+02  1.624893E-02 -6.435619E+01  1.625699E-02 -6.442701E+01  6.930198E-01 1.587995E+02 
1.670800E+02  7.214581E-01 1.746170E+02  8.506206E-03 -6.496667E+01  8.550641E-03 -6.497927E+01  6.090789E-01 1.525878E+02 
1.682700E+02  6.411964E-01 1.698554E+02  1.304805E-02 -9.518542E+01  1.304609E-02 -9.526414E+01  6.084391E-01 1.530885E+02 
1.694600E+02  6.225760E-01 1.672854E+02  6.792680E-03 -1.046973E+02  6.814340E-03 -1.047199E+02  6.110995E-01 1.501966E+02 
1.706500E+02  6.512844E-01 1.610526E+02  1.586885E-03 -5.611889E+01  1.563567E-03 -5.587774E+01  6.760187E-01 1.432376E+02 
1.718400E+02  6.936998E-01 1.577200E+02  3.569832E-03 -1.094583E+02  3.581425E-03 -1.088459E+02  7.202692E-01 1.388864E+02 
1.730300E+02  6.972220E-01 1.526948E+02  3.436938E-03 -9.161365E+01  3.432467E-03 -9.157505E+01  7.392598E-01 1.344790E+02 
1.742200E+02  7.098668E-01 1.480012E+02  4.003860E-03 -7.978897E+01  4.008039E-03 -7.961175E+01  7.514708E-01 1.297377E+02 
1.754100E+02  7.088254E-01 1.428984E+02  3.642237E-03 -6.279123E+01  3.647951E-03 -6.278288E+01  7.685824E-01 1.253834E+02 
1.766000E+02  7.139676E-01 1.396748E+02  5.633782E-03 -9.731297E+01  5.639348E-03 -9.732478E+01  7.677965E-01 1.206003E+02 
1.777900E+02  7.499564E-01 1.341422E+02  3.418844E-03 -9.667859E+01  3.425975E-03 -9.680598E+01  7.693727E-01 1.159657E+02 
1.789800E+02  7.808729E-01 1.292714E+02  1.062110E-03 -8.204443E+01  1.067599E-03 -8.181762E+01  7.745239E-01 1.119328E+02 
1.801700E+02  7.673209E-01 1.259928E+02  4.352415E-03 -9.518709E+01  4.355156E-03 -9.519359E+01  7.748538E-01 1.094747E+02 
1.813600E+02  7.683276E-01 1.208449E+02  4.552933E-03 -1.553234E+02  4.550946E-03 -1.551634E+02  7.871218E-01 1.071680E+02 
1.825500E+02  7.813549E-01 1.169084E+02  2.986313E-03 -1.331048E+02  2.990352E-03 -1.330087E+02  7.975428E-01 1.035578E+02 
1.837400E+02  7.689083E-01 1.169640E+02  5.339386E-04 -9.015871E+01  5.498297E-04 -9.143242E+01  7.920490E-01 1.028066E+02 
1.849300E+02  7.834722E-01 1.120044E+02  9.960578E-04 -9.307831E+01  9.903186E-04 -9.238016E+01  8.167468E-01 9.974125E+01 
1.861200E+02  7.838027E-01 1.111143E+02  3.185201E-04 -3.057249E+01  3.157240E-04 -2.817442E+01  8.102731E-01 9.753510E+01 
1.873100E+02  8.019313E-01 1.081821E+02  1.995233E-03 -1.443113E+02  2.001350E-03 -1.438146E+02  8.272054E-01 9.567631E+01 
1.885000E+02  8.170728E-01 1.044730E+02  6.921366E-04 -1.220093E+02  6.952512E-04 -1.225496E+02  8.501743E-01 9.259947E+01 
1.896900E+02  8.194398E-01 1.030408E+02  2.240891E-03 -1.366679E+02  2.229762E-03 -1.366739E+02  8.448246E-01 9.045572E+01 
1.908800E+02  8.340257E-01 1.003335E+02  1.017810E-03 1.690520E+02  1.011172E-03 1.693913E+02  8.558496E-01 8.792280E+01 
1.920700E+02  8.331897E-01 9.700226E+01  7.490994E-04 -7.428200E+01  7.615894E-04 -7.323925E+01  8.505954E-01 8.581299E+01 
1.932600E+02  8.320431E-01 9.579449E+01  1.654807E-03 -1.008666E+02  1.643445E-03 -1.010395E+02  8.414929E-01 8.439580E+01 
1.944500E+02  8.415215E-01 9.244400E+01  3.585423E-04 4.722571E+01  3.541393E-04 4.500141E+01  8.514918E-01 8.219041E+01 
1.956400E+02  8.344239E-01 9.093341E+01  7.890604E-04 -1.118500E+02  8.016268E-04 -1.128261E+02  8.577230E-01 8.097908E+01 
