! Matrix data file written by TouchstoneData, EPCOS AG
! FILENAME: "B3917.WB.s2p"
! COMMENT: "1 Sep 2011 S11-NoP:1601;Caltype:;"
! INFO: nport=2, nfreq=1601
! DATE: "Thu Sep 29 10:32:36 2011"
! USER: "WeiLong Lin"
!
! port | pin | signal
! -----|-----|--------
!   1  |  2  |  In
!   2  |  5  |  Out
! --------------------
! 
# MHZ S MA R 50
! freq  magS11 angS11  magS21 angS21  magS12 angS12  magS22 angS22
1.000000E+01  1.000056E+00 -1.489071E+00  3.898423E-05 2.786184E+01  3.898166E-05 -4.668848E+00  1.000237E+00 -1.485096E+00 
1.061875E+01  9.998674E-01 -1.617596E+00  1.780130E-05 1.346258E+02  2.553969E-05 1.473360E+02  9.997910E-01 -1.571372E+00 
1.123750E+01  9.996809E-01 -1.658517E+00  1.177566E-04 -5.461180E+01  1.130718E-04 -5.088921E+01  9.999025E-01 -1.661857E+00 
1.185625E+01  9.997665E-01 -1.781948E+00  5.758106E-05 1.367497E+02  6.230694E-05 1.137242E+02  9.994251E-01 -1.744303E+00 
1.247500E+01  9.998309E-01 -1.857110E+00  5.530480E-05 -9.618797E+00  6.662578E-05 -2.121873E+01  9.995316E-01 -1.855937E+00 
1.309375E+01  9.998268E-01 -1.962192E+00  7.671255E-05 -5.035396E-01  5.935010E-05 6.341567E-01  9.997090E-01 -1.948737E+00 
1.371250E+01  9.997172E-01 -2.051358E+00  1.272390E-05 1.499541E+02  1.350804E-05 -1.172539E+02  9.992132E-01 -2.036608E+00 
1.433125E+01  9.999103E-01 -2.133002E+00  1.250544E-04 1.186819E+02  1.156746E-04 1.276048E+02  1.000298E+00 -2.208205E+00 
1.495000E+01  1.000123E+00 -2.328534E+00  7.261890E-05 4.819197E+01  8.083892E-05 6.431231E+01  9.996002E-01 -2.152425E+00 
1.556875E+01  9.997179E-01 -2.351978E+00  1.086584E-04 -7.438047E+01  1.139911E-04 -6.119229E+01  9.994820E-01 -2.302265E+00 
1.618750E+01  9.996459E-01 -2.405451E+00  6.983629E-05 -1.732091E+02  6.644653E-05 -1.604532E+02  9.989814E-01 -2.389085E+00 
1.680625E+01  9.995788E-01 -2.474662E+00  7.066507E-05 1.105729E+02  9.203779E-05 1.119885E+02  9.992179E-01 -2.513954E+00 
1.742500E+01  9.995848E-01 -2.508327E+00  4.648236E-05 9.955110E+01  4.543835E-05 8.786551E+01  9.992809E-01 -2.597759E+00 
1.804375E+01  9.997608E-01 -2.698316E+00  5.299666E-06 -9.959621E+01  3.331275E-05 4.231946E+01  9.995274E-01 -2.795115E+00 
1.866250E+01  9.996547E-01 -2.729703E+00  2.088254E-05 1.262659E+01  4.782667E-05 -8.976556E+00  9.992323E-01 -2.840445E+00 
1.928125E+01  9.994727E-01 -2.972828E+00  1.073243E-04 1.083404E+02  9.622263E-05 1.042097E+02  9.992706E-01 -2.799013E+00 
1.990000E+01  9.996334E-01 -2.989500E+00  1.473582E-04 8.504291E+01  1.293899E-04 9.387124E+01  9.991952E-01 -2.895569E+00 
2.051875E+01  9.992756E-01 -3.035804E+00  1.634842E-04 5.146931E+01  1.467133E-04 4.754811E+01  9.987984E-01 -3.000003E+00 
2.113750E+01  9.993083E-01 -3.134205E+00  7.929525E-05 -1.686741E+02  8.195174E-05 1.798209E+02  9.989046E-01 -3.110779E+00 
2.175625E+01  9.995424E-01 -3.226946E+00  5.871092E-05 1.292367E+02  5.267738E-05 1.601197E+02  9.988429E-01 -3.211373E+00 
2.237500E+01  9.991612E-01 -3.295792E+00  5.001042E-05 7.801859E+01  5.847969E-05 7.986942E+01  9.991063E-01 -3.290552E+00 
2.299375E+01  9.993144E-01 -3.381071E+00  4.119597E-05 8.249933E+01  4.537251E-05 8.859012E+01  9.991294E-01 -3.400020E+00 
2.361250E+01  9.996048E-01 -3.485922E+00  6.450787E-05 1.745530E+01  5.632138E-05 5.003296E+01  9.989550E-01 -3.525513E+00 
2.423125E+01  9.993947E-01 -3.569813E+00  1.847649E-05 -5.521186E+01  1.005956E-05 4.431084E+01  9.993121E-01 -3.639991E+00 
2.485000E+01  9.994349E-01 -3.688192E+00  4.343536E-05 1.179649E+02  4.640944E-05 1.425045E+02  9.993768E-01 -3.791550E+00 
2.546875E+01  9.997037E-01 -3.759332E+00  6.173648E-05 1.318309E+02  5.248766E-05 1.287974E+02  9.995920E-01 -3.771875E+00 
2.608750E+01  9.999660E-01 -4.011333E+00  6.389570E-05 7.150382E+01  6.533153E-05 9.980271E+01  9.997028E-01 -3.874936E+00 
2.670625E+01  9.993096E-01 -4.100195E+00  5.437689E-05 1.003169E+02  2.776777E-05 8.117349E+01  9.997753E-01 -3.950502E+00 
2.732500E+01  9.994491E-01 -4.104888E+00  5.945102E-05 1.197794E+02  6.196899E-05 1.161306E+02  9.992413E-01 -4.128329E+00 
2.794375E+01  9.993816E-01 -4.189822E+00  5.457399E-04 -8.926768E+01  5.540713E-04 -9.108850E+01  9.977987E-01 -4.142902E+00 
2.856250E+01  9.993327E-01 -4.299488E+00  4.635633E-05 -2.184148E+01  2.512407E-05 -3.932571E+01  9.990441E-01 -4.224487E+00 
2.918125E+01  9.994055E-01 -4.496458E+00  4.366400E-05 -1.126601E+02  5.110719E-05 -1.168732E+02  9.990584E-01 -4.333362E+00 
2.980000E+01  9.992410E-01 -4.539310E+00  7.469968E-05 3.756729E+01  8.023565E-05 5.123719E+01  9.992943E-01 -4.383097E+00 
3.041875E+01  9.988120E-01 -4.601656E+00  1.681305E-04 -1.204776E+02  1.718821E-04 -1.146676E+02  9.988021E-01 -4.511963E+00 
3.103750E+01  9.989714E-01 -4.662292E+00  6.869517E-05 1.723841E+02  6.299056E-05 1.716231E+02  9.986021E-01 -4.594162E+00 
3.165625E+01  9.986482E-01 -4.723833E+00  1.267819E-05 1.379983E+02  4.437500E-05 1.794269E+02  9.985942E-01 -4.683357E+00 
3.227500E+01  9.989212E-01 -4.823680E+00  2.258597E-05 7.450117E+01  4.138506E-05 4.107139E+01  9.986865E-01 -4.759894E+00 
3.289375E+01  9.987213E-01 -4.882695E+00  6.504995E-05 1.683217E+02  4.631288E-05 1.444086E+02  9.983827E-01 -4.843121E+00 
3.351250E+01  9.986903E-01 -5.005868E+00  3.847586E-05 1.517271E+02  3.516435E-05 1.674536E+02  9.984372E-01 -4.958768E+00 
3.413125E+01  9.986284E-01 -5.075837E+00  4.749397E-05 1.695719E+02  4.505224E-05 1.726253E+02  9.983962E-01 -5.050871E+00 
3.475000E+01  9.988598E-01 -5.176657E+00  8.651443E-05 1.108361E+02  7.710497E-05 1.031385E+02  9.980922E-01 -5.132991E+00 
3.536875E+01  9.987539E-01 -5.259423E+00  8.103052E-05 7.912371E+01  9.738782E-05 8.322023E+01  9.982910E-01 -5.221357E+00 
3.598750E+01  9.986811E-01 -5.356668E+00  5.919456E-05 7.334836E+01  3.760594E-05 4.091790E+01  9.984346E-01 -5.317485E+00 
3.660625E+01  9.988720E-01 -5.444529E+00  4.235913E-05 7.949946E+01  2.625657E-05 1.002370E+02  9.983161E-01 -5.413790E+00 
3.722500E+01  9.985552E-01 -5.538875E+00  8.722555E-05 6.502681E+01  7.822197E-05 6.097540E+01  9.979494E-01 -5.523764E+00 
3.784375E+01  9.983924E-01 -5.616086E+00  3.576294E-05 9.286544E+01  3.716364E-05 8.231827E+01  9.979821E-01 -5.577936E+00 
3.846250E+01  9.984569E-01 -5.710929E+00  4.653299E-05 4.376860E+01  5.396493E-05 2.945177E+01  9.981505E-01 -5.663758E+00 
3.908125E+01  9.987075E-01 -5.801916E+00  7.219738E-05 1.211873E+02  5.062490E-05 1.275259E+02  9.981953E-01 -5.749236E+00 
3.970000E+01  9.985485E-01 -5.879736E+00  1.109079E-04 1.017423E+00  1.016126E-04 3.972040E-02  9.978299E-01 -5.857211E+00 
4.031875E+01  9.987669E-01 -5.980181E+00  9.392503E-05 8.029106E+01  8.232494E-05 8.551489E+01  9.982320E-01 -5.949784E+00 
4.093750E+01  9.986164E-01 -6.068216E+00  4.913380E-05 1.184709E+02  3.855622E-05 1.337373E+02  9.980429E-01 -6.032120E+00 
4.155625E+01  9.987938E-01 -6.276512E+00  1.143767E-04 7.755818E+01  1.016867E-04 7.420172E+01  9.990284E-01 -6.144698E+00 
4.217500E+01  9.985279E-01 -6.371099E+00  8.617563E-05 -1.128769E+02  7.255539E-05 -1.200539E+02  9.984457E-01 -6.213717E+00 
4.279375E+01  9.988027E-01 -6.456774E+00  5.974337E-05 1.605507E+02  5.929803E-05 -1.770722E+02  9.988501E-01 -6.290016E+00 
4.341250E+01  9.984582E-01 -6.525159E+00  1.278454E-04 7.862556E+01  1.024021E-04 6.439495E+01  9.989014E-01 -6.381038E+00 
4.403125E+01  9.987497E-01 -6.589141E+00  7.893699E-05 9.842664E+01  7.551682E-05 1.025221E+02  9.984427E-01 -6.483467E+00 
4.465000E+01  9.986101E-01 -6.640453E+00  5.945733E-05 1.363520E+02  4.365613E-05 1.432919E+02  9.982092E-01 -6.576348E+00 
4.526875E+01  9.987668E-01 -6.738119E+00  1.001259E-04 7.417979E+01  9.952889E-05 7.149901E+01  9.982735E-01 -6.674588E+00 
4.588750E+01  9.986415E-01 -6.824199E+00  4.159953E-05 5.819485E+01  2.384211E-05 4.620740E+01  9.979650E-01 -6.780802E+00 
4.650625E+01  9.984823E-01 -6.922721E+00  4.412176E-05 -1.709707E+02  4.548111E-05 -1.729948E+02  9.969905E-01 -6.836317E+00 
4.712500E+01  9.982815E-01 -6.980161E+00  5.916866E-05 7.540742E+01  8.057694E-05 7.009456E+01  9.981724E-01 -6.904190E+00 
4.774375E+01  9.984875E-01 -7.084173E+00  5.079294E-05 7.930357E+01  2.229497E-05 8.804578E+01  9.981225E-01 -7.004641E+00 
4.836250E+01  9.985141E-01 -7.175789E+00  3.323147E-05 6.851230E+01  2.900967E-05 6.909793E+01  9.982953E-01 -7.096409E+00 
4.898125E+01  9.982185E-01 -7.279339E+00  2.234520E-04 1.197674E+02  2.069780E-04 1.194597E+02  9.977052E-01 -7.188043E+00 
4.960000E+01  9.984882E-01 -7.352825E+00  7.558053E-05 5.143382E+01  7.179410E-05 4.626512E+01  9.982545E-01 -7.269831E+00 
5.021875E+01  9.985459E-01 -7.443408E+00  2.666711E-05 -3.661855E+01  4.084454E-05 -1.662028E+01  9.982651E-01 -7.374856E+00 
5.083750E+01  9.986189E-01 -7.517157E+00  2.634552E-05 9.579388E+01  2.176887E-05 4.793162E+01  9.979909E-01 -7.481192E+00 
5.145625E+01  9.982724E-01 -7.602148E+00  1.453935E-04 -9.838663E+00  1.271581E-04 -2.036307E+01  9.980942E-01 -7.581465E+00 
5.207500E+01  9.987252E-01 -7.699067E+00  8.941211E-05 1.072372E+02  6.208839E-05 9.937864E+01  9.981081E-01 -7.685634E+00 
5.269375E+01  9.985412E-01 -7.794950E+00  7.713404E-05 1.143951E+02  6.587662E-05 1.202001E+02  9.980649E-01 -7.773698E+00 
5.331250E+01  9.984501E-01 -7.889427E+00  1.349032E-04 8.957904E+01  1.177469E-04 8.699724E+01  9.979524E-01 -7.873229E+00 
5.393125E+01  9.984443E-01 -7.970936E+00  7.190114E-05 -6.907690E+01  5.214859E-05 -8.787852E+01  9.978389E-01 -7.936433E+00 
5.455000E+01  9.986434E-01 -8.075330E+00  5.601544E-05 1.219890E+02  6.535378E-05 1.353176E+02  9.981496E-01 -8.051526E+00 
5.516875E+01  9.982886E-01 -8.173604E+00  1.052249E-04 1.074494E+02  1.061152E-04 1.100785E+02  9.981838E-01 -8.124340E+00 
5.578750E+01  9.983354E-01 -8.272294E+00  1.385562E-04 1.101290E+02  1.520506E-04 1.145770E+02  9.976722E-01 -8.235444E+00 
5.640625E+01  9.979939E-01 -8.350052E+00  3.492756E-05 6.299860E+01  3.711795E-05 4.252006E+01  9.976739E-01 -8.276500E+00 
5.702500E+01  9.981580E-01 -8.410087E+00  7.331413E-05 8.499266E+01  7.474148E-05 8.330815E+01  9.979933E-01 -8.404883E+00 
5.764375E+01  9.983069E-01 -8.525337E+00  5.967859E-05 7.638494E+01  4.370783E-05 8.360633E+01  9.982987E-01 -8.462561E+00 
5.826250E+01  9.984204E-01 -8.604207E+00  6.506831E-05 8.005465E+01  3.375049E-05 6.867080E+01  9.982903E-01 -8.556877E+00 
5.888125E+01  9.984639E-01 -8.709167E+00  1.136967E-04 9.374317E+01  1.403579E-04 9.092627E+01  9.984138E-01 -8.619827E+00 
5.950000E+01  9.984960E-01 -8.801327E+00  7.124592E-05 6.843940E+01  7.376208E-05 6.922127E+01  9.982196E-01 -8.726459E+00 
6.011875E+01  9.983174E-01 -8.903803E+00  1.307219E-04 5.964669E+01  1.244786E-04 5.056223E+01  9.984658E-01 -8.831475E+00 
6.073750E+01  9.984504E-01 -8.985892E+00  1.787556E-05 -1.590927E+02  4.724678E-05 -1.440856E+02  9.979825E-01 -8.919675E+00 
6.135625E+01  9.983145E-01 -9.076213E+00  5.762129E-05 1.012127E+02  6.255172E-05 9.954903E+01  9.978914E-01 -9.035494E+00 
6.197500E+01  9.983968E-01 -9.172439E+00  1.100574E-04 7.109942E+01  1.045169E-04 5.876305E+01  9.984750E-01 -9.096233E+00 
6.259375E+01  9.983708E-01 -9.262360E+00  3.995649E-05 8.471055E+01  4.546690E-05 7.584282E+01  9.979218E-01 -9.216566E+00 
6.321250E+01  9.981059E-01 -9.355313E+00  1.233919E-04 6.598449E+01  8.669654E-05 7.571585E+01  9.978688E-01 -9.273971E+00 
6.383125E+01  9.984022E-01 -9.439877E+00  1.543221E-04 8.230434E+01  1.488141E-04 8.076076E+01  9.976587E-01 -9.381746E+00 
6.445000E+01  9.979618E-01 -9.550979E+00  1.320405E-04 3.365754E+01  1.062259E-04 3.694542E+01  9.978188E-01 -9.507970E+00 
6.506875E+01  9.978932E-01 -9.648922E+00  3.414536E-05 9.449527E+01  4.164239E-05 5.426105E+01  9.971099E-01 -9.545506E+00 
6.568750E+01  9.974516E-01 -9.690777E+00  5.498566E-05 7.310668E+01  3.948148E-05 1.116017E+02  9.976288E-01 -9.601660E+00 
6.630625E+01  9.981688E-01 -9.790318E+00  6.020786E-05 1.156093E+02  3.606414E-05 1.239337E+02  9.983029E-01 -9.711193E+00 
6.692500E+01  9.981805E-01 -9.889411E+00  1.116697E-04 7.420980E+01  1.222897E-04 7.800567E+01  9.976758E-01 -9.814408E+00 
6.754375E+01  9.980858E-01 -9.983228E+00  8.131255E-05 9.122529E+01  8.792519E-05 6.663542E+01  9.973777E-01 -9.915299E+00 
6.816250E+01  9.981029E-01 -1.006207E+01  2.105982E-04 -6.346513E-02  2.336890E-04 -3.495858E+00  9.977766E-01 -9.995910E+00 
6.878125E+01  9.981340E-01 -1.015136E+01  3.110057E-05 1.113343E+02  4.354645E-05 1.096075E+02  9.982956E-01 -1.007317E+01 
6.940000E+01  9.980739E-01 -1.027033E+01  4.661731E-05 1.043176E+02  3.731727E-05 1.156801E+02  9.980688E-01 -1.016143E+01 
7.001875E+01  9.982523E-01 -1.034017E+01  1.403454E-04 8.930067E+01  1.375717E-04 9.287259E+01  9.979960E-01 -1.026233E+01 
7.063750E+01  9.981273E-01 -1.043642E+01  1.123284E-04 6.207180E+01  1.109029E-04 5.286724E+01  9.980355E-01 -1.038757E+01 
7.125625E+01  9.981109E-01 -1.054585E+01  9.897795E-05 3.753046E+01  7.576202E-05 4.198266E+01  9.978859E-01 -1.044778E+01 
7.187500E+01  9.979473E-01 -1.061777E+01  7.056196E-05 1.225311E+01  7.719044E-05 3.388786E+01  9.975304E-01 -1.054629E+01 
7.249375E+01  9.980125E-01 -1.072690E+01  9.130705E-06 -1.538775E+02  2.275296E-05 -1.546262E+02  9.980957E-01 -1.066303E+01 
7.311250E+01  9.980211E-01 -1.082287E+01  6.081778E-05 1.152770E+02  5.819989E-05 1.177876E+02  9.980783E-01 -1.073938E+01 
7.373125E+01  9.979237E-01 -1.090772E+01  1.373263E-04 9.497970E+01  1.682478E-04 9.972445E+01  9.977712E-01 -1.083659E+01 
7.435000E+01  9.978691E-01 -1.100444E+01  1.190983E-04 6.945423E+01  1.122151E-04 7.071377E+01  9.975866E-01 -1.094665E+01 
7.496875E+01  9.974030E-01 -1.109186E+01  1.326125E-04 6.038783E+01  1.332562E-04 7.053353E+01  9.974243E-01 -1.099318E+01 
7.558750E+01  9.977315E-01 -1.116727E+01  1.018896E-04 1.011774E+02  1.027137E-04 9.629419E+01  9.978359E-01 -1.108457E+01 
7.620625E+01  9.974733E-01 -1.125809E+01  9.042128E-05 6.015726E+01  1.135028E-04 7.273900E+01  9.977239E-01 -1.122135E+01 
7.682500E+01  9.976859E-01 -1.136583E+01  9.980689E-05 9.785190E+01  1.056486E-04 1.057052E+02  9.976598E-01 -1.128851E+01 
7.744375E+01  9.975841E-01 -1.143512E+01  1.126276E-04 5.681295E+01  1.250742E-04 6.535482E+01  9.972087E-01 -1.133453E+01 
7.806250E+01  9.976728E-01 -1.154737E+01  9.270169E-05 1.079211E+02  1.062714E-04 1.168171E+02  9.974520E-01 -1.145174E+01 
7.868125E+01  9.977205E-01 -1.161099E+01  6.260706E-05 8.237287E+01  7.128721E-05 9.494759E+01  9.979159E-01 -1.155143E+01 
7.930000E+01  9.975058E-01 -1.173550E+01  1.772387E-04 8.330950E+01  2.004568E-04 8.371835E+01  9.976235E-01 -1.165112E+01 
7.991875E+01  9.975283E-01 -1.181441E+01  1.790889E-04 7.610474E+01  1.508479E-04 7.730138E+01  9.976701E-01 -1.173775E+01 
8.053750E+01  9.975376E-01 -1.190799E+01  9.349167E-05 6.838740E+01  9.600754E-05 6.596474E+01  9.976945E-01 -1.184600E+01 
8.115625E+01  9.976082E-01 -1.198425E+01  6.645360E-05 7.716522E+01  7.406697E-05 8.314511E+01  9.976629E-01 -1.191541E+01 
8.177500E+01  9.976762E-01 -1.208433E+01  8.335956E-05 5.541525E+01  9.456398E-05 5.786603E+01  9.975857E-01 -1.200295E+01 
8.239375E+01  9.977448E-01 -1.219676E+01  9.495805E-05 6.890598E+01  1.109802E-04 8.967974E+01  9.976538E-01 -1.211198E+01 
8.301250E+01  9.977090E-01 -1.227512E+01  4.203510E-05 3.383720E+01  2.564797E-05 4.424172E+01  9.974735E-01 -1.224102E+01 
8.363125E+01  9.974373E-01 -1.238316E+01  7.496289E-05 8.278749E+01  9.182990E-05 7.868546E+01  9.969396E-01 -1.229063E+01 
8.425000E+01  9.973356E-01 -1.246506E+01  6.075588E-05 7.284763E+01  8.625618E-05 9.467629E+01  9.972549E-01 -1.237557E+01 
8.486875E+01  9.974444E-01 -1.255911E+01  1.362094E-04 7.132219E+01  1.318295E-04 8.005369E+01  9.976195E-01 -1.245399E+01 
8.548750E+01  9.971522E-01 -1.263191E+01  1.424977E-04 6.269554E+01  1.403988E-04 6.408072E+01  9.975034E-01 -1.258312E+01 
8.610625E+01  9.974492E-01 -1.272885E+01  8.468881E-05 2.634213E+01  8.943580E-05 2.870756E+01  9.973083E-01 -1.267680E+01 
8.672500E+01  9.972324E-01 -1.282631E+01  9.698402E-05 1.058666E+02  6.777343E-05 1.096039E+02  9.971052E-01 -1.274831E+01 
8.734375E+01  9.972120E-01 -1.292236E+01  8.628287E-05 1.584331E+02  1.102158E-04 1.606716E+02  9.974403E-01 -1.285302E+01 
8.796250E+01  9.971174E-01 -1.300461E+01  1.139261E-04 8.099486E+01  1.113420E-04 7.603690E+01  9.974228E-01 -1.293600E+01 
8.858125E+01  9.973081E-01 -1.311205E+01  1.214294E-04 7.719451E+01  9.549537E-05 6.535147E+01  9.974538E-01 -1.304193E+01 
8.920000E+01  9.970391E-01 -1.319460E+01  1.141847E-04 7.301598E+01  1.169151E-04 6.348141E+01  9.968359E-01 -1.312930E+01 
8.981875E+01  9.972360E-01 -1.329758E+01  7.715555E-05 4.967628E+01  6.487708E-05 5.389334E+01  9.972888E-01 -1.322006E+01 
9.043750E+01  9.970503E-01 -1.337007E+01  1.049167E-04 8.024879E+01  1.099387E-04 7.941316E+01  9.970826E-01 -1.330897E+01 
9.105625E+01  9.973113E-01 -1.347854E+01  1.112872E-04 1.113267E+02  1.319443E-04 1.059508E+02  9.974114E-01 -1.340040E+01 
9.167500E+01  9.971748E-01 -1.356732E+01  2.052684E-04 7.324403E+01  1.865074E-04 7.088747E+01  9.970326E-01 -1.349378E+01 
9.229375E+01  9.971542E-01 -1.366748E+01  1.083991E-04 6.675981E+01  1.007939E-04 7.341271E+01  9.971318E-01 -1.358853E+01 
9.291250E+01  9.969817E-01 -1.374879E+01  1.156672E-04 4.857848E+01  1.231401E-04 5.583815E+01  9.971377E-01 -1.369386E+01 
9.353125E+01  9.969562E-01 -1.384633E+01  8.158804E-05 7.276934E+01  8.650197E-05 5.990247E+01  9.969707E-01 -1.377316E+01 
9.415000E+01  9.968839E-01 -1.393630E+01  9.422264E-05 7.154203E+01  9.533667E-05 8.386987E+01  9.969645E-01 -1.386048E+01 
9.476875E+01  9.969717E-01 -1.401696E+01  9.409326E-05 2.675116E+01  7.940008E-05 3.563610E+01  9.969218E-01 -1.395524E+01 
9.538750E+01  9.968236E-01 -1.411590E+01  4.933364E-05 9.454183E+01  6.661765E-05 8.202803E+01  9.972536E-01 -1.406297E+01 
9.600625E+01  9.968213E-01 -1.422149E+01  8.221146E-05 7.070506E+01  7.865362E-05 5.868987E+01  9.969841E-01 -1.414207E+01 
9.662500E+01  9.969481E-01 -1.430932E+01  5.773140E-05 1.037889E+02  6.509690E-05 1.085008E+02  9.968034E-01 -1.424664E+01 
9.724375E+01  9.966937E-01 -1.440796E+01  1.148777E-04 9.759753E+01  1.251133E-04 1.040305E+02  9.967672E-01 -1.434637E+01 
9.786250E+01  9.968992E-01 -1.449703E+01  1.052259E-04 6.938504E+01  1.154583E-04 8.105053E+01  9.971085E-01 -1.441453E+01 
9.848125E+01  9.965879E-01 -1.459584E+01  8.403652E-05 7.889793E+01  9.063703E-05 7.053055E+01  9.967316E-01 -1.451551E+01 
9.910000E+01  9.968396E-01 -1.468340E+01  6.111685E-05 8.783653E+01  6.066123E-05 6.811087E+01  9.970147E-01 -1.462037E+01 
9.971875E+01  9.964942E-01 -1.475905E+01  1.098616E-04 1.027084E+02  1.140307E-04 8.966649E+01  9.965648E-01 -1.470515E+01 
1.003375E+02  9.970375E-01 -1.486736E+01  1.456994E-04 8.676415E+01  1.258350E-04 8.738466E+01  9.965763E-01 -1.479354E+01 
1.009562E+02  9.963807E-01 -1.494993E+01  1.421775E-04 1.051349E+02  1.152048E-04 1.125162E+02  9.957010E-01 -1.490241E+01 
1.015750E+02  9.964902E-01 -1.507517E+01  1.079557E-04 1.054487E+02  1.023886E-04 1.090133E+02  9.962449E-01 -1.497780E+01 
1.021937E+02  9.962241E-01 -1.512968E+01  1.989663E-04 8.170504E+01  1.889724E-04 8.694847E+01  9.957765E-01 -1.507144E+01 
1.028125E+02  9.961142E-01 -1.521847E+01  1.788322E-04 8.387835E+01  1.835532E-04 8.780786E+01  9.962798E-01 -1.514889E+01 
1.034313E+02  9.962750E-01 -1.529894E+01  2.352524E-04 5.807480E+01  2.047570E-04 6.132523E+01  9.961731E-01 -1.520930E+01 
1.040500E+02  9.963990E-01 -1.540266E+01  1.122056E-04 5.696375E+01  1.064266E-04 5.576239E+01  9.961176E-01 -1.531981E+01 
1.046688E+02  9.963151E-01 -1.548345E+01  7.819642E-05 5.935817E+01  8.787503E-05 5.599505E+01  9.966207E-01 -1.540973E+01 
1.052875E+02  9.966806E-01 -1.557353E+01  1.058665E-04 8.135996E+01  1.132814E-04 7.499642E+01  9.962558E-01 -1.550504E+01 
1.059062E+02  9.967214E-01 -1.566250E+01  9.776096E-05 6.663863E+01  1.118426E-04 6.643835E+01  9.961949E-01 -1.560427E+01 
1.065250E+02  9.967202E-01 -1.575816E+01  2.453797E-04 6.172628E+01  2.314591E-04 5.822557E+01  9.962690E-01 -1.571253E+01 
