! Matrix data file written by TouchstoneData, EPCOS AG
! FILENAME: "B3918.PCB3.WB.snp"
! COMMENT: "xxxx"
! INFO: nport=2, nfreq=1601
! DATE: "Mon Dec  2 10:58:46 2013"
! USER: "Dan Wang"
!
! port | pin | signal
! -----|-----|--------
!   1  |  2  |  Input
!   2  |  5  |  Output
! --------------------
! 
# MHZ S RI R 50
! freq  reS11 imS11  reS21 imS21  reS12 imS12  reS22 imS22
100  -0.991757508167476 0.12807674528278  -1.31695903976263e-06 -9.46198567198063e-06  -1.31695903976263e-06 -9.46198567198063e-06  -0.991744156084591 0.12818013875664 
103.6875  -0.991139556709659 0.132792500500677  -1.28802673307461e-06 -1.00613517874221e-05  -1.28802673307461e-06 -1.00613517874221e-05  -0.991124246118617 0.132907653622063 
107.375  -0.990494265685814 0.137509638995326  -1.6518151198466e-06 -1.12819460140108e-05  -1.6518151198466e-06 -1.12819460140108e-05  -0.990477608948208 0.137635389275936 
111.0625  -0.989827874549432 0.14221911885502  -1.70760638238938e-06 -1.26219933086312e-05  -1.70760638238938e-06 -1.26219933086312e-05  -0.989809693194392 0.142362144289855 
114.75  -0.989139813709274 0.146930827114267  -1.98104353772053e-06 -1.39646334307117e-05  -1.98104353772053e-06 -1.39646334307117e-05  -0.98911847079229 0.147087717671041 
118.4375  -0.98842619657971 0.151637337968652  -2.58039857755076e-06 -1.48670105786382e-05  -2.58039857755076e-06 -1.48670105786382e-05  -0.988401636313105 0.151808477764203 
122.125  -0.987690094965685 0.156349689303357  -2.6416076505944e-06 -1.66521585028843e-05  -2.6416076505944e-06 -1.66521585028843e-05  -0.987665890465885 0.1565379387072 
125.8125  -0.98693232489165 0.161057749534749  -2.95276424407995e-06 -1.8554309663865e-05  -2.95276424407995e-06 -1.8554309663865e-05  -0.986902798406551 0.161263696023326 
129.5  -0.98615461409881 0.165761181865693  -3.37815233501258e-06 -1.96894860313283e-05  -3.37815233501258e-06 -1.96894860313283e-05  -0.986123223343046 0.165981553934706 
133.1875  -0.985350517085178 0.170464530710739  -4.03816593079001e-06 -2.1522904513405e-05  -4.03816593079001e-06 -2.1522904513405e-05  -0.985314624674974 0.170706863761337 
136.875  -0.984526868960521 0.175161058089975  -4.28470249898018e-06 -2.3580482959034e-05  -4.28470249898018e-06 -2.3580482959034e-05  -0.984487558876876 0.175420093503463 
140.5625  -0.983673170498097 0.179865537676248  -4.61531698441315e-06 -2.52724666888374e-05  -4.61531698441315e-06 -2.52724666888374e-05  -0.983629797031542 0.180147841366853 
144.25  -0.982794181101736 0.184574034599864  -6.23892951109502e-06 -2.72290049561108e-05  -6.23892951109502e-06 -2.72290049561108e-05  -0.982746850346281 0.18487439813615 
147.9375  -0.981903258475285 0.189264007797514  -5.76060629286745e-06 -2.93594751070825e-05  -5.76060629286745e-06 -2.93594751070825e-05  -0.981853856121378 0.189587614645646 
151.625  -0.980983854609733 0.193967461473398  -6.59125460627739e-06 -3.15053939098912e-05  -6.59125460627739e-06 -3.15053939098912e-05  -0.980929240765331 0.194315964157852 
155.3125  -0.980043011600484 0.19865820825188  -6.7158653131489e-06 -3.44690952572532e-05  -6.7158653131489e-06 -3.44690952572532e-05  -0.979984431012826 0.199026309569307 
159  -0.979080002017382 0.203354922974079  -7.91819722057755e-06 -3.61937165494904e-05  -7.91819722057755e-06 -3.61937165494904e-05  -0.979013542149303 0.203752436240716 
162.6875  -0.978079253594447 0.208036565990033  -6.67031650303161e-06 -3.77754509666036e-05  -6.67031650303161e-06 -3.77754509666036e-05  -0.978004248898227 0.208463798711736 
166.375  -0.977076072598114 0.212738799002129  -8.88082639634872e-06 -4.13440993055343e-05  -8.88082639634872e-06 -4.13440993055343e-05  -0.97699867651969 0.213185029765497 
170.0625  -0.97603225894335 0.217429000009337  -9.48863713811903e-06 -4.42529349178958e-05  -9.48863713811903e-06 -4.42529349178958e-05  -0.975946755963569 0.217907770743392 
173.75  -0.974979728263293 0.222102330991117  -1.13590399439594e-05 -4.69505565605806e-05  -1.13590399439594e-05 -4.69505565605806e-05  -0.97488760348847 0.222606911645886 
177.4375  -0.973904727948404 0.226806849702043  -1.23054982170227e-05 -5.03730856602854e-05  -1.23054982170227e-05 -5.03730856602854e-05  -0.973799295459218 0.227350474408568 
181.125  -0.972799932190502 0.231471749794031  -1.25012988335985e-05 -5.24403951357515e-05  -1.25012988335985e-05 -5.24403951357515e-05  -0.972679378811977 0.232049442782648 
184.8125  -0.97168266901614 0.236149320022345  -1.39597428429733e-05 -5.63443810163174e-05  -1.39597428429733e-05 -5.63443810163174e-05  -0.971552722132207 0.23677053768708 
188.5  -0.970539633496762 0.24083562694464  -1.51137605241966e-05 -5.98383486657501e-05  -1.51137605241966e-05 -5.98383486657501e-05  -0.97039291540811 0.24148698185629 
192.1875  -0.969347871984154 0.245497982329395  -1.65657788944337e-05 -6.39693725283626e-05  -1.65657788944337e-05 -6.39693725283626e-05  -0.969187063614023 0.24619141596653 
195.875  -0.968154405495127 0.250185919969194  -1.75070623550659e-05 -6.75952848749613e-05  -1.75070623550659e-05 -6.75952848749613e-05  -0.967983907756844 0.250921974161485 
199.5625  -0.966927804100293 0.254862143178508  -1.86965017180838e-05 -7.09694710886727e-05  -1.86965017180838e-05 -7.09694710886727e-05  -0.966744390515535 0.255637087907363 
203.25  -0.965672950599353 0.259532266680921  -2.05433277835115e-05 -7.44953709692247e-05  -2.05433277835115e-05 -7.44953709692247e-05  -0.965479855656518 0.260358641952046 
206.9375  -0.964407074942812 0.264186986708284  -2.2696011287547e-05 -7.96750725480212e-05  -2.2696011287547e-05 -7.96750725480212e-05  -0.964185068097293 0.265089553230899 
210.625  -0.963138136379014 0.268839708140713  -2.38686797155344e-05 -8.33759000446673e-05  -2.38686797155344e-05 -8.33759000446673e-05  -0.962883193434055 0.26978426797558 
214.3125  -0.961822153156699 0.273508438067969  -2.58456987598825e-05 -8.80439805485102e-05  -2.58456987598825e-05 -8.80439805485102e-05  -0.961544559695947 0.274506926903726 
218  -0.960482360792134 0.278182781600055  -2.73283438649722e-05 -9.26628947982509e-05  -2.73283438649722e-05 -9.26628947982509e-05  -0.960179115266679 0.279217071811482 
221.6875  -0.95910380493779 0.282843610846239  -2.86462019975867e-05 -9.67008371654783e-05  -2.86462019975867e-05 -9.67008371654783e-05  -0.95878326083945 0.28393358297006 
225.375  -0.957690591619415 0.287468779512743  -3.2532255015122e-05 -0.000100207604292567  -3.2532255015122e-05 -0.000100207604292567  -0.957333441246969 0.288637284850563 
229.0625  -0.95631643780329 0.292135721583917  -3.29128574362926e-05 -0.000106320492767234  -3.29128574362926e-05 -0.000106320492767234  -0.955948662918483 0.293353276921067 
232.75  -0.954895620645017 0.296774175485105  -3.52928826334146e-05 -0.000112379645909836  -3.52928826334146e-05 -0.000112379645909836  -0.954478692074992 0.298067594922276 
236.4375  -0.953425200053868 0.301446501907564  -3.69309402037025e-05 -0.00011772601097611  -3.69309402037025e-05 -0.00011772601097611  -0.952990382749419 0.302780341973711 
240.125  -0.951953046549232 0.306076591052795  -3.97901434965402e-05 -0.0001222561406718  -3.97901434965402e-05 -0.0001222561406718  -0.951479046842342 0.307495307339098 
243.8125  -0.950435168219183 0.310708174833489  -4.29330023805544e-05 -0.0001288063601461  -4.29330023805544e-05 -0.0001288063601461  -0.949910721201749 0.312177673097641 
247.5  -0.948904310985061 0.315370786854958  -4.64661403337135e-05 -0.000133959631450485  -4.64661403337135e-05 -0.000133959631450485  -0.948367299936142 0.316925064392783 
251.1875  -0.947347175893265 0.320016480085035  -4.86370413798092e-05 -0.000139535384957197  -4.86370413798092e-05 -0.000139535384957197  -0.946767200014984 0.32164975446092 
254.875  -0.945755703122664 0.324646998582851  -5.0830162234663e-05 -0.000145397877519645  -5.0830162234663e-05 -0.000145397877519645  -0.945164752327228 0.326330259447443 
258.5625  -0.94414503812663 0.32928412541647  -5.38486495919174e-05 -0.000151822643178078  -5.38486495919174e-05 -0.000151822643178078  -0.943513757030694 0.331051907606815 
262.25  -0.942507484898395 0.333905272848515  -5.68582960573379e-05 -0.000158655176900063  -5.68582960573379e-05 -0.000158655176900063  -0.941840744552069 0.335722543460297 
265.9375  -0.940850815407685 0.338548469850612  -6.0751992313919e-05 -0.000165068839144762  -6.0751992313919e-05 -0.000165068839144762  -0.940151345638499 0.340454684782904 
269.625  -0.939154907799001 0.343186574340047  -6.44435748998294e-05 -0.000172258071622988  -6.44435748998294e-05 -0.000172258071622988  -0.938417071651217 0.345169865796702 
273.3125  -0.937451331301395 0.347799036442467  -6.74285909775356e-05 -0.000179360565021286  -6.74285909775356e-05 -0.000179360565021286  -0.936668584706173 0.349862584745522 
277  -0.935702969669328 0.35244511834797  -7.16222133890865e-05 -0.00018578980553282  -7.16222133890865e-05 -0.00018578980553282  -0.934890502288434 0.354573509724415 
280.6875  -0.933932184312719 0.3570501195405  -7.62453049311813e-05 -0.000193333946722363  -7.62453049311813e-05 -0.000193333946722363  -0.933093751330555 0.359248470877901 
284.375  -0.932145170680522 0.36167946669851  -8.0721371025152e-05 -0.000200038789902401  -8.0721371025152e-05 -0.000200038789902401  -0.93127144629307 0.36395593297692 
288.0625  -0.930308224593275 0.366303226913727  -8.36910256991095e-05 -0.000207906606365861  -8.36910256991095e-05 -0.000207906606365861  -0.929395747682922 0.368667755485192 
291.75  -0.928489260820928 0.37089563509498  -8.82871348739408e-05 -0.00021664843981635  -8.82871348739408e-05 -0.00021664843981635  -0.927529205867438 0.37334027346209 
295.4375  -0.926617783485993 0.375512898253018  -9.33206879375165e-05 -0.000224121514579848  -9.33206879375165e-05 -0.000224121514579848  -0.925612170494845 0.378039046885852 
299.125  -0.924723693791989 0.380096748519609  -9.78450853281844e-05 -0.000231636838608862  -9.78450853281844e-05 -0.000231636838608862  -0.92369178329825 0.382701788752713 
302.8125  -0.922809514675867 0.384686159695943  -0.000102436973586266 -0.000240062576641542  -0.000102436973586266 -0.000240062576641542  -0.921728206897961 0.387417933489353 
306.5  -0.920813384308451 0.389291089714511  -0.000107561457629406 -0.00024717771523049  -0.000107561457629406 -0.00024717771523049  -0.919678204950477 0.392095747672467 
310.1875  -0.918890154350302 0.393883142537325  -0.00011325517256715 -0.000256398688207988  -0.00011325517256715 -0.000256398688207988  -0.917720008119165 0.396744486488834 
313.875  -0.916897347506318 0.398472251711371  -0.000118728548451027 -0.00026581280798559  -0.000118728548451027 -0.00026581280798559  -0.915666670352343 0.401433729644248 
317.5625  -0.914897713202297 0.403015433623162  -0.000123951926043884 -0.000274922717515835  -0.000123951926043884 -0.000274922717515835  -0.913605007434799 0.406069659981347 
321.25  -0.912866325556851 0.407627647060444  -0.000129914500373493 -0.000285235619086367  -0.000129914500373493 -0.000285235619086367  -0.911504208182884 0.410828207187592 
324.9375  -0.910790709887565 0.412155661077174  -0.000136363653254767 -0.000291994603587212  -0.000136363653254767 -0.000291994603587212  -0.909350548819377 0.415419445035248 
328.625  -0.90871427531658 0.41673165803982  -0.000142669739805867 -0.000303771178604514  -0.000142669739805867 -0.000303771178604514  -0.907215601995188 0.420138471715248 
332.3125  -0.906601471484255 0.421302221435651  -0.000150063267510415 -0.000310418005610323  -0.000150063267510415 -0.000310418005610323  -0.905014546602216 0.424840439996688 
336  -0.90449321770142 0.425809555731346  -0.000154899071047636 -0.000323395471299407  -0.000154899071047636 -0.000323395471299407  -0.902821610577476 0.429468537508236 
339.6875  -0.902331098946542 0.430364324098081  -0.000162802376721558 -0.000331889798249439  -0.000162802376721558 -0.000331889798249439  -0.90056241351852 0.434168979276787 
343.375  -0.900148207524589 0.434870960427726  -0.000170748836134085 -0.000343133025393963  -0.000170748836134085 -0.000343133025393963  -0.898299662912759 0.438783777655882 
347.0625  -0.897959105190546 0.439420054689044  -0.000176803568652536 -0.000351261277017183  -0.000176803568652536 -0.000351261277017183  -0.896001078599169 0.443475558191985 
350.75  -0.895726797189168 0.443952398760618  -0.000182821547055558 -0.000364722991807455  -0.000182821547055558 -0.000364722991807455  -0.893655127995375 0.448164028529914 
354.4375  -0.89351664004028 0.448380250044109  -0.000192698334346411 -0.000375345432817166  -0.000192698334346411 -0.000375345432817166  -0.891335642954984 0.452724081791748 
358.125  -0.891240682010173 0.452933429533866  -0.000200332130874694 -0.000385514238476872  -0.000200332130874694 -0.000385514238476872  -0.888936738254205 0.457422285869616 
361.8125  -0.888930100970155 0.457402062612555  -0.0002100639254957 -0.000396601063086946  -0.0002100639254957 -0.000396601063086946  -0.88652363349194 0.462044745252623 
365.5  -0.88661966218276 0.461898229885827  -0.000218426909544522 -0.000409750065426043  -0.000218426909544522 -0.000409750065426043  -0.884084266898581 0.466719014132791 
369.1875  -0.884183758415438 0.466419513122769  -0.000226581458113968 -0.00042100051853123  -0.000226581458113968 -0.00042100051853123  -0.881499299332093 0.471401406798319 
372.875  -0.881884751628326 0.470878249976239  -0.000237701951211795 -0.000432150909452507  -0.000237701951211795 -0.000432150909452507  -0.879122044135093 0.475968738666362 
376.5625  -0.879474255230525 0.4753634266092  -0.000245295373978979 -0.00044442894669194  -0.000245295373978979 -0.00044442894669194  -0.876564989250078 0.480623400290136 
380.25  -0.877043884042935 0.479808099128898  -0.000258149706424205 -0.000458249949066943  -0.000258149706424205 -0.000458249949066943  -0.874007457459893 0.485238764797842 
383.9375  -0.874576640025323 0.484299817629107  -0.000267097088265343 -0.00046640847339334  -0.000267097088265343 -0.00046640847339334  -0.871374217530341 0.489902651117912 
387.625  -0.872005189979029 0.488725724643202  -0.000277795074998884 -0.00048043536085567  -0.000277795074998884 -0.00048043536085567  -0.868621135324749 0.494455839719585 
391.3125  -0.869528518156964 0.49324708865267  -0.000286053484148596 -0.00049383970017623  -0.000286053484148596 -0.00049383970017623  -0.866086508667434 0.499100660000476 
395  -0.866972158400742 0.497719695387278  -0.00029700821812115 -0.000509086422209034  -0.00029700821812115 -0.000509086422209034  -0.863407076221219 0.503748730810656 
398.6875  -0.864400541517949 0.50212781807015  -0.000310984674739477 -0.000519563074583882  -0.000310984674739477 -0.000519563074583882  -0.86072298322581 0.508334466069197 
402.375  -0.861881542874273 0.50673174818232  -0.000322192203981503 -0.000536311385817784  -0.000322192203981503 -0.000536311385817784  -0.857926072515547 0.513095433953398 
406.0625  -0.859151861489695 0.511020848254591  -0.00033206927627179 -0.000546834793762509  -0.00033206927627179 -0.000546834793762509  -0.855171231987352 0.517486798818481 
409.75  -0.856459189209411 0.515521446142626  -0.000345802657512567 -0.000561457020210815  -0.000345802657512567 -0.000561457020210815  -0.852347319512138 0.522201360638597 
413.4375  -0.853783582263064 0.519868665625415  -0.000360776607226643 -0.000577138959177211  -0.000360776607226643 -0.000577138959177211  -0.849558471390737 0.526701990527822 
417.125  -0.851016224758965 0.524259701915576  -0.00037408052460263 -0.000588093203758409  -0.00037408052460263 -0.000588093203758409  -0.846622855519561 0.531297138390052 
420.8125  -0.848315771240991 0.52871776080888  -0.000388576848095517 -0.000605188409364382  -0.000388576848095517 -0.000605188409364382  -0.843741152229935 0.535990991857098 
424.5  -0.845522947853024 0.533152276487262  -0.000399525156241411 -0.000617571293727474  -0.000399525156241411 -0.000617571293727474  -0.840821232699774 0.540547246652371 
428.1875  -0.842660562338008 0.537625852307789  -0.000415077995263793 -0.000633274477713744  -0.000415077995263793 -0.000633274477713744  -0.837802452683632 0.545193367088547 
431.875  -0.839780479594927 0.542190204797611  -0.00043186703221826 -0.000645068894264753  -0.00043186703221826 -0.000645068894264753  -0.834731045005151 0.549921777130119 
435.5625  -0.836938182794991 0.546561089114408  -0.000443913647959261 -0.000662089959785923  -0.000443913647959261 -0.000662089959785923  -0.831672272196299 0.554475166127915 
439.25  -0.833930294654251 0.551020956101297  -0.000460810254688154 -0.000677280973786523  -0.000460810254688154 -0.000677280973786523  -0.828617472677604 0.558947832891377 
442.9375  -0.830789556189546 0.555424709927  -0.000476783809686516 -0.00069332007946809  -0.000476783809686516 -0.00069332007946809  -0.825213124629535 0.563529887450965 
446.625  -0.82779286637232 0.559827107772666  -0.000495647760587771 -0.000709204721552905  -0.000495647760587771 -0.000709204721552905  -0.822040774765096 0.56814859302652 
450.3125  -0.824767584224948 0.564055509049054  -0.000510924823110226 -0.000720325138449962  -0.000510924823110226 -0.000720325138449962  -0.81887942938264 0.572666851008951 
454  -0.821862196111434 0.568385029533973  -0.000526585543092382 -0.000737481623539659  -0.000526585543092382 -0.000737481623539659  -0.815768721895935 0.577177752625388 
457.6875  -0.818814701567227 0.572745307253331  -0.000547455574185179 -0.000753614839612594  -0.000547455574185179 -0.000753614839612594  -0.812475523719771 0.581757573890942 
461.375  -0.815851986918462 0.577068726854505  -0.000563280061098262 -0.000770079799593313  -0.000563280061098262 -0.000770079799593313  -0.809216598104659 0.586293587146774 
465.0625  -0.812739298709825 0.581404235141105  -0.0005830779658593 -0.000783583390243495  -0.0005830779658593 -0.000783583390243495  -0.805845024695702 0.590852563186545 
468.75  -0.809626908143098 0.585644671138874  -0.000595832340185984 -0.000801257405378994  -0.000595832340185984 -0.000801257405378994  -0.802418396852811 0.595284099837308 
472.4375  -0.806529295594258 0.590022531277942  -0.000619448381524335 -0.000815616003165277  -0.000619448381524335 -0.000815616003165277  -0.799118533077459 0.599863681864864 
476.125  -0.803303345040346 0.594349220421075  -0.000638591345216393 -0.000831335209321662  -0.000638591345216393 -0.000831335209321662  -0.795628153704432 0.604409543784529 
479.8125  -0.800117218010333 0.598589049378351  -0.00065827235609123 -0.000848465108845883  -0.00065827235609123 -0.000848465108845883  -0.792209905385312 0.60882562549669 
483.5  -0.796867551504141 0.602866056590466  -0.000677584715708254 -0.000866342812250469  -0.000677584715708254 -0.000866342812250469  -0.788691545171381 0.613330408264192 
487.1875  -0.793631907296079 0.607047595730871  -0.000696501886890483 -0.000881589256259441  -0.000696501886890483 -0.000881589256259441  -0.785155217045411 0.617722980363469 
490.875  -0.790373734247167 0.611341739947504  -0.000720145489143366 -0.000897605225543711  -0.000720145489143366 -0.000897605225543711  -0.781608026428113 0.622257051358197 
494.5625  -0.787041005813772 0.615598646866676  -0.000741680840409782 -0.000916298981703458  -0.000741680840409782 -0.000916298981703458  -0.777971317460102 0.626732881323093 
498.25  -0.78377998505351 0.619822595590416  -0.000764596769057949 -0.000932502373234374  -0.000764596769057949 -0.000932502373234374  -0.774411557717676 0.631118931673873 
501.9375  -0.780401440132267 0.62398642877916  -0.000785545277405342 -0.000947507199635594  -0.000785545277405342 -0.000947507199635594  -0.770811130420998 0.63548517464286 
505.625  -0.777011276642527 0.628131420956194  -0.000812509677116604 -0.000969699928638086  -0.000812509677116604 -0.000969699928638086  -0.767128425896041 0.639842145972626 
509.3125  -0.773566333446155 0.632353639231688  -0.000836496863490613 -0.000981647137154513  -0.000836496863490613 -0.000981647137154513  -0.763390873182734 0.644343785012151 
