! Matrix data file written by TouchstoneData, EPCOS AG
! FILENAME: "B3918.PCB3.NB.snp"
! COMMENT: "xxxx"
! INFO: nport=2, nfreq=1601
! DATE: "Mon Dec  2 10:58:04 2013"
! USER: "Dan Wang"
!
! port | pin | signal
! -----|-----|--------
!   1  |  2  |  Input
!   2  |  5  |  Output
! --------------------
! 
# MHZ S RI R 50
! freq  reS11 imS11  reS21 imS21  reS12 imS12  reS22 imS22
2242  0.378932375625828 -0.821759128188111  0.00432508609931266 0.00123915071062778  0.00432508609931266 0.00123915071062778  -0.536915316145645 -0.735956985284072 
2242.25  0.378171166189942 -0.822269451838805  0.00428686870720175 0.00123955510738953  0.00428686870720175 0.00123955510738953  -0.537958440449919 -0.735277593500161 
2242.5  0.37761150805952 -0.822768079301878  0.00425837710094841 0.00122913312330035  0.00425837710094841 0.00122913312330035  -0.538893383726733 -0.734718755736656 
2242.75  0.377028864597246 -0.823164788906644  0.00422762674124923 0.00123561416429171  0.00422762674124923 0.00123561416429171  -0.539634347816573 -0.734263163651803 
2243  0.376303757456833 -0.82362171462548  0.00419741997914761 0.00123109183177425  0.00419741997914761 0.00123109183177425  -0.540512272512686 -0.73378482986342 
2243.25  0.375509481195115 -0.824162697823291  0.00417214628587842 0.00123100474740817  0.00417214628587842 0.00123100474740817  -0.541667546347907 -0.733218453864076 
2243.5  0.374600644824356 -0.82459492269824  0.00414674284420372 0.001221894532204  0.00414674284420372 0.001221894532204  -0.542631488375712 -0.732449139034681 
2243.75  0.373717605349818 -0.825254773035671  0.00411769898035226 0.00121726905586343  0.00411769898035226 0.00121726905586343  -0.543621977118195 -0.731872826879289 
2244  0.37303935138222 -0.825735417905722  0.00409394051802065 0.00121078545606757  0.00409394051802065 0.00121078545606757  -0.544461451710033 -0.731449415727456 
2244.25  0.372185322453524 -0.826209061635246  0.00406742708001268 0.00120097105725847  0.00406742708001268 0.00120097105725847  -0.545440715378006 -0.73091349397754 
2244.5  0.37138223198661 -0.826790149594581  0.00403045124975927 0.00120440925317231  0.00403045124975927 0.00120440925317231  -0.546522035662979 -0.73012849878623 
2244.75  0.370435821060063 -0.827256127990004  0.00400004396586602 0.00121477278572641  0.00400004396586602 0.00121477278572641  -0.547482539062127 -0.729417939370129 
2245  0.369345843794686 -0.827795478406025  0.00396720041509978 0.00119697456848416  0.00396720041509978 0.00119697456848416  -0.548361624715057 -0.728730911149052 
2245.25  0.368565637354522 -0.82823584315092  0.00395080670946241 0.00119687214331219  0.00395080670946241 0.00119687214331219  -0.549054939976884 -0.728137413275607 
2245.5  0.367840389173032 -0.828627206375234  0.00391469108128587 0.00119942289136286  0.00391469108128587 0.00119942289136286  -0.549851572270204 -0.727718739301636 
2245.75  0.366853564880854 -0.829111595824108  0.00388315076005129 0.0011956153020417  0.00388315076005129 0.0011956153020417  -0.550822132861976 -0.727135132024901 
2246  0.365895367590396 -0.829611546273068  0.00387041770800583 0.00119060649072622  0.00387041770800583 0.00119060649072622  -0.551835113603356 -0.726664975887191 
2246.25  0.364961323705191 -0.830047882139948  0.00384290761378173 0.00118683414932296  0.00384290761378173 0.00118683414932296  -0.55289194148613 -0.72622319501882 
2246.5  0.36399518770223 -0.830534492637982  0.00380805342543397 0.00118146466168696  0.00380805342543397 0.00118146466168696  -0.553836851994018 -0.725742914497944 
2246.75  0.363265590076661 -0.830802946948568  0.00377271305752999 0.00117467950971734  0.00377271305752999 0.00117467950971734  -0.554897433121365 -0.725374138243433 
2247  0.362296243670237 -0.831293676462602  0.0037340573342705 0.0011682040499157  0.0037340573342705 0.0011682040499157  -0.556053721526515 -0.724650223664978 
2247.25  0.361321635913143 -0.831684254337839  0.0036985161237535 0.00117713879140213  0.0036985161237535 0.00117713879140213  -0.557024130568149 -0.724023825579346 
2247.5  0.360228846673093 -0.832069266186916  0.00368382064176037 0.00117899461711026  0.00368382064176037 0.00117899461711026  -0.558162797163406 -0.723454456366016 
2247.75  0.359209791780005 -0.832417817727584  0.00364921902935609 0.00116562892927228  0.00364921902935609 0.00116562892927228  -0.559194445872788 -0.722937415957804 
2248  0.358293596989914 -0.832920140953401  0.00361636249672697 0.00116792789908621  0.00361636249672697 0.00116792789908621  -0.560225142547574 -0.722506911487706 
2248.25  0.357188648340538 -0.833357662935636  0.00360116551238034 0.00118832597088679  0.00360116551238034 0.00118832597088679  -0.561420135217531 -0.721991021044917 
2248.5  0.356062760714493 -0.833810402098256  0.00356767868185997 0.00117424352306553  0.00356767868185997 0.00117424352306553  -0.562696690677105 -0.721431040941174 
2248.75  0.355177355142356 -0.834153021717737  0.0035540283134589 0.0011789685330936  0.0035540283134589 0.0011789685330936  -0.564084891476301 -0.720822440972288 
2249  0.354032407123638 -0.834624879039944  0.00352858821011197 0.00116815491036881  0.00352858821011197 0.00116815491036881  -0.565419108348927 -0.72024836048795 
2249.25  0.353008756488288 -0.834870740002961  0.00349225416431603 0.00116431121818438  0.00349225416431603 0.00116431121818438  -0.566856852255654 -0.719575823073744 
2249.5  0.352091300949753 -0.835176442972094  0.00345793479194293 0.00115681892788302  0.00345793479194293 0.00115681892788302  -0.568248613956225 -0.718977730092056 
2249.75  0.351062253803675 -0.83550818394386  0.00343134548142257 0.00115154452067576  0.00343134548142257 0.00115154452067576  -0.56957268624861 -0.718035393192102 
2250  0.350081058419295 -0.835806491959901  0.00339455150094948 0.00116075713120031  0.00339455150094948 0.00116075713120031  -0.570868522364765 -0.717160832843038 
2250.25  0.348961997140585 -0.836119774160195  0.00336943257764373 0.00115327163659383  0.00336943257764373 0.00115327163659383  -0.572238628832573 -0.716379858724243 
2250.5  0.348079975044536 -0.836285737320936  0.00334604768032768 0.00114976963335927  0.00334604768032768 0.00114976963335927  -0.573443327832707 -0.7156974449044 
2250.75  0.34727681984078 -0.836303745756286  0.0033191539975037 0.00115517401200186  0.0033191539975037 0.00115517401200186  -0.574913165062443 -0.714789642867321 
2251  0.346415153390135 -0.836749688324394  0.00329197017192685 0.00115622811207307  0.00329197017192685 0.00115622811207307  -0.576293244730315 -0.713997832774294 
2251.25  0.34559754124347 -0.837002443527065  0.00326295626564227 0.00114650713867105  0.00326295626564227 0.00114650713867105  -0.577588594968458 -0.713162804337008 
2251.5  0.344600167005962 -0.837240463869403  0.0032429688160416 0.00115084569085718  0.0032429688160416 0.00115084569085718  -0.578986783083483 -0.712057569541696 
2251.75  0.343926831143688 -0.837462813283669  0.00321443192195682 0.00113845833978325  0.00321443192195682 0.00113845833978325  -0.580252785168226 -0.711077964437003 
2252  0.34322894967022 -0.837806060490755  0.00318477289209 0.00112817255505943  0.00318477289209 0.00112817255505943  -0.581554924151385 -0.710082578989877 
2252.25  0.342450272374132 -0.838241577151136  0.00313959192459317 0.00112655549134752  0.00313959192459317 0.00112655549134752  -0.582788224317451 -0.709130880518817 
2252.5  0.341554442455015 -0.838451651302353  0.0031071718677969 0.00113529021218998  0.0031071718677969 0.00113529021218998  -0.584165560668647 -0.708027387691286 
2252.75  0.340762909453103 -0.839014293282731  0.00308721991701449 0.0011391349333406  0.00308721991701449 0.0011391349333406  -0.585431465967982 -0.706764776150317 
2253  0.339977788362416 -0.839545447966693  0.00305267602419263 0.00112734649879665  0.00305267602419263 0.00112734649879665  -0.586664458659174 -0.705529972366469 
2253.25  0.339140692356631 -0.84007551747841  0.00301419296219264 0.00111392445128907  0.00301419296219264 0.00111392445128907  -0.587701281710991 -0.704401804334526 
2253.5  0.33838046510886 -0.84077025774717  0.00298113029490458 0.00112479298808266  0.00298113029490458 0.00112479298808266  -0.588850887344642 -0.703349395600306 
2253.75  0.337573198419531 -0.841151100843624  0.00295195993310519 0.00113693923221988  0.00295195993310519 0.00113693923221988  -0.590033781304722 -0.702169500443135 
2254  0.336607843796794 -0.841736093056508  0.00292726695288139 0.00113838186014727  0.00292726695288139 0.00113838186014727  -0.591224268459002 -0.701042040556979 
2254.25  0.335642925773457 -0.842402727356504  0.00290091319297162 0.00113444629155625  0.00290091319297162 0.00113444629155625  -0.592489518909455 -0.699873378424018 
2254.5  0.334621934021304 -0.842927246010651  0.00285879091944938 0.00113647068659304  0.00285879091944938 0.00113647068659304  -0.593689861831891 -0.698732123779387 
2254.75  0.333835073466928 -0.843624525668337  0.00283544192861945 0.00113661649206678  0.00283544192861945 0.00113661649206678  -0.594758799973679 -0.697438584547483 
2255  0.332884511120716 -0.84419452194186  0.0027924205221577 0.00114472088928961  0.0027924205221577 0.00114472088928961  -0.595843999603301 -0.696160375597689 
2255.25  0.331718939587079 -0.844695625922647  0.00277630848711758 0.0011554112557282  0.00277630848711758 0.0011554112557282  -0.596852410118995 -0.694905452008424 
2255.5  0.330735740871005 -0.845297754004237  0.0027359522147004 0.0011523350476548  0.0027359522147004 0.0011523350476548  -0.597891648020776 -0.693603979809402 
2255.75  0.329527690498102 -0.84598786849706  0.00271128048068318 0.00116287810280508  0.00271128048068318 0.00116287810280508  -0.598813076555374 -0.692371043866353 
2256  0.328448864628636 -0.846511943442664  0.00269670214475864 0.0011646077521598  0.00269670214475864 0.0011646077521598  -0.599710154207704 -0.691246959114353 
2256.25  0.327515077232271 -0.847048824647662  0.00266322976648418 0.0011619477194977  0.00266322976648418 0.0011619477194977  -0.600634922608786 -0.690197018847654 
2256.5  0.326384530297035 -0.847466896331694  0.00262242192259432 0.00117291372774534  0.00262242192259432 0.00117291372774534  -0.6015738712228 -0.688974478906869 
2256.75  0.325178501742774 -0.847967619105081  0.00260259210597491 0.00118937139920418  0.00260259210597491 0.00118937139920418  -0.60250195746205 -0.687717985153196 
2257  0.323815148280365 -0.848493130210342  0.0025845171155504 0.00117701484300073  0.0025845171155504 0.00117701484300073  -0.603497908102382 -0.686532111480143 
2257.25  0.322776486734653 -0.849064742117938  0.00255902652511725 0.00118265853964066  0.00255902652511725 0.00118265853964066  -0.604394036957186 -0.685489974918517 
2257.5  0.321607520013768 -0.849564809047626  0.00252521935721355 0.00118328032216466  0.00252521935721355 0.00118328032216466  -0.60528661283916 -0.68419736908335 
2257.75  0.320340382404827 -0.849889278882406  0.00249553046085411 0.00119746444649139  0.00249553046085411 0.00119746444649139  -0.606132661295537 -0.682754966388212 
2258  0.318955332035679 -0.8504146966562  0.00246224924492806 0.00120626192584401  0.00246224924492806 0.00120626192584401  -0.607022522819908 -0.681301211894756 
2258.25  0.317580898833433 -0.850966161268397  0.00243881721183505 0.00120669362658898  0.00243881721183505 0.00120669362658898  -0.607814916384447 -0.680116573143122 
2258.5  0.316371956227427 -0.851285324584803  0.00241281289665709 0.00122377773734105  0.00241281289665709 0.00122377773734105  -0.608664505384087 -0.679014819411404 
2258.75  0.315213105492841 -0.851714043807176  0.00240507306274143 0.0012234024179905  0.00240507306274143 0.0012234024179905  -0.60932317974978 -0.677840236066457 
2259  0.313999655348188 -0.852245347610667  0.00236929429617965 0.00123881264113807  0.00236929429617965 0.00123881264113807  -0.610105445632052 -0.676669697370047 
2259.25  0.31257559859733 -0.852540132621518  0.00235126219108605 0.00124192780903363  0.00235126219108605 0.00124192780903363  -0.610860395020534 -0.675385236180102 
2259.5  0.311358121205792 -0.852907094808601  0.00232924818744006 0.00124693860987202  0.00232924818744006 0.00124693860987202  -0.611673150835514 -0.67424950452212 
2259.75  0.31003753305003 -0.853290665526626  0.00231026783641944 0.00124589796038832  0.00231026783641944 0.00124589796038832  -0.612450297670023 -0.673071789053285 
2260  0.308913817715329 -0.853702770798236  0.00228166979440854 0.00125180598895006  0.00228166979440854 0.00125180598895006  -0.613094298850081 -0.671886610643446 
2260.25  0.307699521803169 -0.854026041985545  0.0022789583520394 0.00125592222637235  0.0022789583520394 0.00125592222637235  -0.613711210505952 -0.670597283536345 
2260.5  0.306317390202234 -0.854228132975662  0.00224821615163048 0.00125473199691938  0.00224821615163048 0.00125473199691938  -0.614397091015422 -0.669451579784148 
2260.75  0.305036107169371 -0.854395471522005  0.00223168100743371 0.00126957712151844  0.00223168100743371 0.00126957712151844  -0.614946173487537 -0.668189540396571 
2261  0.303801173840965 -0.854555050766544  0.00221714841829174 0.00127965218093533  0.00221714841829174 0.00127965218093533  -0.615314688481662 -0.667127865374521 
2261.25  0.302529875054621 -0.854730407951935  0.00221283858137733 0.00127462727522326  0.00221283858137733 0.00127462727522326  -0.615697510941971 -0.666075630361684 
2261.5  0.301344124265884 -0.854943213360602  0.00221051109195329 0.00128032853930906  0.00221051109195329 0.00128032853930906  -0.616179889386081 -0.665120413672547 
2261.75  0.300187821780497 -0.855129919049782  0.00219575983834656 0.00125787489123459  0.00219575983834656 0.00125787489123459  -0.616667944441041 -0.664216254154812 
2262  0.298816157599399 -0.855093049499412  0.00216394046972581 0.00125732120865932  0.00216394046972581 0.00125732120865932  -0.617058590253273 -0.663471480505987 
2262.25  0.29767213918726 -0.855287481511421  0.00215381153244481 0.00124989988216053  0.00215381153244481 0.00124989988216053  -0.617546821307789 -0.662621341091124 
2262.5  0.296666686529321 -0.85543420974847  0.00214482431321252 0.00123451691373906  0.00214482431321252 0.00123451691373906  -0.617968110997125 -0.661888017541048 
2262.75  0.29548811213851 -0.855618013322852  0.00210394167442772 0.0012103659712922  0.00210394167442772 0.0012103659712922  -0.618614839315457 -0.661235765030801 
2263  0.294358455002828 -0.855705073767025  0.00208196264712589 0.00120846593703878  0.00208196264712589 0.00120846593703878  -0.619163447388081 -0.660451274713197 
2263.25  0.293337722956129 -0.855865891890912  0.00205506872695571 0.0011947236603796  0.00205506872695571 0.0011947236603796  -0.619798525320656 -0.659886388394962 
2263.5  0.292334442082651 -0.855980319711083  0.00203257770251155 0.00116979485507097  0.00203257770251155 0.00116979485507097  -0.62043153219242 -0.659184053699979 
2263.75  0.291299584108017 -0.856142485264517  0.00198906123250462 0.00117228299009212  0.00198906123250462 0.00117228299009212  -0.621078482405279 -0.658766990943104 
2264  0.29037302206857 -0.856248789343954  0.00195860005964686 0.00116938231811142  0.00195860005964686 0.00116938231811142  -0.62174157143743 -0.658299643545521 
2264.25  0.289388853002672 -0.856547627520566  0.00193681982506759 0.0011651359661252  0.00193681982506759 0.0011651359661252  -0.622422247425248 -0.657886295539508 
2264.5  0.288322745837208 -0.856700454094373  0.00189219099049075 0.00115659428224725  0.00189219099049075 0.00115659428224725  -0.623383123634644 -0.657477307464749 
2264.75  0.287304381019641 -0.856787078393752  0.00185493015286783 0.00115785058593156  0.00185493015286783 0.00115785058593156  -0.624441230216323 -0.6570768209258 
2265  0.286383654423318 -0.856944177310748  0.00182694296107005 0.001169100604848  0.00182694296107005 0.001169100604848  -0.625381551677983 -0.656781888890022 
2265.25  0.285464981428547 -0.857062187763764  0.00180127218660695 0.00116191366332082  0.00180127218660695 0.00116191366332082  -0.626466118420772 -0.656491542597471 
2265.5  0.28464679698897 -0.857286388089963  0.00175079293994323 0.00116576485459493  0.00175079293994323 0.00116576485459493  -0.62760958238817 -0.656084755836312 
2265.75  0.283698571831263 -0.857380496679445  0.00172677018232447 0.00117149424264169  0.00172677018232447 0.00117149424264169  -0.628991438614853 -0.655600594898377 
2266  0.282784776560227 -0.85762205950052  0.00168919888184057 0.00115855464192167  0.00168919888184057 0.00115855464192167  -0.630224793389075 -0.655077804623768 
2266.25  0.281876191913943 -0.857760945797087  0.00166005783409475 0.00118078054936032  0.00166005783409475 0.00118078054936032  -0.631608764069898 -0.65454880194282 
2266.5  0.281009104658138 -0.858095971046547  0.00163813588722776 0.0011712089497048  0.00163813588722776 0.0011712089497048  -0.633006987182032 -0.654093175152733 
2266.75  0.280081741316274 -0.858153214680031  0.00160451344915206 0.00118008918220205  0.00160451344915206 0.00118008918220205  -0.634279998486889 -0.65355704533163 
2267  0.279219838405045 -0.858340677349029  0.00157443053359036 0.00119986025020664  0.00157443053359036 0.00119986025020664  -0.635928834109783 -0.652939011313036 
2267.25  0.278303559284974 -0.858708960049439  0.00155140064196631 0.00120234438136988  0.00155140064196631 0.00120234438136988  -0.637507022968206 -0.652143684511189 
2267.5  0.277327523001246 -0.858932024595041  0.00153102430018341 0.00119838716325136  0.00153102430018341 0.00119838716325136  -0.639076189205426 -0.651340394135924 
2267.75  0.276314082136293 -0.859335175366556  0.00151933339934061 0.00121434139374462  0.00151933339934061 0.00121434139374462  -0.64075068667031 -0.650646529739883 
2268  0.275449021338311 -0.859550908217776  0.00147756686750315 0.00121492495808521  0.00147756686750315 0.00121492495808521  -0.642359543751327 -0.649775267253788 
2268.25  0.274614216433613 -0.859695347783543  0.00148083546246303 0.00120729463876061  0.00148083546246303 0.00120729463876061  -0.643966147539439 -0.648747797461275 
2268.5  0.273688728115025 -0.860038602690237  0.00143655857390697 0.00120370794408  0.00143655857390697 0.00120370794408  -0.645645762674188 -0.6477929762809 
2268.75  0.272900609915599 -0.860231474930698  0.00142801780973651 0.00120015427602755  0.00142801780973651 0.00120015427602755  -0.647409274957495 -0.64666059870632 
2269  0.271993318781745 -0.860480246840751  0.00139444658453381 0.00120428808337491  0.00139444658453381 0.00120428808337491  -0.648872673887934 -0.645501996872198 
2269.25  0.271314940552585 -0.860821009377049  0.00136938876458294 0.00119289411034051  0.00136938876458294 0.00119289411034051  -0.650500500942847 -0.644437654732121 
2269.5  0.270621672224911 -0.861080900981198  0.00134206020715944 0.0012000474200386  0.00134206020715944 0.0012000474200386  -0.651877292770376 -0.643273093503549 
2269.75  0.269875228065563 -0.861386522723542  0.00132047822083644 0.00119148473674865  0.00132047822083644 0.00119148473674865  -0.653479382168103 -0.642038479022142 
2270  0.269005015323198 -0.86172031695389  0.00131116863926721 0.00119813635672811  0.00131116863926721 0.00119813635672811  -0.655063324459749 -0.640891458820943 
2270.25  0.268223628413774 -0.862156608657659  0.00126730992491669 0.00118163867906706  0.00126730992491669 0.00118163867906706  -0.656710910553402 -0.639736681627062 
2270.5  0.267593021525791 -0.86257356133327  0.00123090570341524 0.00117234526374529  0.00123090570341524 0.00117234526374529  -0.65829278550653 -0.63840500216493 
2270.75  0.266978060802099 -0.863121061983143  0.00120303266211778 0.00116505132590357  0.00120303266211778 0.00116505132590357  -0.659884213827008 -0.637062252712208 
2271  0.266076816388048 -0.863700616278924  0.00116464486284984 0.00116679428896487  0.00116464486284984 0.00116679428896487  -0.66141085710649 -0.635600397262236 
2271.25  0.265345796296149 -0.864212555021397  0.001132616453049 0.00116144858418587  0.001132616453049 0.00116144858418587  -0.663049632869735 -0.634058934480216 
