! Matrix data file written by TouchstoneData, EPCOS AG
! FILENAME: "B3918.PCB3.WB.snp"
! COMMENT: "(TS/B3918.PCB3.WB.s2p)"
! INFO: nport=2, nfreq=1601
! DATE: "Fri Dec  6 11:20:08 2013"
! USER: "Dan Wang"
!
! port | pin | signal
! -----|-----|--------
!   1  |  2  |  Input
!   2  |  5  |  Output
! --------------------
! 
# MHZ S RI R 50
! freq  reS11 imS11  reS21 imS21  reS12 imS12  reS22 imS22
100  0.992951645353566 -0.103940469478569  0.000291010392136098 0.00228786777527875  0.000291010392136098 0.00228786777527875  0.990022433997041 -0.128937617193318 
103.6875  0.993190068201233 -0.107931681975911  0.000261996522220235 0.00226293614571749  0.000261996522220235 0.00226293614571749  0.990063713873577 -0.133832741050993 
107.375  0.992372284119892 -0.112395129220243  0.000317042114629343 0.00236472347307214  0.000317042114629343 0.00236472347307214  0.989205611781552 -0.138748252153919 
111.0625  0.991880672282651 -0.115442634109792  0.000301801097230901 0.00247154257986648  0.000301801097230901 0.00247154257986648  0.988689195455433 -0.143445824798878 
114.75  0.99160002476308 -0.11916034348829  0.000327838054920295 0.00256083139673621  0.000327838054920295 0.00256083139673621  0.988084065107032 -0.147928625477091 
118.4375  0.990790331717042 -0.122176127773635  0.000404675349420318 0.00255846656600652  0.000404675349420318 0.00255846656600652  0.987014841169277 -0.15161437823312 
122.125  0.990096443482076 -0.126392708987114  0.000385917832371725 0.0026932088756447  0.000385917832371725 0.0026932088756447  0.986646690392378 -0.156825214853317 
125.8125  0.989581303825236 -0.130062894539981  0.000404574394060818 0.00282556659877676  0.000404574394060818 0.00282556659877676  0.985584095660997 -0.161418018137867 
129.5  0.989463240018626 -0.133225144125241  0.000436267477304513 0.00283102644846173  0.000436267477304513 0.00283102644846173  0.985500601063543 -0.164895386156765 
133.1875  0.988823000115683 -0.136613164717786  0.000495140506613749 0.00292449741557342  0.000495140506613749 0.00292449741557342  0.98454471600138 -0.169517971535255 
136.875  0.988592287268097 -0.139303196052381  0.000490004280700858 0.00303354346094429  0.000490004280700858 0.00303354346094429  0.984204015901224 -0.172607667132854 
140.5625  0.987496459492618 -0.143254325677317  0.000499417561594434 0.0030793607805369  0.000499417561594434 0.0030793607805369  0.98291104803403 -0.177632314190575 
144.25  0.986204407577686 -0.147807584745152  0.000655887776664545 0.0031488431803107  0.000655887776664545 0.0031488431803107  0.981443307630838 -0.182493324358915 
147.9375  0.986119498984429 -0.150349931995955  0.000560883386910941 0.0032269578366034  0.000560883386910941 0.0032269578366034  0.981479679195413 -0.185884793101145 
151.625  0.985472412820302 -0.154578064372443  0.000614924739214785 0.00329484203236132  0.000614924739214785 0.00329484203236132  0.980575106227 -0.190983172876231 
155.3125  0.984939882969358 -0.157630908603767  0.000586308904771088 0.00343362144210262  0.000586308904771088 0.00343362144210262  0.979981536482014 -0.194268767356711 
159  0.984511660493196 -0.161445393685965  0.000667682914954467 0.00344007204978624  0.000667682914954467 0.00344007204978624  0.979117436433865 -0.199181576087079 
162.6875  0.982684839177605 -0.164083641115759  0.000514959410345813 0.00342003750328475  0.000514959410345813 0.00342003750328475  0.976899981310033 -0.202762580803628 
166.375  0.982832935321052 -0.168649907479546  0.000674582978501613 0.00358333281950368  0.000674582978501613 0.00358333281950368  0.977142936157527 -0.207284565966189 
170.0625  0.981428332180739 -0.172345965528371  0.000686528315395884 0.00366550520891483  0.000686528315395884 0.00366550520891483  0.975413805573271 -0.211966073588421 
173.75  0.981172113625514 -0.174785167860999  0.000791606606022551 0.003728880037575  0.000791606606022551 0.003728880037575  0.975027343858265 -0.214793060704471 
177.4375  0.981055822459008 -0.179817483012397  0.000826655551203383 0.00383374847714712  0.000826655551203383 0.00383374847714712  0.974203722514077 -0.221134835616295 
181.125  0.980281396392175 -0.182009259976387  0.000794304165714381 0.00382721724443328  0.000794304165714381 0.00382721724443328  0.972775089614132 -0.224134020778087 
184.8125  0.980314180405911 -0.18528959653046  0.000853402083952773 0.0039511451227044  0.000853402083952773 0.0039511451227044  0.972573149262153 -0.228802134329025 
188.5  0.980159439099119 -0.189318256508229  0.000887887544954923 0.00403255780137151  0.000887887544954923 0.00403255780137151  0.971684821936106 -0.233177095526252 
192.1875  0.978245574264021 -0.191984663238149  0.000930722798559139 0.00414066294823049  0.000930722798559139 0.00414066294823049  0.969361088539311 -0.23683089612713 
195.875  0.977856587241043 -0.196361593073526  0.000947008850793392 0.00421002420637904  0.000947008850793392 0.00421002420637904  0.968788426834056 -0.242165082991102 
199.5625  0.976828287632467 -0.200137346288321  0.000972641428613974 0.00425452600077167  0.000972641428613974 0.00425452600077167  0.967440354508298 -0.246553760335415 
203.25  0.97552960204866 -0.203687168077516  0.00103294133733563 0.00430188573342915  0.00103294133733563 0.00430188573342915  0.966061968032146 -0.251341309584227 
206.9375  0.974914303187408 -0.20646714112491  0.00110134138585046 0.00443552582723814  0.00110134138585046 0.00443552582723814  0.964373169545313 -0.256647120323078 
210.625  0.975378755789137 -0.209248340281392  0.00111113776404283 0.00448200841438522  0.00111113776404283 0.00448200841438522  0.963613589433471 -0.259995227322121 
214.3125  0.974599941187733 -0.213101309892477  0.00116323854429862 0.00456807789538818  0.00116323854429862 0.00456807789538818  0.962204526063179 -0.26487810943214 
218  0.973832619181757 -0.21733251979381  0.00118578110995336 0.00464192291643982  0.00118578110995336 0.00464192291643982  0.960685786908216 -0.269141755653195 
221.6875  0.972299031805592 -0.221030059107703  0.00119785404902838 0.00467754674150946  0.00119785404902838 0.00467754674150946  0.958909461563332 -0.273749259822839 
225.375  0.970199484622802 -0.223209244973016  0.00132147193378831 0.00468480712239557  0.00132147193378831 0.00468480712239557  0.955815049140208 -0.277798076807015 
229.0625  0.971134708407614 -0.227282502895173  0.00128510070679405 0.00481435754577501  0.00128510070679405 0.00481435754577501  0.956826718052137 -0.282399213273856 
232.75  0.97088148353989 -0.230257458876178  0.00133137237184808 0.00492607604417372  0.00133137237184808 0.00492607604417372  0.955093783974575 -0.28697225541751 
236.4375  0.969605669406143 -0.234883369640357  0.00134705517178122 0.00499400390596809  0.00134705517178122 0.00499400390596809  0.953657009674432 -0.291493447100394 
240.125  0.969144711040037 -0.237761279124697  0.00140836999243124 0.0050274000699857  0.00140836999243124 0.0050274000699857  0.952304047285167 -0.296122190745314 
243.8125  0.967800809433294 -0.240908428704844  0.00146833131955389 0.00513142870624515  0.00146833131955389 0.00513142870624515  0.949688667848067 -0.299509356520347 
247.5  0.96699777669163 -0.245347341283559  0.00155227226149485 0.00517742789783266  0.00155227226149485 0.00517742789783266  0.949068006514868 -0.305415435380368 
251.1875  0.966063526761133 -0.249214270205652  0.00157470782542613 0.00522928540763576  0.00157470782542613 0.00522928540763576  0.947237269651867 -0.310440451328592 
254.875  0.964722996735996 -0.252645492474984  0.00159008810016036 0.00528864278186534  0.00159008810016036 0.00528864278186534  0.946225340476672 -0.313875687952493 
258.5625  0.963601101337356 -0.256404769993184  0.00163559377915621 0.00535982860627104  0.00163559377915621 0.00535982860627104  0.944407881077616 -0.31881982820851 
262.25  0.962359754801686 -0.259716460410837  0.00167053955876607 0.00544003455602783  0.00167053955876607 0.00544003455602783  0.942703127099373 -0.322051906076165 
265.9375  0.961365383470378 -0.263857275862332  0.00174033204382011 0.00549992236969206  0.00174033204382011 0.00549992236969206  0.941336639504333 -0.327367206921097 
269.625  0.959884647522989 -0.267937944624127  0.00179500854138181 0.00557585740477596  0.00179500854138181 0.00557585740477596  0.939349366798742 -0.332129392747668 
273.3125  0.958893226551626 -0.271244943249562  0.00182056010923617 0.00564522155088489  0.00182056010923617 0.00564522155088489  0.937731847292217 -0.336203659843801 
277  0.9573705633011 -0.275731846813331  0.00188519051939495 0.0056864080737869  0.00188519051939495 0.0056864080737869  0.936015317325499 -0.340863278825739 
280.6875  0.955842318160088 -0.279046109710845  0.0019500924101392 0.00575904748607452  0.0019500924101392 0.00575904748607452  0.934502082686492 -0.344489767815002 
284.375  0.954642196967366 -0.283146802417981  0.00201272836606221 0.00580069158364592  0.00201272836606221 0.00580069158364592  0.933013404652689 -0.349096085047499 
288.0625  0.952735190237279 -0.28721495371806  0.00202649748233029 0.00586352026156883  0.00202649748233029 0.00586352026156883  0.930775487049739 -0.353846598341054 
291.75  0.951965392506601 -0.290397341557879  0.00207755371234386 0.00595477609647467  0.00207755371234386 0.00595477609647467  0.929496232029489 -0.357540433814617 
295.4375  0.950505648527129 -0.294410677123783  0.00214110066063657 0.00600088890147093  0.00214110066063657 0.00600088890147093  0.927584378062586 -0.361985837906957 
299.125  0.949051511649254 -0.29762396034251  0.00218266670098035 0.0060466656910603  0.00218266670098035 0.0060466656910603  0.926252923836898 -0.365532936274834 
302.8125  0.947751797437069 -0.301072937476679  0.00222603367575311 0.00610819074150182  0.00222603367575311 0.00610819074150182  0.924519181292923 -0.37046753860389 
306.5  0.945104952723813 -0.305121842015919  0.00227627881063099 0.00612497916254797  0.00227627881063099 0.00612497916254797  0.92134100548844 -0.374507432134371 
310.1875  0.944847865911362 -0.308714755013886  0.002336355474173 0.00620679353225051  0.002336355474173 0.00620679353225051  0.920989487550842 -0.377856989950316 
313.875  0.943510450008612 -0.312417441434575  0.00238718161611227 0.00627733277308493  0.00238718161611227 0.00627733277308493  0.919035658324077 -0.382234201727158 
317.5625  0.94250499228018 -0.315115915544724  0.00242304983098012 0.00634052086835834  0.00242304983098012 0.00634052086835834  0.917481092899969 -0.385444246973033 
321.25  0.941496094341819 -0.319484046319526  0.00248451397334172 0.00641961856565066  0.00248451397334172 0.00641961856565066  0.915714500802449 -0.391395045629388 
324.9375  0.939899548158851 -0.322114274472382  0.00253798248251164 0.00642078063822686  0.00253798248251164 0.00642078063822686  0.913328511755678 -0.393774026467602 
328.625  0.938942198480162 -0.325834734995627  0.00259294939177135 0.00652493403812206  0.00259294939177135 0.00652493403812206  0.911979103619657 -0.39888336411582 
332.3125  0.937742330675367 -0.32954001686804  0.00267029649018152 0.00651610597010623  0.00267029649018152 0.00651610597010623  0.909823954161096 -0.403657399023464 
336  0.937022459898409 -0.331983257549093  0.00267674785631749 0.00663666036935351  0.00267674785631749 0.00663666036935351  0.908349543252503 -0.406969949912144 
339.6875  0.93582074664647 -0.335549049916591  0.00275360083326074 0.00665873270921005  0.00275360083326074 0.00665873270921005  0.906153422645688 -0.411760609322899 
343.375  0.9346178694761 -0.338257626418005  0.0028153952419429 0.00673556439550482  0.0028153952419429 0.00673556439550482  0.904386197900577 -0.414941214099836 
347.0625  0.933868292435163 -0.341844775245146  0.00285034613773661 0.00674463902196696  0.00285034613773661 0.00674463902196696  0.902506484334656 -0.419612337530612 
350.75  0.932745754055888 -0.345234796092529  0.00287358376509138 0.00684625955119268  0.00287358376509138 0.00684625955119268  0.900279597839394 -0.424243548285112 
354.4375  0.932278196243891 -0.346730669427225  0.00295433821323257 0.00690823529344239  0.00295433821323257 0.00690823529344239  0.898959808808228 -0.426617631931815 
358.125  0.931319338240191 -0.350681403116986  0.00300680201150255 0.00694291790306998  0.00300680201150255 0.00694291790306998  0.896807020914192 -0.431488235291013 
361.8125  0.930035663892378 -0.353249860867352  0.00308080811626025 0.00699664514323027  0.00308080811626025 0.00699664514323027  0.89486446157201 -0.435089125184954 
365.5  0.92924901862441 -0.356351521687525  0.00313105277606054 0.00707875016949777  0.00313105277606054 0.00707875016949777  0.892984126658921 -0.439592262854688 
369.1875  0.926850201180875 -0.360157325139002  0.00317388990618603 0.00711027334834953  0.00317388990618603 0.00711027334834953  0.889239861672394 -0.44430034217604 
372.875  0.927020322108462 -0.362704281645739  0.00326052673372259 0.00716906889392625  0.00326052673372259 0.00716906889392625  0.889206843387195 -0.447106557240763 
376.5625  0.92582998572476 -0.365947836202484  0.00328733825659823 0.00722032823154572  0.00328733825659823 0.00722032823154572  0.886827992114275 -0.451410324640363 
380.25  0.924659750971215 -0.368637364968007  0.00338672273445044 0.00730144519166888  0.00338672273445044 0.00730144519166888  0.88487306832951 -0.455138396381226 
383.9375  0.923415045206733 -0.372173503557114  0.0034336046141362 0.00728272390071989  0.0034336046141362 0.00728272390071989  0.882259802914182 -0.459651507101614 
387.625  0.920887143662658 -0.374951358320054  0.00348224465865255 0.00734552729391972  0.00348224465865255 0.00734552729391972  0.87832084423237 -0.46264540047808 
391.3125  0.920357780682389 -0.379003915346021  0.00351333439506811 0.00740847427962297  0.00351333439506811 0.00740847427962297  0.877978110821387 -0.466878492160652 
395  0.918951396846009 -0.382509580002451  0.00357140185122552 0.00748784682695735  0.00357140185122552 0.00748784682695735  0.875987323357958 -0.471242717654668 
398.6875  0.917592670633036 -0.385165528266933  0.00366716540879578 0.00750532821232971  0.00366716540879578 0.00750532821232971  0.87429962510008 -0.474779651623024 
402.375  0.917682622033971 -0.39047800858693  0.00373400242949679 0.00759293049418384  0.00373400242949679 0.00759293049418384  0.871591280225737 -0.480723265538162 
406.0625  0.914677983872473 -0.391877595418055  0.00374745556675153 0.00760158942207963  0.00374745556675153 0.00760158942207963  0.869652474043241 -0.481824062333153 
409.75  0.912957387585337 -0.396117407104043  0.00383356403216538 0.0076544331307594  0.00383356403216538 0.0076544331307594  0.867377506704177 -0.487183125671066 
413.4375  0.911552318536569 -0.398338611731375  0.00391328709986511 0.00773287686280672  0.00391328709986511 0.00773287686280672  0.865808495009682 -0.489842553330776 
417.125  0.909403823120611 -0.401353655138839  0.00397635741783602 0.00773347918198671  0.00397635741783602 0.00773347918198671  0.862852773295088 -0.493801761829407 
420.8125  0.908574641702462 -0.405130547151742  0.00405647747442422 0.00781384267216844  0.00405647747442422 0.00781384267216844  0.860985637419346 -0.498931136466795 
424.5  0.906891322354811 -0.408794856704019  0.00408584299979794 0.00782934661115765  0.00408584299979794 0.00782934661115765  0.858950281315836 -0.502453624776327 
428.1875  0.904782537315266 -0.413066092161813  0.00416739728959139 0.00787800968368632  0.00416739728959139 0.00787800968368632  0.856178186132152 -0.507094638177478 
431.875  0.9029717821501 -0.41843221993373  0.00427168368019371 0.00787484169022008  0.00427168368019371 0.00787484169022008  0.853229595448814 -0.512681581344437 
435.5625  0.901612221247433 -0.421460275739705  0.00429678903543991 0.00793793494620351  0.00429678903543991 0.00793793494620351  0.850705873305125 -0.516300777791793 
439.25  0.898836378563239 -0.425810571070398  0.00437392306608229 0.00797672896746302  0.00437392306608229 0.00797672896746302  0.84853384517344 -0.519084409833236 
442.9375  0.894857858794579 -0.429749940143662  0.0044285572923923 0.00799944697724556  0.0044285572923923 0.00799944697724556  0.843057707647461 -0.523269321047082 
446.625  0.892844657792206 -0.433457306232455  0.00452264339162436 0.00804039283843297  0.00452264339162436 0.00804039283843297  0.840453033262857 -0.527733529563153 
450.3125  0.890569747151938 -0.435372562189422  0.0045681611254566 0.00803321679424599  0.0045681611254566 0.00803321679424599  0.83824738234803 -0.531178647664354 
454  0.890031900447963 -0.438238144343403  0.00461853735548941 0.00809550258274179  0.00461853735548941 0.00809550258274179  0.836857796269592 -0.534565003842827 
457.6875  0.888337833342562 -0.441689040229828  0.00471797638086445 0.0081350529122522  0.00471797638086445 0.0081350529122522  0.834002665945055 -0.538758870889674 
461.375  0.887739049795699 -0.444659247790699  0.00476333016179449 0.00817977044129378  0.00476333016179449 0.00817977044129378  0.831785729910932 -0.542529729986034 
465.0625  0.885919928825829 -0.44802398374885  0.00484468632043475 0.00818703838912885  0.00484468632043475 0.00818703838912885  0.828824492393984 -0.54660228608637 
468.75  0.884245143961218 -0.45048848304619  0.00484149408374204 0.00823048263514146  0.00484149408374204 0.00823048263514146  0.825615809563304 -0.549545838068003 
472.4375  0.883205674972759 -0.454307890382679  0.00495918327554464 0.00825309090278412  0.00495918327554464 0.00825309090278412  0.82396157441218 -0.553824381895391 
476.125  0.881132732028699 -0.457853278311998  0.00502011249383955 0.00827254644062041  0.00502011249383955 0.00827254644062041  0.820865506765851 -0.55790954422516 
479.8125  0.879583651438145 -0.460554761633774  0.0050763300953051 0.00831523731052245  0.0050763300953051 0.00831523731052245  0.818650799750106 -0.560841551952845 
483.5  0.87777487048076 -0.463741441901378  0.0051284979501109 0.0083543538836158  0.0051284979501109 0.0083543538836158  0.815903163741267 -0.564643286890028 
487.1875  0.876216442058629 -0.466085001515305  0.00516990568155615 0.00837443447051557  0.00516990568155615 0.00837443447051557  0.813242309641648 -0.567536126723793 
490.875  0.874884473107832 -0.469514794956942  0.005259550385268 0.00839935725810148  0.005259550385268 0.00839935725810148  0.810854030437993 -0.571663434506131 
494.5625  0.873097340653271 -0.472757646908423  0.00531890001097504 0.00844056336166917  0.00531890001097504 0.00844056336166917  0.807984235295099 -0.575378724210199 
498.25  0.872130453052996 -0.475643408274028  0.00538903083228352 0.00847089110542499  0.00538903083228352 0.00847089110542499  0.805970739791354 -0.578365712089552 
501.9375  0.870315205912754 -0.478239372657777  0.00543598169552738 0.00848516810441905  0.00543598169552738 0.00848516810441905  0.803881288532739 -0.5812706675055 
505.625  0.868625014360108 -0.480747905736875  0.00551957087757135 0.008560632564067  0.00551957087757135 0.008560632564067  0.80140423211581 -0.584202234102712 
509.3125  0.866847062982082 -0.484017936560397  0.00559355983099265 0.00854239481242896  0.00559355983099265 0.00854239481242896  0.798853682798625 -0.588315864716463 
513  0.864688252361446 -0.487233177902534  0.00564037242894536 0.00857689045250907  0.00564037242894536 0.00857689045250907  0.795836452865101 -0.591833138920258 
516.6875  0.863716750024624 -0.489830910171072  0.00570829457680343 0.00862294877843685  0.00570829457680343 0.00862294877843685  0.794146521208983 -0.595144902879401 
520.375  0.861913552107205 -0.493278075372473  0.00575216811367374 0.0086051841505471  0.00575216811367374 0.0086051841505471  0.791716873844783 -0.598621398579342 
524.0625  0.860224647520307 -0.495415032215801  0.00582978822709785 0.00865164183196782  0.00582978822709785 0.00865164183196782  0.789557910655676 -0.600947660698861 
527.75  0.858494261260561 -0.498522274745123  0.00588910629235731 0.00868585187141786  0.00588910629235731 0.00868585187141786  0.786992439839766 -0.604334780840921 
