! Matrix data file written by TouchstoneData, EPCOS AG
! FILENAME: "B3916_WB.s2p"
! COMMENT: "NWA-Port1 : 98.0ps NWA-Port2 : 98.0ps PCB2031"
! INFO: nport=2, nfreq=1601
! DATE: "Wed Jul  4 2012"
! USER: "Hiroshi Tanaka"
!
! port | pin | signal
! -----|-----|--------
!   1  |  2  |  in
!   2  |  5  |  out
! --------------------
! 
# MHZ S RI R 50
! freq  reS11 imS11  reS21 imS21  reS12 imS12  reS22 imS22
1.000000E+01    9.995793E-01  -2.012275E-02    1.037167E-04   1.690307E-03    6.397649E-05   1.728259E-03    9.989042E-01  -4.340779E-02 
1.186875E+01    9.994039E-01  -2.342660E-02    6.688003E-05   1.997733E-03    6.882581E-05   2.004832E-03    9.984186E-01  -5.087976E-02 
1.373750E+01    9.993918E-01  -2.720362E-02    5.146268E-05   2.370318E-03    3.780865E-05   2.381763E-03    9.979748E-01  -5.907161E-02 
1.560625E+01    9.991923E-01  -3.079992E-02    9.524832E-05   2.737541E-03    1.143141E-04   2.728270E-03    9.974519E-01  -6.704706E-02 
1.747500E+01    9.990312E-01  -3.437481E-02    1.849770E-04   2.965089E-03    1.835414E-04   2.922068E-03    9.964512E-01  -7.473205E-02 
1.934375E+01    9.989739E-01  -3.814713E-02    2.340108E-04   3.373918E-03    2.436894E-04   3.354843E-03    9.958575E-01  -8.247183E-02 
2.121250E+01    9.986707E-01  -4.159909E-02    2.138273E-04   3.604958E-03    2.467359E-04   3.590760E-03    9.951121E-01  -9.043483E-02 
2.308125E+01    9.984072E-01  -4.527075E-02    2.384260E-04   3.918376E-03    1.947712E-04   3.932781E-03    9.946062E-01  -9.850103E-02 
2.495000E+01    9.981859E-01  -4.883381E-02    3.145357E-04   4.323355E-03    3.192514E-04   4.272135E-03    9.937095E-01  -1.065657E-01 
2.681875E+01    9.977059E-01  -5.329742E-02    3.139118E-04   4.441478E-03    2.676987E-04   4.470193E-03    9.926161E-01  -1.157482E-01 
2.868750E+01    9.975107E-01  -5.599513E-02    3.761726E-04   4.854032E-03    4.447735E-04   4.872615E-03    9.917314E-01  -1.225308E-01 
3.055625E+01    9.975449E-01  -5.994841E-02    5.362420E-04   5.210630E-03    5.241559E-04   5.231500E-03    9.906789E-01  -1.301496E-01 
3.242500E+01    9.971723E-01  -6.352096E-02    6.665985E-04   5.514743E-03    6.663748E-04   5.495671E-03    9.897201E-01  -1.380486E-01 
3.429375E+01    9.970092E-01  -6.734402E-02    6.147699E-04   5.936005E-03    5.724318E-04   5.969579E-03    9.883535E-01  -1.459760E-01 
3.616250E+01    9.965760E-01  -7.117785E-02    9.075367E-04   6.328041E-03    9.245106E-04   6.312068E-03    9.865701E-01  -1.542269E-01 
3.803125E+01    9.965110E-01  -7.449787E-02    7.796367E-04   6.465115E-03    8.025434E-04   6.418078E-03    9.854275E-01  -1.614232E-01 
3.990000E+01    9.963193E-01  -7.794462E-02    8.748821E-04   6.786757E-03    9.110238E-04   6.804848E-03    9.846278E-01  -1.695469E-01 
4.176875E+01    9.960954E-01  -8.183558E-02    9.451522E-04   7.134482E-03    9.348997E-04   7.121331E-03    9.831118E-01  -1.773652E-01 
4.363750E+01    9.955643E-01  -8.526151E-02    9.831534E-04   7.374027E-03    1.015302E-03   7.355037E-03    9.817011E-01  -1.852702E-01 
4.550625E+01    9.951173E-01  -8.875506E-02    1.187679E-03   7.731121E-03    1.214232E-03   7.709818E-03    9.794948E-01  -1.922168E-01 
4.737500E+01    9.947688E-01  -9.255121E-02    1.292407E-03   8.006229E-03    1.283438E-03   7.970876E-03    9.783162E-01  -2.002809E-01 
4.924375E+01    9.945077E-01  -9.623777E-02    1.331055E-03   8.370803E-03    1.334963E-03   8.359874E-03    9.766896E-01  -2.084094E-01 
5.111250E+01    9.937729E-01  -1.000316E-01    1.422550E-03   8.709586E-03    1.449234E-03   8.698534E-03    9.751412E-01  -2.160540E-01 
5.298125E+01    9.936340E-01  -1.032650E-01    1.529051E-03   8.929918E-03    1.484737E-03   8.911434E-03    9.732257E-01  -2.237317E-01 
5.485000E+01    9.931291E-01  -1.071450E-01    1.624484E-03   9.167296E-03    1.624865E-03   9.193551E-03    9.710692E-01  -2.310997E-01 
5.671875E+01    9.926023E-01  -1.107660E-01    1.743314E-03   9.651841E-03    1.699561E-03   9.631347E-03    9.695649E-01  -2.388260E-01 
5.858750E+01    9.924208E-01  -1.142176E-01    1.796698E-03   9.699446E-03    1.843356E-03   9.709773E-03    9.676252E-01  -2.465354E-01 
6.045625E+01    9.920316E-01  -1.181271E-01    1.993338E-03   1.010637E-02    1.995264E-03   1.009296E-02    9.657515E-01  -2.543740E-01 
6.232500E+01    9.913046E-01  -1.217618E-01    2.079049E-03   1.035846E-02    2.069991E-03   1.035613E-02    9.633473E-01  -2.625297E-01 
6.419375E+01    9.907760E-01  -1.250106E-01    2.145426E-03   1.061432E-02    2.123507E-03   1.061128E-02    9.614964E-01  -2.687703E-01 
6.606250E+01    9.904313E-01  -1.287790E-01    2.339790E-03   1.101247E-02    2.335818E-03   1.104302E-02    9.594106E-01  -2.767742E-01 
6.793125E+01    9.898553E-01  -1.322313E-01    2.563735E-03   1.121822E-02    2.572499E-03   1.122249E-02    9.568593E-01  -2.842379E-01 
6.980000E+01    9.892870E-01  -1.357846E-01    2.588304E-03   1.148235E-02    2.560404E-03   1.149248E-02    9.547501E-01  -2.917889E-01 
7.166875E+01    9.886988E-01  -1.397746E-01    2.675793E-03   1.185210E-02    2.669298E-03   1.185132E-02    9.520358E-01  -2.998933E-01 
7.353750E+01    9.883467E-01  -1.430492E-01    2.736640E-03   1.202699E-02    2.726326E-03   1.203370E-02    9.499491E-01  -3.061973E-01 
7.540625E+01    9.875587E-01  -1.467177E-01    2.966547E-03   1.243421E-02    2.959780E-03   1.244343E-02    9.473653E-01  -3.138819E-01 
7.727500E+01    9.870662E-01  -1.501887E-01    3.111990E-03   1.258470E-02    3.089768E-03   1.258982E-02    9.447865E-01  -3.213083E-01 
7.914375E+01    9.865085E-01  -1.538822E-01    3.267795E-03   1.288635E-02    3.239342E-03   1.291257E-02    9.422329E-01  -3.287866E-01 
8.101250E+01    9.857108E-01  -1.570025E-01    3.471427E-03   1.304925E-02    3.443488E-03   1.302330E-02    9.378342E-01  -3.347154E-01 
8.288125E+01    9.852274E-01  -1.608353E-01    3.585671E-03   1.347242E-02    3.597780E-03   1.344892E-02    9.371944E-01  -3.427421E-01 
8.475000E+01    9.847122E-01  -1.643571E-01    3.766179E-03   1.376643E-02    3.729299E-03   1.375873E-02    9.341951E-01  -3.503194E-01 
8.661875E+01    9.838672E-01  -1.678545E-01    3.951271E-03   1.413526E-02    3.922149E-03   1.415400E-02    9.312801E-01  -3.576291E-01 
8.848750E+01    9.833376E-01  -1.715540E-01    3.982334E-03   1.435076E-02    3.966162E-03   1.436597E-02    9.282589E-01  -3.650585E-01 
9.035625E+01    9.824128E-01  -1.750244E-01    3.983733E-03   1.443767E-02    3.983059E-03   1.441606E-02    9.248358E-01  -3.716140E-01 
9.222500E+01    9.818914E-01  -1.785895E-01    4.472997E-03   1.471162E-02    4.438739E-03   1.473379E-02    9.225133E-01  -3.787786E-01 
9.409375E+01    9.813130E-01  -1.821853E-01    4.513501E-03   1.497031E-02    4.507194E-03   1.502443E-02    9.196644E-01  -3.860650E-01 
9.596250E+01    9.807061E-01  -1.856726E-01    4.793121E-03   1.522565E-02    4.730727E-03   1.524336E-02    9.164817E-01  -3.931189E-01 
9.783125E+01    9.798588E-01  -1.893373E-01    4.872371E-03   1.552982E-02    4.862756E-03   1.557736E-02    9.130862E-01  -4.006366E-01 
9.970000E+01    9.789386E-01  -1.924557E-01    4.967791E-03   1.584706E-02    4.966466E-03   1.582417E-02    9.099737E-01  -4.062926E-01 
1.015687E+02    9.785433E-01  -1.961653E-01    5.230125E-03   1.607692E-02    5.200591E-03   1.605939E-02    9.072488E-01  -4.138236E-01 
1.034375E+02    9.776043E-01  -1.998244E-01    5.513459E-03   1.628319E-02    5.452998E-03   1.627816E-02    9.037207E-01  -4.205884E-01 
1.053063E+02    9.769123E-01  -2.033772E-01    5.618434E-03   1.653247E-02    5.611721E-03   1.655892E-02    9.004391E-01  -4.276069E-01 
1.071750E+02    9.760402E-01  -2.072353E-01    5.822839E-03   1.681977E-02    5.801742E-03   1.686254E-02    8.970604E-01  -4.348106E-01 
1.090438E+02    9.748631E-01  -2.101012E-01    6.044800E-03   1.684756E-02    6.061310E-03   1.688700E-02    8.933902E-01  -4.413902E-01 
1.109125E+02    9.744920E-01  -2.138302E-01    6.225443E-03   1.729319E-02    6.169989E-03   1.724333E-02    8.903287E-01  -4.479713E-01 
1.127812E+02    9.735401E-01  -2.172629E-01    6.454040E-03   1.741380E-02    6.443112E-03   1.744473E-02    8.869864E-01  -4.546319E-01 
1.146500E+02    9.728059E-01  -2.208790E-01    6.548423E-03   1.769085E-02    6.563339E-03   1.766962E-02    8.833029E-01  -4.617054E-01 
1.165187E+02    9.715957E-01  -2.245960E-01    6.572926E-03   1.805983E-02    6.579915E-03   1.806155E-02    8.776844E-01  -4.692440E-01 
1.183875E+02    9.712829E-01  -2.276698E-01    6.990772E-03   1.809769E-02    7.024766E-03   1.814275E-02    8.763445E-01  -4.741586E-01 
1.202562E+02    9.703311E-01  -2.312838E-01    7.182217E-03   1.837840E-02    7.150569E-03   1.840597E-02    8.726276E-01  -4.812212E-01 
1.221250E+02    9.694136E-01  -2.347393E-01    7.446946E-03   1.854627E-02    7.477342E-03   1.859412E-02    8.688565E-01  -4.876430E-01 
1.239938E+02    9.686591E-01  -2.382044E-01    7.608445E-03   1.883360E-02    7.622784E-03   1.886769E-02    8.649919E-01  -4.944305E-01 
1.258625E+02    9.674272E-01  -2.415213E-01    7.869805E-03   1.903059E-02    7.885010E-03   1.902273E-02    8.602866E-01  -4.997605E-01 
1.277313E+02    9.667526E-01  -2.451588E-01    8.048432E-03   1.925264E-02    8.038792E-03   1.927746E-02    8.574091E-01  -5.067409E-01 
1.296000E+02    9.655725E-01  -2.482789E-01    8.241481E-03   1.928275E-02    8.244526E-03   1.932483E-02    8.536427E-01  -5.132030E-01 
1.314688E+02    9.649982E-01  -2.519755E-01    8.443144E-03   1.960742E-02    8.430817E-03   1.961956E-02    8.496330E-01  -5.195731E-01 
1.333375E+02    9.640790E-01  -2.557020E-01    8.617009E-03   1.983546E-02    8.591809E-03   1.983994E-02    8.455897E-01  -5.263461E-01 
1.352063E+02    9.629010E-01  -2.587695E-01    8.833834E-03   2.003796E-02    8.842865E-03   2.007024E-02    8.416571E-01  -5.311545E-01 
1.370750E+02    9.621314E-01  -2.624654E-01    9.167550E-03   2.033386E-02    9.109943E-03   2.039478E-02    8.379205E-01  -5.383965E-01 
1.389437E+02    9.608903E-01  -2.656201E-01    9.339039E-03   2.037602E-02    9.368317E-03   2.036819E-02    8.336269E-01  -5.444997E-01 
1.408125E+02    9.600011E-01  -2.692021E-01    9.443442E-03   2.059747E-02    9.405807E-03   2.061960E-02    8.297320E-01  -5.508179E-01 
1.426813E+02    9.591768E-01  -2.726395E-01    9.835677E-03   2.091877E-02    9.802302E-03   2.096029E-02    8.251813E-01  -5.570234E-01 
1.445500E+02    9.577984E-01  -2.759649E-01    1.014198E-02   2.110725E-02    1.007470E-02   2.113332E-02    8.212512E-01  -5.621639E-01 
1.464187E+02    9.568003E-01  -2.794753E-01    1.017119E-02   2.128330E-02    1.015314E-02   2.129347E-02    8.172264E-01  -5.685363E-01 
1.482875E+02    9.558311E-01  -2.828104E-01    1.047904E-02   2.147547E-02    1.040009E-02   2.152050E-02    8.132804E-01  -5.745657E-01 
1.501562E+02    9.548519E-01  -2.862826E-01    1.066128E-02   2.161411E-02    1.063263E-02   2.164842E-02    8.084750E-01  -5.806812E-01 
1.520250E+02    9.536024E-01  -2.899042E-01    1.095403E-02   2.184461E-02    1.094598E-02   2.184198E-02    8.036886E-01  -5.869945E-01 
1.538938E+02    9.527265E-01  -2.928789E-01    1.122057E-02   2.194396E-02    1.116523E-02   2.199070E-02    8.001162E-01  -5.914326E-01 
1.557625E+02    9.514370E-01  -2.962977E-01    1.144166E-02   2.213908E-02    1.140454E-02   2.221201E-02    7.958596E-01  -5.978305E-01 
1.576312E+02    9.504283E-01  -2.997303E-01    1.163688E-02   2.230180E-02    1.159830E-02   2.231303E-02    7.913450E-01  -6.033809E-01 
1.595000E+02    9.493798E-01  -3.028835E-01    1.186945E-02   2.240174E-02    1.185193E-02   2.248776E-02    7.867698E-01  -6.090191E-01 
1.613688E+02    9.478427E-01  -3.067100E-01    1.227578E-02   2.268650E-02    1.221574E-02   2.276660E-02    7.813644E-01  -6.152623E-01 
1.632375E+02    9.469048E-01  -3.098540E-01    1.240663E-02   2.271239E-02    1.234530E-02   2.274485E-02    7.779808E-01  -6.199209E-01 
1.651062E+02    9.455987E-01  -3.131744E-01    1.266459E-02   2.287686E-02    1.262201E-02   2.289893E-02    7.734756E-01  -6.256066E-01 
1.669750E+02    9.446351E-01  -3.164898E-01    1.276953E-02   2.302511E-02    1.276360E-02   2.302517E-02    7.687462E-01  -6.312872E-01 
1.688438E+02    9.433956E-01  -3.199936E-01    1.311601E-02   2.313641E-02    1.308377E-02   2.314071E-02    7.637839E-01  -6.364890E-01 
1.707125E+02    9.417830E-01  -3.228626E-01    1.335646E-02   2.329411E-02    1.332883E-02   2.336996E-02    7.589183E-01  -6.402405E-01 
1.725813E+02    9.408657E-01  -3.263521E-01    1.355177E-02   2.345318E-02    1.351379E-02   2.348973E-02    7.549793E-01  -6.470121E-01 
1.744500E+02    9.396843E-01  -3.294836E-01    1.365845E-02   2.354109E-02    1.364964E-02   2.358829E-02    7.501492E-01  -6.523471E-01 
1.763187E+02    9.385878E-01  -3.330435E-01    1.400016E-02   2.379300E-02    1.404613E-02   2.382266E-02    7.454502E-01  -6.573207E-01 
1.781875E+02    9.371804E-01  -3.362484E-01    1.424087E-02   2.398573E-02    1.426072E-02   2.404552E-02    7.404782E-01  -6.628381E-01 
1.800563E+02    9.357288E-01  -3.396713E-01    1.455584E-02   2.396463E-02    1.460308E-02   2.397548E-02    7.359468E-01  -6.668540E-01 
1.819250E+02    9.346769E-01  -3.428982E-01    1.480232E-02   2.417365E-02    1.484397E-02   2.420750E-02    7.315846E-01  -6.728003E-01 
1.837937E+02    9.335812E-01  -3.459580E-01    1.496943E-02   2.431958E-02    1.502002E-02   2.437815E-02    7.266488E-01  -6.781278E-01 
1.856625E+02    9.324476E-01  -3.493500E-01    1.533092E-02   2.430961E-02    1.541121E-02   2.435512E-02    7.213560E-01  -6.830285E-01 
1.875312E+02    9.306663E-01  -3.528762E-01    1.547792E-02   2.445997E-02    1.548192E-02   2.453067E-02    7.161980E-01  -6.881604E-01 
1.894000E+02    9.293750E-01  -3.558024E-01    1.584636E-02   2.467128E-02    1.585648E-02   2.468523E-02    7.118239E-01  -6.922217E-01 
1.912688E+02    9.281770E-01  -3.587783E-01    1.596764E-02   2.476679E-02    1.595752E-02   2.479407E-02    7.069848E-01  -6.975944E-01 
1.931375E+02    9.271483E-01  -3.623147E-01    1.632411E-02   2.484643E-02    1.634167E-02   2.488030E-02    7.018984E-01  -7.024712E-01 
1.950062E+02    9.256342E-01  -3.657494E-01    1.661808E-02   2.493021E-02    1.660390E-02   2.496195E-02    6.972529E-01  -7.071749E-01 
1.968750E+02    9.239740E-01  -3.691271E-01    1.681290E-02   2.508112E-02    1.681805E-02   2.510545E-02    6.917077E-01  -7.120772E-01 
1.987438E+02    9.228554E-01  -3.720825E-01    1.702044E-02   2.519975E-02    1.703306E-02   2.522086E-02    6.874152E-01  -7.163007E-01 
2.006125E+02    9.215644E-01  -3.751899E-01    1.729459E-02   2.523255E-02    1.734143E-02   2.531796E-02    6.822562E-01  -7.211001E-01 
2.024812E+02    9.201616E-01  -3.783700E-01    1.755010E-02   2.545631E-02    1.760491E-02   2.553668E-02    6.772398E-01  -7.260257E-01 
2.043500E+02    9.189929E-01  -3.820224E-01    1.780653E-02   2.547085E-02    1.780053E-02   2.553391E-02    6.722252E-01  -7.302151E-01 
2.062188E+02    9.166607E-01  -3.851470E-01    1.815030E-02   2.571932E-02    1.817292E-02   2.577571E-02    6.644742E-01  -7.336355E-01 
2.080875E+02    9.159155E-01  -3.883258E-01    1.834521E-02   2.562612E-02    1.835970E-02   2.567768E-02    6.622296E-01  -7.390550E-01 
2.099563E+02    9.146269E-01  -3.910731E-01    1.860975E-02   2.571959E-02    1.861308E-02   2.577436E-02    6.572053E-01  -7.437193E-01 
2.118250E+02    9.133217E-01  -3.946200E-01    1.894029E-02   2.584089E-02    1.890604E-02   2.590373E-02    6.521389E-01  -7.481434E-01 
2.136937E+02    9.117518E-01  -3.980251E-01    1.913007E-02   2.595476E-02    1.913577E-02   2.597985E-02    6.470619E-01  -7.523078E-01 
2.155625E+02    9.100846E-01  -4.010516E-01    1.955908E-02   2.585116E-02    1.955077E-02   2.593108E-02    6.416363E-01  -7.556572E-01 
2.174313E+02    9.088363E-01  -4.038108E-01    1.965467E-02   2.598420E-02    1.965414E-02   2.603427E-02    6.368546E-01  -7.607215E-01 
2.193000E+02    9.075601E-01  -4.072907E-01    1.992938E-02   2.613714E-02    1.989677E-02   2.615092E-02    6.316641E-01  -7.652578E-01 
2.211687E+02    9.059956E-01  -4.103892E-01    2.024884E-02   2.621089E-02    2.019212E-02   2.628485E-02    6.264817E-01  -7.689672E-01 
2.230375E+02    9.044918E-01  -4.137350E-01    2.046644E-02   2.619354E-02    2.041388E-02   2.625065E-02    6.213007E-01  -7.733396E-01 
2.249062E+02    9.026703E-01  -4.164109E-01    2.077758E-02   2.627860E-02    2.078032E-02   2.630384E-02    6.166389E-01  -7.765567E-01 
2.267750E+02    9.013128E-01  -4.193667E-01    2.094083E-02   2.622500E-02    2.092977E-02   2.623716E-02    6.113286E-01  -7.809711E-01 
2.286438E+02    9.001433E-01  -4.227583E-01    2.131477E-02   2.644579E-02    2.128818E-02   2.651318E-02    6.057130E-01  -7.852991E-01 
2.305125E+02    8.984416E-01  -4.260334E-01    2.153611E-02   2.651569E-02    2.151490E-02   2.654128E-02    6.007742E-01  -7.891479E-01 
2.323812E+02    8.968591E-01  -4.292478E-01    2.183543E-02   2.653847E-02    2.177995E-02   2.658313E-02    5.952367E-01  -7.932214E-01 
2.342500E+02    8.952709E-01  -4.319108E-01    2.199173E-02   2.651210E-02    2.199278E-02   2.658112E-02    5.904234E-01  -7.964191E-01 
2.361188E+02    8.938466E-01  -4.350939E-01    2.226938E-02   2.664651E-02    2.222828E-02   2.667360E-02    5.853288E-01  -8.004874E-01 
2.379875E+02    8.922097E-01  -4.380607E-01    2.258246E-02   2.662754E-02    2.259113E-02   2.668422E-02    5.796409E-01  -8.037910E-01 
2.398562E+02    8.905362E-01  -4.412983E-01    2.277759E-02   2.674804E-02    2.277168E-02   2.678280E-02    5.744755E-01  -8.077342E-01 
2.417250E+02    8.888122E-01  -4.446512E-01    2.305424E-02   2.677382E-02    2.302098E-02   2.679280E-02    5.680588E-01  -8.116332E-01 
2.435938E+02    8.875542E-01  -4.473226E-01    2.327667E-02   2.675323E-02    2.331019E-02   2.679038E-02    5.644615E-01  -8.145424E-01 
2.454625E+02    8.861326E-01  -4.501312E-01    2.354354E-02   2.683290E-02    2.355398E-02   2.688997E-02    5.587642E-01  -8.184344E-01 
2.473313E+02    8.843409E-01  -4.532592E-01    2.385690E-02   2.688609E-02    2.386201E-02   2.691686E-02    5.533221E-01  -8.217285E-01 
2.492000E+02    8.825413E-01  -4.564391E-01    2.410310E-02   2.685927E-02    2.403343E-02   2.689275E-02    5.480110E-01  -8.252897E-01 
2.510687E+02    8.806694E-01  -4.593705E-01    2.445386E-02   2.678758E-02    2.446045E-02   2.684729E-02    5.415139E-01  -8.279946E-01 
2.529375E+02    8.793485E-01  -4.621649E-01    2.453601E-02   2.690834E-02    2.453507E-02   2.695790E-02    5.373648E-01  -8.319684E-01 
2.548063E+02    8.778685E-01  -4.653990E-01    2.489675E-02   2.693784E-02    2.489635E-02   2.694460E-02    5.318598E-01  -8.355672E-01 
2.566750E+02    8.760480E-01  -4.682582E-01    2.507217E-02   2.684474E-02    2.513387E-02   2.683648E-02    5.267792E-01  -8.384299E-01 
2.585437E+02    8.743673E-01  -4.717022E-01    2.536922E-02   2.689757E-02    2.537047E-02   2.693378E-02    5.212915E-01  -8.418127E-01 
2.604125E+02    8.724216E-01  -4.738754E-01    2.568097E-02   2.693604E-02    2.568983E-02   2.698987E-02    5.163635E-01  -8.438342E-01 
2.622812E+02    8.710544E-01  -4.770441E-01    2.597251E-02   2.696017E-02    2.594059E-02   2.700345E-02    5.107432E-01  -8.479051E-01 
2.641500E+02    8.695134E-01  -4.800685E-01    2.616571E-02   2.697369E-02    2.616666E-02   2.695364E-02    5.049828E-01  -8.511552E-01 
2.660188E+02    8.677144E-01  -4.831696E-01    2.631117E-02   2.690965E-02    2.635131E-02   2.690988E-02    5.000240E-01  -8.542445E-01 
2.678875E+02    8.658978E-01  -4.863167E-01    2.664592E-02   2.691722E-02    2.666355E-02   2.696974E-02    4.944183E-01  -8.574581E-01 
2.697563E+02    8.639651E-01  -4.888711E-01    2.687305E-02   2.695409E-02    2.691025E-02   2.696665E-02    4.890467E-01  -8.601665E-01 
2.716250E+02    8.625553E-01  -4.918616E-01    2.711190E-02   2.695831E-02    2.713108E-02   2.699398E-02    4.835627E-01  -8.633908E-01 
