! Matrix data file written by TouchstoneData, EPCOS AG
! FILENAME: "LU60B1_1_NB.s2p_newformat"
! COMMENT: "(LU60B1_1_NB.s2p) EPCOS AG 11.03.2011 15:22:"
! INFO: nport=2, nfreq=1601
! DATE: "Mon Mar 14 16:58:02 2011"
! USER: "Sergey Rostovtsev"
!
! port | pin | signal
! -----|-----|--------
!   1  |  2  |  in
!   2  |  5  |  out
! --------------------
! 
# MHZ S MA R 50
! freq  magS11 angS11  magS21 angS21  magS12 angS12  magS22 angS22
2.250000E+03  9.433812E-01 -1.223346E+02  1.348676E-02 -2.108852E+01  1.348862E-02 -2.104194E+01  9.423347E-01 -1.227253E+02 
2.250250E+03  9.431774E-01 -1.223564E+02  1.345649E-02 -2.106310E+01  1.342476E-02 -2.093411E+01  9.422236E-01 -1.227564E+02 
2.250500E+03  9.431676E-01 -1.223758E+02  1.339750E-02 -2.099804E+01  1.337692E-02 -2.086395E+01  9.420114E-01 -1.227841E+02 
2.250750E+03  9.432280E-01 -1.224005E+02  1.334292E-02 -2.096930E+01  1.332678E-02 -2.078490E+01  9.418878E-01 -1.228093E+02 
2.251000E+03  9.432800E-01 -1.224214E+02  1.328635E-02 -2.086626E+01  1.324982E-02 -2.071238E+01  9.417090E-01 -1.228418E+02 
2.251250E+03  9.432117E-01 -1.224405E+02  1.322255E-02 -2.071334E+01  1.320505E-02 -2.062475E+01  9.416034E-01 -1.228601E+02 
2.251500E+03  9.434317E-01 -1.224770E+02  1.318272E-02 -2.061449E+01  1.315854E-02 -2.053536E+01  9.415184E-01 -1.228964E+02 
2.251750E+03  9.434957E-01 -1.225012E+02  1.309667E-02 -2.068015E+01  1.310299E-02 -2.055485E+01  9.414040E-01 -1.229237E+02 
2.252000E+03  9.435495E-01 -1.225421E+02  1.304692E-02 -2.069382E+01  1.304069E-02 -2.050963E+01  9.414408E-01 -1.229449E+02 
2.252250E+03  9.434380E-01 -1.225650E+02  1.298366E-02 -2.065382E+01  1.295549E-02 -2.045104E+01  9.413210E-01 -1.229776E+02 
2.252500E+03  9.434892E-01 -1.226145E+02  1.293271E-02 -2.056176E+01  1.293337E-02 -2.043590E+01  9.413199E-01 -1.230094E+02 
2.252750E+03  9.434300E-01 -1.226283E+02  1.288020E-02 -2.051804E+01  1.284411E-02 -2.047672E+01  9.412319E-01 -1.230492E+02 
2.253000E+03  9.435422E-01 -1.226835E+02  1.279846E-02 -2.056162E+01  1.278211E-02 -2.040630E+01  9.411107E-01 -1.230822E+02 
2.253250E+03  9.436764E-01 -1.227133E+02  1.272513E-02 -2.040102E+01  1.272619E-02 -2.035966E+01  9.411915E-01 -1.231171E+02 
2.253500E+03  9.439039E-01 -1.227414E+02  1.267051E-02 -2.042430E+01  1.266728E-02 -2.024328E+01  9.412178E-01 -1.231464E+02 
2.253750E+03  9.438205E-01 -1.227816E+02  1.261015E-02 -2.037810E+01  1.261795E-02 -2.019876E+01  9.411078E-01 -1.231799E+02 
2.254000E+03  9.437543E-01 -1.228187E+02  1.257344E-02 -2.022549E+01  1.257060E-02 -2.014735E+01  9.409828E-01 -1.232181E+02 
2.254250E+03  9.440386E-01 -1.228621E+02  1.249162E-02 -2.023203E+01  1.248705E-02 -2.010282E+01  9.410495E-01 -1.232565E+02 
2.254500E+03  9.439431E-01 -1.228973E+02  1.242756E-02 -2.025897E+01  1.244973E-02 -2.010387E+01  9.413233E-01 -1.232854E+02 
2.254750E+03  9.439885E-01 -1.229405E+02  1.237535E-02 -2.012004E+01  1.235741E-02 -1.996043E+01  9.412491E-01 -1.233334E+02 
2.255000E+03  9.438644E-01 -1.229810E+02  1.230569E-02 -2.008351E+01  1.231572E-02 -2.005622E+01  9.411365E-01 -1.233612E+02 
2.255250E+03  9.439015E-01 -1.230225E+02  1.222763E-02 -1.994576E+01  1.225546E-02 -1.997327E+01  9.411481E-01 -1.233972E+02 
2.255500E+03  9.440307E-01 -1.230483E+02  1.217115E-02 -1.996529E+01  1.218832E-02 -1.988199E+01  9.412850E-01 -1.234338E+02 
2.255750E+03  9.439167E-01 -1.230951E+02  1.210034E-02 -1.986658E+01  1.212163E-02 -1.979396E+01  9.410162E-01 -1.234753E+02 
2.256000E+03  9.440826E-01 -1.231350E+02  1.205948E-02 -1.974207E+01  1.208047E-02 -1.969853E+01  9.410608E-01 -1.235060E+02 
2.256250E+03  9.439947E-01 -1.231809E+02  1.197136E-02 -1.982877E+01  1.200682E-02 -1.972096E+01  9.410367E-01 -1.235414E+02 
2.256500E+03  9.439416E-01 -1.232140E+02  1.192852E-02 -1.964476E+01  1.197222E-02 -1.953285E+01  9.410253E-01 -1.235776E+02 
2.256750E+03  9.441425E-01 -1.232415E+02  1.186596E-02 -1.971439E+01  1.191961E-02 -1.954520E+01  9.409365E-01 -1.236091E+02 
2.257000E+03  9.441366E-01 -1.232822E+02  1.183592E-02 -1.960677E+01  1.186458E-02 -1.959113E+01  9.409775E-01 -1.236524E+02 
2.257250E+03  9.442522E-01 -1.233121E+02  1.176922E-02 -1.955813E+01  1.179595E-02 -1.952932E+01  9.412556E-01 -1.236824E+02 
2.257500E+03  9.440506E-01 -1.233448E+02  1.171842E-02 -1.952136E+01  1.173696E-02 -1.958555E+01  9.410198E-01 -1.237089E+02 
2.257750E+03  9.442982E-01 -1.233682E+02  1.164679E-02 -1.957197E+01  1.167640E-02 -1.943673E+01  9.411681E-01 -1.237458E+02 
2.258000E+03  9.443587E-01 -1.234125E+02  1.160156E-02 -1.958138E+01  1.162400E-02 -1.945013E+01  9.410254E-01 -1.237786E+02 
2.258250E+03  9.445216E-01 -1.234483E+02  1.154388E-02 -1.957034E+01  1.156013E-02 -1.942690E+01  9.412155E-01 -1.238203E+02 
2.258500E+03  9.446521E-01 -1.234941E+02  1.149534E-02 -1.951261E+01  1.150952E-02 -1.952136E+01  9.411239E-01 -1.238442E+02 
2.258750E+03  9.446916E-01 -1.235251E+02  1.142859E-02 -1.956897E+01  1.142555E-02 -1.947165E+01  9.412351E-01 -1.238851E+02 
2.259000E+03  9.447648E-01 -1.235648E+02  1.135307E-02 -1.967044E+01  1.136880E-02 -1.954955E+01  9.412789E-01 -1.239275E+02 
2.259250E+03  9.447821E-01 -1.236106E+02  1.127782E-02 -1.966799E+01  1.129777E-02 -1.948209E+01  9.414221E-01 -1.239641E+02 
2.259500E+03  9.447692E-01 -1.236505E+02  1.121090E-02 -1.968060E+01  1.123317E-02 -1.963618E+01  9.414615E-01 -1.240037E+02 
2.259750E+03  9.449095E-01 -1.236930E+02  1.113674E-02 -1.974369E+01  1.114943E-02 -1.969310E+01  9.416229E-01 -1.240391E+02 
2.260000E+03  9.449298E-01 -1.237471E+02  1.108057E-02 -1.979738E+01  1.108015E-02 -1.972807E+01  9.416073E-01 -1.240747E+02 
2.260250E+03  9.450771E-01 -1.237823E+02  1.097744E-02 -1.990700E+01  1.100107E-02 -1.974556E+01  9.416230E-01 -1.241211E+02 
2.260500E+03  9.449674E-01 -1.238333E+02  1.091661E-02 -1.991554E+01  1.089663E-02 -1.981739E+01  9.416580E-01 -1.241506E+02 
2.260750E+03  9.447748E-01 -1.238824E+02  1.079644E-02 -1.986405E+01  1.082237E-02 -1.984898E+01  9.417892E-01 -1.242104E+02 
2.261000E+03  9.448798E-01 -1.239263E+02  1.072125E-02 -1.991999E+01  1.073075E-02 -1.982417E+01  9.418161E-01 -1.242439E+02 
2.261250E+03  9.448622E-01 -1.239724E+02  1.063510E-02 -1.989247E+01  1.063525E-02 -1.996741E+01  9.419959E-01 -1.242813E+02 
2.261500E+03  9.445622E-01 -1.240216E+02  1.053395E-02 -1.992429E+01  1.054696E-02 -1.994238E+01  9.420223E-01 -1.243311E+02 
2.261750E+03  9.445993E-01 -1.240580E+02  1.041285E-02 -1.984076E+01  1.044329E-02 -1.981584E+01  9.421487E-01 -1.243693E+02 
2.262000E+03  9.442812E-01 -1.241036E+02  1.033919E-02 -1.965824E+01  1.033905E-02 -1.967256E+01  9.421732E-01 -1.244053E+02 
2.262250E+03  9.442905E-01 -1.241507E+02  1.023927E-02 -1.978539E+01  1.025151E-02 -1.989355E+01  9.422036E-01 -1.244533E+02 
2.262500E+03  9.441139E-01 -1.241968E+02  1.011905E-02 -1.967837E+01  1.011894E-02 -1.964651E+01  9.421813E-01 -1.244889E+02 
2.262750E+03  9.438494E-01 -1.242325E+02  1.002645E-02 -1.947844E+01  1.004336E-02 -1.949978E+01  9.423525E-01 -1.245418E+02 
2.263000E+03  9.438046E-01 -1.242791E+02  9.919763E-03 -1.936077E+01  9.927609E-03 -1.948153E+01  9.422152E-01 -1.245773E+02 
2.263250E+03  9.434498E-01 -1.243278E+02  9.810753E-03 -1.922070E+01  9.841620E-03 -1.937307E+01  9.423479E-01 -1.246236E+02 
2.263500E+03  9.434098E-01 -1.243662E+02  9.707617E-03 -1.929726E+01  9.724989E-03 -1.911917E+01  9.422782E-01 -1.246753E+02 
2.263750E+03  9.430592E-01 -1.244098E+02  9.611276E-03 -1.896030E+01  9.635981E-03 -1.901388E+01  9.423756E-01 -1.247266E+02 
2.264000E+03  9.428970E-01 -1.244393E+02  9.525759E-03 -1.876424E+01  9.538599E-03 -1.888227E+01  9.422667E-01 -1.247491E+02 
2.264250E+03  9.427250E-01 -1.244814E+02  9.427486E-03 -1.852432E+01  9.432822E-03 -1.853797E+01  9.421799E-01 -1.248016E+02 
2.264500E+03  9.425840E-01 -1.245171E+02  9.357478E-03 -1.820455E+01  9.332354E-03 -1.832179E+01  9.421204E-01 -1.248429E+02 
2.264750E+03  9.424825E-01 -1.245578E+02  9.249137E-03 -1.799656E+01  9.241436E-03 -1.792523E+01  9.419197E-01 -1.248917E+02 
2.265000E+03  9.423494E-01 -1.245910E+02  9.152858E-03 -1.788681E+01  9.160205E-03 -1.780947E+01  9.418800E-01 -1.249449E+02 
2.265250E+03  9.423591E-01 -1.246339E+02  9.071387E-03 -1.752362E+01  9.078979E-03 -1.748022E+01  9.417269E-01 -1.249895E+02 
2.265500E+03  9.420315E-01 -1.246603E+02  8.979339E-03 -1.725649E+01  8.978148E-03 -1.723863E+01  9.415472E-01 -1.250366E+02 
2.265750E+03  9.419504E-01 -1.247099E+02  8.878498E-03 -1.698375E+01  8.891627E-03 -1.692119E+01  9.414363E-01 -1.250812E+02 
2.266000E+03  9.417757E-01 -1.247468E+02  8.804305E-03 -1.670836E+01  8.813587E-03 -1.659701E+01  9.411879E-01 -1.251332E+02 
2.266250E+03  9.416506E-01 -1.247940E+02  8.706194E-03 -1.643552E+01  8.730280E-03 -1.623290E+01  9.412221E-01 -1.251805E+02 
2.266500E+03  9.414423E-01 -1.248214E+02  8.645567E-03 -1.596488E+01  8.650500E-03 -1.595939E+01  9.409216E-01 -1.252200E+02 
2.266750E+03  9.414352E-01 -1.248622E+02  8.557595E-03 -1.581026E+01  8.573923E-03 -1.566687E+01  9.408043E-01 -1.252685E+02 
2.267000E+03  9.411224E-01 -1.248944E+02  8.473879E-03 -1.535930E+01  8.487979E-03 -1.525787E+01  9.405236E-01 -1.253120E+02 
2.267250E+03  9.411335E-01 -1.249398E+02  8.414255E-03 -1.503917E+01  8.397501E-03 -1.481623E+01  9.403264E-01 -1.253608E+02 
2.267500E+03  9.409631E-01 -1.249681E+02  8.340171E-03 -1.454908E+01  8.343308E-03 -1.437142E+01  9.400369E-01 -1.253959E+02 
2.267750E+03  9.406747E-01 -1.250101E+02  8.268315E-03 -1.417009E+01  8.278922E-03 -1.406443E+01  9.399492E-01 -1.254455E+02 
2.268000E+03  9.407033E-01 -1.250360E+02  8.180403E-03 -1.369105E+01  8.192514E-03 -1.355582E+01  9.395249E-01 -1.254785E+02 
2.268250E+03  9.405142E-01 -1.250652E+02  8.123038E-03 -1.326028E+01  8.151301E-03 -1.315267E+01  9.393505E-01 -1.255180E+02 
2.268500E+03  9.403277E-01 -1.251137E+02  8.069540E-03 -1.281495E+01  8.088112E-03 -1.261994E+01  9.390966E-01 -1.255510E+02 
2.268750E+03  9.400789E-01 -1.251466E+02  8.000393E-03 -1.245600E+01  8.028596E-03 -1.232537E+01  9.388303E-01 -1.255886E+02 
2.269000E+03  9.401311E-01 -1.251754E+02  7.966409E-03 -1.199894E+01  7.965070E-03 -1.186302E+01  9.385728E-01 -1.256178E+02 
2.269250E+03  9.397766E-01 -1.252193E+02  7.910447E-03 -1.150219E+01  7.918035E-03 -1.139489E+01  9.383993E-01 -1.256513E+02 
2.269500E+03  9.397674E-01 -1.252519E+02  7.851013E-03 -1.111073E+01  7.843701E-03 -1.090039E+01  9.382195E-01 -1.256843E+02 
2.269750E+03  9.396410E-01 -1.252728E+02  7.834673E-03 -1.076020E+01  7.833929E-03 -1.058989E+01  9.379471E-01 -1.257209E+02 
2.270000E+03  9.395113E-01 -1.253021E+02  7.796797E-03 -1.029419E+01  7.794842E-03 -1.028818E+01  9.377618E-01 -1.257434E+02 
2.270250E+03  9.394812E-01 -1.253372E+02  7.756055E-03 -9.868602E+00  7.779099E-03 -9.775311E+00  9.376541E-01 -1.257696E+02 
2.270500E+03  9.393065E-01 -1.253614E+02  7.695761E-03 -9.530691E+00  7.736774E-03 -9.354313E+00  9.373395E-01 -1.257983E+02 
2.270750E+03  9.392440E-01 -1.253863E+02  7.699536E-03 -9.195535E+00  7.708960E-03 -9.040093E+00  9.371443E-01 -1.258241E+02 
2.271000E+03  9.391201E-01 -1.254150E+02  7.668084E-03 -8.849244E+00  7.713199E-03 -8.541866E+00  9.371051E-01 -1.258453E+02 
2.271250E+03  9.392424E-01 -1.254401E+02  7.647315E-03 -8.693018E+00  7.652914E-03 -8.387992E+00  9.371449E-01 -1.258671E+02 
2.271500E+03  9.392457E-01 -1.254688E+02  7.632173E-03 -8.466787E+00  7.648070E-03 -8.450618E+00  9.369839E-01 -1.258909E+02 
2.271750E+03  9.393133E-01 -1.255002E+02  7.633633E-03 -8.387509E+00  7.634549E-03 -8.176905E+00  9.370880E-01 -1.259154E+02 
2.272000E+03  9.393345E-01 -1.255221E+02  7.582328E-03 -8.372086E+00  7.612767E-03 -7.983130E+00  9.368516E-01 -1.259491E+02 
2.272250E+03  9.394987E-01 -1.255615E+02  7.589072E-03 -8.248570E+00  7.583542E-03 -8.122560E+00  9.370351E-01 -1.259655E+02 
2.272500E+03  9.396758E-01 -1.255876E+02  7.510065E-03 -8.197351E+00  7.537611E-03 -8.111509E+00  9.372969E-01 -1.259888E+02 
2.272750E+03  9.398945E-01 -1.256323E+02  7.498564E-03 -8.264890E+00  7.503060E-03 -8.141771E+00  9.371993E-01 -1.260192E+02 
2.273000E+03  9.402836E-01 -1.256718E+02  7.446961E-03 -8.468043E+00  7.465558E-03 -8.096352E+00  9.375346E-01 -1.260486E+02 
2.273250E+03  9.404380E-01 -1.257114E+02  7.397232E-03 -8.464487E+00  7.380238E-03 -8.463452E+00  9.377575E-01 -1.260842E+02 
2.273500E+03  9.407344E-01 -1.257592E+02  7.332756E-03 -8.693934E+00  7.322404E-03 -8.465683E+00  9.378798E-01 -1.261112E+02 
2.273750E+03  9.411454E-01 -1.258053E+02  7.249559E-03 -8.629713E+00  7.260422E-03 -8.627530E+00  9.381559E-01 -1.261408E+02 
2.274000E+03  9.412130E-01 -1.258582E+02  7.174849E-03 -8.902235E+00  7.186713E-03 -8.866295E+00  9.384426E-01 -1.261823E+02 
2.274250E+03  9.415839E-01 -1.259068E+02  7.103598E-03 -9.017341E+00  7.092819E-03 -8.921710E+00  9.388159E-01 -1.262068E+02 
2.274500E+03  9.417316E-01 -1.259658E+02  6.996644E-03 -9.062233E+00  7.009333E-03 -9.004285E+00  9.389781E-01 -1.262579E+02 
2.274750E+03  9.419889E-01 -1.260100E+02  6.906302E-03 -9.162761E+00  6.910394E-03 -8.989195E+00  9.394825E-01 -1.263037E+02 
2.275000E+03  9.421322E-01 -1.260812E+02  6.790318E-03 -9.022958E+00  6.809219E-03 -9.026396E+00  9.396920E-01 -1.263548E+02 
2.275250E+03  9.422248E-01 -1.261370E+02  6.699745E-03 -9.097567E+00  6.694846E-03 -8.993583E+00  9.398963E-01 -1.264020E+02 
2.275500E+03  9.423961E-01 -1.261982E+02  6.590767E-03 -8.944444E+00  6.578631E-03 -8.984335E+00  9.402944E-01 -1.264463E+02 
2.275750E+03  9.425394E-01 -1.262554E+02  6.470026E-03 -8.796801E+00  6.481041E-03 -8.837144E+00  9.405454E-01 -1.264977E+02 
2.276000E+03  9.426029E-01 -1.263152E+02  6.351041E-03 -8.552993E+00  6.368919E-03 -8.602928E+00  9.406156E-01 -1.265487E+02 
2.276250E+03  9.426583E-01 -1.263682E+02  6.250147E-03 -8.383730E+00  6.243887E-03 -8.282822E+00  9.408429E-01 -1.266159E+02 
2.276500E+03  9.425134E-01 -1.264175E+02  6.132569E-03 -8.227066E+00  6.121211E-03 -8.200888E+00  9.408511E-01 -1.266599E+02 
2.276750E+03  9.424523E-01 -1.264727E+02  6.006971E-03 -7.754658E+00  6.019956E-03 -7.751297E+00  9.410155E-01 -1.267203E+02 
2.277000E+03  9.425040E-01 -1.265206E+02  5.905867E-03 -7.443758E+00  5.913442E-03 -7.474138E+00  9.411397E-01 -1.267781E+02 
2.277250E+03  9.422629E-01 -1.265743E+02  5.792720E-03 -7.171839E+00  5.792138E-03 -6.901173E+00  9.412378E-01 -1.268385E+02 
2.277500E+03  9.421802E-01 -1.266268E+02  5.678034E-03 -6.464187E+00  5.684553E-03 -6.463709E+00  9.411442E-01 -1.268975E+02 
2.277750E+03  9.420261E-01 -1.266836E+02  5.578107E-03 -5.996536E+00  5.560981E-03 -6.035145E+00  9.411587E-01 -1.269546E+02 
2.278000E+03  9.418597E-01 -1.267326E+02  5.445946E-03 -5.517431E+00  5.473920E-03 -5.175724E+00  9.412387E-01 -1.269984E+02 
2.278250E+03  9.415343E-01 -1.267856E+02  5.348595E-03 -4.779366E+00  5.357440E-03 -4.663499E+00  9.411273E-01 -1.270673E+02 
2.278500E+03  9.412967E-01 -1.268304E+02  5.239001E-03 -3.828473E+00  5.248982E-03 -3.904282E+00  9.411527E-01 -1.271273E+02 
2.278750E+03  9.410037E-01 -1.268848E+02  5.129910E-03 -3.433429E+00  5.134155E-03 -2.994396E+00  9.411358E-01 -1.271899E+02 
2.279000E+03  9.407582E-01 -1.269315E+02  5.012361E-03 -2.307232E+00  5.055349E-03 -2.208927E+00  9.409206E-01 -1.272371E+02 
2.279250E+03  9.404960E-01 -1.269742E+02  4.935383E-03 -1.463463E+00  4.938509E-03 -1.292881E+00  9.408301E-01 -1.273027E+02 
2.279500E+03  9.402474E-01 -1.270144E+02  4.840168E-03 -5.917259E-01  4.838561E-03 -3.843905E-01  9.409458E-01 -1.273568E+02 
2.279750E+03  9.400606E-01 -1.270639E+02  4.738883E-03 5.596548E-01  4.756515E-03 6.459731E-01  9.406105E-01 -1.274192E+02 
2.280000E+03  9.397881E-01 -1.271007E+02  4.669718E-03 1.610952E+00  4.671970E-03 1.939109E+00  9.404225E-01 -1.274836E+02 
2.280250E+03  9.394874E-01 -1.271505E+02  4.587683E-03 3.013515E+00  4.578669E-03 3.138350E+00  9.402500E-01 -1.275396E+02 
2.280500E+03  9.393064E-01 -1.272064E+02  4.505310E-03 4.238231E+00  4.511431E-03 4.330908E+00  9.400978E-01 -1.276009E+02 
2.280750E+03  9.389626E-01 -1.272464E+02  4.437581E-03 5.554904E+00  4.444809E-03 5.835441E+00  9.397972E-01 -1.276592E+02 
2.281000E+03  9.385644E-01 -1.272972E+02  4.394661E-03 6.934294E+00  4.401439E-03 7.464774E+00  9.396098E-01 -1.277104E+02 
2.281250E+03  9.382963E-01 -1.273553E+02  4.326564E-03 8.340584E+00  4.351990E-03 8.580479E+00  9.391852E-01 -1.277710E+02 
2.281500E+03  9.381743E-01 -1.273930E+02  4.269765E-03 9.852676E+00  4.289380E-03 9.822069E+00  9.388642E-01 -1.278164E+02 
2.281750E+03  9.377371E-01 -1.274410E+02  4.211881E-03 1.148618E+01  4.245213E-03 1.150825E+01  9.386382E-01 -1.278696E+02 
2.282000E+03  9.376461E-01 -1.274809E+02  4.216893E-03 1.313705E+01  4.222602E-03 1.345763E+01  9.382132E-01 -1.279211E+02 
2.282250E+03  9.373221E-01 -1.275219E+02  4.194536E-03 1.442229E+01  4.200324E-03 1.466336E+01  9.378784E-01 -1.279756E+02 
2.282500E+03  9.370525E-01 -1.275554E+02  4.181588E-03 1.606245E+01  4.189148E-03 1.632032E+01  9.374842E-01 -1.280157E+02 
2.282750E+03  9.367443E-01 -1.275903E+02  4.180590E-03 1.780770E+01  4.194796E-03 1.798088E+01  9.370798E-01 -1.280673E+02 
2.283000E+03  9.365633E-01 -1.276238E+02  4.203798E-03 1.907168E+01  4.191666E-03 1.948406E+01  9.365618E-01 -1.281130E+02 
2.283250E+03  9.364798E-01 -1.276517E+02  4.209409E-03 2.031544E+01  4.201316E-03 2.054140E+01  9.362967E-01 -1.281461E+02 
2.283500E+03  9.362061E-01 -1.276886E+02  4.231949E-03 2.156131E+01  4.247491E-03 2.184163E+01  9.358322E-01 -1.281934E+02 
2.283750E+03  9.359444E-01 -1.277202E+02  4.255405E-03 2.264957E+01  4.255757E-03 2.256670E+01  9.354235E-01 -1.282231E+02 
2.284000E+03  9.358055E-01 -1.277425E+02  4.273350E-03 2.336739E+01  4.283332E-03 2.362115E+01  9.350863E-01 -1.282452E+02 
2.284250E+03  9.358453E-01 -1.277715E+02  4.308762E-03 2.438996E+01  4.312536E-03 2.463554E+01  9.348770E-01 -1.282786E+02 
2.284500E+03  9.359180E-01 -1.277945E+02  4.336327E-03 2.444389E+01  4.360967E-03 2.465844E+01  9.343989E-01 -1.283146E+02 
2.284750E+03  9.358905E-01 -1.278226E+02  4.342818E-03 2.520488E+01  4.351238E-03 2.516568E+01  9.340341E-01 -1.283366E+02 
2.285000E+03  9.359127E-01 -1.278406E+02  4.356057E-03 2.593738E+01  4.365424E-03 2.589271E+01  9.338554E-01 -1.283518E+02 
2.285250E+03  9.360911E-01 -1.278612E+02  4.373956E-03 2.613034E+01  4.369465E-03 2.599892E+01  9.338371E-01 -1.283781E+02 
2.285500E+03  9.363946E-01 -1.278831E+02  4.362977E-03 2.602094E+01  4.366855E-03 2.593504E+01  9.336285E-01 -1.283900E+02 
2.285750E+03  9.367076E-01 -1.279122E+02  4.343335E-03 2.598859E+01  4.348588E-03 2.626708E+01  9.337493E-01 -1.284096E+02 
2.286000E+03  9.368396E-01 -1.279522E+02  4.305901E-03 2.605710E+01  4.301023E-03 2.628359E+01  9.337835E-01 -1.284267E+02 
2.286250E+03  9.372037E-01 -1.279910E+02  4.255127E-03 2.623180E+01  4.248264E-03 2.632327E+01  9.340118E-01 -1.284549E+02 
2.286500E+03  9.374555E-01 -1.280374E+02  4.211032E-03 2.653884E+01  4.203274E-03 2.652413E+01  9.339399E-01 -1.284862E+02 
2.286750E+03  9.377045E-01 -1.280858E+02  4.138703E-03 2.644529E+01  4.135105E-03 2.666947E+01  9.342803E-01 -1.285153E+02 
2.287000E+03  9.379910E-01 -1.281076E+02  4.054068E-03 2.671314E+01  4.064239E-03 2.694156E+01  9.347205E-01 -1.285507E+02 
2.287250E+03  9.383473E-01 -1.281782E+02  3.948518E-03 2.741360E+01  3.965637E-03 2.740886E+01  9.349895E-01 -1.285893E+02 
2.287500E+03  9.385557E-01 -1.282243E+02  3.873149E-03 2.812645E+01  3.874036E-03 2.839185E+01  9.353773E-01 -1.286330E+02 
2.287750E+03  9.385827E-01 -1.282825E+02  3.785208E-03 2.907178E+01  3.783824E-03 2.906860E+01  9.355468E-01 -1.286765E+02 
2.288000E+03  9.388056E-01 -1.283282E+02  3.699887E-03 3.002425E+01  3.695023E-03 3.008302E+01  9.359967E-01 -1.287327E+02 
2.288250E+03  9.389394E-01 -1.283803E+02  3.607249E-03 3.081180E+01  3.586829E-03 3.088216E+01  9.361918E-01 -1.287817E+02 
2.288500E+03  9.391949E-01 -1.284417E+02  3.514809E-03 3.243540E+01  3.516342E-03 3.253118E+01  9.363251E-01 -1.288295E+02 
