! Matrix data file written by TouchstoneData, EPCOS AG
! FILENAME: "newformat_LZ36B_4a_NB.s3p"
! COMMENT: "(LZ36B_4a_NB.s3p) Epcos AG 01.02.2012 13:38:"
! INFO: nport=3, nfreq=1601
! DATE: "Fri Feb  3 14:31:20 2012"
! USER: "Sergey Rostovtsev"
!
! port | pin | signal
! -----|-----|--------
!   1  |  2  |  in
!   2  |  4  |  out
!   3  |  6  |  out
! --------------------
! 
# MHZ S MA R 50
! freq  magS11 angS11  magS12 angS12  magS13 angS13  ...
1.515000E+03  9.444440E-01 -1.169175E+02  2.798447E-02 1.553687E+02  3.071954E-02 -1.397184E+00 
2.786117E-02 1.555682E+02  9.200249E-01 -1.009500E+02  1.917950E-02 -1.798571E+02 
3.071578E-02 -1.290303E+00  1.934761E-02 -1.798989E+02  9.595982E-01 -7.153383E+01 
1.515562E+03  9.448241E-01 -1.172206E+02  2.843617E-02 1.553160E+02  3.062337E-02 -1.599966E+00 
2.823997E-02 1.554600E+02  9.202577E-01 -1.013707E+02  1.928695E-02 1.799799E+02 
3.066222E-02 -1.517308E+00  1.948366E-02 1.799002E+02  9.595950E-01 -7.157004E+01 
1.516125E+03  9.452135E-01 -1.175061E+02  2.880466E-02 1.551821E+02  3.050030E-02 -1.761278E+00 
2.863815E-02 1.554247E+02  9.207674E-01 -1.018153E+02  1.941642E-02 1.797690E+02 
3.055361E-02 -1.652760E+00  1.962100E-02 1.796821E+02  9.595661E-01 -7.160426E+01 
1.516688E+03  9.453691E-01 -1.178203E+02  2.923226E-02 1.550241E+02  3.041074E-02 -1.919531E+00 
2.905390E-02 1.552467E+02  9.215022E-01 -1.022821E+02  1.953741E-02 1.795724E+02 
3.043915E-02 -1.823722E+00  1.971954E-02 1.795155E+02  9.594704E-01 -7.163292E+01 
1.517250E+03  9.453575E-01 -1.181553E+02  2.968010E-02 1.548506E+02  3.028136E-02 -2.066404E+00 
2.947656E-02 1.550767E+02  9.221405E-01 -1.027574E+02  1.970029E-02 1.795164E+02 
3.032376E-02 -1.997306E+00  1.989971E-02 1.794094E+02  9.594622E-01 -7.166584E+01 
1.517812E+03  9.452667E-01 -1.184933E+02  3.013866E-02 1.546349E+02  3.013881E-02 -2.257900E+00 
2.991753E-02 1.548303E+02  9.231117E-01 -1.032289E+02  1.987714E-02 1.792911E+02 
3.020355E-02 -2.166216E+00  2.006308E-02 1.791908E+02  9.592573E-01 -7.170988E+01 
1.518375E+03  9.447032E-01 -1.188470E+02  3.058463E-02 1.543316E+02  3.001032E-02 -2.397537E+00 
3.035474E-02 1.544888E+02  9.246033E-01 -1.037581E+02  2.005964E-02 1.790063E+02 
3.004687E-02 -2.331032E+00  2.024620E-02 1.788568E+02  9.590703E-01 -7.174302E+01 
1.518938E+03  9.437456E-01 -1.192078E+02  3.098463E-02 1.539705E+02  2.984348E-02 -2.510074E+00 
3.071970E-02 1.541364E+02  9.261085E-01 -1.043584E+02  2.020187E-02 1.787733E+02 
2.988835E-02 -2.456941E+00  2.040223E-02 1.785770E+02  9.587020E-01 -7.177144E+01 
1.519500E+03  9.424954E-01 -1.195538E+02  3.138242E-02 1.535806E+02  2.969203E-02 -2.620145E+00 
3.109890E-02 1.537239E+02  9.274157E-01 -1.050129E+02  2.035847E-02 1.785680E+02 
2.973379E-02 -2.596049E+00  2.054841E-02 1.783800E+02  9.587352E-01 -7.180384E+01 
1.520062E+03  9.408563E-01 -1.198843E+02  3.171231E-02 1.530478E+02  2.953433E-02 -2.685451E+00 
3.140122E-02 1.532317E+02  9.279511E-01 -1.057094E+02  2.055838E-02 1.783444E+02 
2.958612E-02 -2.659499E+00  2.074225E-02 1.781155E+02  9.586463E-01 -7.183421E+01 
1.520625E+03  9.390496E-01 -1.201841E+02  3.194766E-02 1.526570E+02  2.941898E-02 -2.755947E+00 
3.164658E-02 1.528305E+02  9.280311E-01 -1.064663E+02  2.077173E-02 1.780075E+02 
2.945158E-02 -2.695635E+00  2.095654E-02 1.778546E+02  9.585361E-01 -7.185436E+01 
1.521188E+03  9.376800E-01 -1.204950E+02  3.215237E-02 1.522984E+02  2.926713E-02 -2.858196E+00 
3.184553E-02 1.524558E+02  9.271897E-01 -1.072540E+02  2.098507E-02 1.776336E+02 
2.932384E-02 -2.760556E+00  2.116806E-02 1.775237E+02  9.585298E-01 -7.188013E+01 
1.521750E+03  9.359639E-01 -1.208370E+02  3.234225E-02 1.519797E+02  2.911347E-02 -2.932097E+00 
3.204500E-02 1.520895E+02  9.259992E-01 -1.080632E+02  2.122083E-02 1.772162E+02 
2.916917E-02 -2.834796E+00  2.139861E-02 1.770083E+02  9.585004E-01 -7.189348E+01 
1.522312E+03  9.332910E-01 -1.211939E+02  3.253002E-02 1.514875E+02  2.894883E-02 -2.996002E+00 
3.225465E-02 1.516507E+02  9.240170E-01 -1.089151E+02  2.141406E-02 1.766186E+02 
2.900535E-02 -2.846814E+00  2.161238E-02 1.764680E+02  9.586048E-01 -7.191709E+01 
1.522875E+03  9.307568E-01 -1.214832E+02  3.261533E-02 1.510748E+02  2.881649E-02 -2.989517E+00 
3.234027E-02 1.512689E+02  9.214187E-01 -1.097745E+02  2.160004E-02 1.760944E+02 
2.884965E-02 -2.873859E+00  2.180212E-02 1.759866E+02  9.588063E-01 -7.194164E+01 
1.523438E+03  9.275897E-01 -1.217437E+02  3.261560E-02 1.506498E+02  2.867261E-02 -2.968232E+00 
3.233518E-02 1.508297E+02  9.178507E-01 -1.106770E+02  2.173130E-02 1.755789E+02 
2.872876E-02 -2.819425E+00  2.192883E-02 1.754046E+02  9.589550E-01 -7.195868E+01 
1.524000E+03  9.253313E-01 -1.219432E+02  3.245211E-02 1.503746E+02  2.858109E-02 -2.966189E+00 
3.219308E-02 1.505313E+02  9.129629E-01 -1.115620E+02  2.190506E-02 1.750984E+02 
2.863025E-02 -2.784737E+00  2.204858E-02 1.748706E+02  9.590626E-01 -7.198893E+01 
1.524562E+03  9.235545E-01 -1.221074E+02  3.221852E-02 1.502996E+02  2.850584E-02 -2.964738E+00 
3.198489E-02 1.504780E+02  9.070269E-01 -1.124232E+02  2.203720E-02 1.746018E+02 
2.854859E-02 -2.805125E+00  2.220301E-02 1.743995E+02  9.589940E-01 -7.201745E+01 
1.525125E+03  9.236512E-01 -1.223401E+02  3.200551E-02 1.504014E+02  2.839271E-02 -3.114760E+00 
3.177782E-02 1.505311E+02  9.006736E-01 -1.132431E+02  2.223978E-02 1.742229E+02 
2.847925E-02 -2.926720E+00  2.240599E-02 1.740783E+02  9.588824E-01 -7.206173E+01 
1.525688E+03  9.235250E-01 -1.226082E+02  3.161577E-02 1.504957E+02  2.828431E-02 -3.238752E+00 
3.140821E-02 1.506455E+02  8.941593E-01 -1.140641E+02  2.245321E-02 1.738125E+02 
2.838076E-02 -3.086314E+00  2.262748E-02 1.736250E+02  9.587542E-01 -7.209548E+01 
1.526250E+03  9.229412E-01 -1.229999E+02  3.127795E-02 1.509957E+02  2.812542E-02 -3.459941E+00 
3.109162E-02 1.511361E+02  8.885991E-01 -1.148298E+02  2.270410E-02 1.730933E+02 
2.821628E-02 -3.274616E+00  2.288033E-02 1.729094E+02  9.587310E-01 -7.213968E+01 
1.526812E+03  9.206145E-01 -1.232681E+02  3.087092E-02 1.517747E+02  2.800246E-02 -3.465217E+00 
3.070313E-02 1.519040E+02  8.832955E-01 -1.157279E+02  2.291059E-02 1.721943E+02 
2.809047E-02 -3.314019E+00  2.307621E-02 1.719824E+02  9.584871E-01 -7.218110E+01 
1.527375E+03  9.198839E-01 -1.234889E+02  3.063798E-02 1.526092E+02  2.787374E-02 -3.598230E+00 
3.050156E-02 1.527542E+02  8.767412E-01 -1.166890E+02  2.310958E-02 1.712235E+02 
2.800284E-02 -3.396954E+00  2.329570E-02 1.710452E+02  9.583625E-01 -7.222165E+01 
1.527938E+03  9.209943E-01 -1.237697E+02  3.014476E-02 1.529952E+02  2.775374E-02 -3.802611E+00 
3.004522E-02 1.530631E+02  8.700057E-01 -1.177571E+02  2.321073E-02 1.703408E+02 
2.790416E-02 -3.626088E+00  2.339259E-02 1.701714E+02  9.581676E-01 -7.225446E+01 
1.528500E+03  9.213271E-01 -1.242056E+02  2.933379E-02 1.542437E+02  2.759703E-02 -4.020567E+00 
2.925879E-02 1.543360E+02  8.610616E-01 -1.189179E+02  2.328212E-02 1.693146E+02 
2.775115E-02 -3.847293E+00  2.347227E-02 1.691635E+02  9.581471E-01 -7.228669E+01 
1.529062E+03  9.210046E-01 -1.246578E+02  2.851919E-02 1.564582E+02  2.741231E-02 -4.295860E+00 
2.838895E-02 1.566004E+02  8.490023E-01 -1.200675E+02  2.328019E-02 1.683083E+02 
2.755138E-02 -4.185005E+00  2.347278E-02 1.681521E+02  9.581254E-01 -7.232720E+01 
1.529625E+03  9.198364E-01 -1.251381E+02  2.778312E-02 1.594353E+02  2.720158E-02 -4.548458E+00 
2.767086E-02 1.595594E+02  8.338602E-01 -1.212651E+02  2.328255E-02 1.670706E+02 
2.731912E-02 -4.391431E+00  2.347417E-02 1.669633E+02  9.581407E-01 -7.236454E+01 
1.530188E+03  9.187401E-01 -1.256281E+02  2.726202E-02 1.638931E+02  2.699329E-02 -4.821283E+00 
2.717586E-02 1.640680E+02  8.150068E-01 -1.223030E+02  2.320899E-02 1.663259E+02 
2.710507E-02 -4.665033E+00  2.336285E-02 1.661883E+02  9.581162E-01 -7.239493E+01 
1.530750E+03  9.161156E-01 -1.262026E+02  2.784523E-02 1.691573E+02  2.669595E-02 -5.022165E+00 
2.774696E-02 1.693441E+02  7.919181E-01 -1.229258E+02  2.290179E-02 1.653619E+02 
2.678138E-02 -4.897160E+00  2.309272E-02 1.652557E+02  9.580823E-01 -7.243212E+01 
1.531312E+03  9.121703E-01 -1.266691E+02  2.936597E-02 1.736980E+02  2.641099E-02 -5.068597E+00 
2.924519E-02 1.739130E+02  7.696110E-01 -1.229794E+02  2.246955E-02 1.650547E+02 
2.649875E-02 -4.947542E+00  2.263592E-02 1.650184E+02  9.579338E-01 -7.245846E+01 
1.531875E+03  9.082047E-01 -1.271100E+02  3.182067E-02 1.760505E+02  2.613833E-02 -5.141448E+00 
3.171251E-02 1.762373E+02  7.527591E-01 -1.226574E+02  2.222465E-02 1.649785E+02 
2.619894E-02 -4.973588E+00  2.236370E-02 1.648876E+02  9.581260E-01 -7.248699E+01 
1.532438E+03  9.048441E-01 -1.275008E+02  3.369202E-02 1.756538E+02  2.592654E-02 -5.090662E+00 
3.360453E-02 1.758671E+02  7.450115E-01 -1.218611E+02  2.223009E-02 1.656956E+02 
2.597755E-02 -4.935785E+00  2.240512E-02 1.656239E+02  9.582077E-01 -7.251880E+01 
1.533000E+03  9.026722E-01 -1.279285E+02  3.453383E-02 1.756511E+02  2.572374E-02 -5.139900E+00 
3.438602E-02 1.758206E+02  7.462832E-01 -1.214280E+02  2.244895E-02 1.659488E+02 
2.579122E-02 -4.992030E+00  2.261572E-02 1.658912E+02  9.582658E-01 -7.255690E+01 
1.533562E+03  9.006163E-01 -1.284735E+02  3.478104E-02 1.758630E+02  2.549770E-02 -5.294016E+00 
3.465618E-02 1.760383E+02  7.510400E-01 -1.216464E+02  2.282201E-02 1.659509E+02 
2.553526E-02 -5.185754E+00  2.299780E-02 1.659251E+02  9.584409E-01 -7.259490E+01 
1.534125E+03  8.944885E-01 -1.291160E+02  3.408696E-02 1.764938E+02  2.519796E-02 -5.280466E+00 
3.393064E-02 1.766366E+02  7.597091E-01 -1.223009E+02  2.305274E-02 1.651082E+02 
2.525223E-02 -5.180399E+00  2.325387E-02 1.650924E+02  9.585296E-01 -7.262014E+01 
1.534688E+03  8.878562E-01 -1.295110E+02  3.270438E-02 1.779088E+02  2.494736E-02 -5.243888E+00 
3.252522E-02 1.780467E+02  7.644109E-01 -1.235353E+02  2.329880E-02 1.642987E+02 
2.500267E-02 -5.141691E+00  2.351044E-02 1.642332E+02  9.587328E-01 -7.265281E+01 
1.535250E+03  8.803729E-01 -1.297657E+02  3.070992E-02 -1.774236E+02  2.474173E-02 -5.021524E+00 
3.054363E-02 -1.773550E+02  7.631871E-01 -1.251501E+02  2.335270E-02 1.631211E+02 
2.480459E-02 -4.929480E+00  2.352608E-02 1.631423E+02  9.588041E-01 -7.268358E+01 
1.535812E+03  8.762967E-01 -1.298705E+02  2.924146E-02 -1.694827E+02  2.465771E-02 -5.022894E+00 
2.902880E-02 -1.694357E+02  7.593651E-01 -1.270182E+02  2.340150E-02 1.622295E+02 
2.469494E-02 -4.924530E+00  2.360189E-02 1.620960E+02  9.588187E-01 -7.272301E+01 
1.536375E+03  8.743522E-01 -1.298566E+02  2.901674E-02 -1.592864E+02  2.457358E-02 -5.019808E+00 
2.879352E-02 -1.591856E+02  7.482119E-01 -1.287190E+02  2.324920E-02 1.612611E+02 
2.462965E-02 -4.971511E+00  2.342998E-02 1.612778E+02  9.589585E-01 -7.274829E+01 
1.536938E+03  8.775777E-01 -1.301443E+02  3.043385E-02 -1.466112E+02  2.451092E-02 -5.486164E+00 
3.021066E-02 -1.465571E+02  7.384936E-01 -1.304719E+02  2.309125E-02 1.605468E+02 
2.453288E-02 -5.411398E+00  2.331048E-02 1.604462E+02  9.592331E-01 -7.278145E+01 
1.537500E+03  8.816048E-01 -1.305646E+02  3.460914E-02 -1.334339E+02  2.436703E-02 -6.157110E+00 
3.435689E-02 -1.332936E+02  7.263340E-01 -1.324205E+02  2.302882E-02 1.599674E+02 
2.439987E-02 -6.057947E+00  2.321760E-02 1.598880E+02  9.593579E-01 -7.280277E+01 
1.538062E+03  8.845555E-01 -1.312579E+02  4.306639E-02 -1.228427E+02  2.414699E-02 -7.069058E+00 
4.274988E-02 -1.226676E+02  7.138291E-01 -1.344540E+02  2.306117E-02 1.594981E+02 
2.414717E-02 -6.977951E+00  2.325905E-02 1.594245E+02  9.593822E-01 -7.282415E+01 
1.538625E+03  8.861237E-01 -1.321591E+02  5.565834E-02 -1.154439E+02  2.376819E-02 -8.190387E+00 
5.525764E-02 -1.152887E+02  6.997718E-01 -1.371703E+02  2.318173E-02 1.585620E+02 
2.377433E-02 -8.132116E+00  2.336027E-02 1.585275E+02  9.592493E-01 -7.285213E+01 
1.539188E+03  8.840621E-01 -1.332390E+02  7.315867E-02 -1.112072E+02  2.320491E-02 -9.433871E+00 
7.261222E-02 -1.110553E+02  6.799331E-01 -1.405326E+02  2.328384E-02 1.566597E+02 
2.318823E-02 -9.396930E+00  2.346177E-02 1.566283E+02  9.590445E-01 -7.287873E+01 
1.539750E+03  8.789115E-01 -1.343933E+02  9.675029E-02 -1.102877E+02  2.244354E-02 -1.067892E+01 
9.603084E-02 -1.101546E+02  6.482283E-01 -1.448148E+02  2.302405E-02 1.542613E+02 
2.242861E-02 -1.045992E+01  2.320217E-02 1.541813E+02  9.589013E-01 -7.289877E+01 
1.540312E+03  8.692126E-01 -1.356061E+02  1.268606E-01 -1.121564E+02  2.143522E-02 -1.177202E+01 
1.259121E-01 -1.119850E+02  6.009942E-01 -1.498402E+02  2.221708E-02 1.512095E+02 
2.143639E-02 -1.167889E+01  2.241577E-02 1.511532E+02  9.587446E-01 -7.292253E+01 
1.540875E+03  8.540693E-01 -1.367446E+02  1.644184E-01 -1.164938E+02  2.026084E-02 -1.245426E+01 
1.632472E-01 -1.163277E+02  5.316320E-01 -1.555889E+02  2.092536E-02 1.488312E+02 
2.022351E-02 -1.230549E+01  2.107078E-02 1.486996E+02  9.587060E-01 -7.295553E+01 
1.541438E+03  8.345551E-01 -1.376403E+02  2.091609E-01 -1.230763E+02  1.884046E-02 -1.252415E+01 
2.077068E-01 -1.229128E+02  4.348870E-01 -1.615979E+02  1.901083E-02 1.469399E+02 
1.884884E-02 -1.242722E+01  1.917530E-02 1.467890E+02  9.587229E-01 -7.299375E+01 
1.542000E+03  8.114098E-01 -1.380462E+02  2.593211E-01 -1.319540E+02  1.735407E-02 -1.101464E+01 
2.575691E-01 -1.318069E+02  3.064321E-01 -1.653009E+02  1.656981E-02 1.479135E+02 
1.737518E-02 -1.094311E+01  1.668781E-02 1.479319E+02  9.587634E-01 -7.302713E+01 
1.542562E+03  7.894237E-01 -1.377937E+02  3.085620E-01 -1.424916E+02  1.597989E-02 -7.729416E+00 
3.064178E-01 -1.423571E+02  1.674160E-01 -1.543237E+02  1.421198E-02 1.533944E+02 
1.600049E-02 -7.659242E+00  1.434542E-02 1.533578E+02  9.587483E-01 -7.305446E+01 
1.543125E+03  7.742923E-01 -1.368773E+02  3.513310E-01 -1.541192E+02  1.515528E-02 -2.343883E+00 
3.489191E-01 -1.540012E+02  1.356891E-01 -9.359484E+01  1.303257E-02 1.658152E+02 
1.517245E-02 -2.222872E+00  1.313710E-02 1.657843E+02  9.587965E-01 -7.308761E+01 
1.543688E+03  7.712178E-01 -1.357965E+02  3.800842E-01 -1.657346E+02  1.501923E-02 3.327414E+00 
3.774019E-01 -1.656240E+02  2.697922E-01 -7.138132E+01  1.396363E-02 1.789768E+02 
1.503550E-02 3.385403E+00  1.409433E-02 1.789524E+02  9.587611E-01 -7.311774E+01 
1.544250E+03  7.777269E-01 -1.350967E+02  3.944787E-01 -1.764162E+02  1.543072E-02 7.856615E+00 
3.915848E-01 -1.763131E+02  4.087938E-01 -7.389660E+01  1.650560E-02 -1.733619E+02 
1.544829E-02 7.894028E+00  1.661558E-02 -1.734043E+02  9.587276E-01 -7.315038E+01 
1.544812E+03  7.887802E-01 -1.350360E+02  3.982424E-01 1.744124E+02  1.601014E-02 1.059876E+01 
3.952089E-01 1.745198E+02  5.172815E-01 -8.027399E+01  1.938354E-02 -1.713811E+02 
1.603005E-02 1.065651E+01  1.956536E-02 -1.714698E+02  9.585965E-01 -7.318683E+01 
1.545375E+03  7.992557E-01 -1.355316E+02  3.969240E-01 1.667406E+02  1.646562E-02 1.220692E+01 
3.936893E-01 1.668559E+02  5.951958E-01 -8.686575E+01  2.197478E-02 -1.721038E+02 
1.647968E-02 1.223718E+01  2.217356E-02 -1.722136E+02  9.585316E-01 -7.322058E+01 
1.545938E+03  8.071948E-01 -1.364322E+02  3.937350E-01 1.602995E+02  1.678648E-02 1.314677E+01 
3.904611E-01 1.604287E+02  6.498662E-01 -9.287940E+01  2.421178E-02 -1.739252E+02 
1.679438E-02 1.332344E+01  2.440480E-02 -1.740338E+02  9.585792E-01 -7.324640E+01 
1.546500E+03  8.112624E-01 -1.376285E+02  3.905874E-01 1.548212E+02  1.691531E-02 1.405527E+01 
3.872940E-01 1.549638E+02  6.863894E-01 -9.829486E+01  2.608429E-02 -1.761996E+02 
1.689639E-02 1.407408E+01  2.629862E-02 -1.762699E+02  9.585113E-01 -7.328002E+01 
1.547062E+03  8.111427E-01 -1.390016E+02  3.886907E-01 1.500091E+02  1.695242E-02 1.507300E+01 
3.853221E-01 1.501559E+02  7.097674E-01 -1.031387E+02  2.767587E-02 -1.786624E+02 
1.694064E-02 1.509414E+01  2.792355E-02 -1.787150E+02  9.583850E-01 -7.330860E+01 
1.547625E+03  8.061772E-01 -1.405298E+02  3.882527E-01 1.455992E+02  1.686470E-02 1.648200E+01 
3.847545E-01 1.457550E+02  7.236534E-01 -1.074855E+02  2.901635E-02 1.789452E+02 
1.684229E-02 1.652512E+01  2.928001E-02 1.788691E+02  9.583833E-01 -7.333910E+01 
1.548188E+03  7.948095E-01 -1.421246E+02  3.886807E-01 1.413512E+02  1.681939E-02 1.839910E+01 
3.851366E-01 1.415048E+02  7.298461E-01 -1.114439E+02  3.015695E-02 1.764180E+02 
1.677461E-02 1.848427E+01  3.043710E-02 1.763214E+02  9.583088E-01 -7.336466E+01 
1.548750E+03  7.752653E-01 -1.435861E+02  3.888056E-01 1.370450E+02  1.692950E-02 2.099973E+01 
3.854101E-01 1.372207E+02  7.306129E-01 -1.150909E+02  3.116443E-02 1.739466E+02 
1.686894E-02 2.115700E+01  3.143562E-02 1.739246E+02  9.582599E-01 -7.340797E+01 
1.549312E+03  7.448750E-01 -1.444395E+02  3.854292E-01 1.325537E+02  1.742092E-02 2.394756E+01 
3.821907E-01 1.327356E+02  7.267804E-01 -1.184958E+02  3.191418E-02 1.713701E+02 
1.740474E-02 2.398008E+01  3.223509E-02 1.712232E+02  9.582766E-01 -7.344320E+01 
1.549875E+03  7.139888E-01 -1.434778E+02  3.749413E-01 1.286489E+02  1.846511E-02 2.541861E+01 
3.719295E-01 1.288219E+02  7.194223E-01 -1.217957E+02  3.238596E-02 1.688740E+02 
1.847952E-02 2.564251E+01  3.268286E-02 1.687628E+02  9.582649E-01 -7.348042E+01 
1.550438E+03  7.089052E-01 -1.411651E+02  3.620484E-01 1.264464E+02  1.947036E-02 2.441775E+01 
3.592822E-01 1.266105E+02  7.057945E-01 -1.251068E+02  3.254251E-02 1.667710E+02 
1.948654E-02 2.456583E+01  3.286449E-02 1.667163E+02  9.582515E-01 -7.350464E+01 
1.551000E+03  7.321838E-01 -1.400752E+02  3.558886E-01 1.255877E+02  1.973079E-02 2.208745E+01 
3.531379E-01 1.257397E+02  6.783083E-01 -1.284323E+02  3.271059E-02 1.648709E+02 
1.973015E-02 2.236179E+01  3.302599E-02 1.647317E+02  9.582384E-01 -7.354430E+01 
1.551562E+03  7.558289E-01 -1.408927E+02  3.533055E-01 1.247357E+02  1.933079E-02 2.037525E+01 
3.506551E-01 1.248949E+02  6.332919E-01 -1.296824E+02  3.233052E-02 1.631841E+02 
1.934535E-02 2.064332E+01  3.262332E-02 1.630507E+02  9.583048E-01 -7.357374E+01 
1.552125E+03  7.703800E-01 -1.425962E+02  3.529704E-01 1.251142E+02  1.859970E-02 1.995190E+01 
3.503352E-01 1.252742E+02  6.120909E-01 -1.274020E+02  3.170163E-02 1.632945E+02 
1.861070E-02 2.026490E+01  3.200936E-02 1.631533E+02  9.583825E-01 -7.360622E+01 
1.552688E+03  7.769838E-01 -1.447357E+02  3.662332E-01 1.261354E+02  1.766799E-02 2.103684E+01 
3.636962E-01 1.263067E+02  6.359822E-01 -1.261531E+02  3.212165E-02 1.649205E+02 
1.771466E-02 2.125129E+01  3.242070E-02 1.647776E+02  9.580280E-01 -7.364591E+01 
1.553250E+03  7.738490E-01 -1.468619E+02  3.905885E-01 1.256149E+02  1.709757E-02 2.396972E+01 
3.880454E-01 1.258082E+02  6.639830E-01 -1.278959E+02  3.356705E-02 1.653636E+02 
1.716876E-02 2.421458E+01  3.388895E-02 1.652191E+02  9.575977E-01 -7.369704E+01 
1.553812E+03  7.679808E-01 -1.488283E+02  4.155634E-01 1.236921E+02  1.689587E-02 2.704571E+01 
4.130740E-01 1.239143E+02  6.808661E-01 -1.307890E+02  3.513201E-02 1.646686E+02 
1.694520E-02 2.718640E+01  3.548006E-02 1.645055E+02  9.569330E-01 -7.374053E+01 
1.554375E+03  7.597490E-01 -1.508344E+02  4.400553E-01 1.211114E+02  1.686168E-02 3.024439E+01 
4.376016E-01 1.213359E+02  6.899740E-01 -1.343008E+02  3.670263E-02 1.632864E+02 
1.693103E-02 3.022342E+01  3.706133E-02 1.630771E+02  9.566842E-01 -7.377464E+01 
1.554938E+03  7.498777E-01 -1.528799E+02  4.628692E-01 1.181729E+02  1.701149E-02 3.344502E+01 
4.605975E-01 1.183933E+02  6.908471E-01 -1.380413E+02  3.814218E-02 1.614204E+02 
1.707814E-02 3.333408E+01  3.851175E-02 1.612985E+02  9.565501E-01 -7.381093E+01 
1.555500E+03  7.375380E-01 -1.549436E+02  4.845048E-01 1.151280E+02  1.731498E-02 3.653233E+01 
4.822242E-01 1.153490E+02  6.853640E-01 -1.418165E+02  3.941318E-02 1.593565E+02 
1.739865E-02 3.653420E+01  3.975999E-02 1.592249E+02  9.564038E-01 -7.385339E+01 
1.556062E+03  7.229405E-01 -1.570851E+02  5.062852E-01 1.120353E+02  1.776963E-02 3.961922E+01 
5.041500E-01 1.122450E+02  6.751691E-01 -1.456585E+02  4.062269E-02 1.572399E+02 
1.783058E-02 3.945357E+01  4.100155E-02 1.571303E+02  9.562806E-01 -7.387894E+01 
1.556625E+03  7.061159E-01 -1.592433E+02  5.282618E-01 1.088743E+02  1.839113E-02 4.241471E+01 
