! Matrix data file written by TouchstoneData, EPCOS AG
! FILENAME: "B3925_NB.s2p"
! COMMENT: "NWA-Port1 : 98.0ps NWA-Port2 : 98.0ps PCB2031"
! INFO: nport=2, nfreq=1601
! DATE: "Fri Jan 11 2013"
! USER: "Hiroshi Tanaka"
!
! port | pin | signal
! -----|-----|--------
!   1  |  2  |  in
!   2  |  5  |  out
! --------------------
! 
# MHZ S MA R 50
! freq  magS11 angS11  magS21 angS21  magS12 angS12  magS22 angS22
3.839200E+02    9.793606E-01  -6.020609E+01    3.976748E-04  -1.627301E+02    4.022692E-04  -1.629559E+02    9.817991E-01  -5.644707E+01 
3.839825E+02    9.795062E-01  -6.023215E+01    4.036948E-04  -1.634870E+02    3.997798E-04  -1.635817E+02    9.817101E-01  -5.646554E+01 
3.840450E+02    9.794800E-01  -6.025443E+01    4.179879E-04  -1.637041E+02    4.130381E-04  -1.626591E+02    9.817147E-01  -5.648923E+01 
3.841075E+02    9.795878E-01  -6.027460E+01    4.138159E-04  -1.657021E+02    4.191734E-04  -1.660058E+02    9.816491E-01  -5.650529E+01 
3.841700E+02    9.795681E-01  -6.029981E+01    4.053244E-04  -1.676537E+02    4.016034E-04  -1.672387E+02    9.816232E-01  -5.652843E+01 
3.842325E+02    9.795548E-01  -6.032786E+01    3.983946E-04  -1.665805E+02    3.993736E-04  -1.674497E+02    9.815844E-01  -5.654856E+01 
3.842950E+02    9.795565E-01  -6.034762E+01    4.091307E-04  -1.661270E+02    3.939939E-04  -1.658736E+02    9.815354E-01  -5.656448E+01 
3.843575E+02    9.796306E-01  -6.036376E+01    4.064846E-04  -1.665919E+02    3.995980E-04  -1.664115E+02    9.815578E-01  -5.657950E+01 
3.844200E+02    9.796630E-01  -6.038398E+01    4.139386E-04  -1.677470E+02    4.106843E-04  -1.667300E+02    9.816114E-01  -5.659626E+01 
3.844825E+02    9.796123E-01  -6.040634E+01    4.045289E-04  -1.687315E+02    4.024739E-04  -1.678383E+02    9.816693E-01  -5.661771E+01 
3.845450E+02    9.797268E-01  -6.043159E+01    4.055041E-04  -1.672360E+02    4.042000E-04  -1.687093E+02    9.816818E-01  -5.663176E+01 
3.846075E+02    9.796848E-01  -6.045165E+01    3.954035E-04  -1.692928E+02    3.909804E-04  -1.703668E+02    9.817166E-01  -5.664798E+01 
3.846700E+02    9.798398E-01  -6.046837E+01    3.992414E-04  -1.696618E+02    3.897144E-04  -1.699786E+02    9.817867E-01  -5.666405E+01 
3.847325E+02    9.798046E-01  -6.049388E+01    3.821505E-04  -1.710003E+02    3.851500E-04  -1.708061E+02    9.819095E-01  -5.667934E+01 
3.847950E+02    9.799939E-01  -6.051049E+01    3.788499E-04  -1.708547E+02    3.798210E-04  -1.704220E+02    9.820122E-01  -5.669458E+01 
3.848575E+02    9.799884E-01  -6.053123E+01    3.639465E-04  -1.707883E+02    3.612440E-04  -1.713625E+02    9.821767E-01  -5.671185E+01 
3.849200E+02    9.801057E-01  -6.055436E+01    3.569785E-04  -1.687426E+02    3.626061E-04  -1.696789E+02    9.821997E-01  -5.673467E+01 
3.849825E+02    9.802119E-01  -6.057560E+01    3.546663E-04  -1.679744E+02    3.569916E-04  -1.681673E+02    9.823128E-01  -5.675308E+01 
3.850450E+02    9.803866E-01  -6.058994E+01    3.649192E-04  -1.665674E+02    3.622527E-04  -1.660489E+02    9.826290E-01  -5.677336E+01 
3.851075E+02    9.805240E-01  -6.061425E+01    3.752000E-04  -1.663003E+02    3.702784E-04  -1.646788E+02    9.827427E-01  -5.679804E+01 
3.851700E+02    9.805894E-01  -6.063567E+01    3.738030E-04  -1.665633E+02    3.772359E-04  -1.659967E+02    9.829784E-01  -5.681981E+01 
3.852325E+02    9.808163E-01  -6.066001E+01    3.879000E-04  -1.668222E+02    3.863900E-04  -1.666695E+02    9.831871E-01  -5.684175E+01 
3.852950E+02    9.808924E-01  -6.068094E+01    4.011010E-04  -1.703648E+02    3.977498E-04  -1.710743E+02    9.833165E-01  -5.686204E+01 
3.853575E+02    9.810898E-01  -6.070021E+01    3.455901E-04  -1.703766E+02    3.473196E-04  -1.700980E+02    9.834748E-01  -5.688257E+01 
3.854200E+02    9.813114E-01  -6.072503E+01    3.440050E-04  -1.678706E+02    3.425847E-04  -1.688429E+02    9.837300E-01  -5.690382E+01 
3.854825E+02    9.813535E-01  -6.075001E+01    3.394804E-04  -1.670358E+02    3.287077E-04  -1.668056E+02    9.838185E-01  -5.693157E+01 
3.855450E+02    9.815309E-01  -6.077919E+01    3.303215E-04  -1.641181E+02    3.337068E-04  -1.650189E+02    9.839598E-01  -5.695459E+01 
3.856075E+02    9.816390E-01  -6.080631E+01    3.461841E-04  -1.629231E+02    3.442451E-04  -1.631775E+02    9.841656E-01  -5.697638E+01 
3.856700E+02    9.817427E-01  -6.082922E+01    3.540078E-04  -1.636180E+02    3.509874E-04  -1.634587E+02    9.843505E-01  -5.699602E+01 
3.857325E+02    9.818892E-01  -6.085763E+01    3.534983E-04  -1.664525E+02    3.481721E-04  -1.639160E+02    9.844922E-01  -5.701823E+01 
3.857950E+02    9.819218E-01  -6.088268E+01    3.473632E-04  -1.650456E+02    3.468206E-04  -1.637877E+02    9.846655E-01  -5.704735E+01 
3.858575E+02    9.820743E-01  -6.091358E+01    3.384764E-04  -1.621114E+02    3.477732E-04  -1.651806E+02    9.848660E-01  -5.707297E+01 
3.859200E+02    9.822557E-01  -6.093918E+01    3.425269E-04  -1.627969E+02    3.384364E-04  -1.635625E+02    9.850109E-01  -5.709574E+01 
3.859825E+02    9.822225E-01  -6.096904E+01    3.488549E-04  -1.609037E+02    3.388599E-04  -1.625923E+02    9.852342E-01  -5.711983E+01 
3.860450E+02    9.824021E-01  -6.099802E+01    3.429544E-04  -1.602287E+02    3.471383E-04  -1.603190E+02    9.853239E-01  -5.714875E+01 
3.861075E+02    9.824088E-01  -6.103395E+01    3.470985E-04  -1.586054E+02    3.489565E-04  -1.592198E+02    9.853825E-01  -5.717577E+01 
3.861700E+02    9.823370E-01  -6.105894E+01    3.530351E-04  -1.579943E+02    3.488166E-04  -1.586885E+02    9.853329E-01  -5.720746E+01 
3.862325E+02    9.823041E-01  -6.109542E+01    3.578067E-04  -1.592145E+02    3.566238E-04  -1.600143E+02    9.853806E-01  -5.723630E+01 
3.862950E+02    9.823653E-01  -6.112572E+01    3.608837E-04  -1.590900E+02    3.621187E-04  -1.590166E+02    9.854289E-01  -5.726546E+01 
3.863575E+02    9.824119E-01  -6.115490E+01    3.630650E-04  -1.582928E+02    3.541355E-04  -1.586938E+02    9.854611E-01  -5.729493E+01 
3.864200E+02    9.823763E-01  -6.118598E+01    3.639062E-04  -1.574383E+02    3.642218E-04  -1.580107E+02    9.854188E-01  -5.732744E+01 
3.864825E+02    9.823839E-01  -6.121614E+01    3.737344E-04  -1.572528E+02    3.660526E-04  -1.578305E+02    9.854038E-01  -5.735622E+01 
3.865450E+02    9.823990E-01  -6.125044E+01    3.671659E-04  -1.585704E+02    3.673797E-04  -1.579798E+02    9.854431E-01  -5.739019E+01 
3.866075E+02    9.823749E-01  -6.128021E+01    3.646787E-04  -1.586357E+02    3.647640E-04  -1.572761E+02    9.855112E-01  -5.741812E+01 
3.866700E+02    9.823912E-01  -6.131336E+01    3.630190E-04  -1.589917E+02    3.661535E-04  -1.598333E+02    9.855789E-01  -5.744774E+01 
3.867325E+02    9.824614E-01  -6.134352E+01    3.585670E-04  -1.576790E+02    3.516951E-04  -1.593104E+02    9.855520E-01  -5.747717E+01 
3.867950E+02    9.823822E-01  -6.137630E+01    3.599433E-04  -1.513717E+02    3.541371E-04  -1.529172E+02    9.855382E-01  -5.751129E+01 
3.868575E+02    9.824358E-01  -6.140986E+01    3.797804E-04  -1.554744E+02    3.856751E-04  -1.568601E+02    9.854804E-01  -5.754189E+01 
3.869200E+02    9.824367E-01  -6.143952E+01    3.739651E-04  -1.558186E+02    3.643616E-04  -1.547055E+02    9.855249E-01  -5.757255E+01 
3.869825E+02    9.823767E-01  -6.147104E+01    3.757492E-04  -1.534402E+02    3.826184E-04  -1.536289E+02    9.856234E-01  -5.760142E+01 
3.870450E+02    9.824177E-01  -6.150184E+01    3.886335E-04  -1.535460E+02    3.820561E-04  -1.542072E+02    9.856042E-01  -5.762923E+01 
3.871075E+02    9.824033E-01  -6.153336E+01    3.874070E-04  -1.551494E+02    3.885585E-04  -1.526178E+02    9.855363E-01  -5.766601E+01 
3.871700E+02    9.824059E-01  -6.156454E+01    4.072316E-04  -1.531658E+02    3.977782E-04  -1.517498E+02    9.855050E-01  -5.769557E+01 
3.872325E+02    9.823892E-01  -6.159657E+01    4.155097E-04  -1.533368E+02    4.112971E-04  -1.535208E+02    9.854640E-01  -5.772692E+01 
3.872950E+02    9.823541E-01  -6.163374E+01    4.132525E-04  -1.546383E+02    4.179531E-04  -1.536648E+02    9.855608E-01  -5.775780E+01 
3.873575E+02    9.823662E-01  -6.166288E+01    4.216633E-04  -1.550388E+02    4.196621E-04  -1.548249E+02    9.854400E-01  -5.778631E+01 
3.874200E+02    9.823108E-01  -6.169295E+01    4.182814E-04  -1.541632E+02    4.239563E-04  -1.553487E+02    9.854774E-01  -5.781741E+01 
3.874825E+02    9.823071E-01  -6.172972E+01    4.304353E-04  -1.548075E+02    4.233177E-04  -1.548057E+02    9.854213E-01  -5.784949E+01 
3.875450E+02    9.822351E-01  -6.176267E+01    4.219177E-04  -1.551356E+02    4.256019E-04  -1.553696E+02    9.853694E-01  -5.788340E+01 
3.876075E+02    9.823326E-01  -6.179292E+01    4.232163E-04  -1.552805E+02    4.304700E-04  -1.553714E+02    9.853232E-01  -5.791391E+01 
3.876700E+02    9.821655E-01  -6.182408E+01    4.352772E-04  -1.558971E+02    4.230658E-04  -1.569824E+02    9.853678E-01  -5.794657E+01 
3.877325E+02    9.821229E-01  -6.186066E+01    4.189180E-04  -1.571365E+02    4.300056E-04  -1.553260E+02    9.853126E-01  -5.797409E+01 
3.877950E+02    9.821510E-01  -6.188856E+01    4.308262E-04  -1.567882E+02    4.329739E-04  -1.564216E+02    9.852034E-01  -5.800528E+01 
3.878575E+02    9.820423E-01  -6.192506E+01    4.325258E-04  -1.550826E+02    4.298795E-04  -1.556045E+02    9.852770E-01  -5.803852E+01 
3.879200E+02    9.820345E-01  -6.195832E+01    4.355184E-04  -1.555748E+02    4.338769E-04  -1.551722E+02    9.851725E-01  -5.807565E+01 
3.879825E+02    9.819106E-01  -6.199326E+01    4.373096E-04  -1.557277E+02    4.302346E-04  -1.570654E+02    9.850590E-01  -5.810110E+01 
3.880450E+02    9.818889E-01  -6.202054E+01    4.424612E-04  -1.566792E+02    4.451492E-04  -1.556006E+02    9.850691E-01  -5.813323E+01 
3.881075E+02    9.818909E-01  -6.205345E+01    4.384378E-04  -1.552455E+02    4.525608E-04  -1.560551E+02    9.849790E-01  -5.816127E+01 
3.881700E+02    9.817344E-01  -6.209014E+01    4.613801E-04  -1.560919E+02    4.482418E-04  -1.564177E+02    9.848894E-01  -5.819823E+01 
3.882325E+02    9.817056E-01  -6.212256E+01    4.776206E-04  -1.564253E+02    4.705291E-04  -1.574581E+02    9.848375E-01  -5.822935E+01 
3.882950E+02    9.816698E-01  -6.215230E+01    4.356504E-04  -1.586776E+02    4.312295E-04  -1.588102E+02    9.846475E-01  -5.825514E+01 
3.883575E+02    9.816043E-01  -6.218288E+01    4.556620E-04  -1.567203E+02    4.623611E-04  -1.575478E+02    9.847593E-01  -5.828591E+01 
3.884200E+02    9.815536E-01  -6.221671E+01    4.712685E-04  -1.581037E+02    4.753493E-04  -1.582638E+02    9.847430E-01  -5.831482E+01 
3.884825E+02    9.814081E-01  -6.224636E+01    4.645717E-04  -1.587394E+02    4.668820E-04  -1.588773E+02    9.846578E-01  -5.835097E+01 
3.885450E+02    9.813644E-01  -6.228139E+01    4.719084E-04  -1.597337E+02    4.740050E-04  -1.598583E+02    9.845197E-01  -5.837991E+01 
3.886075E+02    9.813379E-01  -6.231187E+01    4.679985E-04  -1.590736E+02    4.689179E-04  -1.605862E+02    9.844459E-01  -5.841073E+01 
3.886700E+02    9.811767E-01  -6.234191E+01    4.569900E-04  -1.614407E+02    4.663934E-04  -1.616408E+02    9.844026E-01  -5.843626E+01 
3.887325E+02    9.810787E-01  -6.237026E+01    4.602198E-04  -1.601184E+02    4.498477E-04  -1.602195E+02    9.843629E-01  -5.846952E+01 
3.887950E+02    9.811401E-01  -6.240346E+01    4.531297E-04  -1.598861E+02    4.569963E-04  -1.590263E+02    9.843074E-01  -5.850218E+01 
3.888575E+02    9.809928E-01  -6.243287E+01    4.546652E-04  -1.589567E+02    4.591487E-04  -1.592058E+02    9.841498E-01  -5.853690E+01 
3.889200E+02    9.808910E-01  -6.246529E+01    4.651438E-04  -1.589710E+02    4.711771E-04  -1.594156E+02    9.841549E-01  -5.856468E+01 
3.889825E+02    9.809458E-01  -6.249467E+01    4.728428E-04  -1.589596E+02    4.592922E-04  -1.594481E+02    9.841082E-01  -5.859478E+01 
3.890450E+02    9.808290E-01  -6.252793E+01    4.787145E-04  -1.583219E+02    4.812862E-04  -1.583568E+02    9.840118E-01  -5.861846E+01 
3.891075E+02    9.807305E-01  -6.255796E+01    4.823613E-04  -1.601031E+02    4.798337E-04  -1.603671E+02    9.839134E-01  -5.865653E+01 
3.891700E+02    9.807473E-01  -6.259223E+01    4.783371E-04  -1.603439E+02    4.857639E-04  -1.614670E+02    9.838994E-01  -5.868665E+01 
3.892325E+02    9.806563E-01  -6.262348E+01    4.795315E-04  -1.617782E+02    4.803747E-04  -1.621028E+02    9.837784E-01  -5.872119E+01 
3.892950E+02    9.805436E-01  -6.265660E+01    4.753757E-04  -1.630013E+02    4.754756E-04  -1.617799E+02    9.836136E-01  -5.875747E+01 
3.893575E+02    9.805735E-01  -6.268562E+01    4.721329E-04  -1.624026E+02    4.648974E-04  -1.620911E+02    9.835417E-01  -5.878260E+01 
3.894200E+02    9.804162E-01  -6.271709E+01    4.696982E-04  -1.614536E+02    4.628684E-04  -1.618775E+02    9.834300E-01  -5.881309E+01 
3.894825E+02    9.803167E-01  -6.275265E+01    4.694536E-04  -1.611889E+02    4.704095E-04  -1.603656E+02    9.833364E-01  -5.884583E+01 
3.895450E+02    9.802518E-01  -6.278482E+01    4.729432E-04  -1.607372E+02    4.698465E-04  -1.607487E+02    9.833331E-01  -5.888092E+01 
3.896075E+02    9.801173E-01  -6.282162E+01    4.717330E-04  -1.606592E+02    4.820691E-04  -1.608422E+02    9.831657E-01  -5.891414E+01 
3.896700E+02    9.799944E-01  -6.285068E+01    4.933404E-04  -1.610953E+02    4.815191E-04  -1.611173E+02    9.831482E-01  -5.894794E+01 
3.897325E+02    9.799214E-01  -6.287678E+01    4.924088E-04  -1.593009E+02    4.778317E-04  -1.592367E+02    9.829304E-01  -5.897451E+01 
3.897950E+02    9.798905E-01  -6.291244E+01    5.197523E-04  -1.627939E+02    5.099501E-04  -1.634439E+02    9.829016E-01  -5.901076E+01 
3.898575E+02    9.796934E-01  -6.295237E+01    5.048578E-04  -1.645522E+02    5.020160E-04  -1.643026E+02    9.828235E-01  -5.904592E+01 
3.899200E+02    9.795672E-01  -6.298171E+01    4.920457E-04  -1.651892E+02    4.950294E-04  -1.644502E+02    9.825363E-01  -5.907597E+01 
3.899825E+02    9.794535E-01  -6.301358E+01    4.904749E-04  -1.661592E+02    4.842206E-04  -1.655177E+02    9.824580E-01  -5.910499E+01 
3.900450E+02    9.793818E-01  -6.304705E+01    4.834181E-04  -1.651060E+02    4.802284E-04  -1.654951E+02    9.823727E-01  -5.913429E+01 
3.901075E+02    9.791711E-01  -6.307627E+01    4.699826E-04  -1.649262E+02    4.730630E-04  -1.652404E+02    9.822020E-01  -5.916513E+01 
3.901700E+02    9.790411E-01  -6.311256E+01    4.801312E-04  -1.643105E+02    4.732083E-04  -1.640820E+02    9.821132E-01  -5.919579E+01 
3.902325E+02    9.788097E-01  -6.314349E+01    4.853021E-04  -1.636470E+02    4.868628E-04  -1.640697E+02    9.819570E-01  -5.922985E+01 
3.902950E+02    9.786176E-01  -6.317441E+01    4.818264E-04  -1.644946E+02    4.898356E-04  -1.647297E+02    9.818239E-01  -5.926319E+01 
3.903575E+02    9.784353E-01  -6.320664E+01    4.898623E-04  -1.651008E+02    4.912308E-04  -1.654061E+02    9.815652E-01  -5.929418E+01 
3.904200E+02    9.782679E-01  -6.323013E+01    4.900976E-04  -1.658890E+02    4.858304E-04  -1.647511E+02    9.814073E-01  -5.932071E+01 
3.904825E+02    9.780539E-01  -6.326075E+01    4.899281E-04  -1.655408E+02    4.818932E-04  -1.646012E+02    9.811843E-01  -5.935195E+01 
3.905450E+02    9.778386E-01  -6.328827E+01    4.813257E-04  -1.653815E+02    4.844885E-04  -1.657727E+02    9.810579E-01  -5.938334E+01 
3.906075E+02    9.775680E-01  -6.331727E+01    4.803445E-04  -1.653982E+02    4.931824E-04  -1.637568E+02    9.808765E-01  -5.941429E+01 
3.906700E+02    9.774042E-01  -6.333794E+01    4.890426E-04  -1.647946E+02    4.943149E-04  -1.637478E+02    9.807322E-01  -5.944080E+01 
3.907325E+02    9.771700E-01  -6.335970E+01    5.014678E-04  -1.647306E+02    4.983081E-04  -1.653592E+02    9.804648E-01  -5.946819E+01 
3.907950E+02    9.769428E-01  -6.338341E+01    5.037536E-04  -1.649337E+02    5.038524E-04  -1.652796E+02    9.802804E-01  -5.949699E+01 
3.908575E+02    9.766886E-01  -6.340124E+01    5.179236E-04  -1.666934E+02    5.096139E-04  -1.663498E+02    9.800492E-01  -5.952837E+01 
3.909200E+02    9.766254E-01  -6.342481E+01    5.146950E-04  -1.664768E+02    5.142629E-04  -1.673744E+02    9.797960E-01  -5.955177E+01 
3.909825E+02    9.763211E-01  -6.344406E+01    5.064641E-04  -1.690223E+02    5.097039E-04  -1.690429E+02    9.795751E-01  -5.957723E+01 
3.910450E+02    9.762702E-01  -6.346346E+01    4.992251E-04  -1.690956E+02    4.962116E-04  -1.698667E+02    9.793310E-01  -5.960081E+01 
3.911075E+02    9.760905E-01  -6.348348E+01    5.063254E-04  -1.684370E+02    5.053058E-04  -1.687832E+02    9.790798E-01  -5.962465E+01 
3.911700E+02    9.759441E-01  -6.350392E+01    5.155131E-04  -1.684078E+02    5.202647E-04  -1.687807E+02    9.788122E-01  -5.964793E+01 
3.912325E+02    9.758263E-01  -6.353456E+01    5.227521E-04  -1.754803E+02    5.191324E-04  -1.760525E+02    9.785225E-01  -5.966544E+01 
3.912950E+02    9.756469E-01  -6.355199E+01    5.015169E-04  -1.726903E+02    4.997999E-04  -1.733169E+02    9.783352E-01  -5.968201E+01 
3.913575E+02    9.756064E-01  -6.357179E+01    5.030633E-04  -1.746201E+02    4.933835E-04  -1.746390E+02    9.781952E-01  -5.969795E+01 
3.914200E+02    9.756031E-01  -6.358924E+01    4.823824E-04  -1.766429E+02    4.761028E-04  -1.767132E+02    9.779724E-01  -5.971962E+01 
3.914825E+02    9.755732E-01  -6.361367E+01    4.657887E-04  -1.760015E+02    4.618925E-04  -1.768395E+02    9.777223E-01  -5.973693E+01 
3.915450E+02    9.755523E-01  -6.363668E+01    4.512265E-04  -1.757770E+02    4.498478E-04  -1.777921E+02    9.774498E-01  -5.975103E+01 
3.916075E+02    9.754981E-01  -6.366056E+01    4.350415E-04  -1.772332E+02    4.374866E-04  -1.776464E+02    9.774240E-01  -5.976759E+01 
3.916700E+02    9.755041E-01  -6.368608E+01    4.144877E-04  -1.764419E+02    4.142325E-04  -1.755106E+02    9.773388E-01  -5.977792E+01 
3.917325E+02    9.755383E-01  -6.371466E+01    4.087358E-04  -1.732085E+02    4.127195E-04  -1.734322E+02    9.772679E-01  -5.979100E+01 
3.917950E+02    9.755303E-01  -6.374197E+01    4.114832E-04  -1.689956E+02    4.098142E-04  -1.706575E+02    9.770293E-01  -5.980449E+01 
3.918575E+02    9.755359E-01  -6.377111E+01    4.204406E-04  -1.695733E+02    4.160537E-04  -1.693972E+02    9.770514E-01  -5.982352E+01 
3.919200E+02    9.754625E-01  -6.380491E+01    4.145747E-04  -1.696068E+02    4.186604E-04  -1.694046E+02    9.770015E-01  -5.983790E+01 
3.919825E+02    9.753645E-01  -6.382915E+01    4.279184E-04  -1.669147E+02    4.308184E-04  -1.682827E+02    9.770297E-01  -5.985072E+01 
3.920450E+02    9.754038E-01  -6.385912E+01    4.392604E-04  -1.693942E+02    4.405438E-04  -1.694324E+02    9.770277E-01  -5.986746E+01 
3.921075E+02    9.753874E-01  -6.389825E+01    4.335618E-04  -1.711003E+02    4.405860E-04  -1.710316E+02    9.771411E-01  -5.988643E+01 
3.921700E+02    9.752419E-01  -6.392731E+01    4.317333E-04  -1.732326E+02    4.248641E-04  -1.730546E+02    9.772801E-01  -5.990586E+01 
3.922325E+02    9.751895E-01  -6.396040E+01    4.066664E-04  -1.736597E+02    4.098495E-04  -1.724594E+02    9.773200E-01  -5.993405E+01 
3.922950E+02    9.750061E-01  -6.399441E+01    3.910016E-04  -1.723171E+02    3.941366E-04  -1.713931E+02    9.774467E-01  -5.995394E+01 
3.923575E+02    9.749090E-01  -6.402324E+01    3.766602E-04  -1.688339E+02    3.742039E-04  -1.688556E+02    9.776056E-01  -5.997581E+01 
3.924200E+02    9.747411E-01  -6.405927E+01    3.822002E-04  -1.666161E+02    3.809904E-04  -1.657790E+02    9.776623E-01  -6.000651E+01 
3.924825E+02    9.745439E-01  -6.408605E+01    3.946505E-04  -1.634550E+02    3.969592E-04  -1.634334E+02    9.777992E-01  -6.003605E+01 
3.925450E+02    9.743959E-01  -6.411665E+01    4.143028E-04  -1.625593E+02    4.134982E-04  -1.622821E+02    9.778594E-01  -6.007066E+01 
3.926075E+02    9.742274E-01  -6.414386E+01    4.218084E-04  -1.638238E+02    4.213804E-04  -1.655549E+02    9.778807E-01  -6.010069E+01 
3.926700E+02    9.740440E-01  -6.417214E+01    3.956699E-04  -1.646162E+02    4.043200E-04  -1.654027E+02    9.779338E-01  -6.013591E+01 
