! Matrix data file written by TouchstoneData, EPCOS AG
! FILENAME: "newformat_LZ85A_3_NB.s2p"
! COMMENT: "(LZ85A_3_NB.s2p) EPCOS AG 06.12.2011 14:00:0"
! INFO: nport=2, nfreq=1601
! DATE: "Fri Dec  9 16:21:48 2011"
! USER: "Michael Schemies"
!
! port | pin | signal
! -----|-----|--------
!   1  |  2  |  in
!   2  |  5  |  out
! --------------------
!
# MHZ S MA R 50
! freq  magS11 angS11  magS21 angS21  magS12 angS12  magS22 angS22
1.442000E+03  9.680764E-01 -7.720676E+01  2.867665E-03 9.192046E+00  2.877560E-03 9.278173E+00  9.470460E-01 -1.115012E+02
1.442125E+03  9.680882E-01 -7.722909E+01  2.910306E-03 9.301886E+00  2.900118E-03 9.295661E+00  9.471065E-01 -1.115263E+02
1.442250E+03  9.681136E-01 -7.725580E+01  2.957624E-03 9.317399E+00  2.938706E-03 9.306411E+00  9.473286E-01 -1.115546E+02
1.442375E+03  9.679846E-01 -7.727918E+01  2.994116E-03 9.083309E+00  2.999838E-03 8.931587E+00  9.476118E-01 -1.115821E+02
1.442500E+03  9.681063E-01 -7.729528E+01  3.048793E-03 8.788483E+00  3.051016E-03 8.584171E+00  9.476182E-01 -1.116088E+02
1.442625E+03  9.681198E-01 -7.731686E+01  3.097068E-03 8.054489E+00  3.108606E-03 8.180929E+00  9.476404E-01 -1.116384E+02
1.442750E+03  9.680990E-01 -7.733328E+01  3.151630E-03 7.419454E+00  3.152485E-03 7.636947E+00  9.478016E-01 -1.116516E+02
1.442875E+03  9.680623E-01 -7.735522E+01  3.189267E-03 6.860005E+00  3.191202E-03 7.000081E+00  9.478192E-01 -1.116582E+02
1.443000E+03  9.681613E-01 -7.737774E+01  3.232315E-03 6.371012E+00  3.231956E-03 6.411793E+00  9.482883E-01 -1.116806E+02
1.443125E+03  9.681112E-01 -7.740345E+01  3.277734E-03 5.947266E+00  3.276082E-03 5.780483E+00  9.486416E-01 -1.117138E+02
1.443250E+03  9.682234E-01 -7.741703E+01  3.318846E-03 4.850405E+00  3.321421E-03 4.987993E+00  9.488827E-01 -1.117441E+02
1.443375E+03  9.682135E-01 -7.744151E+01  3.349878E-03 4.238892E+00  3.356751E-03 3.903544E+00  9.490589E-01 -1.117790E+02
1.443500E+03  9.682124E-01 -7.746435E+01  3.379529E-03 3.149531E+00  3.397554E-03 2.988544E+00  9.491086E-01 -1.118145E+02
1.443625E+03  9.682182E-01 -7.748649E+01  3.392504E-03 1.981356E+00  3.385819E-03 1.981629E+00  9.493085E-01 -1.118335E+02
1.443750E+03  9.682730E-01 -7.751290E+01  3.392256E-03 1.187946E+00  3.394641E-03 1.245149E+00  9.496773E-01 -1.118604E+02
1.443875E+03  9.681663E-01 -7.752766E+01  3.390985E-03 6.056298E-01  3.402531E-03 3.087393E-01  9.497620E-01 -1.118978E+02
1.444000E+03  9.682441E-01 -7.755506E+01  3.407852E-03 5.429881E-02  3.417905E-03 -2.451796E-01  9.500273E-01 -1.119259E+02
1.444125E+03  9.682082E-01 -7.757868E+01  3.431833E-03 -9.260347E-01  3.436488E-03 -1.136408E+00  9.500849E-01 -1.119563E+02
1.444250E+03  9.682911E-01 -7.760000E+01  3.428647E-03 -1.894680E+00  3.427478E-03 -1.747960E+00  9.501919E-01 -1.119921E+02
1.444375E+03  9.682980E-01 -7.762260E+01  3.413226E-03 -2.791785E+00  3.414789E-03 -2.947341E+00  9.504882E-01 -1.120245E+02
1.444500E+03  9.682824E-01 -7.764218E+01  3.404068E-03 -3.460140E+00  3.407568E-03 -3.574153E+00  9.504950E-01 -1.120522E+02
1.444625E+03  9.682921E-01 -7.767461E+01  3.387182E-03 -3.927322E+00  3.379262E-03 -4.025491E+00  9.507943E-01 -1.120787E+02
1.444750E+03  9.682707E-01 -7.770140E+01  3.369967E-03 -4.572700E+00  3.372376E-03 -4.425858E+00  9.510090E-01 -1.121100E+02
1.444875E+03  9.682350E-01 -7.772227E+01  3.345337E-03 -5.059419E+00  3.349918E-03 -5.079334E+00  9.510730E-01 -1.121558E+02
1.445000E+03  9.681771E-01 -7.774570E+01  3.339310E-03 -5.229527E+00  3.348903E-03 -5.181662E+00  9.511781E-01 -1.121892E+02
1.445125E+03  9.682808E-01 -7.777282E+01  3.333343E-03 -5.916679E+00  3.328647E-03 -5.950331E+00  9.512246E-01 -1.122208E+02
1.445250E+03  9.681357E-01 -7.779418E+01  3.317988E-03 -6.429195E+00  3.306315E-03 -6.471578E+00  9.513701E-01 -1.122422E+02
1.445375E+03  9.680759E-01 -7.782455E+01  3.295522E-03 -6.608793E+00  3.293305E-03 -6.775539E+00  9.517178E-01 -1.122735E+02
1.445500E+03  9.680413E-01 -7.784356E+01  3.264567E-03 -7.011361E+00  3.274921E-03 -6.975492E+00  9.517283E-01 -1.123114E+02
1.445625E+03  9.678782E-01 -7.786759E+01  3.245112E-03 -6.933280E+00  3.246423E-03 -7.008411E+00  9.519828E-01 -1.123515E+02
1.445750E+03  9.679917E-01 -7.789257E+01  3.240986E-03 -7.259021E+00  3.236047E-03 -7.325635E+00  9.521005E-01 -1.123913E+02
1.445875E+03  9.678760E-01 -7.792233E+01  3.224521E-03 -7.191000E+00  3.226031E-03 -7.104026E+00  9.522938E-01 -1.124221E+02
1.446000E+03  9.678729E-01 -7.794147E+01  3.218822E-03 -7.214941E+00  3.221632E-03 -7.176186E+00  9.523410E-01 -1.124585E+02
1.446125E+03  9.677743E-01 -7.797150E+01  3.218329E-03 -7.417469E+00  3.228078E-03 -7.452234E+00  9.525401E-01 -1.124987E+02
1.446250E+03  9.676912E-01 -7.798940E+01  3.213375E-03 -7.695564E+00  3.215529E-03 -7.743958E+00  9.526654E-01 -1.125408E+02
1.446375E+03  9.676458E-01 -7.801506E+01  3.202297E-03 -7.779480E+00  3.211913E-03 -7.641973E+00  9.527580E-01 -1.125732E+02
1.446500E+03  9.675842E-01 -7.804648E+01  3.201156E-03 -7.779787E+00  3.199137E-03 -8.008090E+00  9.528967E-01 -1.126176E+02
1.446625E+03  9.675193E-01 -7.806391E+01  3.197265E-03 -7.916728E+00  3.206837E-03 -7.967528E+00  9.528887E-01 -1.126496E+02
1.446750E+03  9.673959E-01 -7.809002E+01  3.187701E-03 -8.042576E+00  3.191620E-03 -8.168220E+00  9.530109E-01 -1.126927E+02
1.446875E+03  9.673877E-01 -7.811561E+01  3.179059E-03 -8.633265E+00  3.186428E-03 -8.294614E+00  9.531003E-01 -1.127355E+02
1.447000E+03  9.672287E-01 -7.813917E+01  3.170585E-03 -8.540099E+00  3.171978E-03 -8.461372E+00  9.530659E-01 -1.127654E+02
1.447125E+03  9.672010E-01 -7.816130E+01  3.155887E-03 -8.712374E+00  3.158641E-03 -8.868623E+00  9.531640E-01 -1.128078E+02
1.447250E+03  9.671525E-01 -7.818968E+01  3.142522E-03 -8.712264E+00  3.156979E-03 -8.870564E+00  9.531801E-01 -1.128455E+02
1.447375E+03  9.670722E-01 -7.820634E+01  3.152867E-03 -8.739352E+00  3.139763E-03 -8.946918E+00  9.531618E-01 -1.128915E+02
1.447500E+03  9.670190E-01 -7.823634E+01  3.133552E-03 -8.677805E+00  3.138475E-03 -8.758505E+00  9.532656E-01 -1.129318E+02
1.447625E+03  9.669479E-01 -7.825937E+01  3.137451E-03 -8.981751E+00  3.139021E-03 -8.941026E+00  9.531397E-01 -1.129719E+02
1.447750E+03  9.669002E-01 -7.828638E+01  3.124396E-03 -8.839670E+00  3.136922E-03 -8.884441E+00  9.531107E-01 -1.130124E+02
1.447875E+03  9.667034E-01 -7.831217E+01  3.117197E-03 -8.858702E+00  3.126259E-03 -8.952649E+00  9.530493E-01 -1.130403E+02
1.448000E+03  9.666267E-01 -7.833594E+01  3.130235E-03 -9.070373E+00  3.122164E-03 -8.841752E+00  9.530036E-01 -1.130795E+02
1.448125E+03  9.665301E-01 -7.836234E+01  3.124534E-03 -8.952353E+00  3.112729E-03 -8.840872E+00  9.530751E-01 -1.131195E+02
1.448250E+03  9.664132E-01 -7.838155E+01  3.138868E-03 -8.824371E+00  3.130900E-03 -8.964090E+00  9.530219E-01 -1.131537E+02
1.448375E+03  9.662469E-01 -7.840900E+01  3.123153E-03 -8.973903E+00  3.142083E-03 -9.091247E+00  9.529412E-01 -1.131933E+02
1.448500E+03  9.661633E-01 -7.843191E+01  3.137487E-03 -9.252409E+00  3.132629E-03 -9.111758E+00  9.529712E-01 -1.132336E+02
1.448625E+03  9.661647E-01 -7.845060E+01  3.135154E-03 -9.294981E+00  3.133528E-03 -9.479067E+00  9.531023E-01 -1.132744E+02
1.448750E+03  9.659253E-01 -7.847372E+01  3.130828E-03 -9.419917E+00  3.133910E-03 -9.482864E+00  9.529944E-01 -1.133113E+02
1.448875E+03  9.657817E-01 -7.850095E+01  3.129096E-03 -9.705436E+00  3.130875E-03 -9.622210E+00  9.529588E-01 -1.133481E+02
1.449000E+03  9.657293E-01 -7.852908E+01  3.127817E-03 -9.731677E+00  3.140883E-03 -9.995818E+00  9.529988E-01 -1.133924E+02
1.449125E+03  9.655501E-01 -7.854360E+01  3.137047E-03 -1.001614E+01  3.126117E-03 -1.016518E+01  9.528646E-01 -1.134302E+02
1.449250E+03  9.655964E-01 -7.856963E+01  3.121877E-03 -1.038605E+01  3.136291E-03 -1.032558E+01  9.529310E-01 -1.134732E+02
1.449375E+03  9.654215E-01 -7.859701E+01  3.119055E-03 -1.064294E+01  3.113187E-03 -1.063544E+01  9.526491E-01 -1.135186E+02
1.449500E+03  9.653646E-01 -7.861902E+01  3.094384E-03 -1.087255E+01  3.112432E-03 -1.088350E+01  9.525192E-01 -1.135586E+02
1.449625E+03  9.652501E-01 -7.864742E+01  3.096840E-03 -1.089581E+01  3.090480E-03 -1.096872E+01  9.524565E-01 -1.135904E+02
1.449750E+03  9.651598E-01 -7.866899E+01  3.080947E-03 -1.106593E+01  3.079933E-03 -1.121431E+01  9.522202E-01 -1.136288E+02
1.449875E+03  9.650089E-01 -7.869852E+01  3.078081E-03 -1.128125E+01  3.080769E-03 -1.158656E+01  9.522517E-01 -1.136633E+02
1.450000E+03  9.647486E-01 -7.872586E+01  3.056720E-03 -1.167173E+01  3.074679E-03 -1.184725E+01  9.520679E-01 -1.136963E+02
1.450125E+03  9.646335E-01 -7.874649E+01  3.038239E-03 -1.187732E+01  3.043102E-03 -1.214513E+01  9.519453E-01 -1.137300E+02
1.450250E+03  9.646022E-01 -7.877796E+01  3.005775E-03 -1.221410E+01  3.013220E-03 -1.205349E+01  9.518781E-01 -1.137618E+02
1.450375E+03  9.643192E-01 -7.879989E+01  2.989114E-03 -1.206616E+01  2.975705E-03 -1.215059E+01  9.517710E-01 -1.137958E+02
1.450500E+03  9.642044E-01 -7.881948E+01  2.945390E-03 -1.178995E+01  2.954612E-03 -1.214545E+01  9.517446E-01 -1.138239E+02
1.450625E+03  9.640323E-01 -7.884390E+01  2.927605E-03 -1.165428E+01  2.928752E-03 -1.172007E+01  9.516585E-01 -1.138492E+02
1.450750E+03  9.638419E-01 -7.887160E+01  2.904147E-03 -1.129038E+01  2.917114E-03 -1.148866E+01  9.516044E-01 -1.138805E+02
1.450875E+03  9.636316E-01 -7.889163E+01  2.886849E-03 -1.086453E+01  2.896632E-03 -1.086148E+01  9.516503E-01 -1.139134E+02
1.451000E+03  9.633869E-01 -7.891919E+01  2.875882E-03 -1.043461E+01  2.884708E-03 -1.058965E+01  9.515799E-01 -1.139420E+02
1.451125E+03  9.632169E-01 -7.893935E+01  2.881584E-03 -1.009569E+01  2.876929E-03 -1.017214E+01  9.515042E-01 -1.139780E+02
1.451250E+03  9.629751E-01 -7.895820E+01  2.868387E-03 -9.989310E+00  2.862954E-03 -9.696295E+00  9.515251E-01 -1.140054E+02
1.451375E+03  9.627530E-01 -7.897439E+01  2.857730E-03 -9.259179E+00  2.855631E-03 -9.421298E+00  9.517230E-01 -1.140460E+02
1.451500E+03  9.626279E-01 -7.900527E+01  2.846119E-03 -8.889389E+00  2.853112E-03 -9.048263E+00  9.517298E-01 -1.140747E+02
1.451625E+03  9.624484E-01 -7.902095E+01  2.838251E-03 -8.527408E+00  2.842920E-03 -8.401190E+00  9.517550E-01 -1.141111E+02
1.451750E+03  9.623802E-01 -7.904176E+01  2.856413E-03 -7.995402E+00  2.857468E-03 -7.725520E+00  9.518323E-01 -1.141502E+02
1.451875E+03  9.621798E-01 -7.906784E+01  2.876400E-03 -7.412761E+00  2.869008E-03 -7.723658E+00  9.518359E-01 -1.141898E+02
1.452000E+03  9.618742E-01 -7.908853E+01  2.875533E-03 -7.361055E+00  2.880347E-03 -7.300222E+00  9.517888E-01 -1.142212E+02
1.452125E+03  9.618125E-01 -7.911331E+01  2.893635E-03 -7.320741E+00  2.899899E-03 -7.229449E+00  9.519212E-01 -1.142648E+02
1.452250E+03  9.615297E-01 -7.913077E+01  2.897474E-03 -7.223450E+00  2.892557E-03 -7.119884E+00  9.518515E-01 -1.142988E+02
1.452375E+03  9.613962E-01 -7.915016E+01  2.892145E-03 -6.624881E+00  2.899891E-03 -6.882843E+00  9.519467E-01 -1.143441E+02
1.452500E+03  9.612107E-01 -7.917860E+01  2.888283E-03 -6.506077E+00  2.903449E-03 -6.310365E+00  9.518910E-01 -1.143845E+02
1.452625E+03  9.609687E-01 -7.919867E+01  2.912468E-03 -6.028475E+00  2.916466E-03 -5.954008E+00  9.517796E-01 -1.144273E+02
1.452750E+03  9.608776E-01 -7.922848E+01  2.931853E-03 -6.068216E+00  2.924313E-03 -5.888818E+00  9.518273E-01 -1.144689E+02
1.452875E+03  9.606823E-01 -7.924600E+01  2.954664E-03 -5.576874E+00  2.949100E-03 -5.832834E+00  9.516109E-01 -1.145150E+02
1.453000E+03  9.604205E-01 -7.926097E+01  2.956198E-03 -5.609204E+00  2.951280E-03 -5.452027E+00  9.515606E-01 -1.145470E+02
1.453125E+03  9.602969E-01 -7.929320E+01  2.967634E-03 -5.587284E+00  2.967418E-03 -5.615750E+00  9.514773E-01 -1.145836E+02
1.453250E+03  9.600803E-01 -7.931578E+01  2.976291E-03 -5.329764E+00  2.978417E-03 -5.555921E+00  9.514844E-01 -1.146132E+02
1.453375E+03  9.597571E-01 -7.933876E+01  2.978924E-03 -5.158582E+00  2.991742E-03 -4.900038E+00  9.515778E-01 -1.146559E+02
1.453500E+03  9.595149E-01 -7.936298E+01  3.009999E-03 -4.811769E+00  3.003053E-03 -4.924205E+00  9.515116E-01 -1.146957E+02
1.453625E+03  9.592825E-01 -7.938228E+01  3.017183E-03 -4.757327E+00  3.022494E-03 -4.916008E+00  9.514323E-01 -1.147372E+02
1.453750E+03  9.591155E-01 -7.940636E+01  3.032520E-03 -4.767991E+00  3.042451E-03 -4.691851E+00  9.514773E-01 -1.147791E+02
1.453875E+03  9.587399E-01 -7.942235E+01  3.062700E-03 -4.407758E+00  3.061444E-03 -4.661307E+00  9.513863E-01 -1.148287E+02
1.454000E+03  9.585530E-01 -7.944632E+01  3.091544E-03 -4.571736E+00  3.095291E-03 -4.542510E+00  9.512955E-01 -1.148707E+02
1.454125E+03  9.583080E-01 -7.946805E+01  3.109322E-03 -4.768544E+00  3.111833E-03 -4.919317E+00  9.512168E-01 -1.149138E+02
1.454250E+03  9.579229E-01 -7.948375E+01  3.118671E-03 -4.834014E+00  3.127824E-03 -4.902164E+00  9.509923E-01 -1.149568E+02
1.454375E+03  9.574811E-01 -7.950159E+01  3.137359E-03 -5.003364E+00  3.139161E-03 -4.828605E+00  9.509674E-01 -1.149957E+02
1.454500E+03  9.572948E-01 -7.950633E+01  3.174578E-03 -4.833013E+00  3.161432E-03 -4.851946E+00  9.508686E-01 -1.150394E+02
1.454625E+03  9.570801E-01 -7.951664E+01  3.182537E-03 -5.130291E+00  3.177763E-03 -5.376076E+00  9.508016E-01 -1.150842E+02
1.454750E+03  9.569925E-01 -7.953272E+01  3.193835E-03 -5.184124E+00  3.198889E-03 -5.379301E+00  9.506449E-01 -1.151325E+02
1.454875E+03  9.567542E-01 -7.954811E+01  3.231667E-03 -5.531112E+00  3.227386E-03 -5.703983E+00  9.502386E-01 -1.151764E+02
1.455000E+03  9.564797E-01 -7.956925E+01  3.240241E-03 -6.070056E+00  3.237158E-03 -5.937234E+00  9.500623E-01 -1.152136E+02
1.455125E+03  9.561112E-01 -7.958741E+01  3.247059E-03 -6.380646E+00  3.257374E-03 -6.243529E+00  9.499081E-01 -1.152514E+02
1.455250E+03  9.556391E-01 -7.959660E+01  3.269728E-03 -6.753652E+00  3.274755E-03 -6.804704E+00  9.495994E-01 -1.152946E+02
1.455375E+03  9.554272E-01 -7.959689E+01  3.264070E-03 -7.149609E+00  3.276938E-03 -7.375608E+00  9.493957E-01 -1.153386E+02
1.455500E+03  9.551837E-01 -7.959467E+01  3.269907E-03 -7.571783E+00  3.272876E-03 -7.632472E+00  9.491918E-01 -1.153784E+02
1.455625E+03  9.551903E-01 -7.959548E+01  3.281831E-03 -8.036245E+00  3.272953E-03 -8.015295E+00  9.487560E-01 -1.154174E+02
1.455750E+03  9.552557E-01 -7.960690E+01  3.259558E-03 -8.563298E+00  3.266738E-03 -8.831925E+00  9.484854E-01 -1.154488E+02
1.455875E+03  9.551412E-01 -7.962738E+01  3.245207E-03 -8.876813E+00  3.249995E-03 -8.877738E+00  9.482039E-01 -1.154712E+02
1.456000E+03  9.549212E-01 -7.964489E+01  3.256642E-03 -8.836283E+00  3.251667E-03 -9.021185E+00  9.480575E-01 -1.155019E+02
1.456125E+03  9.547193E-01 -7.965618E+01  3.252418E-03 -9.472734E+00  3.239371E-03 -9.539191E+00  9.480831E-01 -1.155379E+02
1.456250E+03  9.543408E-01 -7.966361E+01  3.214511E-03 -9.926724E+00  3.219798E-03 -1.003531E+01  9.478325E-01 -1.155865E+02
1.456375E+03  9.541437E-01 -7.966462E+01  3.194061E-03 -9.810851E+00  3.192166E-03 -1.001126E+01  9.472379E-01 -1.156202E+02
1.456500E+03  9.540273E-01 -7.965221E+01  3.184231E-03 -9.727795E+00  3.188716E-03 -9.864502E+00  9.469896E-01 -1.156423E+02
1.456625E+03  9.541377E-01 -7.965866E+01  3.176783E-03 -1.003864E+01  3.188036E-03 -1.038110E+01  9.468381E-01 -1.156629E+02
1.456750E+03  9.542513E-01 -7.967099E+01  3.166334E-03 -1.041795E+01  3.158439E-03 -1.028583E+01  9.467481E-01 -1.156970E+02
1.456875E+03  9.541180E-01 -7.969053E+01  3.149673E-03 -1.056734E+01  3.153687E-03 -1.058029E+01  9.467075E-01 -1.157353E+02
1.457000E+03  9.538956E-01 -7.969569E+01  3.129084E-03 -1.074137E+01  3.135023E-03 -1.069250E+01  9.463573E-01 -1.157844E+02
1.457125E+03  9.536478E-01 -7.969731E+01  3.115153E-03 -1.069523E+01  3.110549E-03 -1.070951E+01  9.459487E-01 -1.158206E+02
1.457250E+03  9.535315E-01 -7.970239E+01  3.093000E-03 -1.071215E+01  3.102953E-03 -1.069339E+01  9.455436E-01 -1.158420E+02
1.457375E+03  9.534731E-01 -7.970411E+01  3.093969E-03 -1.071869E+01  3.110572E-03 -1.078402E+01  9.451858E-01 -1.158642E+02
1.457500E+03  9.533835E-01 -7.970518E+01  3.093808E-03 -1.086988E+01  3.095353E-03 -1.089175E+01  9.452340E-01 -1.158899E+02
1.457625E+03  9.534755E-01 -7.970427E+01  3.070699E-03 -1.133250E+01  3.070083E-03 -1.141853E+01  9.449897E-01 -1.159283E+02
1.457750E+03  9.535614E-01 -7.970426E+01  3.017100E-03 -1.152737E+01  3.029402E-03 -1.143366E+01  9.447401E-01 -1.159627E+02
1.457875E+03  9.536147E-01 -7.971174E+01  3.012367E-03 -1.107586E+01  3.007814E-03 -1.134979E+01  9.444698E-01 -1.159898E+02
1.458000E+03  9.536526E-01 -7.972375E+01  3.003395E-03 -1.122584E+01  2.998434E-03 -1.135925E+01  9.441507E-01 -1.160248E+02
1.458125E+03  9.537337E-01 -7.973185E+01  2.966412E-03 -1.133386E+01  2.970043E-03 -1.122695E+01  9.437596E-01 -1.160540E+02
1.458250E+03  9.536647E-01 -7.974238E+01  2.947151E-03 -1.121051E+01  2.943118E-03 -1.114892E+01  9.434103E-01 -1.160703E+02
1.458375E+03  9.536193E-01 -7.974648E+01  2.920177E-03 -1.092602E+01  2.927887E-03 -1.114419E+01  9.429671E-01 -1.160897E+02
1.458500E+03  9.535773E-01 -7.975199E+01  2.909367E-03 -1.121912E+01  2.915031E-03 -1.127816E+01  9.429078E-01 -1.160955E+02
1.458625E+03  9.536739E-01 -7.974882E+01  2.862676E-03 -1.126193E+01  2.863770E-03 -1.112217E+01  9.430156E-01 -1.161184E+02
1.458750E+03  9.540097E-01 -7.973891E+01  2.817086E-03 -1.078650E+01  2.821282E-03 -1.078048E+01  9.430107E-01 -1.161532E+02
1.458875E+03  9.542904E-01 -7.975831E+01  2.797585E-03 -1.035167E+01  2.805544E-03 -1.013516E+01  9.430119E-01 -1.161962E+02
1.459000E+03  9.544213E-01 -7.977590E+01  2.773028E-03 -9.911380E+00  2.786909E-03 -1.011495E+01  9.424819E-01 -1.162286E+02
1.459125E+03  9.545593E-01 -7.979546E+01  2.746734E-03 -9.687668E+00  2.741094E-03 -9.733591E+00  9.421716E-01 -1.162546E+02
1.459250E+03  9.548059E-01 -7.981912E+01  2.708818E-03 -9.105673E+00  2.707087E-03 -9.263116E+00  9.422636E-01 -1.162650E+02
1.459375E+03  9.547605E-01 -7.984174E+01  2.695530E-03 -8.326759E+00  2.698080E-03 -8.503861E+00  9.422058E-01 -1.162999E+02
1.459500E+03  9.546314E-01 -7.985457E+01  2.663681E-03 -8.039956E+00  2.667978E-03 -8.235259E+00  9.420194E-01 -1.163452E+02
1.459625E+03  9.546315E-01 -7.986970E+01  2.637402E-03 -7.618208E+00  2.639520E-03 -7.263449E+00  9.416690E-01 -1.163692E+02
1.459750E+03  9.546530E-01 -7.987424E+01  2.623939E-03 -6.732782E+00  2.616359E-03 -6.703600E+00  9.415793E-01 -1.163980E+02
1.459875E+03  9.548878E-01 -7.987996E+01  2.596747E-03 -6.180501E+00  2.607792E-03 -6.247601E+00  9.413101E-01 -1.164354E+02
1.460000E+03  9.551944E-01 -7.989660E+01  2.548973E-03 -5.474286E+00  2.552974E-03 -5.515755E+00  9.407758E-01 -1.164574E+02
1.460125E+03  9.552593E-01 -7.992189E+01  2.533154E-03 -4.413527E+00  2.542368E-03 -4.340871E+00  9.407278E-01 -1.164642E+02
1.460250E+03  9.552674E-01 -7.995148E+01  2.515591E-03 -3.444720E+00  2.517277E-03 -3.211644E+00  9.409495E-01 -1.164880E+02
1.460375E+03  9.551857E-01 -7.996176E+01  2.490008E-03 -2.398566E+00  2.502970E-03 -2.290066E+00  9.408939E-01 -1.165350E+02
1.460500E+03  9.552318E-01 -7.997790E+01  2.489210E-03 -1.276921E+00  2.485465E-03 -1.331064E+00  9.405582E-01 -1.165842E+02
1.460625E+03  9.552302E-01 -7.999389E+01  2.467343E-03 -3.205871E-01  2.460442E-03 -2.867338E-01  9.399183E-01 -1.166081E+02
1.460750E+03  9.553395E-01 -7.999763E+01  2.445434E-03 1.265384E+00  2.450082E-03 1.310127E+00  9.395919E-01 -1.166071E+02
1.460875E+03  9.555748E-01 -8.001912E+01  2.419905E-03 2.744101E+00  2.425422E-03 2.551918E+00  9.396972E-01 -1.166115E+02
1.461000E+03  9.556583E-01 -8.004443E+01  2.419712E-03 4.414030E+00  2.424239E-03 4.315395E+00  9.399305E-01 -1.166448E+02
1.461125E+03  9.556888E-01 -8.006313E+01  2.418253E-03 5.843272E+00  2.409325E-03 5.745865E+00  9.400014E-01 -1.166956E+02
1.461250E+03  9.555688E-01 -8.009098E+01  2.413967E-03 7.863005E+00  2.417307E-03 7.736287E+00  9.395454E-01 -1.167318E+02
1.461375E+03  9.555277E-01 -8.009823E+01  2.428952E-03 9.541099E+00  2.425857E-03 9.647306E+00  9.390024E-01 -1.167448E+02
