! Matrix data file written by TouchstoneData, EPCOS AG
! FILENAME: "B3921_WB.s2p"
! COMMENT: "NWA-Port1 : 98.0ps NWA-Port2 : 98.0ps PCB2031"
! INFO: nport=2, nfreq=1601
! DATE: "Wed Jul  4 2012"
! USER: "Hiroshi Tanaka"
!
! port | pin | signal
! -----|-----|--------
!   1  |  2  |  in
!   2  |  5  |  out
! --------------------
! 
# MHZ S RI R 50
! freq  reS11 imS11  reS21 imS21  reS12 imS12  reS22 imS22
1.000000E+01    9.995275E-01  -1.088864E-02   -7.434159E-05   9.048465E-05   -6.802752E-05   8.657808E-05    9.992982E-01  -2.494259E-02 
1.186875E+01    9.995039E-01  -1.258410E-02    8.312077E-05   2.905131E-07    7.585097E-05  -3.757326E-06    9.990260E-01  -2.930107E-02 
1.373750E+01    9.994348E-01  -1.457912E-02    1.088622E-05   1.715214E-04    1.818011E-06   1.746664E-04    9.990417E-01  -3.380552E-02 
1.560625E+01    9.993439E-01  -1.642598E-02   -3.174916E-05  -8.526050E-06   -2.891366E-05  -1.286400E-05    9.988760E-01  -3.820742E-02 
1.747500E+01    9.993317E-01  -1.842120E-02   -5.864818E-05   1.022221E-04   -5.621861E-05   7.720387E-05    9.986438E-01  -4.273501E-02 
1.934375E+01    9.992600E-01  -2.008430E-02   -8.155360E-05   1.371822E-04   -7.495756E-05   1.535681E-04    9.983088E-01  -4.711888E-02 
2.121250E+01    9.992876E-01  -2.195357E-02   -2.915669E-05   2.173020E-05   -2.782907E-05   3.516169E-05    9.980934E-01  -5.149920E-02 
2.308125E+01    9.992568E-01  -2.393341E-02   -5.449358E-06   1.453288E-04    1.183724E-05   1.509710E-04    9.978578E-01  -5.625580E-02 
2.495000E+01    9.991360E-01  -2.593917E-02   -1.581189E-05   1.726995E-04   -1.177106E-06   1.765688E-04    9.974920E-01  -6.100902E-02 
2.681875E+01    9.988643E-01  -2.783081E-02    2.131137E-04   3.542243E-04    2.321924E-04   3.769471E-04    9.960232E-01  -6.677444E-02 
2.868750E+01    9.988790E-01  -2.980020E-02    1.506137E-05   1.591912E-04    1.504184E-05   1.628112E-04    9.970095E-01  -6.984762E-02 
3.055625E+01    9.987654E-01  -3.167281E-02   -1.986808E-06   1.699394E-04    4.853492E-06   1.811181E-04    9.965164E-01  -7.440652E-02 
3.242500E+01    9.986638E-01  -3.373712E-02    3.850861E-05   1.893024E-04    4.383238E-05   1.864150E-04    9.961591E-01  -7.910669E-02 
3.429375E+01    9.985179E-01  -3.560523E-02    1.182772E-06   2.173628E-04   -2.341464E-05   2.109909E-04    9.958297E-01  -8.370379E-02 
3.616250E+01    9.985920E-01  -3.770814E-02   -3.876859E-05   2.562050E-04   -3.083070E-05   2.559261E-04    9.951049E-01  -8.817108E-02 
3.803125E+01    9.984775E-01  -3.947049E-02   -2.294071E-05   2.870565E-04   -2.170366E-05   2.996588E-04    9.948248E-01  -9.232938E-02 
3.990000E+01    9.984855E-01  -4.132724E-02    2.512599E-06   1.665533E-04   -8.039915E-06   1.615959E-04    9.944126E-01  -9.706866E-02 
4.176875E+01    9.983384E-01  -4.338732E-02    2.179641E-05   1.907718E-04    3.075564E-05   2.002489E-04    9.938125E-01  -1.015996E-01 
4.363750E+01    9.982867E-01  -4.543089E-02    7.560554E-06   3.047932E-04    2.562257E-05   2.968041E-04    9.932568E-01  -1.063071E-01 
4.550625E+01    9.980572E-01  -4.717109E-02    1.050116E-04   3.229049E-05    1.043977E-04   1.935017E-05    9.924583E-01  -1.099603E-01 
4.737500E+01    9.980260E-01  -4.912575E-02   -2.325846E-05   2.406288E-04   -2.899178E-05   2.421839E-04    9.921820E-01  -1.150578E-01 
4.924375E+01    9.978453E-01  -5.105522E-02    6.571768E-05   2.994533E-04    5.513405E-05   2.954188E-04    9.917498E-01  -1.195789E-01 
5.111250E+01    9.977333E-01  -5.304021E-02    2.874600E-05   2.930574E-04    3.416659E-05   2.763662E-04    9.912405E-01  -1.241656E-01 
5.298125E+01    9.975917E-01  -5.511222E-02    4.462091E-05   2.898862E-04    3.943077E-05   2.832261E-04    9.904200E-01  -1.287004E-01 
5.485000E+01    9.973511E-01  -5.660710E-02   -2.949252E-05   3.751498E-04   -4.054901E-05   3.870170E-04    9.897250E-01  -1.326834E-01 
5.671875E+01    9.972918E-01  -5.862764E-02   -8.955193E-06   3.406287E-04   -1.684695E-05   3.399842E-04    9.892021E-01  -1.374116E-01 
5.858750E+01    9.970693E-01  -6.064490E-02    7.826878E-05   3.333795E-04    8.215572E-05   3.327406E-04    9.887016E-01  -1.418724E-01 
6.045625E+01    9.969924E-01  -6.266304E-02    2.863279E-05   3.279375E-04    3.345410E-05   3.243271E-04    9.879080E-01  -1.464513E-01 
6.232500E+01    9.964581E-01  -6.447756E-02    1.107824E-04   4.064738E-04    1.198306E-04   4.054371E-04    9.859391E-01  -1.525543E-01 
6.419375E+01    9.966443E-01  -6.629981E-02    2.042426E-05   3.698465E-04    2.095872E-05   3.581815E-04    9.865249E-01  -1.547672E-01 
6.606250E+01    9.964535E-01  -6.817630E-02    1.098816E-04   3.223694E-04    1.072831E-04   3.270395E-04    9.857514E-01  -1.594338E-01 
6.793125E+01    9.962583E-01  -7.012734E-02    4.013811E-05   3.739172E-04    2.786003E-05   3.757450E-04    9.850549E-01  -1.640093E-01 
6.980000E+01    9.961912E-01  -7.211515E-02    1.148047E-06   4.134645E-04   -1.429199E-06   4.089430E-04    9.841689E-01  -1.685797E-01 
7.166875E+01    9.956810E-01  -7.411056E-02   -6.513984E-05   4.838171E-04   -6.214216E-05   4.872145E-04    9.828264E-01  -1.726721E-01 
7.353750E+01    9.957367E-01  -7.579887E-02    6.517779E-05   4.543684E-04    7.959333E-05   4.561724E-04    9.825426E-01  -1.772399E-01 
7.540625E+01    9.954615E-01  -7.774400E-02   -1.596879E-05   4.383632E-04   -1.566204E-05   4.304405E-04    9.816822E-01  -1.816173E-01 
7.727500E+01    9.953974E-01  -7.965669E-02    1.308532E-04   4.410889E-04    1.424878E-04   4.470368E-04    9.805656E-01  -1.862134E-01 
7.914375E+01    9.951966E-01  -8.161277E-02   -3.416537E-05   4.310754E-04   -3.974515E-05   4.353819E-04    9.795947E-01  -1.909695E-01 
8.101250E+01    9.946120E-01  -8.331170E-02   -3.684966E-05   3.046238E-04   -3.338750E-05   3.021760E-04    9.785544E-01  -1.941115E-01 
8.288125E+01    9.947210E-01  -8.527113E-02    8.997672E-05   5.183263E-04    8.885266E-05   5.254590E-04    9.781735E-01  -1.989896E-01 
8.475000E+01    9.943929E-01  -8.729168E-02   -2.291305E-05   3.736489E-04   -2.340206E-05   3.805373E-04    9.770603E-01  -2.034333E-01 
8.661875E+01    9.943756E-01  -8.903864E-02    8.500933E-05   4.228107E-04    6.502387E-05   4.330862E-04    9.762982E-01  -2.078721E-01 
8.848750E+01    9.941624E-01  -9.116885E-02    7.402625E-05   5.122019E-04    6.870772E-05   4.961657E-04    9.750809E-01  -2.124828E-01 
9.035625E+01    9.935764E-01  -9.273630E-02    1.005194E-05   4.772253E-04    1.909359E-05   4.729987E-04    9.739526E-01  -2.160751E-01 
9.222500E+01    9.936835E-01  -9.463349E-02    5.315747E-05   4.958532E-04    5.003490E-05   5.019729E-04    9.732721E-01  -2.207472E-01 
9.409375E+01    9.934729E-01  -9.674138E-02    1.504986E-04   4.812862E-04    1.539435E-04   4.703667E-04    9.721748E-01  -2.252554E-01 
9.596250E+01    9.932758E-01  -9.858885E-02    8.915847E-05   4.929870E-04    7.618985E-05   4.908927E-04    9.712768E-01  -2.297897E-01 
9.783125E+01    9.929136E-01  -1.006367E-01    1.042429E-04   5.191403E-04    9.175382E-05   5.215023E-04    9.694653E-01  -2.355131E-01 
9.970000E+01    9.928266E-01  -1.020608E-01    1.152549E-04   5.538863E-04    1.015340E-04   5.447912E-04    9.689950E-01  -2.376639E-01 
1.015687E+02    9.926669E-01  -1.041513E-01    8.083648E-05   5.112280E-04    8.169535E-05   5.108507E-04    9.679498E-01  -2.424432E-01 
1.034375E+02    9.924175E-01  -1.060967E-01    9.607836E-05   5.661689E-04    9.621490E-05   5.756445E-04    9.665111E-01  -2.470362E-01 
1.053063E+02    9.922737E-01  -1.079646E-01    1.338798E-04   5.972756E-04    1.424669E-04   5.995422E-04    9.656379E-01  -2.512138E-01 
1.071750E+02    9.914307E-01  -1.098320E-01    2.331315E-04   6.964741E-04    2.295048E-04   6.975574E-04    9.638832E-01  -2.553654E-01 
1.090438E+02    9.917672E-01  -1.115108E-01    8.291216E-05   5.632063E-04    7.907577E-05   5.612091E-04    9.633391E-01  -2.595660E-01 
1.109125E+02    9.915486E-01  -1.134958E-01    7.194311E-05   5.480935E-04    5.838229E-05   5.549989E-04    9.620676E-01  -2.640236E-01 
1.127812E+02    9.912887E-01  -1.153936E-01    1.681704E-04   5.834267E-04    1.765537E-04   5.740754E-04    9.606290E-01  -2.685409E-01 
1.146500E+02    9.909888E-01  -1.173170E-01    1.326020E-04   6.462060E-04    1.012361E-04   6.581530E-04    9.592949E-01  -2.727483E-01 
1.165187E+02    9.903601E-01  -1.190700E-01    3.804873E-05   7.339367E-04    3.761941E-05   7.198596E-04    9.577407E-01  -2.757942E-01 
1.183875E+02    9.905491E-01  -1.209446E-01    1.783643E-04   6.872792E-04    1.813081E-04   6.713602E-04    9.570453E-01  -2.806544E-01 
1.202562E+02    9.902099E-01  -1.228263E-01    8.273248E-05   6.267815E-04    6.296227E-05   6.260219E-04    9.555034E-01  -2.850664E-01 
1.221250E+02    9.900275E-01  -1.247626E-01    1.250643E-04   6.734241E-04    1.248390E-04   6.517450E-04    9.542270E-01  -2.895245E-01 
1.239938E+02    9.897247E-01  -1.267378E-01    1.877834E-04   5.838963E-04    1.827077E-04   5.978066E-04    9.527580E-01  -2.936972E-01 
1.258625E+02    9.893835E-01  -1.281362E-01    1.447647E-04   6.669783E-04    1.386758E-04   6.602175E-04    9.513337E-01  -2.973147E-01 
1.277313E+02    9.892001E-01  -1.302165E-01    5.488378E-05   7.036383E-04    6.629058E-05   7.026187E-04    9.500550E-01  -3.017282E-01 
1.296000E+02    9.888689E-01  -1.320690E-01    1.745134E-04   6.401711E-04    1.628668E-04   6.498474E-04    9.486821E-01  -3.061768E-01 
1.314688E+02    9.886252E-01  -1.341657E-01    1.859192E-04   6.515971E-04    1.787865E-04   6.561826E-04    9.474877E-01  -3.104013E-01 
1.333375E+02    9.882462E-01  -1.362365E-01    1.957692E-04   7.010225E-04    2.024903E-04   6.949173E-04    9.454249E-01  -3.157325E-01 
1.352063E+02    9.880805E-01  -1.375218E-01    1.793188E-04   7.132962E-04    1.762633E-04   7.233112E-04    9.445137E-01  -3.179264E-01 
1.370750E+02    9.876930E-01  -1.395775E-01    1.000557E-04   7.345351E-04    8.591967E-05   7.233023E-04    9.431874E-01  -3.224343E-01 
1.389437E+02    9.874878E-01  -1.414217E-01    1.647753E-04   7.249614E-04    1.644894E-04   7.199607E-04    9.417646E-01  -3.266486E-01 
1.408125E+02    9.871563E-01  -1.434386E-01    1.200440E-04   7.802837E-04    1.179638E-04   7.710382E-04    9.403123E-01  -3.310239E-01 
1.426813E+02    9.862658E-01  -1.450796E-01    3.117664E-04   7.595721E-04    3.094553E-04   7.638529E-04    9.375675E-01  -3.347809E-01 
1.445500E+02    9.865140E-01  -1.469049E-01    1.349672E-04   8.023943E-04    1.274719E-04   8.131310E-04    9.371745E-01  -3.388418E-01 
1.464187E+02    9.862342E-01  -1.487535E-01    1.537642E-04   6.898443E-04    1.687050E-04   6.963732E-04    9.358602E-01  -3.430416E-01 
1.482875E+02    9.859600E-01  -1.506911E-01    1.634993E-04   7.826065E-04    1.757464E-04   7.873150E-04    9.343138E-01  -3.472427E-01 
1.501562E+02    9.855120E-01  -1.526573E-01    1.768195E-04   7.969499E-04    1.777048E-04   7.864497E-04    9.326095E-01  -3.517598E-01 
1.520250E+02    9.848616E-01  -1.541823E-01    1.714545E-04   7.950992E-04    1.850280E-04   8.013839E-04    9.307756E-01  -3.541763E-01 
1.538938E+02    9.847821E-01  -1.560979E-01    2.879884E-04   8.704733E-04    2.757686E-04   8.772554E-04    9.296207E-01  -3.593247E-01 
1.557625E+02    9.846435E-01  -1.580154E-01    2.461484E-04   7.990528E-04    2.361958E-04   8.203358E-04    9.279458E-01  -3.633615E-01 
1.576312E+02    9.842196E-01  -1.599999E-01    2.128172E-04   8.671833E-04    2.090742E-04   8.660235E-04    9.263535E-01  -3.676420E-01 
1.595000E+02    9.838293E-01  -1.620207E-01    1.927785E-04   7.834610E-04    1.916346E-04   7.802320E-04    9.245600E-01  -3.719956E-01 
1.613688E+02    9.834254E-01  -1.633867E-01    2.693226E-04   7.634838E-04    2.739722E-04   7.645640E-04    9.228614E-01  -3.750343E-01 
1.632375E+02    9.831702E-01  -1.654158E-01    2.726285E-04   8.149320E-04    2.759525E-04   8.132189E-04    9.213005E-01  -3.793920E-01 
1.651062E+02    9.827239E-01  -1.673437E-01    2.776532E-04   8.450918E-04    2.871637E-04   8.424026E-04    9.194449E-01  -3.833666E-01 
1.669750E+02    9.822332E-01  -1.691706E-01    1.856503E-04   7.510027E-04    1.848540E-04   7.532029E-04    9.176173E-01  -3.876222E-01 
1.688438E+02    9.818722E-01  -1.710586E-01    1.798457E-04   8.338538E-04    1.819767E-04   8.323121E-04    9.154219E-01  -3.922272E-01 
1.707125E+02    9.816175E-01  -1.724736E-01    2.524505E-04   8.492646E-04    2.492010E-04   8.483226E-04    9.142153E-01  -3.948164E-01 
1.725813E+02    9.813692E-01  -1.744641E-01    2.354003E-04   8.605924E-04    2.278725E-04   8.753535E-04    9.124393E-01  -3.991216E-01 
1.744500E+02    9.809960E-01  -1.763160E-01    2.791994E-04   8.478579E-04    2.838428E-04   8.578029E-04    9.105898E-01  -4.030641E-01 
1.763187E+02    9.805617E-01  -1.782037E-01    2.645329E-04   9.120163E-04    2.509555E-04   9.156368E-04    9.086725E-01  -4.070792E-01 
1.781875E+02    9.796600E-01  -1.802387E-01    3.098713E-04   9.629012E-04    2.998289E-04   9.596844E-04    9.051879E-01  -4.106050E-01 
1.800563E+02    9.797324E-01  -1.817077E-01    1.987811E-04   9.058052E-04    2.097013E-04   9.302480E-04    9.050747E-01  -4.144602E-01 
1.819250E+02    9.794654E-01  -1.837111E-01    3.253087E-04   8.952219E-04    3.400824E-04   8.907142E-04    9.032080E-01  -4.186104E-01 
1.837937E+02    9.790426E-01  -1.855924E-01    2.952131E-04   9.485204E-04    2.936360E-04   9.263753E-04    9.013182E-01  -4.224435E-01 
1.856625E+02    9.786205E-01  -1.874679E-01    3.203405E-04   8.749907E-04    3.298909E-04   8.763047E-04    8.994143E-01  -4.263875E-01 
1.875312E+02    9.779098E-01  -1.889766E-01    4.190601E-04   9.731963E-04    4.323653E-04   9.937786E-04    8.975802E-01  -4.290152E-01 
1.894000E+02    9.777394E-01  -1.908737E-01    3.448952E-04   9.132365E-04    3.442684E-04   9.163074E-04    8.956236E-01  -4.337209E-01 
1.912688E+02    9.774722E-01  -1.927851E-01    2.880825E-04   8.934782E-04    2.749253E-04   8.865585E-04    8.938729E-01  -4.376858E-01 
1.931375E+02    9.769869E-01  -1.945757E-01    1.759808E-04   9.349687E-04    1.742517E-04   9.308415E-04    8.918170E-01  -4.416196E-01 
1.950062E+02    9.767009E-01  -1.965970E-01    2.968444E-04   1.017550E-03    3.047762E-04   1.008886E-03    8.898682E-01  -4.456602E-01 
1.968750E+02    9.761215E-01  -1.980036E-01    3.287840E-04   9.924319E-04    3.213688E-04   9.939614E-04    8.880782E-01  -4.486597E-01 
1.987438E+02    9.758539E-01  -1.998581E-01    3.764160E-04   8.799940E-04    3.889950E-04   8.793646E-04    8.861973E-01  -4.528148E-01 
2.006125E+02    9.755087E-01  -2.019972E-01    2.795145E-04   1.052830E-03    2.796954E-04   1.059436E-03    8.841703E-01  -4.567953E-01 
2.024812E+02    9.751630E-01  -2.037218E-01    3.865881E-04   1.063741E-03    3.729902E-04   1.051813E-03    8.820642E-01  -4.605181E-01 
2.043500E+02    9.744360E-01  -2.057292E-01    4.189528E-04   1.067611E-03    4.116431E-04   1.067797E-03    8.795416E-01  -4.650300E-01 
2.062188E+02    9.742590E-01  -2.072620E-01    3.876660E-04   9.924990E-04    3.748712E-04   9.877880E-04    8.782063E-01  -4.676791E-01 
2.080875E+02    9.738236E-01  -2.090465E-01    4.104261E-04   9.246032E-04    3.981998E-04   9.107388E-04    8.760336E-01  -4.717067E-01 
2.099563E+02    9.733674E-01  -2.110698E-01    3.059675E-04   1.019527E-03    3.049654E-04   1.024760E-03    8.737943E-01  -4.755129E-01 
2.118250E+02    9.729575E-01  -2.127760E-01    3.603743E-04   9.748396E-04    3.628320E-04   9.778249E-04    8.714260E-01  -4.790931E-01 
2.136937E+02    9.721241E-01  -2.149904E-01    3.372593E-04   9.909625E-04    3.255110E-04   9.931104E-04    8.684020E-01  -4.832561E-01 
2.155625E+02    9.719807E-01  -2.161905E-01    4.224153E-04   1.067742E-03    4.220439E-04   1.082230E-03    8.677869E-01  -4.863484E-01 
2.174313E+02    9.717290E-01  -2.180956E-01    3.809544E-04   9.452328E-04    3.867123E-04   9.512576E-04    8.656533E-01  -4.900411E-01 
2.193000E+02    9.712752E-01  -2.200076E-01    4.447770E-04   9.982249E-04    4.448816E-04   9.987859E-04    8.633963E-01  -4.938659E-01 
2.211687E+02    9.706543E-01  -2.218686E-01    3.390382E-04   9.982877E-04    3.405533E-04   1.007127E-03    8.610379E-01  -4.977503E-01 
2.230375E+02    9.698413E-01  -2.232163E-01    3.449342E-04   1.058017E-03    3.375548E-04   1.058360E-03    8.590691E-01  -4.994191E-01 
2.249062E+02    9.698606E-01  -2.252792E-01    4.626755E-04   1.027736E-03    4.652647E-04   1.020380E-03    8.572085E-01  -5.042491E-01 
2.267750E+02    9.694528E-01  -2.271803E-01    4.681688E-04   1.091343E-03    4.675664E-04   1.090374E-03    8.551637E-01  -5.079276E-01 
2.286438E+02    9.689844E-01  -2.290832E-01    3.794760E-04   1.011701E-03    3.652751E-04   1.000322E-03    8.529507E-01  -5.115966E-01 
2.305125E+02    9.684329E-01  -2.309632E-01    4.613250E-04   1.058070E-03    4.566430E-04   1.059079E-03    8.505281E-01  -5.152406E-01 
2.323812E+02    9.677971E-01  -2.322527E-01    4.173552E-04   1.066013E-03    4.059037E-04   1.066335E-03    8.486360E-01  -5.179824E-01 
2.342500E+02    9.675500E-01  -2.342609E-01    4.062547E-04   1.075992E-03    4.007454E-04   1.079580E-03    8.464603E-01  -5.219963E-01 
2.361188E+02    9.670448E-01  -2.361523E-01    3.567863E-04   1.051163E-03    3.576210E-04   1.048901E-03    8.441862E-01  -5.256115E-01 
2.379875E+02    9.665838E-01  -2.379226E-01    4.794451E-04   1.042773E-03    4.783396E-04   1.040803E-03    8.417960E-01  -5.290675E-01 
2.398562E+02    9.657648E-01  -2.398901E-01    5.055917E-04   1.194930E-03    4.975299E-04   1.175397E-03    8.389864E-01  -5.331494E-01 
2.417250E+02    9.655635E-01  -2.412026E-01    4.296256E-04   1.093648E-03    4.291048E-04   1.092398E-03    8.375457E-01  -5.355945E-01 
2.435938E+02    9.651357E-01  -2.431645E-01    4.423766E-04   1.124022E-03    4.438255E-04   1.109084E-03    8.351568E-01  -5.392558E-01 
2.454625E+02    9.646857E-01  -2.449289E-01    4.920635E-04   1.163802E-03    5.122672E-04   1.179847E-03    8.328575E-01  -5.427963E-01 
2.473313E+02    9.641485E-01  -2.468958E-01    4.869094E-04   1.078059E-03    4.989100E-04   1.077556E-03    8.305159E-01  -5.462094E-01 
2.492000E+02    9.632885E-01  -2.490534E-01    4.790677E-04   1.094719E-03    4.769796E-04   1.093325E-03    8.270908E-01  -5.502560E-01 
2.510687E+02    9.632306E-01  -2.501303E-01    4.557161E-04   1.138225E-03    4.500491E-04   1.146419E-03    8.259878E-01  -5.528224E-01 
2.529375E+02    9.626702E-01  -2.521656E-01    4.616446E-04   1.091882E-03    4.694363E-04   1.076753E-03    8.235247E-01  -5.564201E-01 
2.548063E+02    9.622598E-01  -2.539975E-01    4.341095E-04   1.081342E-03    4.431333E-04   1.078266E-03    8.211122E-01  -5.598640E-01 
2.566750E+02    9.617004E-01  -2.558071E-01    4.517732E-04   1.106111E-03    4.429712E-04   1.105726E-03    8.185816E-01  -5.634167E-01 
2.585437E+02    9.604962E-01  -2.570302E-01    4.817506E-04   1.103110E-03    4.877601E-04   1.107065E-03    8.159007E-01  -5.648425E-01 
2.604125E+02    9.606501E-01  -2.589900E-01    4.914449E-04   1.082080E-03    4.897901E-04   1.086594E-03    8.140634E-01  -5.694120E-01 
2.622812E+02    9.602574E-01  -2.608503E-01    4.952991E-04   1.124276E-03    5.044213E-04   1.133311E-03    8.114135E-01  -5.730419E-01 
2.641500E+02    9.596771E-01  -2.627056E-01    4.307963E-04   1.161206E-03    4.285492E-04   1.165557E-03    8.089573E-01  -5.761211E-01 
2.660188E+02    9.590491E-01  -2.646319E-01    5.330499E-04   1.083154E-03    5.403908E-04   1.089798E-03    8.065813E-01  -5.797497E-01 
2.678875E+02    9.584211E-01  -2.660783E-01    4.747412E-04   1.129447E-03    4.591470E-04   1.140335E-03    8.042747E-01  -5.822271E-01 
2.697563E+02    9.581415E-01  -2.679351E-01    5.174614E-04   1.105710E-03    5.165632E-04   1.113549E-03    8.019146E-01  -5.857903E-01 
2.716250E+02    9.575645E-01  -2.698336E-01    5.279190E-04   1.220525E-03    5.425006E-04   1.225453E-03    7.993217E-01  -5.893960E-01 
