! Matrix data file written by TouchstoneData, EPCOS AG
! FILENAME: "newformat_LZ36B_4a_WB.s3p"
! COMMENT: "(LZ36B_4a_WB.s3p) Epcos AG 01.02.2012 13:38:"
! INFO: nport=3, nfreq=1601
! DATE: "Fri Feb  3 14:31:23 2012"
! USER: "Sergey Rostovtsev"
!
! port | pin | signal
! -----|-----|--------
!   1  |  2  |  in
!   2  |  4  |  out
!   3  |  6  |  out
! --------------------
! 
# MHZ S MA R 50
! freq  magS11 angS11  magS12 angS12  magS13 angS13  ...
1.000000E+01  9.960857E-01 -1.178468E+00  2.040025E-04 9.942952E+01  5.391745E-04 8.973255E+01 
2.067661E-04 7.342076E+01  9.960172E-01 -7.894128E-01  2.012031E-04 5.854351E+01 
5.732137E-04 9.244043E+01  1.205889E-04 6.947516E+01  1.001502E+00 -5.837582E-01 
1.249375E+01  9.948118E-01 -9.755383E-01  1.062803E-04 5.482590E+01  6.409552E-04 9.166754E+01 
1.899819E-04 6.896548E+01  9.948827E-01 -4.711306E-01  1.048720E-04 6.814120E+01 
6.200191E-04 8.462498E+01  1.879887E-04 8.074798E+01  9.967914E-01 -5.394726E-01 
1.498750E+01  9.910803E-01 -9.141108E-01  2.513392E-04 1.048176E+02  7.384209E-04 9.343637E+01 
2.450909E-04 1.210269E+02  9.935592E-01 -4.477248E-01  8.723103E-05 1.018777E+02 
7.367635E-04 9.081305E+01  1.583595E-04 8.094808E+01  9.928213E-01 -4.185055E-01 
1.748125E+01  9.979859E-01 -1.064904E+00  3.287843E-04 7.096401E+01  8.614934E-04 8.629497E+01 
3.222075E-04 8.291685E+01  9.965645E-01 -5.630260E-01  1.181343E-04 1.215161E+02 
9.464695E-04 8.018892E+01  1.133866E-04 1.185770E+02  1.001539E+00 -6.147041E-01 
1.997500E+01  9.977382E-01 -1.389479E+00  3.136734E-04 8.365256E+01  9.640820E-04 8.505934E+01 
2.830110E-04 1.032091E+02  9.952658E-01 -8.440388E-01  1.867928E-04 1.427994E+01 
1.112712E-03 9.185712E+01  3.613776E-05 4.073186E+01  9.970894E-01 -8.204785E-01 
2.246875E+01  9.994858E-01 -1.448936E+00  3.840987E-04 8.905480E+01  1.152004E-03 8.885089E+01 
3.905856E-04 6.630246E+01  9.997885E-01 -9.364360E-01  1.099156E-04 1.311009E+02 
1.139505E-03 8.474126E+01  1.147181E-04 1.315319E+02  1.000662E+00 -9.494047E-01 
2.496250E+01  9.977791E-01 -1.700042E+00  4.059789E-04 8.951913E+01  1.260383E-03 8.903708E+01 
3.898102E-04 9.090637E+01  9.987758E-01 -1.116797E+00  1.563525E-04 8.817875E+01 
1.232446E-03 9.077802E+01  8.014972E-05 9.217612E+01  9.977287E-01 -9.172974E-01 
2.745625E+01  9.972931E-01 -1.973699E+00  7.007930E-04 9.706669E+01  1.533623E-03 8.863284E+01 
7.025354E-04 9.307921E+01  9.994085E-01 -1.331715E+00  1.463194E-04 5.619613E+01 
1.500374E-03 8.933804E+01  1.027455E-04 1.084368E+01  9.993258E-01 -1.109168E+00 
2.995000E+01  9.998658E-01 -2.313926E+00  5.056908E-04 8.232002E+01  1.505344E-03 8.679565E+01 
4.552228E-04 7.877026E+01  9.995978E-01 -1.436217E+00  2.456727E-04 8.283003E+01 
1.452439E-03 8.913500E+01  2.418725E-04 9.090924E+01  9.978504E-01 -1.471007E+00 
3.244375E+01  9.993511E-01 -2.392504E+00  4.805859E-04 9.551982E+01  1.597128E-03 8.774907E+01 
5.176346E-04 9.480582E+01  9.978841E-01 -1.497961E+00  1.941126E-04 9.462121E+01 
1.590639E-03 8.896635E+01  2.052290E-04 6.946215E+01  9.968203E-01 -1.475897E+00 
3.493750E+01  9.988302E-01 -2.654722E+00  5.942736E-04 8.636127E+01  1.726402E-03 8.577271E+01 
4.979208E-04 8.821787E+01  9.989583E-01 -1.653549E+00  2.592716E-04 6.113069E+01 
1.691726E-03 8.829811E+01  1.733265E-04 6.598058E+01  9.976427E-01 -1.680074E+00 
3.743125E+01  9.993298E-01 -2.736876E+00  6.301645E-04 8.669213E+01  1.789317E-03 8.842405E+01 
5.078290E-04 8.316510E+01  1.000207E+00 -1.723923E+00  3.369640E-04 7.457801E+01 
1.726403E-03 8.617974E+01  3.624509E-04 8.561303E+01  9.978786E-01 -1.762366E+00 
3.992500E+01  1.000001E+00 -2.951797E+00  6.732520E-04 8.975361E+01  1.874316E-03 8.890851E+01 
6.305000E-04 9.038684E+01  9.989344E-01 -1.880168E+00  2.554732E-04 8.003629E+01 
1.978751E-03 8.781576E+01  2.680492E-04 9.045127E+01  9.990104E-01 -1.897004E+00 
4.241875E+01  1.000097E+00 -3.208584E+00  6.974658E-04 8.667293E+01  2.074930E-03 8.748625E+01 
6.674724E-04 8.812385E+01  9.988360E-01 -2.045013E+00  3.197887E-04 7.991104E+01 
2.137270E-03 8.741018E+01  2.690333E-04 8.982500E+01  9.989153E-01 -1.997381E+00 
4.491250E+01  9.984969E-01 -3.465517E+00  9.894344E-04 8.118142E+01  2.406163E-03 7.836802E+01 
9.402015E-04 8.159560E+01  9.973627E-01 -2.179613E+00  3.491711E-04 1.570968E+02 
2.439849E-03 7.742080E+01  3.312799E-04 1.468020E+02  9.965609E-01 -2.073468E+00 
4.740625E+01  9.987331E-01 -3.558058E+00  7.942358E-04 8.616530E+01  2.343462E-03 8.693085E+01 
8.327466E-04 8.637260E+01  9.984383E-01 -2.224444E+00  2.161351E-04 8.966511E+01 
2.335662E-03 8.656493E+01  2.087034E-04 8.220197E+01  9.987346E-01 -2.183077E+00 
4.990000E+01  9.996113E-01 -3.648051E+00  7.461558E-04 8.842271E+01  2.472376E-03 8.693113E+01 
7.310292E-04 8.772231E+01  9.979682E-01 -2.223783E+00  2.271125E-04 8.567014E+01 
2.505878E-03 8.589540E+01  2.341249E-04 8.438943E+01  9.988072E-01 -2.172792E+00 
5.239375E+01  1.000088E+00 -3.964423E+00  8.515930E-04 8.829592E+01  2.596120E-03 8.669447E+01 
8.394999E-04 9.001588E+01  9.976779E-01 -2.438652E+00  3.196698E-04 8.411114E+01 
2.576694E-03 8.659993E+01  3.114574E-04 8.156719E+01  9.985343E-01 -2.388060E+00 
5.488750E+01  9.982775E-01 -4.087814E+00  8.963774E-04 9.095028E+01  2.720011E-03 8.578888E+01 
8.964455E-04 9.091341E+01  9.976139E-01 -2.507280E+00  2.909325E-04 8.837008E+01 
2.740035E-03 8.585116E+01  2.984096E-04 8.724905E+01  9.975629E-01 -2.534628E+00 
5.738125E+01  9.979279E-01 -4.209158E+00  9.082288E-04 8.509862E+01  2.834571E-03 8.698091E+01 
9.016194E-04 8.521133E+01  9.979663E-01 -2.616201E+00  3.542293E-04 8.626499E+01 
2.828612E-03 8.699702E+01  3.383039E-04 8.823432E+01  9.980004E-01 -2.658749E+00 
5.987500E+01  9.984412E-01 -4.389972E+00  9.503955E-04 8.469386E+01  2.963234E-03 8.630153E+01 
9.278694E-04 8.519948E+01  9.983424E-01 -2.751501E+00  3.483739E-04 8.682735E+01 
2.946525E-03 8.650409E+01  3.508761E-04 8.779540E+01  9.994521E-01 -2.774479E+00 
6.236875E+01  9.982099E-01 -4.612570E+00  9.808177E-04 8.448137E+01  3.081482E-03 8.614056E+01 
9.693897E-04 8.579581E+01  9.983775E-01 -2.924811E+00  3.388106E-04 8.739421E+01 
3.086381E-03 8.607817E+01  3.483289E-04 8.650764E+01  9.987860E-01 -2.930881E+00 
6.486250E+01  9.985015E-01 -4.750296E+00  1.042561E-03 8.720632E+01  3.210194E-03 8.555924E+01 
1.032314E-03 8.760651E+01  9.988664E-01 -2.992680E+00  3.403025E-04 8.379849E+01 
3.206565E-03 8.515793E+01  3.569725E-04 8.356515E+01  9.982911E-01 -2.985304E+00 
6.735625E+01  9.992582E-01 -4.989974E+00  1.048896E-03 8.647782E+01  3.310574E-03 8.564708E+01 
1.043314E-03 8.701540E+01  9.986218E-01 -3.090139E+00  3.892384E-04 8.700492E+01 
3.327485E-03 8.574553E+01  3.883894E-04 8.698837E+01  9.984304E-01 -3.082445E+00 
6.985000E+01  9.993814E-01 -5.201885E+00  1.104874E-03 8.493392E+01  3.439847E-03 8.539022E+01 
1.112642E-03 8.603024E+01  9.982625E-01 -3.221146E+00  3.974069E-04 8.668758E+01 
3.469483E-03 8.566538E+01  4.193691E-04 8.613850E+01  9.984742E-01 -3.179176E+00 
7.234375E+01  9.990392E-01 -5.372626E+00  1.116895E-03 8.760692E+01  3.626914E-03 8.606303E+01 
1.115989E-03 8.700924E+01  9.981930E-01 -3.341402E+00  3.573804E-04 8.722673E+01 
3.647707E-03 8.634860E+01  3.490542E-04 8.816642E+01  9.982801E-01 -3.253900E+00 
7.483750E+01  9.991139E-01 -5.526239E+00  1.209312E-03 8.260880E+01  3.693766E-03 8.540833E+01 
1.184030E-03 8.289720E+01  9.979202E-01 -3.500405E+00  4.525129E-04 8.393597E+01 
3.705798E-03 8.545794E+01  4.658642E-04 8.539983E+01  9.973928E-01 -3.348619E+00 
7.733125E+01  9.988487E-01 -5.713843E+00  1.185276E-03 8.496710E+01  3.820062E-03 8.503440E+01 
1.193151E-03 8.479716E+01  9.979182E-01 -3.617258E+00  4.563670E-04 8.586873E+01 
3.814422E-03 8.531545E+01  4.670434E-04 8.570727E+01  9.970177E-01 -3.454864E+00 
7.982500E+01  9.989888E-01 -5.922410E+00  1.235152E-03 8.551751E+01  3.915114E-03 8.475685E+01 
1.234683E-03 8.614376E+01  9.977254E-01 -3.715067E+00  4.386409E-04 8.581403E+01 
3.930540E-03 8.490602E+01  4.490793E-04 8.586210E+01  9.967680E-01 -3.605219E+00 
8.231875E+01  9.995360E-01 -6.035080E+00  1.278446E-03 8.426105E+01  4.103551E-03 8.464882E+01 
1.275576E-03 8.471516E+01  9.982827E-01 -3.756485E+00  4.626624E-04 8.687758E+01 
4.105202E-03 8.440379E+01  4.526235E-04 8.647510E+01  9.971124E-01 -3.651781E+00 
8.481250E+01  9.993692E-01 -6.271371E+00  1.330532E-03 8.479121E+01  4.174986E-03 8.454070E+01 
1.328646E-03 8.505401E+01  9.987424E-01 -3.912395E+00  4.724862E-04 8.590534E+01 
4.187143E-03 8.444343E+01  4.761047E-04 8.555842E+01  9.976818E-01 -3.802743E+00 
8.730625E+01  9.992809E-01 -6.455712E+00  1.413575E-03 8.470325E+01  4.322501E-03 8.448403E+01 
1.399350E-03 8.456472E+01  9.984517E-01 -4.023868E+00  5.186138E-04 8.627307E+01 
4.336500E-03 8.436195E+01  5.367127E-04 8.566879E+01  9.978283E-01 -3.873778E+00 
8.980000E+01  9.985663E-01 -6.643358E+00  1.358475E-03 8.399846E+01  4.428029E-03 8.421835E+01 
1.329720E-03 8.437467E+01  9.977006E-01 -4.158153E+00  5.610261E-04 8.335969E+01 
4.432790E-03 8.402502E+01  5.714989E-04 8.429835E+01  9.976450E-01 -4.022218E+00 
9.229375E+01  9.990805E-01 -6.799801E+00  1.410596E-03 8.248739E+01  4.510852E-03 8.389442E+01 
1.393697E-03 8.329441E+01  9.973873E-01 -4.225123E+00  5.665983E-04 7.982724E+01 
4.521114E-03 8.369878E+01  5.462976E-04 7.877180E+01  9.979566E-01 -4.078687E+00 
9.478750E+01  9.981587E-01 -6.991574E+00  1.482297E-03 8.359913E+01  4.701517E-03 8.363329E+01 
1.454311E-03 8.389453E+01  9.976662E-01 -4.429014E+00  5.356176E-04 8.774279E+01 
4.698696E-03 8.379083E+01  5.298398E-04 8.892709E+01  9.967822E-01 -4.239863E+00 
9.728125E+01  9.985345E-01 -7.160544E+00  1.542724E-03 8.325727E+01  4.760490E-03 8.367247E+01 
1.538369E-03 8.422204E+01  9.982753E-01 -4.501862E+00  5.367639E-04 8.377526E+01 
4.753533E-03 8.415505E+01  5.428672E-04 8.496430E+01  9.975656E-01 -4.332758E+00 
9.977500E+01  9.976606E-01 -7.350884E+00  1.671321E-03 8.601794E+01  4.954552E-03 8.419657E+01 
1.663383E-03 8.551633E+01  9.966552E-01 -4.517691E+00  5.678658E-04 8.327226E+01 
4.960411E-03 8.442130E+01  5.720248E-04 8.262598E+01  9.966483E-01 -4.399972E+00 
1.022687E+02  9.974084E-01 -7.501781E+00  1.597211E-03 8.266707E+01  5.025864E-03 8.333882E+01 
1.583284E-03 8.294228E+01  9.969591E-01 -4.636964E+00  5.907409E-04 8.655472E+01 
5.037278E-03 8.334938E+01  5.906969E-04 8.461998E+01  9.972268E-01 -4.520586E+00 
1.047625E+02  9.972709E-01 -7.687741E+00  1.582661E-03 8.308553E+01  5.120591E-03 8.334914E+01 
1.561864E-03 8.251946E+01  9.974006E-01 -4.800605E+00  6.045050E-04 8.573603E+01 
5.128265E-03 8.386595E+01  6.113269E-04 8.460928E+01  9.978543E-01 -4.669882E+00 
1.072562E+02  9.974556E-01 -7.874766E+00  1.668639E-03 8.232559E+01  5.235758E-03 8.341096E+01 
1.656453E-03 8.250224E+01  9.984281E-01 -4.947456E+00  6.499199E-04 8.527698E+01 
5.240499E-03 8.351126E+01  6.364808E-04 8.512511E+01  9.978257E-01 -4.783470E+00 
1.097500E+02  9.981319E-01 -8.009239E+00  1.687112E-03 8.584810E+01  5.350649E-03 8.318383E+01 
1.684945E-03 8.627873E+01  9.992141E-01 -5.075252E+00  5.822011E-04 8.395974E+01 
5.364538E-03 8.323393E+01  5.904208E-04 8.344580E+01  9.983618E-01 -4.875690E+00 
1.122438E+02  9.978133E-01 -8.176517E+00  1.754609E-03 8.270137E+01  5.514364E-03 8.344139E+01 
1.749354E-03 8.248283E+01  1.000146E+00 -5.217505E+00  6.206456E-04 8.319876E+01 
5.498021E-03 8.346525E+01  6.273205E-04 8.420610E+01  9.974747E-01 -4.949583E+00 
1.147375E+02  9.974345E-01 -8.396910E+00  1.782935E-03 8.265842E+01  5.623019E-03 8.283174E+01 
1.785291E-03 8.272274E+01  9.992438E-01 -5.278893E+00  6.391759E-04 8.466231E+01 
5.630260E-03 8.297669E+01  6.583810E-04 8.339602E+01  9.981688E-01 -5.080535E+00 
1.172313E+02  9.968661E-01 -8.612658E+00  1.775767E-03 8.423275E+01  5.712249E-03 8.297741E+01 
1.748631E-03 8.422027E+01  9.974423E-01 -5.357111E+00  7.018490E-04 8.194308E+01 
5.723071E-03 8.295489E+01  7.177525E-04 8.312655E+01  9.982677E-01 -5.230687E+00 
1.197250E+02  9.986218E-01 -8.772054E+00  1.881291E-03 8.183688E+01  5.874023E-03 8.275313E+01 
1.842054E-03 8.205187E+01  9.973610E-01 -5.484817E+00  6.808667E-04 8.426367E+01 
5.902713E-03 8.273160E+01  6.672478E-04 8.254137E+01  9.981475E-01 -5.345325E+00 
1.222188E+02  9.986501E-01 -8.961633E+00  1.900365E-03 8.180471E+01  5.991865E-03 8.251018E+01 
1.911746E-03 8.277491E+01  9.976996E-01 -5.584160E+00  7.001105E-04 8.270603E+01 
6.018717E-03 8.241646E+01  7.214291E-04 8.220081E+01  9.975762E-01 -5.472498E+00 
1.247125E+02  9.983078E-01 -9.163965E+00  1.961400E-03 8.241398E+01  6.104702E-03 8.253091E+01 
1.946645E-03 8.248840E+01  9.982019E-01 -5.688824E+00  6.982316E-04 8.396594E+01 
6.128339E-03 8.255074E+01  7.109779E-04 8.281635E+01  9.966384E-01 -5.578707E+00 
1.272062E+02  9.989863E-01 -9.323713E+00  2.008960E-03 8.154759E+01  6.262810E-03 8.224901E+01 
1.976757E-03 8.188688E+01  9.973690E-01 -5.836094E+00  6.915730E-04 8.272160E+01 
6.279368E-03 8.222168E+01  6.843284E-04 8.223809E+01  9.970635E-01 -5.646637E+00 
1.297000E+02  9.992111E-01 -9.574081E+00  2.054887E-03 8.243382E+01  6.343622E-03 8.187507E+01 
2.042507E-03 8.255553E+01  9.977450E-01 -5.997732E+00  7.301006E-04 8.251398E+01 
6.361996E-03 8.221544E+01  7.565526E-04 8.429618E+01  9.980886E-01 -5.758682E+00 
1.321937E+02  9.980255E-01 -9.760071E+00  2.054792E-03 8.268424E+01  6.484073E-03 8.196320E+01 
2.027514E-03 8.207240E+01  9.978986E-01 -6.046363E+00  7.476954E-04 8.247087E+01 
6.502843E-03 8.202767E+01  7.321216E-04 8.260951E+01  9.981435E-01 -5.795623E+00 
1.346875E+02  9.975867E-01 -9.961728E+00  1.914223E-03 8.436897E+01  6.482827E-03 8.076205E+01 
1.882274E-03 8.463260E+01  9.966984E-01 -6.159224E+00  7.250777E-04 8.287677E+01 
6.521350E-03 8.052187E+01  7.365720E-04 8.138195E+01  9.962786E-01 -5.933396E+00 
1.371813E+02  9.984019E-01 -1.005959E+01  2.121158E-03 8.097614E+01  6.736385E-03 8.175282E+01 
2.114372E-03 8.175957E+01  9.972946E-01 -6.188864E+00  7.554312E-04 8.420413E+01 
6.740414E-03 8.157393E+01  7.737275E-04 8.258641E+01  9.971079E-01 -6.018742E+00 
1.396750E+02  9.975623E-01 -1.031639E+01  2.169801E-03 8.151971E+01  6.814800E-03 8.130945E+01 
2.146720E-03 8.160780E+01  9.975225E-01 -6.382715E+00  8.111173E-04 8.386553E+01 
6.848085E-03 8.143931E+01  8.173707E-04 8.388961E+01  9.976091E-01 -6.150120E+00 
1.421687E+02  9.977755E-01 -1.054119E+01  2.197363E-03 7.996133E+01  6.990088E-03 8.111155E+01 
2.198384E-03 8.039978E+01  9.969859E-01 -6.552265E+00  8.191771E-04 8.388573E+01 
6.997148E-03 8.110753E+01  8.273483E-04 8.385121E+01  9.982254E-01 -6.322327E+00 
1.446625E+02  9.980526E-01 -1.062737E+01  2.242067E-03 8.010460E+01  7.106982E-03 8.123754E+01 
2.236902E-03 7.998320E+01  9.963845E-01 -6.638123E+00  7.725253E-04 8.220571E+01 
7.114331E-03 8.122451E+01  7.823016E-04 8.329435E+01  9.982226E-01 -6.388153E+00 
1.471562E+02  9.978233E-01 -1.080582E+01  2.330731E-03 8.004929E+01  7.214611E-03 8.111777E+01 
2.317687E-03 8.042120E+01  9.977333E-01 -6.773757E+00  8.265096E-04 8.281622E+01 
7.219715E-03 8.109360E+01  8.391460E-04 8.235459E+01  9.977114E-01 -6.493462E+00 
1.496500E+02  9.979844E-01 -1.102859E+01  2.343360E-03 8.016317E+01  7.319016E-03 8.091673E+01 
2.321248E-03 8.035001E+01  9.978136E-01 -6.893954E+00  8.374540E-04 8.364984E+01 
7.324843E-03 8.118809E+01  8.299047E-04 8.291827E+01  9.971244E-01 -6.617820E+00 
1.521438E+02  9.981736E-01 -1.126714E+01  2.378250E-03 8.104379E+01  7.432543E-03 8.085242E+01 
2.378606E-03 8.132420E+01  9.966845E-01 -6.988553E+00  8.583354E-04 8.357846E+01 
7.456949E-03 8.086666E+01  8.477189E-04 8.378028E+01  9.968058E-01 -6.733914E+00 
1.546375E+02  9.982890E-01 -1.143446E+01  2.384286E-03 8.053486E+01  7.544669E-03 8.055957E+01 
2.374072E-03 8.044322E+01  9.977488E-01 -7.055102E+00  8.512936E-04 8.218280E+01 
7.565424E-03 8.060933E+01  8.591516E-04 8.163046E+01  9.975713E-01 -6.889966E+00 
1.571312E+02  9.980876E-01 -1.162221E+01  2.453800E-03 8.004560E+01  7.698031E-03 8.048994E+01 
2.438268E-03 8.043014E+01  9.980315E-01 -7.170752E+00  8.854665E-04 8.244295E+01 
7.695890E-03 8.049302E+01  8.993192E-04 8.266622E+01  9.979657E-01 -7.016590E+00 
1.596250E+02  9.975510E-01 -1.178349E+01  2.488791E-03 8.026060E+01  7.827361E-03 8.045991E+01 
2.469141E-03 8.050343E+01  9.973488E-01 -7.310895E+00  8.887710E-04 8.395717E+01 
7.846307E-03 8.060362E+01  9.050592E-04 8.321501E+01  9.980451E-01 -7.074325E+00 
1.621188E+02  9.979676E-01 -1.194535E+01  2.475878E-03 8.040039E+01  7.955907E-03 8.021131E+01 
2.449771E-03 8.027081E+01  9.976245E-01 -7.388814E+00  9.135420E-04 7.909684E+01 
7.969629E-03 8.037398E+01  9.152388E-04 7.880175E+01  9.984280E-01 -7.151160E+00 
1.646125E+02  9.974911E-01 -1.214105E+01  2.567798E-03 7.975745E+01  8.063190E-03 7.996494E+01 
2.560784E-03 7.998331E+01  9.973984E-01 -7.509428E+00  9.224536E-04 8.318284E+01 
8.076456E-03 8.026416E+01  9.153747E-04 8.283774E+01  9.974934E-01 -7.304677E+00 
1.671062E+02  9.972767E-01 -1.235090E+01  2.605016E-03 7.947554E+01  8.178524E-03 7.976305E+01 
2.584377E-03 7.958395E+01  9.972603E-01 -7.577722E+00  9.372815E-04 8.281513E+01 
8.175344E-03 7.992636E+01  9.453461E-04 8.254401E+01  9.969682E-01 -7.453241E+00 
1.696000E+02  9.978838E-01 -1.256825E+01  2.626437E-03 7.939317E+01  8.293884E-03 7.948249E+01 
2.603608E-03 7.965746E+01  9.970495E-01 -7.692090E+00  9.536232E-04 8.281426E+01 
8.291419E-03 7.959304E+01  9.575494E-04 8.289042E+01  9.969518E-01 -7.630882E+00 
1.720938E+02  9.991604E-01 -1.269472E+01  2.677186E-03 8.006241E+01  8.461061E-03 7.937594E+01 
2.657495E-03 7.999980E+01  9.973506E-01 -7.799951E+00  9.234675E-04 8.179771E+01 
8.466987E-03 7.939594E+01  9.357236E-04 8.224141E+01  9.977950E-01 -7.707718E+00 
1.745875E+02  9.987463E-01 -1.290324E+01  2.694212E-03 7.931753E+01  8.553108E-03 7.925872E+01 
2.677939E-03 7.916283E+01  9.970834E-01 -7.945740E+00  9.772004E-04 8.255048E+01 
8.577970E-03 7.955661E+01  9.986156E-04 8.215421E+01  9.976844E-01 -7.806142E+00 
1.770813E+02  9.982437E-01 -1.316671E+01  2.728029E-03 7.932917E+01  8.657347E-03 7.907960E+01 
2.716133E-03 7.949315E+01  9.970764E-01 -8.112612E+00  9.855970E-04 8.219269E+01 
8.691421E-03 7.930622E+01  9.956074E-04 8.239301E+01  9.981350E-01 -7.989709E+00 
1.795750E+02  9.968313E-01 -1.335548E+01  2.786753E-03 7.856868E+01  8.790369E-03 7.915063E+01 
2.766001E-03 7.904857E+01  9.972504E-01 -8.167118E+00  9.781248E-04 7.890829E+01 
8.787415E-03 7.911868E+01  9.787209E-04 7.858268E+01  9.970998E-01 -8.114574E+00 
1.820687E+02  9.973264E-01 -1.343992E+01  2.792641E-03 7.908248E+01  8.872854E-03 7.900638E+01 
2.780073E-03 7.939620E+01  9.977144E-01 -8.195060E+00  9.965312E-04 8.156920E+01 
8.912550E-03 7.896210E+01  1.003791E-03 8.135447E+01  9.974096E-01 -8.174079E+00 
1.845625E+02  9.970713E-01 -1.363017E+01  2.871748E-03 7.865541E+01  8.997529E-03 7.884740E+01 
2.855106E-03 7.858087E+01  9.969330E-01 -8.355737E+00  1.018183E-03 8.027395E+01 
9.035957E-03 7.879565E+01  1.033554E-03 8.068421E+01  9.972638E-01 -8.295970E+00 
1.870563E+02  9.984515E-01 -1.383032E+01  2.902736E-03 7.863459E+01  9.146869E-03 7.858072E+01 
2.876969E-03 7.853260E+01  9.978435E-01 -8.419267E+00  1.032838E-03 8.258066E+01 
9.161559E-03 7.862370E+01  1.054225E-03 8.174544E+01  9.980335E-01 -8.453344E+00 
1.895500E+02  9.987873E-01 -1.403214E+01  2.915378E-03 7.814755E+01  9.220364E-03 7.810781E+01 
2.887769E-03 7.843020E+01  9.974838E-01 -8.511617E+00  1.043254E-03 8.122654E+01 
9.234001E-03 7.813499E+01  1.030005E-03 8.145570E+01  9.978722E-01 -8.554074E+00 
1.920437E+02  9.981186E-01 -1.422535E+01  2.956624E-03 7.808210E+01  9.386684E-03 7.823328E+01 
2.926460E-03 7.812516E+01  9.967924E-01 -8.687956E+00  1.068365E-03 8.197857E+01 
9.422703E-03 7.822809E+01  1.073625E-03 8.166366E+01  9.971683E-01 -8.641605E+00 
1.945375E+02  9.962321E-01 -1.429477E+01  2.991561E-03 7.835139E+01  9.484254E-03 7.821273E+01 
2.973495E-03 7.840085E+01  9.960967E-01 -8.707141E+00  1.075829E-03 8.167600E+01 
9.506984E-03 7.827386E+01  1.087718E-03 8.146106E+01  9.952457E-01 -8.764629E+00 
