! Matrix data file written by TouchstoneData, EPCOS AG
! FILENAME: "B3926_WB.s2p"
! COMMENT: "NWA-Port1 : 98.0ps NWA-Port2 : 98.0ps PCB2031"
! INFO: nport=2, nfreq=1601
! DATE: "Wed Mar 13 2013"
! USER: "Hiroshi Tanaka"
!
! port | pin | signal
! -----|-----|--------
!   1  |  2  |  in
!   2  |  5  |  out
! --------------------
! 
# MHZ S MA R 50
! freq  magS11 angS11  magS21 angS21  magS12 angS12  magS22 angS22
1.000000E+01    9.990095E-01  -1.487381E+00    3.252655E-04   6.275606E+01    3.558781E-04   6.765915E+01    9.961072E-01  -1.697730E+00 
1.186875E+01    9.951039E-01  -1.289843E+00    8.533805E-05  -6.485724E+01    4.493598E-05  -3.253894E+01    9.942110E-01  -1.766266E+00 
1.373750E+01    9.923631E-01  -8.779111E-01    1.533082E-04   9.494427E+01    1.250583E-04   8.992838E+01    9.930755E-01  -1.322836E+00 
1.560625E+01    9.908981E-01  -8.277910E-01    1.355011E-04   9.416039E+01    1.167847E-04   1.106635E+02    9.911370E-01  -1.363618E+00 
1.747500E+01    9.925752E-01  -9.382279E-01    1.795770E-04   1.026970E+02    2.179951E-04   1.036510E+02    9.927647E-01  -1.570072E+00 
1.934375E+01    9.966644E-01  -1.027436E+00    2.364312E-04   8.444756E+01    2.333561E-04   9.074966E+01    9.952907E-01  -1.783631E+00 
2.121250E+01    9.985065E-01  -1.232762E+00    1.726292E-04   1.101724E+02    1.890240E-04   1.267895E+02    9.982905E-01  -2.000152E+00 
2.308125E+01    9.986219E-01  -1.422737E+00    2.134820E-04   8.101561E+01    2.221509E-04   7.978175E+01    9.982782E-01  -2.266308E+00 
2.495000E+01    9.969755E-01  -1.538094E+00    2.078082E-04   8.179476E+01    1.772266E-04   7.619507E+01    9.959338E-01  -2.484320E+00 
2.681875E+01    9.984979E-01  -1.763158E+00    3.564889E-04   1.130277E+02    3.427136E-04   1.033054E+02    9.975601E-01  -2.713923E+00 
2.868750E+01    9.969755E-01  -1.581523E+00    3.212410E-04   1.106191E+02    3.005130E-04   1.080954E+02    9.972552E-01  -2.980154E+00 
3.055625E+01    9.935378E-01  -2.231011E+00    2.769218E-04   8.102121E+01    2.944351E-04   8.764180E+01    9.970003E-01  -3.136100E+00 
3.242500E+01    9.967367E-01  -2.206826E+00    3.551462E-04   8.729544E+01    3.257171E-04   8.455093E+01    9.960750E-01  -3.382041E+00 
3.429375E+01    9.935378E-01  -2.454298E+00    3.402742E-04   8.529797E+01    3.037475E-04   8.486373E+01    9.935624E-01  -3.669491E+00 
3.616250E+01    9.951014E-01  -2.710935E+00    4.147764E-04   6.148076E+01    4.082257E-04   5.755788E+01    9.937174E-01  -3.832910E+00 
3.803125E+01    9.999579E-01  -2.787616E+00    3.671611E-04   8.586846E+01    3.550619E-04   8.078027E+01    9.994646E-01  -4.040648E+00 
3.990000E+01    9.995704E-01  -2.922586E+00    3.083246E-04   8.975693E+01    3.329341E-04   9.123425E+01    9.994646E-01  -4.351239E+00 
4.176875E+01    9.986610E-01  -3.088348E+00    3.485932E-04   7.218550E+01    3.351641E-04   7.051572E+01    9.976359E-01  -4.469548E+00 
4.363750E+01    9.977359E-01  -3.271971E+00    4.546654E-04   8.605445E+01    4.199744E-04   8.452827E+01    9.961406E-01  -4.693158E+00 
4.550625E+01    9.980545E-01  -3.441578E+00    3.776057E-04   8.296854E+01    3.954619E-04   8.126898E+01    9.966146E-01  -4.884596E+00 
4.737500E+01    9.976878E-01  -3.583346E+00    4.045432E-04   8.365862E+01    3.889819E-04   8.042925E+01    9.956686E-01  -5.073805E+00 
4.924375E+01    9.964202E-01  -3.640548E+00    4.238331E-04   8.154403E+01    4.335804E-04   8.466063E+01    9.946585E-01  -5.211801E+00 
5.111250E+01    9.954663E-01  -3.786552E+00    4.781612E-04   8.192377E+01    4.775475E-04   8.316123E+01    9.936856E-01  -5.395485E+00 
5.298125E+01    9.949467E-01  -3.996101E+00    4.891055E-04   8.807113E+01    4.948296E-04   8.965338E+01    9.933786E-01  -5.662652E+00 
5.485000E+01    9.955005E-01  -4.104291E+00    5.423015E-04   8.123940E+01    5.458470E-04   8.222438E+01    9.944067E-01  -5.822837E+00 
5.671875E+01    9.956577E-01  -4.288085E+00    4.782100E-04   8.072359E+01    4.800054E-04   8.121715E+01    9.942453E-01  -6.051721E+00 
5.858750E+01    9.955649E-01  -4.431610E+00    5.665124E-04   8.001679E+01    5.592846E-04   7.963849E+01    9.942270E-01  -6.263926E+00 
6.045625E+01    9.953340E-01  -4.567730E+00    5.401944E-04   9.712868E+01    5.491465E-04   9.652283E+01    9.939388E-01  -6.448818E+00 
6.232500E+01    9.949069E-01  -4.692561E+00    5.241507E-04   8.854138E+01    5.370169E-04   8.828446E+01    9.937581E-01  -6.594164E+00 
6.419375E+01    9.951300E-01  -4.807855E+00    6.120211E-04   8.719089E+01    6.235633E-04   8.681438E+01    9.944197E-01  -6.767692E+00 
6.606250E+01    9.954574E-01  -4.960866E+00    6.420085E-04   8.365477E+01    6.341458E-04   8.335330E+01    9.949750E-01  -6.989071E+00 
6.793125E+01    9.946710E-01  -5.115788E+00    6.612943E-04   8.406040E+01    6.554749E-04   8.407194E+01    9.939280E-01  -7.181611E+00 
6.980000E+01    9.946910E-01  -5.324982E+00    6.619398E-04   8.122805E+01    6.723909E-04   8.132230E+01    9.945658E-01  -7.478698E+00 
7.166875E+01    9.948282E-01  -5.413519E+00    6.250836E-04   7.958609E+01    6.229583E-04   7.954383E+01    9.943871E-01  -7.607101E+00 
7.353750E+01    9.949473E-01  -5.510207E+00    6.553813E-04   8.304671E+01    6.593694E-04   8.436286E+01    9.941989E-01  -7.762428E+00 
7.540625E+01    9.950544E-01  -5.638934E+00    6.542794E-04   8.507109E+01    6.434337E-04   8.427942E+01    9.937625E-01  -7.941937E+00 
7.727500E+01    9.953112E-01  -5.782445E+00    7.205452E-04   8.049163E+01    7.186853E-04   7.935004E+01    9.939634E-01  -8.125215E+00 
7.914375E+01    9.945939E-01  -5.891834E+00    8.185422E-04   9.129704E+01    8.174990E-04   9.124132E+01    9.930509E-01  -8.233554E+00 
8.101250E+01    9.952918E-01  -5.988636E+00    7.308940E-04   8.081098E+01    7.348097E-04   8.069475E+01    9.939555E-01  -8.379398E+00 
8.288125E+01    9.951485E-01  -6.104950E+00    7.599615E-04   7.808724E+01    7.705048E-04   7.708094E+01    9.939706E-01  -8.564923E+00 
8.475000E+01    9.954940E-01  -6.254783E+00    7.925176E-04   8.191799E+01    7.822207E-04   8.133572E+01    9.943858E-01  -8.812901E+00 
8.661875E+01    9.957268E-01  -6.425784E+00    7.865253E-04   8.203222E+01    7.808253E-04   8.287363E+01    9.950927E-01  -9.046169E+00 
8.848750E+01    9.950432E-01  -6.504757E+00    9.260515E-04   8.091261E+01    9.261406E-04   8.085831E+01    9.940757E-01  -9.178800E+00 
9.035625E+01    9.960085E-01  -6.606167E+00    7.761397E-04   8.239002E+01    7.911543E-04   8.301492E+01    9.946063E-01  -9.346135E+00 
9.222500E+01    9.959194E-01  -6.777177E+00    8.601482E-04   8.220343E+01    8.758522E-04   8.257728E+01    9.940590E-01  -9.616588E+00 
9.409375E+01    9.959505E-01  -6.882989E+00    8.840313E-04   8.246452E+01    8.986276E-04   8.264603E+01    9.935992E-01  -9.816994E+00 
9.596250E+01    9.966224E-01  -7.004870E+00    8.492194E-04   8.087247E+01    8.532321E-04   8.144085E+01    9.942912E-01  -9.970854E+00 
9.783125E+01    9.977062E-01  -7.061618E+00    8.719219E-04   8.215177E+01    8.858377E-04   8.312391E+01    9.951573E-01  -1.003105E+01 
9.970000E+01    9.977043E-01  -7.178937E+00    9.086545E-04   7.612344E+01    8.822937E-04   7.710615E+01    9.953969E-01  -1.022380E+01 
1.015687E+02    9.978675E-01  -7.323288E+00    9.461055E-04   8.315477E+01    9.295296E-04   8.306280E+01    9.956088E-01  -1.042988E+01 
1.034375E+02    9.979728E-01  -7.499994E+00    9.282999E-04   8.151697E+01    9.291780E-04   8.215395E+01    9.957963E-01  -1.063210E+01 
1.053063E+02    9.979278E-01  -7.629573E+00    9.425146E-04   8.352043E+01    9.446273E-04   8.249074E+01    9.950690E-01  -1.080357E+01 
1.071750E+02    9.986127E-01  -7.753614E+00    9.754005E-04   7.948653E+01    9.862017E-04   7.994530E+01    9.958902E-01  -1.095218E+01 
1.090438E+02    9.985696E-01  -7.886114E+00    9.386705E-04   7.944104E+01    9.577996E-04   7.948264E+01    9.960165E-01  -1.115635E+01 
1.109125E+02    9.988621E-01  -8.034641E+00    9.982701E-04   7.829399E+01    9.798200E-04   7.900776E+01    9.959792E-01  -1.137130E+01 
1.127812E+02    9.990962E-01  -8.174866E+00    1.033703E-03   8.301553E+01    1.025355E-03   8.327334E+01    9.961660E-01  -1.157341E+01 
1.146500E+02    9.989576E-01  -8.321443E+00    1.019750E-03   8.509648E+01    1.013981E-03   8.602333E+01    9.955122E-01  -1.170988E+01 
1.165187E+02    9.990609E-01  -8.444206E+00    1.058782E-03   7.916573E+01    1.055447E-03   8.022711E+01    9.960400E-01  -1.190695E+01 
1.183875E+02    9.993154E-01  -8.582815E+00    1.133107E-03   8.026358E+01    1.113534E-03   8.062956E+01    9.961208E-01  -1.208689E+01 
1.202562E+02    9.994268E-01  -8.749620E+00    1.096659E-03   7.860711E+01    1.101103E-03   7.936940E+01    9.964817E-01  -1.229617E+01 
1.221250E+02    9.992074E-01  -8.929648E+00    1.106365E-03   7.870160E+01    1.104214E-03   7.878189E+01    9.962781E-01  -1.252339E+01 
1.239938E+02    9.989985E-01  -9.075501E+00    1.096715E-03   8.030184E+01    1.094360E-03   8.093505E+01    9.958261E-01  -1.268722E+01 
1.258625E+02    9.989293E-01  -9.207255E+00    1.047349E-03   8.087932E+01    1.033385E-03   8.082766E+01    9.956816E-01  -1.286882E+01 
1.277313E+02    9.994032E-01  -9.361232E+00    1.086660E-03   7.439306E+01    1.094380E-03   7.458991E+01    9.962530E-01  -1.305230E+01 
1.296000E+02    9.997272E-01  -9.522026E+00    1.178620E-03   7.910474E+01    1.184654E-03   7.985954E+01    9.969250E-01  -1.322812E+01 
1.314688E+02    9.990913E-01  -9.647546E+00    1.125355E-03   7.133049E+01    1.123127E-03   7.234947E+01    9.942595E-01  -1.344574E+01 
1.333375E+02    9.984036E-01  -9.799066E+00    1.183132E-03   7.635767E+01    1.173598E-03   7.695544E+01    9.955723E-01  -1.361649E+01 
1.352063E+02    9.985945E-01  -9.955925E+00    1.188308E-03   7.981662E+01    1.189533E-03   8.026374E+01    9.956156E-01  -1.383757E+01 
1.370750E+02    9.985065E-01  -1.005699E+01    1.165746E-03   7.885658E+01    1.173658E-03   7.970470E+01    9.959772E-01  -1.397450E+01 
1.389437E+02    9.978023E-01  -1.023450E+01    1.263605E-03   7.853473E+01    1.265984E-03   7.873812E+01    9.953700E-01  -1.418111E+01 
1.408125E+02    9.974432E-01  -1.035121E+01    1.400322E-03   8.361593E+01    1.403239E-03   8.368696E+01    9.944434E-01  -1.431944E+01 
1.426813E+02    9.975956E-01  -1.047450E+01    1.202587E-03   7.781946E+01    1.199859E-03   7.823163E+01    9.952809E-01  -1.452430E+01 
1.445500E+02    9.974119E-01  -1.064515E+01    1.316311E-03   7.790139E+01    1.310223E-03   7.812333E+01    9.952945E-01  -1.470770E+01 
1.464187E+02    9.970696E-01  -1.078045E+01    1.307889E-03   7.795460E+01    1.308208E-03   7.825430E+01    9.951182E-01  -1.488158E+01 
1.482875E+02    9.965766E-01  -1.092748E+01    1.375897E-03   7.681771E+01    1.371453E-03   7.688618E+01    9.947711E-01  -1.509776E+01 
1.501562E+02    9.962701E-01  -1.103716E+01    1.338479E-03   7.824357E+01    1.335179E-03   7.846090E+01    9.946593E-01  -1.523550E+01 
1.520250E+02    9.963562E-01  -1.119278E+01    1.372166E-03   7.742643E+01    1.383306E-03   7.771865E+01    9.948113E-01  -1.545370E+01 
1.538938E+02    9.959921E-01  -1.135330E+01    1.410045E-03   7.491105E+01    1.410484E-03   7.486927E+01    9.946142E-01  -1.564157E+01 
1.557625E+02    9.957509E-01  -1.148510E+01    1.376582E-03   7.356192E+01    1.384808E-03   7.332383E+01    9.945299E-01  -1.581714E+01 
1.576312E+02    9.955210E-01  -1.162539E+01    1.348972E-03   7.518739E+01    1.343734E-03   7.559629E+01    9.938534E-01  -1.605556E+01 
1.595000E+02    9.957454E-01  -1.172269E+01    1.344998E-03   7.562029E+01    1.336031E-03   7.583129E+01    9.947245E-01  -1.617774E+01 
1.613688E+02    9.957803E-01  -1.184757E+01    1.474354E-03   7.688462E+01    1.483785E-03   7.734190E+01    9.949986E-01  -1.635182E+01 
1.632375E+02    9.948529E-01  -1.201202E+01    1.391071E-03   7.518486E+01    1.394509E-03   7.561481E+01    9.942807E-01  -1.654258E+01 
1.651062E+02    9.943326E-01  -1.217591E+01    1.488207E-03   7.620836E+01    1.488923E-03   7.657690E+01    9.933968E-01  -1.673897E+01 
1.669750E+02    9.938050E-01  -1.229478E+01    1.402816E-03   7.346902E+01    1.400382E-03   7.369765E+01    9.925026E-01  -1.686409E+01 
1.688438E+02    9.946207E-01  -1.240023E+01    1.476825E-03   7.489641E+01    1.470321E-03   7.530410E+01    9.939580E-01  -1.707047E+01 
1.707125E+02    9.938363E-01  -1.252523E+01    1.479021E-03   7.347022E+01    1.475533E-03   7.362762E+01    9.933176E-01  -1.726028E+01 
1.725813E+02    9.937436E-01  -1.265495E+01    1.489553E-03   7.426313E+01    1.479254E-03   7.441108E+01    9.932214E-01  -1.744041E+01 
1.744500E+02    9.944914E-01  -1.280357E+01    1.531675E-03   7.284733E+01    1.536554E-03   7.274122E+01    9.939207E-01  -1.764700E+01 
1.763187E+02    9.948137E-01  -1.296003E+01    1.604662E-03   7.454736E+01    1.611424E-03   7.480203E+01    9.943216E-01  -1.783730E+01 
1.781875E+02    9.954918E-01  -1.317296E+01    1.526669E-03   7.336583E+01    1.516008E-03   7.388962E+01    9.950578E-01  -1.813012E+01 
1.800563E+02    9.953216E-01  -1.323294E+01    1.607019E-03   7.581566E+01    1.607745E-03   7.611853E+01    9.947161E-01  -1.823003E+01 
1.819250E+02    9.955654E-01  -1.332038E+01    1.556960E-03   7.730903E+01    1.548553E-03   7.729507E+01    9.950455E-01  -1.837517E+01 
1.837937E+02    9.960640E-01  -1.343144E+01    1.563779E-03   7.387280E+01    1.568411E-03   7.451757E+01    9.949931E-01  -1.860605E+01 
1.856625E+02    9.963134E-01  -1.356436E+01    1.547083E-03   7.267748E+01    1.548528E-03   7.305792E+01    9.955000E-01  -1.871960E+01 
1.875312E+02    9.967460E-01  -1.375496E+01    1.651399E-03   7.465941E+01    1.657255E-03   7.513442E+01    9.954904E-01  -1.892777E+01 
1.894000E+02    9.977387E-01  -1.387140E+01    1.681615E-03   7.083372E+01    1.674186E-03   7.121532E+01    9.961921E-01  -1.909811E+01 
1.912688E+02    9.979437E-01  -1.402151E+01    1.676018E-03   7.245366E+01    1.679570E-03   7.242602E+01    9.959403E-01  -1.930945E+01 
1.931375E+02    9.961041E-01  -1.416563E+01    1.559945E-03   7.222097E+01    1.565336E-03   7.237734E+01    9.939487E-01  -1.951295E+01 
1.950062E+02    9.961451E-01  -1.429338E+01    1.692767E-03   7.469476E+01    1.686421E-03   7.496226E+01    9.940973E-01  -1.975601E+01 
1.968750E+02    9.970318E-01  -1.448895E+01    1.727374E-03   7.326093E+01    1.719526E-03   7.337295E+01    9.951151E-01  -1.998528E+01 
1.987438E+02    9.972049E-01  -1.461455E+01    1.580358E-03   7.168511E+01    1.606872E-03   7.213085E+01    9.951433E-01  -2.015875E+01 
2.006125E+02    9.967226E-01  -1.481420E+01    1.678031E-03   7.347988E+01    1.689135E-03   7.386148E+01    9.952009E-01  -2.037937E+01 
2.024812E+02    9.963814E-01  -1.495034E+01    1.716555E-03   7.240104E+01    1.710291E-03   7.191084E+01    9.950006E-01  -2.051879E+01 
2.043500E+02    9.972473E-01  -1.505471E+01    1.795538E-03   7.333633E+01    1.786082E-03   7.368647E+01    9.950043E-01  -2.072474E+01 
2.062188E+02    9.969320E-01  -1.514354E+01    1.783138E-03   7.143152E+01    1.790525E-03   7.213517E+01    9.949008E-01  -2.090116E+01 
2.080875E+02    9.969850E-01  -1.526395E+01    1.805846E-03   7.150409E+01    1.800100E-03   7.182819E+01    9.948955E-01  -2.106555E+01 
2.099563E+02    9.976177E-01  -1.546464E+01    1.828434E-03   7.178955E+01    1.821241E-03   7.173720E+01    9.949155E-01  -2.125184E+01 
2.118250E+02    9.978402E-01  -1.557756E+01    1.814912E-03   7.217891E+01    1.805804E-03   7.232115E+01    9.944507E-01  -2.150670E+01 
2.136937E+02    9.985505E-01  -1.570092E+01    1.779743E-03   7.180897E+01    1.786236E-03   7.156992E+01    9.943513E-01  -2.169894E+01 
2.155625E+02    9.981005E-01  -1.588275E+01    1.876521E-03   7.281138E+01    1.876770E-03   7.302553E+01    9.940448E-01  -2.188963E+01 
2.174313E+02    9.973925E-01  -1.607907E+01    1.876427E-03   6.808720E+01    1.880675E-03   6.828658E+01    9.937177E-01  -2.208217E+01 
2.193000E+02    9.969325E-01  -1.626097E+01    1.795175E-03   6.840507E+01    1.776604E-03   6.843797E+01    9.917432E-01  -2.222331E+01 
2.211687E+02    9.974537E-01  -1.638835E+01    1.881482E-03   7.182454E+01    1.879230E-03   7.167641E+01    9.931239E-01  -2.245373E+01 
2.230375E+02    9.972028E-01  -1.645402E+01    1.861830E-03   7.262297E+01    1.861586E-03   7.222156E+01    9.939950E-01  -2.261789E+01 
2.249062E+02    9.971521E-01  -1.652752E+01    1.957488E-03   6.777999E+01    1.946258E-03   6.775467E+01    9.947950E-01  -2.280005E+01 
2.267750E+02    9.971640E-01  -1.666273E+01    1.932393E-03   7.014188E+01    1.934294E-03   7.049264E+01    9.949229E-01  -2.298155E+01 
2.286438E+02    9.969126E-01  -1.685346E+01    1.899622E-03   7.019369E+01    1.897598E-03   7.030401E+01    9.936650E-01  -2.314286E+01 
2.305125E+02    9.969817E-01  -1.701640E+01    1.935504E-03   6.989659E+01    1.932001E-03   7.014416E+01    9.937710E-01  -2.335542E+01 
2.323812E+02    9.968239E-01  -1.716262E+01    1.934028E-03   6.905976E+01    1.920658E-03   6.963711E+01    9.938236E-01  -2.355623E+01 
2.342500E+02    9.961994E-01  -1.728064E+01    1.961546E-03   6.994763E+01    1.959078E-03   7.030884E+01    9.929484E-01  -2.372990E+01 
2.361188E+02    9.958438E-01  -1.748802E+01    2.048187E-03   7.098646E+01    2.055515E-03   7.114262E+01    9.925352E-01  -2.396220E+01 
2.379875E+02    9.957599E-01  -1.759551E+01    1.963586E-03   6.975250E+01    1.959303E-03   6.990311E+01    9.925944E-01  -2.407558E+01 
2.398562E+02    9.956045E-01  -1.771302E+01    2.035115E-03   6.821690E+01    2.033787E-03   6.837257E+01    9.925171E-01  -2.425739E+01 
2.417250E+02    9.953674E-01  -1.784391E+01    2.061150E-03   7.220021E+01    2.066236E-03   7.248177E+01    9.920692E-01  -2.443685E+01 
2.435938E+02    9.949740E-01  -1.797986E+01    2.085595E-03   6.696957E+01    2.104002E-03   6.740241E+01    9.920755E-01  -2.459979E+01 
2.454625E+02    9.941360E-01  -1.813891E+01    2.035476E-03   6.884786E+01    2.048626E-03   6.914683E+01    9.906019E-01  -2.480303E+01 
2.473313E+02    9.944295E-01  -1.825517E+01    2.008586E-03   6.985359E+01    1.999820E-03   7.020558E+01    9.918052E-01  -2.500145E+01 
2.492000E+02    9.942400E-01  -1.838540E+01    2.102592E-03   6.778300E+01    2.108305E-03   6.848935E+01    9.917459E-01  -2.520924E+01 
2.510687E+02    9.941177E-01  -1.851749E+01    2.057497E-03   6.950593E+01    2.051583E-03   6.985239E+01    9.915906E-01  -2.538321E+01 
2.529375E+02    9.937674E-01  -1.866492E+01    2.109736E-03   6.909334E+01    2.098607E-03   6.937028E+01    9.917936E-01  -2.554812E+01 
2.548063E+02    9.930146E-01  -1.876873E+01    2.089067E-03   6.774436E+01    2.094327E-03   6.814882E+01    9.913215E-01  -2.563786E+01 
2.566750E+02    9.930058E-01  -1.892063E+01    2.119834E-03   6.826670E+01    2.127822E-03   6.859682E+01    9.915060E-01  -2.585178E+01 
2.585437E+02    9.927456E-01  -1.904364E+01    2.086002E-03   6.850260E+01    2.093115E-03   6.883767E+01    9.913884E-01  -2.606398E+01 
2.604125E+02    9.928510E-01  -1.916205E+01    2.187788E-03   6.931254E+01    2.178437E-03   6.923453E+01    9.911963E-01  -2.623737E+01 
2.622812E+02    9.926470E-01  -1.930739E+01    2.126195E-03   6.806702E+01    2.140178E-03   6.821013E+01    9.913459E-01  -2.644259E+01 
2.641500E+02    9.923152E-01  -1.942800E+01    2.134182E-03   6.692325E+01    2.134793E-03   6.708409E+01    9.910810E-01  -2.659327E+01 
2.660188E+02    9.920503E-01  -1.957070E+01    2.174588E-03   6.669491E+01    2.175843E-03   6.686943E+01    9.912004E-01  -2.679003E+01 
2.678875E+02    9.919579E-01  -1.969447E+01    2.193119E-03   6.490618E+01    2.189854E-03   6.506508E+01    9.909520E-01  -2.696874E+01 
2.697563E+02    9.919458E-01  -1.984420E+01    2.200705E-03   6.652046E+01    2.198579E-03   6.681126E+01    9.912202E-01  -2.715701E+01 
2.716250E+02    9.910850E-01  -1.999630E+01    2.226617E-03   6.317482E+01    2.240357E-03   6.343440E+01    9.889435E-01  -2.735252E+01 
