! Matrix data file written by TouchstoneData, EPCOS AG
! FILENAME: "B3926_NB.s2p"
! COMMENT: "NWA-Port1 : 98.0ps NWA-Port2 : 98.0ps PCB2031"
! INFO: nport=2, nfreq=1601
! DATE: "Wed Mar 13 2013"
! USER: "Hiroshi Tanaka"
!
! port | pin | signal
! -----|-----|--------
!   1  |  2  |  in
!   2  |  5  |  out
! --------------------
! 
# MHZ S MA R 50
! freq  magS11 angS11  magS21 angS21  magS12 angS12  magS22 angS22
8.252000E+02    9.657602E-01  -6.634564E+01    7.088091E-04   5.765934E+01    7.098943E-04   5.864127E+01    9.677840E-01  -8.267413E+01 
8.253250E+02    9.657806E-01  -6.638297E+01    7.256151E-04   5.845136E+01    7.207550E-04   5.810771E+01    9.678290E-01  -8.267742E+01 
8.254500E+02    9.655432E-01  -6.638836E+01    7.051982E-04   5.756606E+01    7.022422E-04   5.774079E+01    9.679622E-01  -8.269226E+01 
8.255750E+02    9.656428E-01  -6.638168E+01    7.009087E-04   5.714642E+01    7.097735E-04   5.794142E+01    9.681826E-01  -8.270969E+01 
8.257000E+02    9.659787E-01  -6.638838E+01    7.151435E-04   5.790374E+01    7.068417E-04   5.874795E+01    9.682686E-01  -8.272778E+01 
8.258250E+02    9.664277E-01  -6.640348E+01    7.129967E-04   5.604207E+01    7.156015E-04   5.552957E+01    9.683325E-01  -8.276019E+01 
8.259500E+02    9.668661E-01  -6.644409E+01    6.688124E-04   5.557792E+01    6.727673E-04   5.637725E+01    9.683659E-01  -8.277796E+01 
8.260750E+02    9.669143E-01  -6.648694E+01    6.750875E-04   5.741052E+01    6.765217E-04   5.706954E+01    9.684237E-01  -8.279850E+01 
8.262000E+02    9.667701E-01  -6.651094E+01    6.719090E-04   5.858249E+01    6.676958E-04   5.886442E+01    9.684875E-01  -8.282000E+01 
8.263250E+02    9.667656E-01  -6.652524E+01    6.857899E-04   5.759446E+01    6.921718E-04   5.782470E+01    9.684656E-01  -8.284037E+01 
8.264500E+02    9.668361E-01  -6.653782E+01    6.721940E-04   5.746313E+01    6.728705E-04   5.694559E+01    9.684793E-01  -8.285385E+01 
8.265750E+02    9.669335E-01  -6.655047E+01    6.624731E-04   5.681910E+01    6.673465E-04   5.686124E+01    9.686901E-01  -8.287748E+01 
8.267000E+02    9.672293E-01  -6.657444E+01    6.597834E-04   5.702327E+01    6.631088E-04   5.787395E+01    9.688127E-01  -8.291172E+01 
8.268250E+02    9.675409E-01  -6.660231E+01    6.413880E-04   5.669699E+01    6.339962E-04   5.616630E+01    9.688631E-01  -8.293603E+01 
8.269500E+02    9.677033E-01  -6.662982E+01    6.468875E-04   5.816062E+01    6.440707E-04   5.839382E+01    9.687867E-01  -8.295087E+01 
8.270750E+02    9.678004E-01  -6.666212E+01    6.242652E-04   5.724030E+01    6.288152E-04   5.685959E+01    9.689303E-01  -8.296259E+01 
8.272000E+02    9.677130E-01  -6.668849E+01    6.100271E-04   5.675336E+01    6.076777E-04   5.824074E+01    9.690371E-01  -8.300214E+01 
8.273250E+02    9.676504E-01  -6.671928E+01    5.957055E-04   5.970425E+01    5.989461E-04   6.061432E+01    9.688655E-01  -8.303528E+01 
8.274500E+02    9.678494E-01  -6.674252E+01    6.125424E-04   5.891066E+01    6.211328E-04   5.942263E+01    9.689075E-01  -8.305379E+01 
8.275750E+02    9.678355E-01  -6.676533E+01    5.992108E-04   5.856776E+01    5.839644E-04   5.890380E+01    9.688214E-01  -8.306723E+01 
8.277000E+02    9.679282E-01  -6.678843E+01    5.836700E-04   5.916220E+01    5.867769E-04   5.897429E+01    9.687025E-01  -8.306560E+01 
8.278250E+02    9.678314E-01  -6.680694E+01    5.750105E-04   6.234832E+01    5.709797E-04   6.300791E+01    9.689611E-01  -8.308804E+01 
8.279500E+02    9.680066E-01  -6.683639E+01    5.769387E-04   6.265739E+01    5.734364E-04   6.288910E+01    9.691763E-01  -8.311919E+01 
8.280750E+02    9.681407E-01  -6.685865E+01    5.930708E-04   6.414664E+01    5.910454E-04   6.459825E+01    9.691925E-01  -8.314206E+01 
8.282000E+02    9.683358E-01  -6.688292E+01    5.860795E-04   6.242494E+01    5.851393E-04   6.294846E+01    9.693394E-01  -8.315833E+01 
8.283250E+02    9.684012E-01  -6.690017E+01    5.894428E-04   6.317315E+01    5.851936E-04   6.300271E+01    9.693995E-01  -8.318104E+01 
8.284500E+02    9.685756E-01  -6.692700E+01    5.728481E-04   6.445119E+01    5.681038E-04   6.484714E+01    9.693198E-01  -8.321089E+01 
8.285750E+02    9.685324E-01  -6.697041E+01    5.910511E-04   6.362571E+01    5.774136E-04   6.463074E+01    9.692858E-01  -8.323216E+01 
8.287000E+02    9.684993E-01  -6.700778E+01    5.803088E-04   6.548877E+01    5.888551E-04   6.514569E+01    9.693401E-01  -8.325067E+01 
8.288250E+02    9.683851E-01  -6.702353E+01    5.614049E-04   6.508972E+01    5.627637E-04   6.516369E+01    9.693624E-01  -8.326287E+01 
8.289500E+02    9.684586E-01  -6.702738E+01    5.779580E-04   6.677238E+01    5.694361E-04   6.737116E+01    9.694329E-01  -8.327944E+01 
8.290750E+02    9.685194E-01  -6.704200E+01    5.759067E-04   6.642625E+01    5.729042E-04   6.509794E+01    9.695181E-01  -8.330685E+01 
8.292000E+02    9.687292E-01  -6.706953E+01    5.787986E-04   6.622791E+01    5.769805E-04   6.630749E+01    9.695270E-01  -8.334971E+01 
8.293250E+02    9.690468E-01  -6.710946E+01    5.575175E-04   6.712977E+01    5.524080E-04   6.741147E+01    9.694842E-01  -8.338290E+01 
8.294500E+02    9.691613E-01  -6.714731E+01    5.642080E-04   6.711866E+01    5.510213E-04   6.758054E+01    9.695055E-01  -8.340784E+01 
8.295750E+02    9.691177E-01  -6.716975E+01    5.607564E-04   6.863135E+01    5.656162E-04   6.919927E+01    9.692768E-01  -8.343322E+01 
8.297000E+02    9.691343E-01  -6.720499E+01    5.791204E-04   6.726845E+01    5.696579E-04   6.858806E+01    9.690186E-01  -8.345134E+01 
8.298250E+02    9.689822E-01  -6.723570E+01    5.676549E-04   6.863873E+01    5.659588E-04   6.994282E+01    9.691039E-01  -8.347538E+01 
8.299500E+02    9.688345E-01  -6.726436E+01    5.798229E-04   6.800383E+01    5.772931E-04   6.724278E+01    9.692447E-01  -8.349335E+01 
8.300750E+02    9.688321E-01  -6.728512E+01    5.549231E-04   6.851267E+01    5.630994E-04   6.860865E+01    9.691539E-01  -8.352414E+01 
8.302000E+02    9.691174E-01  -6.729434E+01    5.504987E-04   6.800741E+01    5.526937E-04   6.835735E+01    9.690793E-01  -8.354197E+01 
8.303250E+02    9.692214E-01  -6.732103E+01    5.478147E-04   6.808903E+01    5.571895E-04   6.726946E+01    9.691229E-01  -8.356218E+01 
8.304500E+02    9.693134E-01  -6.735184E+01    5.253398E-04   6.932757E+01    5.259772E-04   6.929809E+01    9.690588E-01  -8.359861E+01 
8.305750E+02    9.695434E-01  -6.739606E+01    5.350081E-04   7.054019E+01    5.331066E-04   7.063543E+01    9.691499E-01  -8.362089E+01 
8.307000E+02    9.695239E-01  -6.743785E+01    5.279209E-04   7.055890E+01    5.256227E-04   7.070875E+01    9.691732E-01  -8.365159E+01 
8.308250E+02    9.694800E-01  -6.746671E+01    5.150796E-04   7.059039E+01    5.153760E-04   7.142800E+01    9.689434E-01  -8.367388E+01 
8.309500E+02    9.693289E-01  -6.749403E+01    5.052523E-04   7.222540E+01    5.044610E-04   7.283259E+01    9.688955E-01  -8.370029E+01 
8.310750E+02    9.691932E-01  -6.751267E+01    5.052720E-04   7.381903E+01    5.032390E-04   7.403470E+01    9.687864E-01  -8.372892E+01 
8.312000E+02    9.692598E-01  -6.754177E+01    5.122401E-04   7.647231E+01    5.121568E-04   7.642154E+01    9.686930E-01  -8.375728E+01 
8.313250E+02    9.692573E-01  -6.757449E+01    5.190895E-04   7.603060E+01    5.196794E-04   7.557270E+01    9.686574E-01  -8.376972E+01 
8.314500E+02    9.692631E-01  -6.759783E+01    5.178471E-04   7.666275E+01    5.236253E-04   7.714107E+01    9.686827E-01  -8.377864E+01 
8.315750E+02    9.693365E-01  -6.763237E+01    5.228746E-04   7.621544E+01    5.232399E-04   7.574872E+01    9.687803E-01  -8.380042E+01 
8.317000E+02    9.693007E-01  -6.765584E+01    5.067978E-04   7.745412E+01    5.066439E-04   7.678732E+01    9.688354E-01  -8.383155E+01 
8.318250E+02    9.692539E-01  -6.768790E+01    5.172580E-04   7.839772E+01    5.192800E-04   7.832999E+01    9.687539E-01  -8.385696E+01 
8.319500E+02    9.692966E-01  -6.772303E+01    5.234317E-04   7.918903E+01    5.254873E-04   7.884121E+01    9.686181E-01  -8.388478E+01 
8.320750E+02    9.692211E-01  -6.775481E+01    5.266740E-04   7.915511E+01    5.310955E-04   7.933253E+01    9.685529E-01  -8.389381E+01 
8.322000E+02    9.690525E-01  -6.778665E+01    5.176550E-04   7.879752E+01    5.228707E-04   7.853877E+01    9.686020E-01  -8.391723E+01 
8.323250E+02    9.689001E-01  -6.779696E+01    5.293701E-04   7.942356E+01    5.244441E-04   7.889057E+01    9.685453E-01  -8.393904E+01 
8.324500E+02    9.689495E-01  -6.782196E+01    5.191359E-04   7.850511E+01    5.188864E-04   7.827586E+01    9.684634E-01  -8.395275E+01 
8.325750E+02    9.691608E-01  -6.784773E+01    5.169527E-04   8.039930E+01    5.174491E-04   8.008302E+01    9.684847E-01  -8.397900E+01 
8.327000E+02    9.693123E-01  -6.788382E+01    5.040908E-04   8.076035E+01    5.028729E-04   8.046183E+01    9.686014E-01  -8.398479E+01 
8.328250E+02    9.693644E-01  -6.792459E+01    5.104199E-04   8.217780E+01    5.130150E-04   8.222468E+01    9.686142E-01  -8.401135E+01 
8.329500E+02    9.693112E-01  -6.795524E+01    5.126668E-04   8.164855E+01    5.189010E-04   8.153131E+01    9.686836E-01  -8.402933E+01 
8.330750E+02    9.691742E-01  -6.798900E+01    5.168585E-04   8.118765E+01    5.180186E-04   8.132511E+01    9.686795E-01  -8.404233E+01 
8.332000E+02    9.690390E-01  -6.801879E+01    5.115829E-04   8.263816E+01    5.063905E-04   8.337004E+01    9.687953E-01  -8.407082E+01 
8.333250E+02    9.688747E-01  -6.804836E+01    5.212857E-04   8.251806E+01    5.194913E-04   8.154769E+01    9.690105E-01  -8.410232E+01 
8.334500E+02    9.688743E-01  -6.808064E+01    5.067541E-04   8.204057E+01    5.062545E-04   8.250515E+01    9.690906E-01  -8.412398E+01 
8.335750E+02    9.687276E-01  -6.809912E+01    4.948588E-04   8.366845E+01    4.946202E-04   8.392270E+01    9.689876E-01  -8.413940E+01 
8.337000E+02    9.688333E-01  -6.812531E+01    5.018746E-04   8.384564E+01    5.053199E-04   8.476808E+01    9.691266E-01  -8.415761E+01 
8.338250E+02    9.689176E-01  -6.815705E+01    4.910931E-04   8.372772E+01    4.871854E-04   8.367423E+01    9.692409E-01  -8.418772E+01 
8.339500E+02    9.689966E-01  -6.819999E+01    4.803635E-04   8.716299E+01    4.924392E-04   8.687246E+01    9.692455E-01  -8.422607E+01 
8.340750E+02    9.690123E-01  -6.824407E+01    4.901149E-04   8.692201E+01    4.921746E-04   8.758650E+01    9.692157E-01  -8.425028E+01 
8.342000E+02    9.689738E-01  -6.828511E+01    4.911242E-04   8.756106E+01    4.975520E-04   8.752288E+01    9.691812E-01  -8.426911E+01 
8.343250E+02    9.686633E-01  -6.832252E+01    4.841625E-04   8.662338E+01    4.918641E-04   8.740128E+01    9.693914E-01  -8.428253E+01 
8.344500E+02    9.685752E-01  -6.834984E+01    4.775422E-04   8.936736E+01    4.656128E-04   8.944986E+01    9.696323E-01  -8.432872E+01 
8.345750E+02    9.684270E-01  -6.838103E+01    4.856710E-04   9.136421E+01    4.894898E-04   9.113694E+01    9.697864E-01  -8.436822E+01 
8.347000E+02    9.684652E-01  -6.841581E+01    4.757006E-04   9.095228E+01    4.804362E-04   9.114442E+01    9.697030E-01  -8.440433E+01 
8.348250E+02    9.685843E-01  -6.844483E+01    4.834573E-04   9.144164E+01    4.842693E-04   9.236998E+01    9.698535E-01  -8.443551E+01 
8.349500E+02    9.686175E-01  -6.847661E+01    4.903195E-04   9.223096E+01    4.928422E-04   9.247025E+01    9.699315E-01  -8.445991E+01 
8.350750E+02    9.685572E-01  -6.850663E+01    4.819941E-04   9.488211E+01    4.817699E-04   9.438569E+01    9.698367E-01  -8.450222E+01 
8.352000E+02    9.684829E-01  -6.855864E+01    4.909622E-04   9.504586E+01    4.893118E-04   9.338086E+01    9.699767E-01  -8.454964E+01 
8.353250E+02    9.684149E-01  -6.860287E+01    5.058523E-04   9.438208E+01    5.037026E-04   9.426538E+01    9.699995E-01  -8.458967E+01 
8.354500E+02    9.682239E-01  -6.863989E+01    4.926049E-04   9.385769E+01    4.866768E-04   9.406352E+01    9.698390E-01  -8.462613E+01 
8.355750E+02    9.677482E-01  -6.866953E+01    5.075498E-04   9.584366E+01    5.099396E-04   9.565497E+01    9.697820E-01  -8.465681E+01 
8.357000E+02    9.675066E-01  -6.867819E+01    4.886179E-04   9.479961E+01    4.902727E-04   9.425894E+01    9.697102E-01  -8.467658E+01 
8.358250E+02    9.674978E-01  -6.870896E+01    4.954470E-04   9.762450E+01    4.976189E-04   9.706396E+01    9.698644E-01  -8.471083E+01 
8.359500E+02    9.674624E-01  -6.873806E+01    4.917326E-04   9.556639E+01    4.879813E-04   9.563546E+01    9.701052E-01  -8.476183E+01 
8.360750E+02    9.675001E-01  -6.877254E+01    4.855630E-04   9.835610E+01    4.830708E-04   9.933669E+01    9.701598E-01  -8.479797E+01 
8.362000E+02    9.675260E-01  -6.880469E+01    4.979907E-04   9.972686E+01    4.949756E-04   9.990721E+01    9.699657E-01  -8.483900E+01 
8.363250E+02    9.675253E-01  -6.884005E+01    4.933442E-04   9.957422E+01    4.963191E-04   9.867935E+01    9.698005E-01  -8.487539E+01 
8.364500E+02    9.672011E-01  -6.888766E+01    4.911587E-04   1.012681E+02    4.810692E-04   1.009948E+02    9.695604E-01  -8.490290E+01 
8.365750E+02    9.669943E-01  -6.892897E+01    5.019517E-04   1.011351E+02    4.981103E-04   9.995472E+01    9.696808E-01  -8.494149E+01 
8.367000E+02    9.666912E-01  -6.897147E+01    5.049740E-04   1.011569E+02    5.057654E-04   1.013918E+02    9.696700E-01  -8.496781E+01 
8.368250E+02    9.663358E-01  -6.897925E+01    5.048375E-04   1.025416E+02    5.026614E-04   1.009350E+02    9.695646E-01  -8.499705E+01 
8.369500E+02    9.661971E-01  -6.899544E+01    5.091071E-04   1.010145E+02    5.161355E-04   1.011524E+02    9.695726E-01  -8.502380E+01 
8.370750E+02    9.661972E-01  -6.902705E+01    4.831429E-04   1.033057E+02    4.966278E-04   1.024701E+02    9.695130E-01  -8.506509E+01 
8.372000E+02    9.660502E-01  -6.906437E+01    5.043206E-04   1.025145E+02    5.040372E-04   1.017345E+02    9.692879E-01  -8.509953E+01 
8.373250E+02    9.660406E-01  -6.910198E+01    4.822271E-04   1.059352E+02    4.823979E-04   1.063458E+02    9.692581E-01  -8.512305E+01 
8.374500E+02    9.660004E-01  -6.914225E+01    5.037907E-04   1.047598E+02    5.002607E-04   1.045892E+02    9.693880E-01  -8.514729E+01 
8.375750E+02    9.656313E-01  -6.917060E+01    4.838078E-04   1.044123E+02    4.871222E-04   1.040847E+02    9.694693E-01  -8.518173E+01 
8.377000E+02    9.653528E-01  -6.920668E+01    4.777397E-04   1.093591E+02    4.749250E-04   1.092254E+02    9.694349E-01  -8.522433E+01 
8.378250E+02    9.651496E-01  -6.924262E+01    5.041620E-04   1.108326E+02    5.060870E-04   1.117646E+02    9.692719E-01  -8.526805E+01 
8.379500E+02    9.648032E-01  -6.928501E+01    5.062819E-04   1.111313E+02    5.025183E-04   1.105796E+02    9.691254E-01  -8.529292E+01 
8.380750E+02    9.643098E-01  -6.931281E+01    5.241759E-04   1.117012E+02    5.137892E-04   1.110304E+02    9.689631E-01  -8.531211E+01 
8.382000E+02    9.640249E-01  -6.933014E+01    5.157732E-04   1.122047E+02    5.247721E-04   1.117220E+02    9.690545E-01  -8.534217E+01 
8.383250E+02    9.635770E-01  -6.935963E+01    5.259082E-04   1.129662E+02    5.343742E-04   1.135965E+02    9.689750E-01  -8.537629E+01 
8.384500E+02    9.631894E-01  -6.936410E+01    5.469097E-04   1.138496E+02    5.453680E-04   1.139528E+02    9.688204E-01  -8.541337E+01 
8.385750E+02    9.633820E-01  -6.938324E+01    5.563753E-04   1.120344E+02    5.531772E-04   1.122254E+02    9.686022E-01  -8.543979E+01 
8.387000E+02    9.631804E-01  -6.942497E+01    5.397255E-04   1.139019E+02    5.293959E-04   1.144125E+02    9.685329E-01  -8.546346E+01 
8.388250E+02    9.626632E-01  -6.947099E+01    5.585336E-04   1.144103E+02    5.516045E-04   1.148390E+02    9.683173E-01  -8.550103E+01 
8.389500E+02    9.621423E-01  -6.950980E+01    5.666484E-04   1.148690E+02    5.722070E-04   1.148317E+02    9.682729E-01  -8.552920E+01 
8.390750E+02    9.615637E-01  -6.953783E+01    5.718506E-04   1.155003E+02    5.784783E-04   1.144335E+02    9.681968E-01  -8.555277E+01 
8.392000E+02    9.609076E-01  -6.952723E+01    5.672280E-04   1.131424E+02    5.681464E-04   1.126992E+02    9.680859E-01  -8.558539E+01 
8.393250E+02    9.608371E-01  -6.951984E+01    5.535855E-04   1.155659E+02    5.474296E-04   1.163828E+02    9.678721E-01  -8.560890E+01 
8.394500E+02    9.608026E-01  -6.953854E+01    5.951708E-04   1.186513E+02    5.828703E-04   1.178475E+02    9.676676E-01  -8.563617E+01 
8.395750E+02    9.607057E-01  -6.957312E+01    5.956613E-04   1.168962E+02    5.999083E-04   1.171179E+02    9.675333E-01  -8.567028E+01 
8.397000E+02    9.603517E-01  -6.961517E+01    6.131043E-04   1.174206E+02    6.081555E-04   1.180302E+02    9.674555E-01  -8.568745E+01 
8.398250E+02    9.598314E-01  -6.964381E+01    6.274122E-04   1.170575E+02    6.263136E-04   1.156838E+02    9.672126E-01  -8.571608E+01 
8.399500E+02    9.590792E-01  -6.966173E+01    6.207102E-04   1.148794E+02    6.173669E-04   1.154096E+02    9.670899E-01  -8.573268E+01 
8.400750E+02    9.583259E-01  -6.965064E+01    6.387824E-04   1.142269E+02    6.506692E-04   1.144482E+02    9.668336E-01  -8.575895E+01 
8.402000E+02    9.581470E-01  -6.964352E+01    5.982125E-04   1.113588E+02    5.982207E-04   1.126741E+02    9.667426E-01  -8.578293E+01 
8.403250E+02    9.579289E-01  -6.965663E+01    6.266159E-04   1.180974E+02    6.213129E-04   1.178680E+02    9.666954E-01  -8.580661E+01 
8.404500E+02    9.575740E-01  -6.965593E+01    6.564882E-04   1.141487E+02    6.586662E-04   1.146404E+02    9.664381E-01  -8.582246E+01 
8.405750E+02    9.575235E-01  -6.964274E+01    6.403882E-04   1.121648E+02    6.338439E-04   1.120061E+02    9.663328E-01  -8.584153E+01 
8.407000E+02    9.574446E-01  -6.966335E+01    6.262610E-04   1.134303E+02    6.245932E-04   1.125555E+02    9.661391E-01  -8.585610E+01 
8.408250E+02    9.569539E-01  -6.965954E+01    5.982072E-04   1.117540E+02    6.045309E-04   1.117805E+02    9.661592E-01  -8.587668E+01 
8.409500E+02    9.567096E-01  -6.965569E+01    5.828035E-04   1.148694E+02    5.837968E-04   1.151532E+02    9.661833E-01  -8.590405E+01 
8.410750E+02    9.568854E-01  -6.964701E+01    6.116829E-04   1.137864E+02    6.078860E-04   1.139408E+02    9.660807E-01  -8.594215E+01 
8.412000E+02    9.569387E-01  -6.965879E+01    6.005001E-04   1.137896E+02    5.960686E-04   1.142713E+02    9.659351E-01  -8.597580E+01 
8.413250E+02    9.567930E-01  -6.964357E+01    5.983154E-04   1.128627E+02    5.899127E-04   1.135490E+02    9.659308E-01  -8.600968E+01 
8.414500E+02    9.570834E-01  -6.964155E+01    5.943024E-04   1.162425E+02    5.949882E-04   1.156934E+02    9.659257E-01  -8.603466E+01 
8.415750E+02    9.569286E-01  -6.966354E+01    5.870948E-04   1.147690E+02    5.829253E-04   1.147604E+02    9.658186E-01  -8.606532E+01 
8.417000E+02    9.569007E-01  -6.963368E+01    5.585456E-04   1.150233E+02    5.708341E-04   1.157597E+02    9.657608E-01  -8.609616E+01 
8.418250E+02    9.575972E-01  -6.963096E+01    5.517177E-04   1.174900E+02    5.582238E-04   1.179733E+02    9.658063E-01  -8.613104E+01 
8.419500E+02    9.579499E-01  -6.965149E+01    5.798234E-04   1.194957E+02    5.835320E-04   1.198663E+02    9.658396E-01  -8.615970E+01 
8.420750E+02    9.580920E-01  -6.966466E+01    5.782123E-04   1.192181E+02    5.774057E-04   1.187707E+02    9.657708E-01  -8.619703E+01 
8.422000E+02    9.585642E-01  -6.967497E+01    5.613523E-04   1.179892E+02    5.679904E-04   1.179579E+02    9.654516E-01  -8.622213E+01 
8.423250E+02    9.587206E-01  -6.971128E+01    5.663096E-04   1.205065E+02    5.653074E-04   1.193718E+02    9.652795E-01  -8.624841E+01 
8.424500E+02    9.587858E-01  -6.973398E+01    5.484032E-04   1.207743E+02    5.442305E-04   1.207984E+02    9.654174E-01  -8.627007E+01 
8.425750E+02    9.588164E-01  -6.974445E+01    5.539025E-04   1.242839E+02    5.618149E-04   1.237334E+02    9.655708E-01  -8.628559E+01 
8.427000E+02    9.591253E-01  -6.974850E+01    5.663179E-04   1.240948E+02    5.632971E-04   1.244153E+02    9.657940E-01  -8.631697E+01 
