! Matrix data file written by TouchstoneData, EPCOS AG
! FILENAME: "B3921_NB.s2p"
! COMMENT: "NWA-Port1 : 98.0ps NWA-Port2 : 98.0ps PCB2031"
! INFO: nport=2, nfreq=1601
! DATE: "Wed Jul  4 2012"
! USER: "Hiroshi Tanaka"
!
! port | pin | signal
! -----|-----|--------
!   1  |  2  |  in
!   2  |  5  |  out
! --------------------
! 
# MHZ S RI R 50
! freq  reS11 imS11  reS21 imS21  reS12 imS12  reS22 imS22
8.258000E+02    6.116846E-01  -7.588747E-01   -1.006213E-03   2.515011E-05   -9.866899E-04   3.597680E-05   -1.248550E-01  -9.630345E-01 
8.259250E+02    6.115358E-01  -7.590330E-01   -9.874567E-04   9.923885E-06   -9.967349E-04   3.206150E-06   -1.252783E-01  -9.630404E-01 
8.260500E+02    6.113673E-01  -7.595153E-01   -1.019964E-03   3.503331E-05   -1.024412E-03   3.535617E-05   -1.257197E-01  -9.629808E-01 
8.261750E+02    6.110204E-01  -7.597731E-01   -9.938686E-04   5.370460E-06   -1.002103E-03   2.937060E-05   -1.261315E-01  -9.628149E-01 
8.263000E+02    6.107406E-01  -7.600190E-01   -9.922039E-04   5.425540E-06   -1.007838E-03   2.945594E-05   -1.264251E-01  -9.627245E-01 
8.264250E+02    6.105977E-01  -7.601223E-01   -1.020153E-03   3.104552E-05   -1.012720E-03   3.071495E-05   -1.266906E-01  -9.624896E-01 
8.265500E+02    6.104496E-01  -7.604560E-01   -1.042907E-03   1.605922E-05   -1.055078E-03  -3.736336E-06   -1.268120E-01  -9.625241E-01 
8.266750E+02    6.103484E-01  -7.607677E-01   -1.025173E-03   4.232580E-05   -1.021321E-03   5.906965E-05   -1.271367E-01  -9.625585E-01 
8.268000E+02    6.100980E-01  -7.610135E-01   -1.013488E-03   2.897417E-06   -1.021068E-03   1.342711E-05   -1.273932E-01  -9.625067E-01 
8.269250E+02    6.098017E-01  -7.612215E-01   -1.035351E-03   4.924191E-06   -1.041178E-03   2.062426E-05   -1.277433E-01  -9.624946E-01 
8.270500E+02    6.097032E-01  -7.613901E-01   -1.029181E-03   4.247330E-05   -1.015753E-03   5.169934E-05   -1.282484E-01  -9.625671E-01 
8.271750E+02    6.095065E-01  -7.616775E-01   -1.022662E-03   2.103958E-05   -1.007134E-03  -4.545650E-06   -1.286130E-01  -9.624872E-01 
8.273000E+02    6.092958E-01  -7.619801E-01   -1.013891E-03   1.792581E-06   -1.017526E-03   1.668447E-05   -1.290309E-01  -9.623317E-01 
8.274250E+02    6.092334E-01  -7.621600E-01   -1.039493E-03  -8.013735E-06   -1.031341E-03  -1.450920E-05   -1.292879E-01  -9.621142E-01 
8.275500E+02    6.090343E-01  -7.625402E-01   -1.042981E-03  -6.455027E-06   -1.052886E-03   3.528255E-07   -1.295110E-01  -9.619175E-01 
8.276750E+02    6.087019E-01  -7.627804E-01   -1.038769E-03   2.792011E-07   -1.044017E-03   5.860104E-06   -1.297146E-01  -9.617073E-01 
8.278000E+02    6.083166E-01  -7.630278E-01   -1.085260E-03  -1.680422E-05   -1.069962E-03   7.656487E-08   -1.298428E-01  -9.615543E-01 
8.279250E+02    6.082124E-01  -7.629987E-01   -1.053891E-03   1.071479E-05   -1.033149E-03   2.886207E-05   -1.298544E-01  -9.617879E-01 
8.280500E+02    6.082072E-01  -7.631933E-01   -1.076692E-03  -1.568664E-05   -1.071848E-03  -1.938472E-05   -1.302015E-01  -9.617481E-01 
8.281750E+02    6.081508E-01  -7.635731E-01   -1.103086E-03   7.602924E-06   -1.084450E-03   3.293347E-06   -1.304952E-01  -9.617852E-01 
8.283000E+02    6.079747E-01  -7.638858E-01   -1.101730E-03   3.679454E-05   -1.096754E-03   3.927121E-05   -1.307885E-01  -9.617544E-01 
8.284250E+02    6.078328E-01  -7.643039E-01   -1.083534E-03   2.785104E-05   -1.085307E-03   4.007524E-05   -1.309429E-01  -9.616971E-01 
8.285500E+02    6.075467E-01  -7.646629E-01   -1.065341E-03   6.494864E-06   -1.075569E-03   3.076479E-05   -1.313190E-01  -9.619721E-01 
8.286750E+02    6.073174E-01  -7.649323E-01   -1.072403E-03   2.432125E-05   -1.071868E-03   2.686230E-05   -1.317089E-01  -9.619670E-01 
8.288000E+02    6.070550E-01  -7.652886E-01   -1.067770E-03   1.733310E-05   -1.094732E-03   1.207591E-05   -1.320970E-01  -9.617003E-01 
8.289250E+02    6.067220E-01  -7.655514E-01   -1.085107E-03  -1.259669E-05   -1.084238E-03   4.959888E-06   -1.322138E-01  -9.616678E-01 
8.290500E+02    6.064707E-01  -7.657347E-01   -1.080836E-03   1.378667E-05   -1.093997E-03   1.753347E-05   -1.325133E-01  -9.616493E-01 
8.291750E+02    6.062375E-01  -7.660181E-01   -1.076003E-03  -5.763572E-06   -1.085032E-03   2.418308E-06   -1.328167E-01  -9.617412E-01 
8.293000E+02    6.060261E-01  -7.661847E-01   -1.075348E-03  -1.255604E-06   -1.080126E-03   4.241665E-06   -1.330704E-01  -9.616882E-01 
8.294250E+02    6.057693E-01  -7.665011E-01   -1.097987E-03   1.485171E-06   -1.106981E-03   4.538401E-06   -1.332479E-01  -9.617602E-01 
8.295500E+02    6.056107E-01  -7.667888E-01   -1.109894E-03  -1.342432E-06   -1.098439E-03   5.036358E-06   -1.336490E-01  -9.619907E-01 
8.296750E+02    6.053812E-01  -7.671166E-01   -1.103973E-03  -9.113746E-07   -1.102011E-03  -3.908309E-06   -1.342691E-01  -9.619728E-01 
8.298000E+02    6.050233E-01  -7.674486E-01   -1.099375E-03  -2.606564E-05   -1.091467E-03   8.039119E-06   -1.346568E-01  -9.617350E-01 
8.299250E+02    6.046701E-01  -7.677871E-01   -1.113478E-03  -1.444017E-05   -1.121421E-03  -1.722380E-06   -1.347688E-01  -9.616989E-01 
8.300500E+02    6.044381E-01  -7.680293E-01   -1.123094E-03   1.672025E-06   -1.109692E-03   6.625797E-06   -1.350167E-01  -9.616706E-01 
8.301750E+02    6.040486E-01  -7.681963E-01   -1.132395E-03  -2.023261E-05   -1.110054E-03   5.424747E-08   -1.353267E-01  -9.616581E-01 
8.303000E+02    6.037729E-01  -7.682885E-01   -1.113283E-03   7.249607E-06   -1.114026E-03   1.372776E-05   -1.354396E-01  -9.617259E-01 
8.304250E+02    6.036899E-01  -7.685659E-01   -1.123658E-03   4.569487E-07   -1.110001E-03   3.789406E-06   -1.359550E-01  -9.619375E-01 
8.305500E+02    6.035378E-01  -7.688419E-01   -1.136563E-03  -4.772754E-06   -1.123931E-03   2.177409E-07   -1.363075E-01  -9.619695E-01 
8.306750E+02    6.032189E-01  -7.691856E-01   -1.114175E-03  -9.785490E-06   -1.147506E-03  -1.248780E-05   -1.366793E-01  -9.618521E-01 
8.308000E+02    6.030315E-01  -7.695550E-01   -1.110821E-03  -2.031841E-05   -1.130891E-03  -9.809671E-07   -1.370064E-01  -9.618823E-01 
8.309250E+02    6.026564E-01  -7.698104E-01   -1.144041E-03  -1.557744E-05   -1.133118E-03  -1.633466E-05   -1.374482E-01  -9.616554E-01 
8.310500E+02    6.022942E-01  -7.701320E-01   -1.145251E-03  -2.950541E-05   -1.142675E-03  -1.598571E-05   -1.375355E-01  -9.616193E-01 
8.311750E+02    6.019727E-01  -7.703618E-01   -1.174947E-03  -1.085860E-05   -1.182061E-03  -1.569894E-05   -1.378547E-01  -9.617732E-01 
8.313000E+02    6.016371E-01  -7.705651E-01   -1.164962E-03  -8.568241E-06   -1.168721E-03   3.685937E-06   -1.382591E-01  -9.619322E-01 
8.314250E+02    6.013872E-01  -7.707666E-01   -1.165060E-03  -1.157864E-05   -1.170945E-03   5.742799E-06   -1.385978E-01  -9.619963E-01 
8.315500E+02    6.010400E-01  -7.709627E-01   -1.179507E-03   2.163242E-05   -1.179174E-03   3.120006E-06   -1.390619E-01  -9.620325E-01 
8.316750E+02    6.008111E-01  -7.712964E-01   -1.169851E-03   3.301560E-06   -1.167504E-03   1.124800E-06   -1.395465E-01  -9.622447E-01 
8.318000E+02    6.005683E-01  -7.715681E-01   -1.180571E-03   9.898798E-06   -1.171235E-03   6.590543E-06   -1.399662E-01  -9.620512E-01 
8.319250E+02    6.002354E-01  -7.718478E-01   -1.170861E-03   5.552333E-06   -1.174823E-03   1.241186E-05   -1.403792E-01  -9.620807E-01 
8.320500E+02    5.999229E-01  -7.721810E-01   -1.191550E-03   1.993320E-05   -1.182722E-03   2.622840E-05   -1.408888E-01  -9.619844E-01 
8.321750E+02    5.995944E-01  -7.724082E-01   -1.186233E-03   1.810676E-05   -1.174965E-03   2.525621E-05   -1.411979E-01  -9.618131E-01 
8.323000E+02    5.992091E-01  -7.727107E-01   -1.179713E-03   1.398736E-05   -1.172127E-03   2.424148E-05   -1.414796E-01  -9.617610E-01 
8.324250E+02    5.988188E-01  -7.729050E-01   -1.172493E-03   3.836987E-06   -1.162669E-03   1.691897E-05   -1.418776E-01  -9.617422E-01 
8.325500E+02    5.985544E-01  -7.730100E-01   -1.169677E-03   4.889352E-06   -1.163794E-03   2.227893E-05   -1.422781E-01  -9.617135E-01 
8.326750E+02    5.981871E-01  -7.733045E-01   -1.171923E-03   2.201714E-05   -1.175534E-03   1.192896E-05   -1.426422E-01  -9.617256E-01 
8.328000E+02    5.979780E-01  -7.735044E-01   -1.174067E-03   1.928612E-05   -1.177118E-03   2.916078E-05   -1.430542E-01  -9.617287E-01 
8.329250E+02    5.976173E-01  -7.738262E-01   -1.186943E-03  -1.059033E-05   -1.184377E-03   1.376149E-05   -1.433606E-01  -9.618054E-01 
8.330500E+02    5.973456E-01  -7.740880E-01   -1.195530E-03   8.492435E-07   -1.183711E-03   7.604921E-06   -1.439202E-01  -9.617809E-01 
8.331750E+02    5.969549E-01  -7.743727E-01   -1.204808E-03   1.383634E-06   -1.200358E-03   2.096071E-05   -1.443124E-01  -9.616016E-01 
8.333000E+02    5.966105E-01  -7.746189E-01   -1.184354E-03   3.197792E-06   -1.179835E-03   1.661061E-05   -1.445450E-01  -9.615882E-01 
8.334250E+02    5.962194E-01  -7.748496E-01   -1.193113E-03  -1.847067E-06   -1.186043E-03   6.853965E-06   -1.451147E-01  -9.615396E-01 
8.335500E+02    5.958608E-01  -7.750384E-01   -1.201691E-03  -5.404898E-06   -1.209982E-03   9.080813E-08   -1.454423E-01  -9.614655E-01 
8.336750E+02    5.954347E-01  -7.752909E-01   -1.217868E-03  -1.420803E-05   -1.211722E-03  -1.080930E-05   -1.458846E-01  -9.614482E-01 
8.338000E+02    5.951472E-01  -7.755036E-01   -1.215771E-03  -6.096328E-06   -1.211232E-03   7.060755E-07   -1.461486E-01  -9.613913E-01 
8.339250E+02    5.948219E-01  -7.756513E-01   -1.219739E-03   7.167907E-06   -1.208017E-03   1.798798E-05   -1.465680E-01  -9.615356E-01 
8.340500E+02    5.944727E-01  -7.759384E-01   -1.222313E-03   2.382942E-06   -1.233888E-03   6.480064E-06   -1.470398E-01  -9.615269E-01 
8.341750E+02    5.940938E-01  -7.761655E-01   -1.218935E-03   1.882298E-05   -1.229091E-03   7.265767E-06   -1.474992E-01  -9.614660E-01 
8.343000E+02    5.936691E-01  -7.764757E-01   -1.224094E-03   1.003725E-05   -1.229629E-03   7.417035E-06   -1.480351E-01  -9.614165E-01 
8.344250E+02    5.932557E-01  -7.766674E-01   -1.229850E-03  -1.341559E-06   -1.230387E-03   1.701948E-05   -1.486001E-01  -9.612211E-01 
8.345500E+02    5.928502E-01  -7.768784E-01   -1.231091E-03   1.078225E-05   -1.228987E-03   2.957944E-06   -1.489622E-01  -9.611311E-01 
8.346750E+02    5.923119E-01  -7.770878E-01   -1.211826E-03  -9.280960E-06   -1.213023E-03   2.607640E-05   -1.493206E-01  -9.609243E-01 
8.348000E+02    5.919582E-01  -7.772079E-01   -1.220087E-03  -1.282830E-05   -1.212763E-03  -4.057674E-06   -1.495790E-01  -9.608477E-01 
8.349250E+02    5.916623E-01  -7.773031E-01   -1.207430E-03  -1.444876E-05   -1.246183E-03  -1.103189E-05   -1.500743E-01  -9.608393E-01 
8.350500E+02    5.913574E-01  -7.774488E-01   -1.263418E-03  -6.860075E-06   -1.280329E-03   5.208873E-06   -1.504997E-01  -9.607608E-01 
8.351750E+02    5.909013E-01  -7.776534E-01   -1.265523E-03  -9.860076E-06   -1.244367E-03  -1.506455E-05   -1.509323E-01  -9.606358E-01 
8.353000E+02    5.905340E-01  -7.779355E-01   -1.266642E-03  -1.261250E-05   -1.265511E-03   1.698517E-06   -1.514467E-01  -9.606114E-01 
8.354250E+02    5.901232E-01  -7.781166E-01   -1.274974E-03  -4.021038E-06   -1.271940E-03  -3.032464E-06   -1.518352E-01  -9.604810E-01 
8.355500E+02    5.896624E-01  -7.782947E-01   -1.274123E-03  -3.451291E-06   -1.274393E-03  -1.456937E-05   -1.522594E-01  -9.603070E-01 
8.356750E+02    5.892134E-01  -7.784072E-01   -1.281729E-03  -8.201096E-06   -1.285936E-03  -3.068076E-06   -1.526695E-01  -9.601867E-01 
8.358000E+02    5.888255E-01  -7.785709E-01   -1.297940E-03  -4.353985E-06   -1.289990E-03   2.386545E-07   -1.530296E-01  -9.601034E-01 
8.359250E+02    5.883548E-01  -7.786230E-01   -1.290137E-03   2.756741E-05   -1.293813E-03   3.185509E-05   -1.534601E-01  -9.600252E-01 
8.360500E+02    5.880561E-01  -7.786732E-01   -1.264793E-03   1.907849E-05   -1.278615E-03   4.114713E-05   -1.540172E-01  -9.598625E-01 
8.361750E+02    5.876915E-01  -7.788090E-01   -1.274036E-03   1.002202E-05   -1.266259E-03   1.575618E-05   -1.544279E-01  -9.595833E-01 
8.363000E+02    5.873140E-01  -7.788426E-01   -1.261889E-03   1.539122E-05   -1.271696E-03   9.668453E-06   -1.547340E-01  -9.595006E-01 
8.364250E+02    5.869369E-01  -7.789847E-01   -1.284646E-03   5.094146E-06   -1.278282E-03   2.338596E-05   -1.550706E-01  -9.592169E-01 
8.365500E+02    5.866872E-01  -7.790365E-01   -1.282040E-03   3.340716E-06   -1.303135E-03  -3.700457E-06   -1.552774E-01  -9.591326E-01 
8.366750E+02    5.864156E-01  -7.792610E-01   -1.295761E-03   1.467343E-05   -1.292445E-03   2.107276E-05   -1.557038E-01  -9.591515E-01 
8.368000E+02    5.858915E-01  -7.794031E-01   -1.283370E-03  -1.985833E-05   -1.287481E-03   9.168237E-06   -1.561246E-01  -9.591198E-01 
8.369250E+02    5.856541E-01  -7.794855E-01   -1.301642E-03  -2.199533E-05   -1.308726E-03  -2.293297E-06   -1.564937E-01  -9.588545E-01 
8.370500E+02    5.852325E-01  -7.796529E-01   -1.309303E-03   6.985817E-06   -1.309379E-03   1.073428E-05   -1.568158E-01  -9.588071E-01 
8.371750E+02    5.847655E-01  -7.796405E-01   -1.312481E-03   6.830964E-06   -1.296807E-03   2.756050E-05   -1.571092E-01  -9.586960E-01 
8.373000E+02    5.845701E-01  -7.797939E-01   -1.295393E-03   1.779319E-06   -1.295511E-03  -1.478756E-06   -1.575857E-01  -9.586485E-01 
8.374250E+02    5.841973E-01  -7.798789E-01   -1.324530E-03  -1.447207E-05   -1.321948E-03  -4.102275E-06   -1.579296E-01  -9.585502E-01 
8.375500E+02    5.838493E-01  -7.801366E-01   -1.346792E-03   1.113032E-05   -1.338812E-03   1.454166E-05   -1.584063E-01  -9.584931E-01 
8.376750E+02    5.834202E-01  -7.800853E-01   -1.309436E-03  -5.030185E-06   -1.311244E-03   1.780495E-06   -1.588636E-01  -9.582896E-01 
8.378000E+02    5.830929E-01  -7.802231E-01   -1.331431E-03   1.007845E-05   -1.339056E-03   3.025416E-05   -1.592036E-01  -9.581485E-01 
8.379250E+02    5.826735E-01  -7.803652E-01   -1.312246E-03  -1.881383E-05   -1.335532E-03  -2.237708E-06   -1.595539E-01  -9.579730E-01 
8.380500E+02    5.822234E-01  -7.803023E-01   -1.348865E-03  -4.922682E-06   -1.335717E-03   7.250310E-06   -1.600015E-01  -9.578176E-01 
8.381750E+02    5.820393E-01  -7.803351E-01   -1.343481E-03   1.036430E-05   -1.372037E-03   6.082465E-06   -1.602827E-01  -9.575755E-01 
8.383000E+02    5.817627E-01  -7.804471E-01   -1.361387E-03   5.296282E-06   -1.328550E-03   1.308053E-05   -1.605092E-01  -9.575115E-01 
8.384250E+02    5.814884E-01  -7.805074E-01   -1.354802E-03  -2.060414E-05   -1.361672E-03   5.941453E-06   -1.609689E-01  -9.575104E-01 
8.385500E+02    5.812860E-01  -7.805690E-01   -1.359375E-03  -1.662059E-05   -1.361108E-03   5.634913E-06   -1.613215E-01  -9.573724E-01 
8.386750E+02    5.809602E-01  -7.808504E-01   -1.375094E-03   9.981739E-06   -1.402819E-03   2.124133E-05   -1.616501E-01  -9.572373E-01 
8.388000E+02    5.805476E-01  -7.809770E-01   -1.382678E-03   2.481548E-05   -1.375856E-03   3.249113E-05   -1.620991E-01  -9.572838E-01 
8.389250E+02    5.803131E-01  -7.809782E-01   -1.374603E-03   4.335955E-05   -1.366908E-03   5.300349E-05   -1.625920E-01  -9.571660E-01 
8.390500E+02    5.800382E-01  -7.811526E-01   -1.398398E-03   4.773959E-06   -1.386696E-03   9.342130E-07   -1.630359E-01  -9.568652E-01 
8.391750E+02    5.795905E-01  -7.811319E-01   -1.376254E-03   4.293797E-05   -1.363055E-03   5.114349E-05   -1.632505E-01  -9.567013E-01 
8.393000E+02    5.795198E-01  -7.810504E-01   -1.388640E-03   1.490350E-05   -1.389382E-03   3.002286E-05   -1.636344E-01  -9.565690E-01 
8.394250E+02    5.794190E-01  -7.813721E-01   -1.367485E-03   2.739595E-05   -1.382717E-03   4.891860E-05   -1.639607E-01  -9.565172E-01 
8.395500E+02    5.789548E-01  -7.818082E-01   -1.405654E-03   2.641074E-05   -1.402328E-03   3.723069E-05   -1.642749E-01  -9.563466E-01 
8.396750E+02    5.785312E-01  -7.817984E-01   -1.368577E-03   2.584075E-05   -1.375548E-03   4.187059E-05   -1.644997E-01  -9.562868E-01 
8.398000E+02    5.782393E-01  -7.819247E-01   -1.390159E-03   1.088697E-05   -1.390276E-03   2.530622E-05   -1.648854E-01  -9.562725E-01 
8.399250E+02    5.779216E-01  -7.820682E-01   -1.397341E-03   1.742384E-05   -1.393080E-03   4.251132E-05   -1.653465E-01  -9.562671E-01 
8.400500E+02    5.774957E-01  -7.820686E-01   -1.402589E-03   4.368117E-05   -1.389779E-03   6.381928E-05   -1.658263E-01  -9.561896E-01 
8.401750E+02    5.773780E-01  -7.821375E-01   -1.395159E-03   4.815686E-05   -1.388190E-03   3.619345E-05   -1.661485E-01  -9.559459E-01 
8.403000E+02    5.771337E-01  -7.824231E-01   -1.379336E-03   4.618869E-05   -1.389046E-03   5.916059E-05   -1.665418E-01  -9.558963E-01 
8.404250E+02    5.766645E-01  -7.826410E-01   -1.404395E-03   3.767557E-05   -1.403166E-03   4.221857E-05   -1.670207E-01  -9.558732E-01 
8.405500E+02    5.762861E-01  -7.827978E-01   -1.369241E-03   3.516372E-05   -1.370567E-03   6.118004E-05   -1.674914E-01  -9.555342E-01 
8.406750E+02    5.757926E-01  -7.829051E-01   -1.409777E-03   6.102139E-06   -1.411490E-03   2.578108E-05   -1.678167E-01  -9.552327E-01 
8.408000E+02    5.753792E-01  -7.829595E-01   -1.401677E-03   3.882188E-05   -1.412349E-03   4.225801E-05   -1.680647E-01  -9.553083E-01 
8.409250E+02    5.752346E-01  -7.828665E-01   -1.418008E-03   4.470141E-05   -1.422546E-03   6.510001E-05   -1.683298E-01  -9.551441E-01 
8.410500E+02    5.750192E-01  -7.830412E-01   -1.379969E-03   4.137838E-05   -1.379687E-03   4.671635E-05   -1.687781E-01  -9.550827E-01 
8.411750E+02    5.745207E-01  -7.832907E-01   -1.411271E-03   4.371487E-05   -1.426528E-03   7.266670E-05   -1.691169E-01  -9.551027E-01 
8.413000E+02    5.740396E-01  -7.833031E-01   -1.392924E-03   3.903927E-05   -1.393275E-03   5.530695E-05   -1.696384E-01  -9.550669E-01 
8.414250E+02    5.738520E-01  -7.834282E-01   -1.390634E-03   2.796169E-05   -1.387356E-03   4.352914E-05   -1.700244E-01  -9.549458E-01 
8.415500E+02    5.733295E-01  -7.834045E-01   -1.403126E-03   2.908259E-05   -1.413287E-03   2.588300E-05   -1.706006E-01  -9.547058E-01 
8.416750E+02    5.729374E-01  -7.832889E-01   -1.400855E-03  -4.139317E-06   -1.392837E-03   1.867331E-05   -1.711151E-01  -9.544966E-01 
8.418000E+02    5.730333E-01  -7.832444E-01   -1.442007E-03   1.444930E-05   -1.429036E-03   2.795287E-05   -1.714990E-01  -9.542024E-01 
8.419250E+02    5.728359E-01  -7.837255E-01   -1.428148E-03   9.215229E-06   -1.426490E-03   1.763790E-05   -1.717092E-01  -9.539277E-01 
8.420500E+02    5.723228E-01  -7.839160E-01   -1.446522E-03   4.869884E-05   -1.449828E-03   5.571957E-05   -1.719434E-01  -9.537681E-01 
8.421750E+02    5.719518E-01  -7.841125E-01   -1.394870E-03   2.150084E-05   -1.402020E-03   3.010745E-05   -1.723385E-01  -9.537006E-01 
8.423000E+02    5.713826E-01  -7.841773E-01   -1.424255E-03   5.353440E-05   -1.422388E-03   5.007603E-05   -1.726469E-01  -9.536472E-01 
8.424250E+02    5.709120E-01  -7.840685E-01   -1.417932E-03   7.436719E-06   -1.429815E-03   5.392796E-06   -1.731092E-01  -9.535989E-01 
8.425500E+02    5.705809E-01  -7.839553E-01   -1.435733E-03   1.866695E-05   -1.444702E-03   4.117685E-05   -1.735628E-01  -9.534368E-01 
8.426750E+02    5.704117E-01  -7.839433E-01   -1.430841E-03   2.930478E-05   -1.431055E-03   1.335788E-05   -1.739120E-01  -9.533342E-01 
8.428000E+02    5.702036E-01  -7.841036E-01   -1.461142E-03   5.480348E-06   -1.456816E-03   9.596003E-06   -1.742783E-01  -9.530715E-01 
8.429250E+02    5.698556E-01  -7.841662E-01   -1.467978E-03   2.995517E-05   -1.464495E-03   3.763811E-05   -1.746659E-01  -9.529910E-01 
8.430500E+02    5.693923E-01  -7.842586E-01   -1.436063E-03   1.256492E-05   -1.442983E-03   1.585951E-05   -1.750828E-01  -9.528273E-01 
8.431750E+02    5.689819E-01  -7.843999E-01   -1.463921E-03   3.265351E-05   -1.475470E-03   4.221358E-05   -1.754395E-01  -9.528504E-01 
8.433000E+02    5.682548E-01  -7.841709E-01   -1.439819E-03   2.621306E-05   -1.442301E-03   3.087929E-05   -1.760278E-01  -9.526371E-01 
