! Matrix data file written by TouchstoneData, EPCOS AG
! FILENAME: "B3927_UB_NB.s3p"
! COMMENT: "unmatched SDARS narrowband"
! INFO: nport=3, nfreq=1601
! DATE: "Thu Jul 12 14:02:24 2012"
! USER: "Daniel Harbusch"
!
! port | pin | signal
! -----|-----|--------
!   1  |  2  |  Input
!   2  |  4  |  GPS/GLONASS Output
!   3  |  6  |  SDARS Output
! --------------------
! 
# MHZ S MA R 50
! freq  magS11 angS11  magS12 angS12  magS13 angS13  ...
2.100000E+03  9.201800E-01 -1.304000E+02  1.416882E-02 1.381926E+02  1.342708E-02 1.307293E+02 
1.412383E-02 1.378505E+02  8.523749E-01 -1.032357E+02  1.687489E-02 1.648255E+02 
1.345396E-02 1.306850E+02  1.686217E-02 1.648821E+02  9.385090E-01 -1.074111E+02 
2.100250E+03  9.205016E-01 -1.304137E+02  1.415285E-02 1.379420E+02  1.344305E-02 1.307464E+02 
1.419885E-02 1.378336E+02  8.522399E-01 -1.032169E+02  1.687120E-02 1.650311E+02 
1.348870E-02 1.306596E+02  1.683967E-02 1.649978E+02  9.381184E-01 -1.074441E+02 
2.100500E+03  9.201614E-01 -1.304308E+02  1.406570E-02 1.377095E+02  1.357322E-02 1.304783E+02 
1.408665E-02 1.375039E+02  8.516158E-01 -1.032118E+02  1.684257E-02 1.649323E+02 
1.361251E-02 1.306200E+02  1.685422E-02 1.650585E+02  9.377097E-01 -1.074713E+02 
2.100750E+03  9.201957E-01 -1.304560E+02  1.404178E-02 1.377816E+02  1.361255E-02 1.300704E+02 
1.407255E-02 1.377252E+02  8.512831E-01 -1.031967E+02  1.683160E-02 1.649264E+02 
1.363611E-02 1.303662E+02  1.682120E-02 1.649106E+02  9.376998E-01 -1.075065E+02 
2.101000E+03  9.203155E-01 -1.304869E+02  1.401193E-02 1.377621E+02  1.366554E-02 1.301537E+02 
1.408900E-02 1.376936E+02  8.515371E-01 -1.031644E+02  1.684732E-02 1.649826E+02 
1.362722E-02 1.303711E+02  1.685868E-02 1.649986E+02  9.379378E-01 -1.075160E+02 
2.101250E+03  9.199735E-01 -1.305160E+02  1.408856E-02 1.377074E+02  1.367108E-02 1.300710E+02 
1.409775E-02 1.378542E+02  8.522526E-01 -1.031661E+02  1.687497E-02 1.649916E+02 
1.370649E-02 1.301787E+02  1.686701E-02 1.649889E+02  9.376573E-01 -1.075424E+02 
2.101500E+03  9.197003E-01 -1.305437E+02  1.403926E-02 1.378440E+02  1.372518E-02 1.297951E+02 
1.403395E-02 1.377009E+02  8.526779E-01 -1.031732E+02  1.687737E-02 1.649178E+02 
1.374165E-02 1.301673E+02  1.686126E-02 1.649895E+02  9.377310E-01 -1.075771E+02 
2.101750E+03  9.197887E-01 -1.305601E+02  1.407603E-02 1.378047E+02  1.373523E-02 1.299435E+02 
1.408483E-02 1.377779E+02  8.523490E-01 -1.031776E+02  1.689787E-02 1.649960E+02 
1.375255E-02 1.300048E+02  1.684153E-02 1.648828E+02  9.382016E-01 -1.076268E+02 
2.102000E+03  9.198821E-01 -1.305887E+02  1.398497E-02 1.375858E+02  1.375914E-02 1.299882E+02 
1.401718E-02 1.377316E+02  8.529600E-01 -1.032077E+02  1.688812E-02 1.649002E+02 
1.378133E-02 1.299590E+02  1.687894E-02 1.649502E+02  9.373448E-01 -1.076563E+02 
2.102250E+03  9.194849E-01 -1.306070E+02  1.405771E-02 1.378138E+02  1.382455E-02 1.297229E+02 
1.399417E-02 1.377348E+02  8.527939E-01 -1.032275E+02  1.684670E-02 1.649679E+02 
1.383250E-02 1.297430E+02  1.691332E-02 1.650918E+02  9.374401E-01 -1.076768E+02 
2.102500E+03  9.194409E-01 -1.306265E+02  1.400398E-02 1.375797E+02  1.379701E-02 1.297136E+02 
1.405610E-02 1.376826E+02  8.534602E-01 -1.032592E+02  1.692693E-02 1.650385E+02 
1.385444E-02 1.296570E+02  1.688694E-02 1.648878E+02  9.373255E-01 -1.077180E+02 
2.102750E+03  9.195676E-01 -1.306346E+02  1.395859E-02 1.376241E+02  1.385219E-02 1.297451E+02 
1.404777E-02 1.376937E+02  8.533312E-01 -1.032765E+02  1.688555E-02 1.649468E+02 
1.389173E-02 1.297366E+02  1.687864E-02 1.650277E+02  9.373487E-01 -1.077419E+02 
2.103000E+03  9.192572E-01 -1.306586E+02  1.396164E-02 1.376807E+02  1.392404E-02 1.297048E+02 
1.396284E-02 1.376989E+02  8.533420E-01 -1.033202E+02  1.692126E-02 1.649426E+02 
1.399412E-02 1.296293E+02  1.692554E-02 1.649998E+02  9.378667E-01 -1.077562E+02 
2.103250E+03  9.194021E-01 -1.306857E+02  1.396166E-02 1.374909E+02  1.390773E-02 1.295822E+02 
1.395068E-02 1.377797E+02  8.528124E-01 -1.033740E+02  1.686205E-02 1.648828E+02 
1.391925E-02 1.298081E+02  1.690348E-02 1.647826E+02  9.375104E-01 -1.078017E+02 
2.103500E+03  9.192310E-01 -1.307033E+02  1.397595E-02 1.376476E+02  1.393478E-02 1.295410E+02 
1.392738E-02 1.377891E+02  8.523726E-01 -1.033600E+02  1.688452E-02 1.647877E+02 
1.396254E-02 1.295123E+02  1.685094E-02 1.650067E+02  9.378467E-01 -1.078377E+02 
2.103750E+03  9.188740E-01 -1.307253E+02  1.398786E-02 1.375926E+02  1.394171E-02 1.295767E+02 
1.396848E-02 1.378093E+02  8.518278E-01 -1.033710E+02  1.686826E-02 1.648533E+02 
1.398249E-02 1.297021E+02  1.684052E-02 1.649380E+02  9.375529E-01 -1.078651E+02 
2.104000E+03  9.193473E-01 -1.307373E+02  1.392069E-02 1.374671E+02  1.398565E-02 1.294089E+02 
1.397303E-02 1.374022E+02  8.516996E-01 -1.033295E+02  1.688905E-02 1.651879E+02 
1.400326E-02 1.294302E+02  1.689121E-02 1.650356E+02  9.374644E-01 -1.078783E+02 
2.104250E+03  9.189765E-01 -1.307479E+02  1.388796E-02 1.378416E+02  1.400325E-02 1.295789E+02 
1.385177E-02 1.374675E+02  8.517365E-01 -1.033339E+02  1.697228E-02 1.650620E+02 
1.402513E-02 1.296552E+02  1.695858E-02 1.651261E+02  9.375104E-01 -1.079239E+02 
2.104500E+03  9.192165E-01 -1.307715E+02  1.390940E-02 1.377898E+02  1.402586E-02 1.295155E+02 
1.397524E-02 1.377910E+02  8.522815E-01 -1.033218E+02  1.700010E-02 1.650409E+02 
1.405540E-02 1.297650E+02  1.694674E-02 1.651677E+02  9.377881E-01 -1.079470E+02 
2.104750E+03  9.190445E-01 -1.307899E+02  1.384763E-02 1.379057E+02  1.405123E-02 1.295951E+02 
1.390813E-02 1.377445E+02  8.522249E-01 -1.033053E+02  1.696184E-02 1.649486E+02 
1.408845E-02 1.294902E+02  1.693695E-02 1.650598E+02  9.375009E-01 -1.079782E+02 
2.105000E+03  9.186312E-01 -1.308125E+02  1.394452E-02 1.378464E+02  1.402023E-02 1.296004E+02 
1.393718E-02 1.379430E+02  8.525420E-01 -1.033189E+02  1.699197E-02 1.648196E+02 
1.407680E-02 1.296294E+02  1.701297E-02 1.650406E+02  9.379128E-01 -1.079981E+02 
2.105250E+03  9.186980E-01 -1.308406E+02  1.385083E-02 1.376538E+02  1.409304E-02 1.296136E+02 
1.393081E-02 1.377413E+02  8.529404E-01 -1.033431E+02  1.703304E-02 1.649836E+02 
1.412507E-02 1.298732E+02  1.708246E-02 1.650522E+02  9.377475E-01 -1.080315E+02 
2.105500E+03  9.183376E-01 -1.308607E+02  1.396347E-02 1.375752E+02  1.413985E-02 1.298554E+02 
1.397379E-02 1.375476E+02  8.529504E-01 -1.033394E+02  1.703396E-02 1.648536E+02 
1.413870E-02 1.297400E+02  1.703162E-02 1.648551E+02  9.377251E-01 -1.080355E+02 
2.105750E+03  9.188068E-01 -1.308850E+02  1.398427E-02 1.372495E+02  1.416098E-02 1.297415E+02 
1.396382E-02 1.371195E+02  8.532536E-01 -1.034040E+02  1.704699E-02 1.647035E+02 
1.418133E-02 1.299652E+02  1.704479E-02 1.649143E+02  9.376648E-01 -1.080744E+02 
2.106000E+03  9.185363E-01 -1.308878E+02  1.382978E-02 1.372286E+02  1.417964E-02 1.296797E+02 
1.382136E-02 1.372371E+02  8.527970E-01 -1.034062E+02  1.704902E-02 1.645057E+02 
1.413723E-02 1.300053E+02  1.697453E-02 1.647787E+02  9.374595E-01 -1.081065E+02 
2.106250E+03  9.188525E-01 -1.309058E+02  1.382698E-02 1.375804E+02  1.420477E-02 1.298559E+02 
1.379186E-02 1.376362E+02  8.525306E-01 -1.034650E+02  1.698246E-02 1.645870E+02 
1.419243E-02 1.300392E+02  1.698871E-02 1.648584E+02  9.374956E-01 -1.081255E+02 
2.106500E+03  9.187680E-01 -1.309501E+02  1.377105E-02 1.375130E+02  1.418452E-02 1.299531E+02 
1.374489E-02 1.376178E+02  8.526091E-01 -1.034660E+02  1.694708E-02 1.646234E+02 
1.427905E-02 1.300924E+02  1.701183E-02 1.648437E+02  9.379698E-01 -1.081594E+02 
2.106750E+03  9.185423E-01 -1.309757E+02  1.379102E-02 1.375648E+02  1.427034E-02 1.298548E+02 
1.380857E-02 1.375922E+02  8.518839E-01 -1.035094E+02  1.694705E-02 1.648636E+02 
1.430856E-02 1.301304E+02  1.697181E-02 1.648482E+02  9.379929E-01 -1.081713E+02 
2.107000E+03  9.186414E-01 -1.310028E+02  1.384797E-02 1.376506E+02  1.429198E-02 1.301461E+02 
1.386972E-02 1.376264E+02  8.516201E-01 -1.034641E+02  1.699525E-02 1.646644E+02 
1.427731E-02 1.302843E+02  1.703685E-02 1.647225E+02  9.373951E-01 -1.082369E+02 
2.107250E+03  9.186889E-01 -1.310084E+02  1.373444E-02 1.373795E+02  1.430139E-02 1.302003E+02 
1.383561E-02 1.374794E+02  8.512967E-01 -1.034582E+02  1.704621E-02 1.648736E+02 
1.431569E-02 1.305035E+02  1.704248E-02 1.649564E+02  9.375340E-01 -1.082587E+02 
2.107500E+03  9.187376E-01 -1.310432E+02  1.366070E-02 1.374494E+02  1.433595E-02 1.304907E+02 
1.369202E-02 1.375258E+02  8.512847E-01 -1.034078E+02  1.708514E-02 1.648602E+02 
1.436366E-02 1.306246E+02  1.707640E-02 1.647913E+02  9.375515E-01 -1.082776E+02 
2.107750E+03  9.183566E-01 -1.310573E+02  1.367309E-02 1.376569E+02  1.439550E-02 1.304861E+02 
1.366221E-02 1.376525E+02  8.522750E-01 -1.034212E+02  1.715344E-02 1.645980E+02 
1.436604E-02 1.306121E+02  1.710319E-02 1.646937E+02  9.375891E-01 -1.083119E+02 
2.108000E+03  9.184098E-01 -1.310792E+02  1.375532E-02 1.380419E+02  1.441828E-02 1.306912E+02 
1.377136E-02 1.381748E+02  8.518856E-01 -1.034374E+02  1.702981E-02 1.644099E+02 
1.443858E-02 1.307959E+02  1.708861E-02 1.646075E+02  9.379809E-01 -1.083392E+02 
2.108250E+03  9.185831E-01 -1.311331E+02  1.382113E-02 1.378467E+02  1.444822E-02 1.304639E+02 
1.378181E-02 1.379447E+02  8.527386E-01 -1.034411E+02  1.709518E-02 1.644844E+02 
1.449018E-02 1.305341E+02  1.703744E-02 1.646802E+02  9.379098E-01 -1.083864E+02 
2.108500E+03  9.183853E-01 -1.311302E+02  1.382893E-02 1.377613E+02  1.446261E-02 1.305999E+02 
1.383091E-02 1.377324E+02  8.528067E-01 -1.034664E+02  1.702931E-02 1.645875E+02 
1.452183E-02 1.308096E+02  1.702745E-02 1.645551E+02  9.382040E-01 -1.084228E+02 
2.108750E+03  9.184229E-01 -1.311543E+02  1.374875E-02 1.374432E+02  1.451276E-02 1.308662E+02 
1.375834E-02 1.374757E+02  8.533310E-01 -1.034851E+02  1.707414E-02 1.645047E+02 
1.456421E-02 1.309969E+02  1.706529E-02 1.645970E+02  9.379591E-01 -1.084525E+02 
2.109000E+03  9.185913E-01 -1.311626E+02  1.370449E-02 1.376434E+02  1.457113E-02 1.311292E+02 
1.374961E-02 1.376665E+02  8.532557E-01 -1.035102E+02  1.698140E-02 1.644579E+02 
1.461783E-02 1.312125E+02  1.701144E-02 1.645912E+02  9.381608E-01 -1.085020E+02 
2.109250E+03  9.181755E-01 -1.311956E+02  1.372948E-02 1.379339E+02  1.460889E-02 1.311487E+02 
1.380279E-02 1.377543E+02  8.533402E-01 -1.035535E+02  1.704362E-02 1.645937E+02 
1.467281E-02 1.313851E+02  1.701868E-02 1.646260E+02  9.380671E-01 -1.085076E+02 
2.109500E+03  9.183731E-01 -1.312361E+02  1.380387E-02 1.378870E+02  1.471721E-02 1.313550E+02 
1.377319E-02 1.377281E+02  8.528932E-01 -1.036009E+02  1.705746E-02 1.646281E+02 
1.467741E-02 1.312414E+02  1.703570E-02 1.647722E+02  9.380277E-01 -1.085235E+02 
2.109750E+03  9.182620E-01 -1.312582E+02  1.374191E-02 1.377261E+02  1.470274E-02 1.315173E+02 
1.376281E-02 1.375621E+02  8.526099E-01 -1.035972E+02  1.708811E-02 1.644936E+02 
1.475213E-02 1.314634E+02  1.706607E-02 1.647376E+02  9.382852E-01 -1.085852E+02 
2.110000E+03  9.183277E-01 -1.312662E+02  1.371934E-02 1.375971E+02  1.479710E-02 1.315338E+02 
1.372697E-02 1.376230E+02  8.521408E-01 -1.036534E+02  1.704186E-02 1.646303E+02 
1.481673E-02 1.315785E+02  1.707993E-02 1.647775E+02  9.381611E-01 -1.086159E+02 
2.110250E+03  9.183664E-01 -1.312958E+02  1.373316E-02 1.377043E+02  1.481891E-02 1.315022E+02 
1.373183E-02 1.375136E+02  8.516793E-01 -1.036442E+02  1.708642E-02 1.647351E+02 
1.483268E-02 1.317597E+02  1.711354E-02 1.648723E+02  9.384141E-01 -1.086335E+02 
2.110500E+03  9.182954E-01 -1.313093E+02  1.364403E-02 1.376189E+02  1.483856E-02 1.317600E+02 
1.370079E-02 1.376674E+02  8.517201E-01 -1.036218E+02  1.715946E-02 1.646895E+02 
1.490090E-02 1.319446E+02  1.715947E-02 1.645676E+02  9.385389E-01 -1.086602E+02 
2.110750E+03  9.182151E-01 -1.313316E+02  1.367724E-02 1.377965E+02  1.490755E-02 1.318650E+02 
1.369770E-02 1.379271E+02  8.508659E-01 -1.036241E+02  1.711050E-02 1.648259E+02 
1.496956E-02 1.320860E+02  1.710508E-02 1.648338E+02  9.383843E-01 -1.086959E+02 
2.111000E+03  9.183225E-01 -1.313611E+02  1.368702E-02 1.377506E+02  1.499153E-02 1.319993E+02 
1.369286E-02 1.376995E+02  8.514784E-01 -1.035698E+02  1.716172E-02 1.648339E+02 
1.497950E-02 1.320528E+02  1.715167E-02 1.648407E+02  9.384103E-01 -1.087111E+02 
2.111250E+03  9.178554E-01 -1.313735E+02  1.360760E-02 1.380539E+02  1.509561E-02 1.321967E+02 
1.367643E-02 1.379841E+02  8.516645E-01 -1.035636E+02  1.717968E-02 1.646654E+02 
1.506451E-02 1.320890E+02  1.719968E-02 1.645509E+02  9.386769E-01 -1.087724E+02 
2.111500E+03  9.179572E-01 -1.314066E+02  1.371741E-02 1.380593E+02  1.511039E-02 1.322452E+02 
1.371829E-02 1.379768E+02  8.518711E-01 -1.036010E+02  1.722865E-02 1.645316E+02 
1.509932E-02 1.323161E+02  1.722807E-02 1.645499E+02  9.386509E-01 -1.087859E+02 
2.111750E+03  9.177441E-01 -1.314349E+02  1.368590E-02 1.380741E+02  1.519352E-02 1.324729E+02 
1.368641E-02 1.379078E+02  8.521963E-01 -1.035892E+02  1.721323E-02 1.645149E+02 
1.519816E-02 1.325694E+02  1.720801E-02 1.645829E+02  9.388956E-01 -1.088410E+02 
2.112000E+03  9.183835E-01 -1.314404E+02  1.369175E-02 1.380344E+02  1.524064E-02 1.324309E+02 
1.369516E-02 1.379833E+02  8.530865E-01 -1.036219E+02  1.721027E-02 1.647072E+02 
1.524490E-02 1.325158E+02  1.719309E-02 1.645146E+02  9.388868E-01 -1.088498E+02 
2.112250E+03  9.177698E-01 -1.315002E+02  1.373943E-02 1.380475E+02  1.529293E-02 1.326263E+02 
1.378570E-02 1.379194E+02  8.530742E-01 -1.036774E+02  1.718822E-02 1.645208E+02 
1.529897E-02 1.327107E+02  1.719878E-02 1.645008E+02  9.390906E-01 -1.088949E+02 
2.112500E+03  9.175695E-01 -1.315314E+02  1.366068E-02 1.378298E+02  1.539658E-02 1.326943E+02 
1.362835E-02 1.378473E+02  8.528506E-01 -1.037044E+02  1.720770E-02 1.645203E+02 
1.538251E-02 1.327875E+02  1.721786E-02 1.645484E+02  9.388486E-01 -1.089209E+02 
2.112750E+03  9.177980E-01 -1.315304E+02  1.363236E-02 1.379536E+02  1.540811E-02 1.327915E+02 
1.368062E-02 1.378122E+02  8.529666E-01 -1.037478E+02  1.726412E-02 1.646227E+02 
1.544350E-02 1.328537E+02  1.725380E-02 1.644538E+02  9.384164E-01 -1.089602E+02 
2.113000E+03  9.174561E-01 -1.315646E+02  1.369260E-02 1.383371E+02  1.551626E-02 1.328716E+02 
1.371061E-02 1.381318E+02  8.526110E-01 -1.038002E+02  1.723450E-02 1.645317E+02 
1.550771E-02 1.329078E+02  1.724656E-02 1.646280E+02  9.387584E-01 -1.089977E+02 
2.113250E+03  9.172240E-01 -1.315980E+02  1.369226E-02 1.379590E+02  1.559444E-02 1.330827E+02 
1.372264E-02 1.379828E+02  8.519837E-01 -1.038118E+02  1.729190E-02 1.644041E+02 
1.562270E-02 1.330517E+02  1.725577E-02 1.644815E+02  9.391229E-01 -1.090253E+02 
2.113500E+03  9.174260E-01 -1.316038E+02  1.374371E-02 1.379714E+02  1.560071E-02 1.329108E+02 
1.375344E-02 1.377691E+02  8.517829E-01 -1.038187E+02  1.725611E-02 1.641325E+02 
1.563654E-02 1.329381E+02  1.729171E-02 1.643324E+02  9.388542E-01 -1.090741E+02 
2.113750E+03  9.172216E-01 -1.316452E+02  1.366848E-02 1.379757E+02  1.565209E-02 1.329880E+02 
1.370082E-02 1.377160E+02  8.509911E-01 -1.038114E+02  1.727451E-02 1.642660E+02 
1.568741E-02 1.331599E+02  1.727751E-02 1.642729E+02  9.389492E-01 -1.091310E+02 
2.114000E+03  9.173858E-01 -1.316545E+02  1.365307E-02 1.379119E+02  1.575644E-02 1.332626E+02 
1.367142E-02 1.378513E+02  8.512436E-01 -1.037930E+02  1.730474E-02 1.641508E+02 
1.577634E-02 1.332078E+02  1.729496E-02 1.644536E+02  9.391326E-01 -1.091612E+02 
2.114250E+03  9.173702E-01 -1.316767E+02  1.370801E-02 1.378285E+02  1.583423E-02 1.332451E+02 
1.371127E-02 1.378873E+02  8.515611E-01 -1.037742E+02  1.725510E-02 1.641149E+02 
1.586494E-02 1.333470E+02  1.728261E-02 1.642320E+02  9.388494E-01 -1.091888E+02 
2.114500E+03  9.167031E-01 -1.316851E+02  1.362211E-02 1.380971E+02  1.589666E-02 1.334375E+02 
1.365948E-02 1.379658E+02  8.519370E-01 -1.037950E+02  1.727033E-02 1.640351E+02 
1.588294E-02 1.333885E+02  1.728300E-02 1.643369E+02  9.393985E-01 -1.092140E+02 
2.114750E+03  9.169227E-01 -1.317020E+02  1.363066E-02 1.383046E+02  1.591079E-02 1.334747E+02 
1.361679E-02 1.381532E+02  8.519423E-01 -1.037777E+02  1.725651E-02 1.640956E+02 
1.593888E-02 1.333977E+02  1.724427E-02 1.643207E+02  9.393441E-01 -1.092543E+02 
2.115000E+03  9.161762E-01 -1.317358E+02  1.363781E-02 1.381527E+02  1.600843E-02 1.333274E+02 
1.362125E-02 1.381766E+02  8.522208E-01 -1.037829E+02  1.728671E-02 1.642793E+02 
1.601107E-02 1.336130E+02  1.725547E-02 1.643016E+02  9.390520E-01 -1.092680E+02 
2.115250E+03  9.164623E-01 -1.317212E+02  1.362829E-02 1.383573E+02  1.608273E-02 1.338002E+02 
1.365890E-02 1.382868E+02  8.528128E-01 -1.037903E+02  1.731450E-02 1.641587E+02 
1.605972E-02 1.336576E+02  1.736588E-02 1.643443E+02  9.392210E-01 -1.093101E+02 
2.115500E+03  9.162413E-01 -1.317482E+02  1.369950E-02 1.383118E+02  1.622267E-02 1.336187E+02 
1.373847E-02 1.381091E+02  8.532230E-01 -1.038167E+02  1.732238E-02 1.640217E+02 
1.622253E-02 1.335831E+02  1.732835E-02 1.641463E+02  9.399001E-01 -1.093405E+02 
2.115750E+03  9.167017E-01 -1.317519E+02  1.369614E-02 1.380891E+02  1.625643E-02 1.337528E+02 
1.372193E-02 1.381077E+02  8.534504E-01 -1.038646E+02  1.734065E-02 1.641036E+02 
1.630851E-02 1.337768E+02  1.733409E-02 1.642675E+02  9.395639E-01 -1.093802E+02 
2.116000E+03  9.163096E-01 -1.317633E+02  1.366289E-02 1.380416E+02  1.633845E-02 1.337509E+02 
1.367127E-02 1.380701E+02  8.531659E-01 -1.038940E+02  1.728814E-02 1.641604E+02 
1.630439E-02 1.339588E+02  1.733861E-02 1.641579E+02  9.396478E-01 -1.094106E+02 
2.116250E+03  9.165262E-01 -1.317505E+02  1.365960E-02 1.382473E+02  1.638454E-02 1.338637E+02 
1.369372E-02 1.382946E+02  8.528817E-01 -1.039220E+02  1.729439E-02 1.641868E+02 
1.643658E-02 1.338759E+02  1.731058E-02 1.641281E+02  9.400267E-01 -1.094347E+02 
2.116500E+03  9.166045E-01 -1.317987E+02  1.369451E-02 1.382980E+02  1.646177E-02 1.340895E+02 
1.371498E-02 1.384085E+02  8.523097E-01 -1.039457E+02  1.733380E-02 1.640594E+02 
1.646399E-02 1.340970E+02  1.732539E-02 1.642130E+02  9.399324E-01 -1.094844E+02 
2.116750E+03  9.165513E-01 -1.318050E+02  1.366156E-02 1.381918E+02  1.658917E-02 1.339393E+02 
1.369260E-02 1.383100E+02  8.522887E-01 -1.039626E+02  1.732897E-02 1.642657E+02 
1.653740E-02 1.341359E+02  1.732113E-02 1.641894E+02  9.394585E-01 -1.095231E+02 
2.117000E+03  9.161424E-01 -1.318303E+02  1.368251E-02 1.381543E+02  1.662166E-02 1.339261E+02 
1.370869E-02 1.383326E+02  8.522549E-01 -1.039403E+02  1.738024E-02 1.640782E+02 
1.661662E-02 1.339619E+02  1.735093E-02 1.641379E+02  9.396676E-01 -1.095612E+02 
2.117250E+03  9.164326E-01 -1.318475E+02  1.366980E-02 1.383769E+02  1.662862E-02 1.340621E+02 
1.365884E-02 1.383676E+02  8.517843E-01 -1.039291E+02  1.739642E-02 1.641874E+02 
1.671017E-02 1.341449E+02  1.736313E-02 1.642977E+02  9.402535E-01 -1.095849E+02 
2.117500E+03  9.162773E-01 -1.318450E+02  1.370040E-02 1.382888E+02  1.675014E-02 1.341425E+02 
1.366682E-02 1.383066E+02  8.518420E-01 -1.039910E+02  1.739306E-02 1.641441E+02 
1.677200E-02 1.341296E+02  1.740340E-02 1.642885E+02  9.403311E-01 -1.096493E+02 
2.117750E+03  9.160155E-01 -1.318497E+02  1.366815E-02 1.383190E+02  1.680088E-02 1.341403E+02 
1.368251E-02 1.382038E+02  8.520909E-01 -1.039496E+02  1.744112E-02 1.639692E+02 
1.685581E-02 1.341734E+02  1.741389E-02 1.641576E+02  9.404172E-01 -1.096840E+02 
2.118000E+03  9.164317E-01 -1.318785E+02  1.368544E-02 1.385701E+02  1.689904E-02 1.341372E+02 
1.371654E-02 1.384279E+02  8.524812E-01 -1.039554E+02  1.742720E-02 1.638430E+02 
1.689180E-02 1.344196E+02  1.745763E-02 1.639973E+02  9.401768E-01 -1.097195E+02 
2.118250E+03  9.166281E-01 -1.318971E+02  1.377083E-02 1.385523E+02  1.699358E-02 1.342421E+02 
1.378358E-02 1.383094E+02  8.523936E-01 -1.039828E+02  1.742441E-02 1.638569E+02 
1.699985E-02 1.345099E+02  1.738368E-02 1.640804E+02  9.403600E-01 -1.097396E+02 
2.118500E+03  9.166644E-01 -1.319186E+02  1.374194E-02 1.382221E+02  1.704985E-02 1.343474E+02 
1.373426E-02 1.383062E+02  8.529199E-01 -1.039615E+02  1.741503E-02 1.640123E+02 
1.709216E-02 1.344114E+02  1.740372E-02 1.640113E+02  9.404126E-01 -1.098006E+02 
