! Matrix data file written by TouchstoneData, EPCOS AG
! FILENAME: "newformat_LZ85A_3_WB.s2p"
! COMMENT: "(LZ85A_3_WB.s2p) EPCOS AG 06.12.2011 14:00:0"
! INFO: nport=2, nfreq=1601
! DATE: "Fri Dec  9 16:21:45 2011"
! USER: "Michael Schemies"
!
! port | pin | signal
! -----|-----|--------
!   1  |  2  |  in
!   2  |  5  |  out
! --------------------
!
# MHZ S MA R 50
! freq  magS11 angS11  magS21 angS21  magS12 angS12  magS22 angS22
5.000000E+01  9.982540E-01 -2.479713E+00  8.470633E-05 7.959521E+01  9.870824E-05 8.037868E+01  9.988197E-01 -3.517837E+00
5.246875E+01  9.980241E-01 -2.713148E+00  5.797173E-05 8.849940E+01  6.816018E-05 9.019639E+01  9.987563E-01 -3.830053E+00
5.493750E+01  9.979334E-01 -2.852238E+00  8.717612E-05 8.842800E+01  6.807655E-05 7.619062E+01  9.984276E-01 -4.026873E+00
5.740625E+01  9.981848E-01 -2.971673E+00  6.292824E-05 9.100740E+01  6.013869E-05 9.796107E+01  9.988112E-01 -4.194579E+00
5.987500E+01  9.983063E-01 -3.112066E+00  8.359649E-05 9.227606E+01  7.902474E-05 8.662106E+01  9.989800E-01 -4.375414E+00
6.234375E+01  9.979278E-01 -3.246825E+00  2.572386E-04 1.924375E+01  2.461634E-04 2.129026E+01  9.982647E-01 -4.520452E+00
6.481250E+01  9.986852E-01 -3.327824E+00  1.021606E-04 7.350442E+01  8.562494E-05 7.372626E+01  9.989645E-01 -4.701952E+00
6.728125E+01  9.989553E-01 -3.462739E+00  9.382669E-05 8.936146E+01  8.959253E-05 9.446010E+01  9.994509E-01 -4.840310E+00
6.975000E+01  9.987856E-01 -3.604447E+00  8.572402E-05 7.924352E+01  8.047963E-05 7.522131E+01  9.992208E-01 -5.124648E+00
7.221875E+01  9.987022E-01 -3.718990E+00  7.818296E-05 8.107856E+01  7.818784E-05 7.689340E+01  9.986754E-01 -5.267435E+00
7.468750E+01  9.986215E-01 -3.873838E+00  1.089513E-04 6.963534E+01  1.261475E-04 6.901852E+01  9.987888E-01 -5.452341E+00
7.715625E+01  9.984339E-01 -4.019443E+00  9.404203E-05 9.126458E+01  9.608907E-05 8.781667E+01  9.989039E-01 -5.621016E+00
7.962500E+01  9.982674E-01 -4.149941E+00  1.457478E-04 -1.080793E+00  1.407251E-04 -5.074317E+00  9.974799E-01 -5.915201E+00
8.209375E+01  9.985510E-01 -4.216768E+00  1.107941E-04 7.610686E+01  1.036047E-04 7.739928E+01  9.990426E-01 -5.942290E+00
8.456250E+01  9.980884E-01 -4.376570E+00  1.237558E-04 7.504249E+01  1.149881E-04 8.018792E+01  9.984061E-01 -6.161133E+00
8.703125E+01  9.986041E-01 -4.520940E+00  1.314760E-04 8.564535E+01  1.364365E-04 7.809755E+01  9.987415E-01 -6.377008E+00
8.950000E+01  9.982057E-01 -4.649335E+00  1.106870E-04 9.750408E+01  1.156766E-04 9.528286E+01  9.986262E-01 -6.506994E+00
9.196875E+01  9.986402E-01 -4.772938E+00  1.016855E-04 7.872219E+01  1.016528E-04 7.951427E+01  9.986441E-01 -6.676703E+00
9.443750E+01  9.982963E-01 -4.914673E+00  1.337193E-04 7.608314E+01  1.384673E-04 8.104267E+01  9.990238E-01 -6.980032E+00
9.690625E+01  9.987687E-01 -5.048624E+00  1.465476E-04 7.619594E+01  1.512570E-04 7.581838E+01  9.988570E-01 -7.090662E+00
9.937500E+01  9.987527E-01 -5.138567E+00  1.652450E-04 9.427844E+01  1.607410E-04 9.342933E+01  9.989987E-01 -7.224582E+00
1.018438E+02  9.989183E-01 -5.273809E+00  1.192603E-04 8.282941E+01  1.146907E-04 8.013528E+01  9.989831E-01 -7.439355E+00
1.043125E+02  9.990348E-01 -5.418287E+00  1.185223E-04 8.195485E+01  1.192419E-04 8.364474E+01  9.987694E-01 -7.627021E+00
1.067812E+02  9.981957E-01 -5.555877E+00  1.596802E-04 7.523852E+01  1.638070E-04 7.112844E+01  9.985612E-01 -7.795113E+00
1.092500E+02  9.988777E-01 -5.674743E+00  1.455490E-04 9.675854E+01  1.439475E-04 9.614513E+01  9.985426E-01 -7.972784E+00
1.117188E+02  9.988078E-01 -5.817649E+00  1.389389E-04 7.961669E+01  1.358586E-04 8.162816E+01  9.985342E-01 -8.158138E+00
1.141875E+02  9.992527E-01 -5.952643E+00  1.606880E-04 7.622778E+01  1.623442E-04 8.021890E+01  9.986941E-01 -8.332691E+00
1.166562E+02  9.989870E-01 -6.076211E+00  1.219073E-04 8.035103E+01  1.225365E-04 8.072961E+01  9.982130E-01 -8.486532E+00
1.191250E+02  9.989300E-01 -6.211948E+00  1.729316E-04 7.960672E+01  1.646567E-04 8.260348E+01  9.982020E-01 -8.674165E+00
1.215938E+02  9.988547E-01 -6.340975E+00  1.258084E-04 1.016247E+02  1.195735E-04 1.033489E+02  9.984383E-01 -8.871112E+00
1.240625E+02  9.988049E-01 -6.490341E+00  1.817433E-04 8.407986E+01  1.876698E-04 8.398517E+01  9.981043E-01 -9.054047E+00
1.265312E+02  9.986589E-01 -6.604687E+00  1.473374E-04 8.449630E+01  1.364902E-04 8.726996E+01  9.984713E-01 -9.207021E+00
1.290000E+02  9.988337E-01 -6.748550E+00  1.787278E-04 7.781328E+01  1.895862E-04 7.442764E+01  9.986699E-01 -9.402342E+00
1.314688E+02  9.988579E-01 -6.876640E+00  1.801548E-04 7.120892E+01  1.717178E-04 7.375337E+01  9.986610E-01 -9.620210E+00
1.339375E+02  9.985224E-01 -6.991703E+00  1.703014E-04 7.593332E+01  1.619222E-04 7.553654E+01  9.982328E-01 -9.753478E+00
1.364062E+02  9.988573E-01 -7.118042E+00  1.597543E-04 8.004887E+01  1.540879E-04 8.089027E+01  9.985950E-01 -9.953420E+00
1.388750E+02  9.987912E-01 -7.232791E+00  1.510127E-04 7.898569E+01  1.556267E-04 7.619564E+01  9.986115E-01 -1.013116E+01
1.413438E+02  9.987618E-01 -7.415019E+00  1.875816E-04 7.819767E+01  2.022480E-04 7.810625E+01  9.988152E-01 -1.033088E+01
1.438125E+02  9.987037E-01 -7.506668E+00  1.741203E-04 8.026233E+01  1.886306E-04 8.128327E+01  9.985029E-01 -1.047797E+01
1.462812E+02  9.982598E-01 -7.597849E+00  1.985347E-04 7.498260E+01  1.996574E-04 7.703250E+01  9.985090E-01 -1.059576E+01
1.487500E+02  9.984798E-01 -7.776837E+00  1.850156E-04 8.606563E+01  1.775104E-04 8.437288E+01  9.986137E-01 -1.083879E+01
1.512188E+02  9.982823E-01 -7.897528E+00  1.307744E-04 7.239941E+01  1.349716E-04 7.275136E+01  9.978239E-01 -1.097721E+01
1.536875E+02  9.985223E-01 -8.030396E+00  2.029704E-04 8.104987E+01  1.994337E-04 8.228321E+01  9.984065E-01 -1.117283E+01
1.561562E+02  9.982159E-01 -8.157123E+00  1.846031E-04 7.603395E+01  1.816245E-04 7.672519E+01  9.985890E-01 -1.135124E+01
1.586250E+02  9.983990E-01 -8.320912E+00  2.134649E-04 7.769863E+01  2.017740E-04 7.584579E+01  9.985670E-01 -1.153660E+01
1.610938E+02  9.988474E-01 -8.414180E+00  2.226980E-04 7.451862E+01  2.101661E-04 7.608548E+01  9.990622E-01 -1.167219E+01
1.635625E+02  9.989578E-01 -8.554772E+00  2.303354E-04 7.845132E+01  2.268822E-04 7.707813E+01  9.990270E-01 -1.187124E+01
1.660312E+02  9.982126E-01 -8.699676E+00  1.980034E-04 7.476245E+01  2.001920E-04 7.789633E+01  9.981935E-01 -1.205611E+01
1.685000E+02  9.975248E-01 -8.815631E+00  2.366854E-04 6.225263E+01  2.348960E-04 6.275649E+01  9.974007E-01 -1.219917E+01
1.709688E+02  9.978306E-01 -8.951032E+00  2.103728E-04 7.660936E+01  2.122638E-04 7.627735E+01  9.978329E-01 -1.242088E+01
1.734375E+02  9.980568E-01 -9.034376E+00  2.183281E-04 7.632784E+01  2.059755E-04 7.657997E+01  9.976725E-01 -1.257664E+01
1.759062E+02  9.983856E-01 -9.195454E+00  2.231941E-04 7.865403E+01  2.235761E-04 8.064168E+01  9.979171E-01 -1.276043E+01
1.783750E+02  9.981993E-01 -9.425720E+00  2.450720E-04 6.631848E+01  2.387034E-04 6.828366E+01  9.972623E-01 -1.305461E+01
1.808438E+02  9.986006E-01 -9.463225E+00  2.192022E-04 7.747807E+01  2.131045E-04 7.752659E+01  9.985741E-01 -1.309656E+01
1.833125E+02  9.983635E-01 -9.569746E+00  1.943867E-04 7.440245E+01  1.990077E-04 7.649172E+01  9.988523E-01 -1.326207E+01
1.857812E+02  9.984390E-01 -9.735633E+00  2.384740E-04 7.400540E+01  2.445215E-04 7.434898E+01  9.981176E-01 -1.356582E+01
1.882500E+02  9.983317E-01 -9.841333E+00  2.428565E-04 7.808468E+01  2.441674E-04 7.775476E+01  9.976592E-01 -1.366636E+01
1.907188E+02  9.990734E-01 -9.979199E+00  2.216854E-04 7.277350E+01  2.302849E-04 7.411864E+01  9.988354E-01 -1.386948E+01
1.931875E+02  9.976773E-01 -1.007477E+01  2.449783E-04 7.846613E+01  2.331663E-04 7.442861E+01  9.969084E-01 -1.392637E+01
1.956562E+02  9.980124E-01 -1.019091E+01  2.302544E-04 8.081271E+01  2.317435E-04 7.933119E+01  9.969451E-01 -1.413376E+01
1.981250E+02  9.986990E-01 -1.033887E+01  2.573545E-04 7.192407E+01  2.534154E-04 7.390735E+01  9.977439E-01 -1.440905E+01
2.005938E+02  9.984528E-01 -1.049983E+01  2.560527E-04 7.604242E+01  2.577511E-04 7.810739E+01  9.981675E-01 -1.457115E+01
2.030625E+02  9.985919E-01 -1.061745E+01  2.602453E-04 8.059849E+01  2.660011E-04 8.188566E+01  9.973124E-01 -1.479358E+01
2.055312E+02  9.986819E-01 -1.076151E+01  2.583449E-04 7.536391E+01  2.573078E-04 7.607568E+01  9.971434E-01 -1.489888E+01
2.080000E+02  9.985834E-01 -1.086520E+01  2.687627E-04 7.824989E+01  2.690776E-04 8.135941E+01  9.980242E-01 -1.507422E+01
2.104688E+02  9.985188E-01 -1.089626E+01  2.506833E-04 7.936376E+01  2.512549E-04 7.953521E+01  9.998842E-01 -1.526946E+01
2.129375E+02  9.980113E-01 -1.111276E+01  2.512231E-04 7.173069E+01  2.474913E-04 7.003919E+01  9.971979E-01 -1.541440E+01
2.154062E+02  9.980238E-01 -1.123951E+01  2.630404E-04 7.502886E+01  2.603348E-04 7.458865E+01  9.974411E-01 -1.560071E+01
2.178750E+02  9.980999E-01 -1.140461E+01  2.691241E-04 7.463775E+01  2.688187E-04 7.425132E+01  9.976407E-01 -1.581574E+01
2.203438E+02  9.987801E-01 -1.151512E+01  2.663717E-04 7.936166E+01  2.648879E-04 7.859700E+01  9.975020E-01 -1.600322E+01
2.228125E+02  9.978552E-01 -1.160016E+01  2.696367E-04 7.836339E+01  2.610742E-04 7.614013E+01  9.973832E-01 -1.613540E+01
2.252812E+02  9.995775E-01 -1.173753E+01  2.632935E-04 7.676386E+01  2.692094E-04 7.780372E+01  9.973708E-01 -1.630926E+01
2.277500E+02  9.990786E-01 -1.187950E+01  2.884714E-04 7.375996E+01  2.941996E-04 7.392900E+01  9.975348E-01 -1.649656E+01
2.302188E+02  9.983304E-01 -1.202822E+01  2.550669E-04 7.297262E+01  2.545436E-04 7.180845E+01  9.970107E-01 -1.671923E+01
2.326875E+02  9.991716E-01 -1.184602E+01  2.984389E-04 7.602069E+01  2.875115E-04 7.434951E+01  9.981406E-01 -1.660231E+01
2.351562E+02  9.991794E-01 -1.218540E+01  3.079292E-04 7.713822E+01  3.008647E-04 7.581116E+01  9.979683E-01 -1.701696E+01
2.376250E+02  9.990132E-01 -1.242044E+01  2.794751E-04 7.153139E+01  2.911003E-04 7.342747E+01  9.978335E-01 -1.724528E+01
2.400938E+02  9.990915E-01 -1.252506E+01  2.771563E-04 7.542881E+01  2.807822E-04 7.580114E+01  9.978395E-01 -1.742123E+01
2.425625E+02  9.994935E-01 -1.271192E+01  2.914424E-04 7.764514E+01  2.777597E-04 7.557141E+01  9.981823E-01 -1.766651E+01
2.450312E+02  9.994271E-01 -1.281994E+01  2.949960E-04 7.160621E+01  3.012550E-04 7.220200E+01  9.981564E-01 -1.781628E+01
2.475000E+02  9.991701E-01 -1.296009E+01  2.995872E-04 7.620427E+01  3.014993E-04 7.607810E+01  9.979474E-01 -1.801433E+01
2.499688E+02  9.991650E-01 -1.304140E+01  3.009984E-04 7.717177E+01  2.951714E-04 7.654304E+01  9.979045E-01 -1.813293E+01
2.524375E+02  9.993904E-01 -1.318374E+01  2.951185E-04 7.270786E+01  2.989032E-04 7.351072E+01  9.981812E-01 -1.832778E+01
2.549062E+02  9.991569E-01 -1.330997E+01  3.028295E-04 7.276510E+01  3.078778E-04 7.339454E+01  9.981384E-01 -1.851621E+01
2.573750E+02  9.985736E-01 -1.339929E+01  2.910315E-04 7.000430E+01  2.830383E-04 6.988791E+01  9.976422E-01 -1.866559E+01
2.598438E+02  9.992625E-01 -1.355134E+01  2.980754E-04 7.209141E+01  3.013598E-04 7.309575E+01  9.980112E-01 -1.887453E+01
2.623125E+02  9.989605E-01 -1.369392E+01  3.166623E-04 7.264220E+01  3.183958E-04 7.259184E+01  9.978955E-01 -1.903774E+01
2.647812E+02  9.988107E-01 -1.384452E+01  3.140892E-04 7.443775E+01  3.185697E-04 7.464079E+01  9.981376E-01 -1.923636E+01
2.672500E+02  9.991366E-01 -1.395380E+01  3.106710E-04 7.605936E+01  3.185271E-04 7.872096E+01  9.981474E-01 -1.941578E+01
2.697188E+02  9.991275E-01 -1.408095E+01  3.290181E-04 7.308475E+01  3.199738E-04 7.317593E+01  9.980489E-01 -1.957364E+01
2.721875E+02  9.990977E-01 -1.421981E+01  3.210279E-04 7.298864E+01  3.235244E-04 7.052981E+01  9.977545E-01 -1.975627E+01
2.746562E+02  9.982965E-01 -1.434305E+01  3.301562E-04 6.612010E+01  3.206529E-04 6.724323E+01  9.967829E-01 -1.989278E+01
2.771250E+02  9.990105E-01 -1.446044E+01  3.182802E-04 6.871663E+01  3.241657E-04 7.191528E+01  9.978336E-01 -2.011677E+01
2.795938E+02  9.990469E-01 -1.459748E+01  3.366699E-04 7.078074E+01  3.391527E-04 7.057465E+01  9.976880E-01 -2.030971E+01
2.820625E+02  9.986799E-01 -1.472703E+01  3.101153E-04 7.566328E+01  3.115504E-04 7.547371E+01  9.976411E-01 -2.051864E+01
2.845312E+02  9.986568E-01 -1.485859E+01  3.252923E-04 7.022349E+01  3.218707E-04 7.117692E+01  9.977405E-01 -2.066888E+01
2.870000E+02  9.988295E-01 -1.500405E+01  3.389951E-04 6.992596E+01  3.318869E-04 7.152366E+01  9.977303E-01 -2.083895E+01
2.894688E+02  9.988824E-01 -1.513112E+01  3.293162E-04 7.105088E+01  3.315457E-04 7.125311E+01  9.977579E-01 -2.101818E+01
2.919375E+02  9.983645E-01 -1.528941E+01  3.395092E-04 7.202243E+01  3.317696E-04 7.217014E+01  9.968399E-01 -2.129451E+01
2.944062E+02  9.987309E-01 -1.540189E+01  3.434258E-04 7.165943E+01  3.456976E-04 6.957695E+01  9.976758E-01 -2.141313E+01
2.968750E+02  9.987609E-01 -1.551045E+01  3.449651E-04 7.055981E+01  3.392149E-04 7.092261E+01  9.976783E-01 -2.157682E+01
2.993438E+02  9.986125E-01 -1.564655E+01  3.407719E-04 7.407496E+01  3.211950E-04 6.923014E+01  9.974874E-01 -2.174662E+01
3.018125E+02  9.983415E-01 -1.575427E+01  3.547855E-04 6.780712E+01  3.441579E-04 6.838606E+01  9.970929E-01 -2.190627E+01
3.042812E+02  9.984007E-01 -1.590054E+01  3.799108E-04 7.086942E+01  3.847796E-04 6.948799E+01  9.970312E-01 -2.208057E+01
3.067500E+02  9.983611E-01 -1.603041E+01  3.767721E-04 7.122005E+01  3.633212E-04 7.014115E+01  9.970552E-01 -2.227702E+01
3.092188E+02  9.982070E-01 -1.615154E+01  3.621193E-04 6.783025E+01  3.754329E-04 6.951784E+01  9.968043E-01 -2.246582E+01
3.116875E+02  9.983992E-01 -1.625263E+01  3.794600E-04 6.832257E+01  3.687341E-04 6.773978E+01  9.970532E-01 -2.258170E+01
3.141562E+02  9.982821E-01 -1.637482E+01  3.444333E-04 6.694902E+01  3.546633E-04 6.693713E+01  9.970692E-01 -2.275928E+01
3.166250E+02  9.983427E-01 -1.652650E+01  3.549450E-04 7.071481E+01  3.648925E-04 7.146618E+01  9.971179E-01 -2.296389E+01
3.190938E+02  9.977918E-01 -1.662432E+01  3.698119E-04 7.369934E+01  3.704246E-04 7.214698E+01  9.962006E-01 -2.311534E+01
3.215625E+02  9.988290E-01 -1.682871E+01  3.652612E-04 6.946590E+01  3.602835E-04 7.164564E+01  9.975068E-01 -2.333849E+01
3.240312E+02  9.983689E-01 -1.690973E+01  3.839996E-04 7.106736E+01  3.687714E-04 7.188023E+01  9.974860E-01 -2.347550E+01
3.265000E+02  9.981384E-01 -1.702371E+01  3.618079E-04 6.943553E+01  3.699643E-04 6.745697E+01  9.971072E-01 -2.367622E+01
3.289688E+02  9.980479E-01 -1.710468E+01  3.615149E-04 7.205401E+01  3.692767E-04 7.419211E+01  9.967955E-01 -2.380957E+01
3.314375E+02  9.979336E-01 -1.722871E+01  3.759717E-04 6.808383E+01  3.742774E-04 7.055558E+01  9.969600E-01 -2.399562E+01
3.339062E+02  9.978943E-01 -1.735416E+01  4.161390E-04 6.788769E+01  4.048179E-04 6.976553E+01  9.970220E-01 -2.417684E+01
3.363750E+02  9.970889E-01 -1.747622E+01  3.938254E-04 7.048020E+01  4.013262E-04 7.017801E+01  9.959034E-01 -2.436303E+01
3.388438E+02  9.977706E-01 -1.754696E+01  3.748551E-04 6.701997E+01  3.743713E-04 6.752355E+01  9.968487E-01 -2.447621E+01
3.413125E+02  9.978658E-01 -1.768253E+01  3.795101E-04 6.847239E+01  3.690245E-04 6.980664E+01  9.965028E-01 -2.466995E+01
3.437812E+02  9.976958E-01 -1.780008E+01  3.816174E-04 6.759744E+01  3.837567E-04 6.853934E+01  9.965638E-01 -2.484179E+01
3.462500E+02  9.972386E-01 -1.788624E+01  3.870146E-04 6.940956E+01  3.960134E-04 6.968445E+01  9.960852E-01 -2.498056E+01
3.487188E+02  9.972246E-01 -1.802539E+01  3.981234E-04 6.752977E+01  3.917511E-04 6.774859E+01  9.965421E-01 -2.515807E+01
3.511875E+02  9.972464E-01 -1.813877E+01  4.041470E-04 6.551384E+01  4.056417E-04 6.675349E+01  9.965816E-01 -2.535200E+01
3.536562E+02  9.963453E-01 -1.820661E+01  4.068211E-04 6.927215E+01  3.995978E-04 6.846733E+01  9.954000E-01 -2.545805E+01
3.561250E+02  9.969709E-01 -1.838514E+01  3.889279E-04 6.910786E+01  3.984194E-04 6.941262E+01  9.960631E-01 -2.565950E+01
3.585938E+02  9.974295E-01 -1.857168E+01  4.050462E-04 6.778549E+01  4.052776E-04 6.905233E+01  9.965553E-01 -2.589033E+01
3.610625E+02  9.973637E-01 -1.867115E+01  3.965292E-04 6.539426E+01  3.971803E-04 6.437535E+01  9.963593E-01 -2.604058E+01
3.635312E+02  9.971484E-01 -1.876834E+01  4.259454E-04 6.815545E+01  4.210868E-04 6.804434E+01  9.959862E-01 -2.617021E+01
3.660000E+02  9.973088E-01 -1.885892E+01  4.045692E-04 6.746982E+01  4.053147E-04 6.732801E+01  9.961619E-01 -2.630005E+01
3.684688E+02  9.975069E-01 -1.904201E+01  4.023007E-04 6.791993E+01  4.038817E-04 6.811855E+01  9.964656E-01 -2.654883E+01
3.709375E+02  9.973031E-01 -1.918314E+01  4.112000E-04 6.779545E+01  4.114995E-04 6.697451E+01  9.960900E-01 -2.677202E+01
3.734062E+02  9.976608E-01 -1.926704E+01  4.181893E-04 6.485246E+01  4.220779E-04 6.505158E+01  9.961215E-01 -2.690086E+01
3.758750E+02  9.975948E-01 -1.936794E+01  4.120304E-04 6.854012E+01  4.021693E-04 6.730919E+01  9.958551E-01 -2.707800E+01
3.783438E+02  9.975831E-01 -1.952449E+01  4.253038E-04 6.472062E+01  4.154800E-04 6.523000E+01  9.962399E-01 -2.728090E+01
3.808125E+02  9.964924E-01 -1.960747E+01  4.420422E-04 6.625039E+01  4.337253E-04 6.456438E+01  9.951226E-01 -2.740090E+01
3.832812E+02  9.971467E-01 -1.974369E+01  4.260350E-04 6.646596E+01  4.276657E-04 6.719408E+01  9.958051E-01 -2.760018E+01
3.857500E+02  9.990122E-01 -1.984882E+01  4.167095E-04 6.858085E+01  4.105027E-04 6.918405E+01  9.972689E-01 -2.776350E+01
3.882188E+02  9.974529E-01 -1.997535E+01  4.317504E-04 6.682225E+01  4.271789E-04 6.639573E+01  9.958073E-01 -2.797137E+01
3.906875E+02  9.966376E-01 -2.008149E+01  4.457222E-04 6.592153E+01  4.442938E-04 6.587429E+01  9.949523E-01 -2.811277E+01
3.931562E+02  9.966574E-01 -2.018878E+01  4.547077E-04 6.624738E+01  4.479885E-04 6.626834E+01  9.954008E-01 -2.829652E+01
3.956250E+02  9.965749E-01 -2.032957E+01  4.370319E-04 6.672182E+01  4.269650E-04 6.584796E+01  9.951452E-01 -2.848089E+01
3.980938E+02  9.960492E-01 -2.046382E+01  4.420048E-04 6.523137E+01  4.343902E-04 6.445694E+01  9.939962E-01 -2.872136E+01
4.005625E+02  9.967478E-01 -2.054953E+01  4.019048E-04 6.432167E+01  4.008917E-04 6.444339E+01  9.958902E-01 -2.884792E+01
4.030312E+02  9.963578E-01 -2.068785E+01  4.223604E-04 6.371034E+01  4.153023E-04 6.396232E+01  9.962877E-01 -2.903048E+01
4.055000E+02  9.964757E-01 -2.078390E+01  4.304558E-04 6.614594E+01  4.354836E-04 6.581023E+01  9.962967E-01 -2.920515E+01
4.079688E+02  9.961266E-01 -2.089149E+01  4.545061E-04 6.259721E+01  4.470504E-04 6.285764E+01  9.954675E-01 -2.937496E+01
4.104375E+02  9.934586E-01 -2.028651E+01  4.519942E-04 6.738559E+01  4.496167E-04 6.763538E+01  9.916757E-01 -2.913805E+01
4.129062E+02  9.979944E-01 -2.111947E+01  4.392619E-04 6.479915E+01  4.472809E-04 6.521769E+01  9.964621E-01 -2.975438E+01
4.153750E+02  9.980571E-01 -2.127530E+01  4.486313E-04 6.522950E+01  4.452268E-04 6.572502E+01  9.955751E-01 -2.999130E+01
4.178438E+02  9.973324E-01 -2.136713E+01  4.475256E-04 6.490755E+01  4.385848E-04 6.566285E+01  9.946981E-01 -3.008553E+01
4.203125E+02  9.971433E-01 -2.149778E+01  4.395656E-04 6.326603E+01  4.386449E-04 6.395920E+01  9.951486E-01 -3.025321E+01
4.227812E+02  9.974052E-01 -2.166164E+01  4.667590E-04 6.352728E+01  4.599545E-04 6.431053E+01  9.954055E-01 -3.045852E+01
4.252500E+02  9.968032E-01 -2.177510E+01  4.596728E-04 6.410409E+01  4.593479E-04 6.440751E+01  9.947381E-01 -3.062311E+01
4.277188E+02  9.967837E-01 -2.188902E+01  4.599408E-04 6.352974E+01  4.571175E-04 6.433640E+01  9.951114E-01 -3.078482E+01
4.301875E+02  9.964014E-01 -2.201330E+01  4.683145E-04 6.285548E+01  4.551055E-04 6.289559E+01  9.950490E-01 -3.099433E+01
4.326562E+02  9.962693E-01 -2.214082E+01  4.430223E-04 6.128505E+01  4.482679E-04 6.138503E+01  9.949737E-01 -3.118910E+01
4.351250E+02  9.962795E-01 -2.222556E+01  4.326458E-04 6.083513E+01  4.342083E-04 6.301912E+01  9.946261E-01 -3.132024E+01
4.375938E+02  9.958983E-01 -2.199657E+01  4.587785E-04 6.245150E+01  4.545710E-04 6.208073E+01  9.951602E-01 -3.139399E+01
4.400625E+02  9.962040E-01 -2.257203E+01  4.574086E-04 6.526836E+01  4.609019E-04 6.378136E+01  9.948065E-01 -3.176155E+01
