! Matrix data file written by TouchstoneData, EPCOS AG
! FILENAME: "B3927_LB_NB.s3p"
! COMMENT: "unmatched GPS/GLONASS narrowband"
! INFO: nport=3, nfreq=1601
! DATE: "Thu Jul 12 14:02:21 2012"
! USER: "Daniel Harbusch"
!
! port | pin | signal
! -----|-----|--------
!   1  |  2  |  Input
!   2  |  4  |  GPS/GLONASS Output
!   3  |  6  |  SDARS Output
! --------------------
! 
# MHZ S MA R 50
! freq  magS11 angS11  magS12 angS12  magS13 angS13  ...
1.400000E+03  9.609994E-01 -9.949846E+01  3.894392E-03 1.715673E+02  2.618973E-02 1.136323E+01 
3.882066E-03 1.712666E+02  9.562089E-01 -9.091766E+01  4.000895E-03 -1.702805E+02 
2.622429E-02 1.154287E+01  3.949667E-03 -1.697152E+02  9.661492E-01 -6.146183E+01 
1.400250E+03  9.618592E-01 -9.952739E+01  3.919427E-03 1.708808E+02  2.620733E-02 1.147992E+01 
3.939817E-03 1.708815E+02  9.563044E-01 -9.094706E+01  4.078828E-03 -1.708142E+02 
2.620696E-02 1.146516E+01  4.011621E-03 -1.697183E+02  9.665193E-01 -6.147728E+01 
1.400500E+03  9.615315E-01 -9.959521E+01  3.933122E-03 1.703176E+02  2.620314E-02 1.134812E+01 
3.929300E-03 1.703523E+02  9.562627E-01 -9.100582E+01  3.986954E-03 -1.702197E+02 
2.622063E-02 1.138324E+01  4.015158E-03 -1.700372E+02  9.661006E-01 -6.151109E+01 
1.400750E+03  9.616232E-01 -9.959799E+01  3.928671E-03 1.703535E+02  2.616578E-02 1.137230E+01 
3.997684E-03 1.698452E+02  9.561028E-01 -9.102879E+01  3.961846E-03 -1.703614E+02 
2.620040E-02 1.141349E+01  4.014968E-03 -1.707614E+02  9.662008E-01 -6.151047E+01 
1.401000E+03  9.619272E-01 -9.963978E+01  3.997920E-03 1.707993E+02  2.621664E-02 1.133070E+01 
4.061310E-03 1.703079E+02  9.563604E-01 -9.104439E+01  3.987132E-03 -1.707195E+02 
2.618751E-02 1.149038E+01  4.000676E-03 -1.700322E+02  9.661548E-01 -6.149337E+01 
1.401250E+03  9.620587E-01 -9.963546E+01  4.024483E-03 1.702874E+02  2.617094E-02 1.140764E+01 
4.067954E-03 1.699520E+02  9.561813E-01 -9.109568E+01  3.967637E-03 -1.706198E+02 
2.626356E-02 1.147178E+01  4.019299E-03 -1.707735E+02  9.663866E-01 -6.153628E+01 
1.401500E+03  9.622438E-01 -9.965670E+01  4.100072E-03 1.698586E+02  2.619341E-02 1.137989E+01 
4.076128E-03 1.699448E+02  9.564143E-01 -9.114265E+01  4.009640E-03 -1.701498E+02 
2.619826E-02 1.122947E+01  4.032671E-03 -1.708722E+02  9.660937E-01 -6.154777E+01 
1.401750E+03  9.622881E-01 -9.967273E+01  4.119725E-03 1.700541E+02  2.619977E-02 1.140864E+01 
4.149944E-03 1.699301E+02  9.564653E-01 -9.117268E+01  3.991046E-03 -1.705238E+02 
2.615739E-02 1.131777E+01  3.980858E-03 -1.696732E+02  9.662314E-01 -6.157396E+01 
1.402000E+03  9.620784E-01 -9.968508E+01  4.108788E-03 1.696341E+02  2.618389E-02 1.129371E+01 
4.108623E-03 1.700199E+02  9.558303E-01 -9.121640E+01  4.037779E-03 -1.705414E+02 
2.619062E-02 1.133584E+01  3.965615E-03 -1.704469E+02  9.659106E-01 -6.155176E+01 
1.402250E+03  9.625107E-01 -9.972304E+01  4.170989E-03 1.702112E+02  2.620859E-02 1.135699E+01 
4.121165E-03 1.702914E+02  9.560737E-01 -9.123857E+01  3.977196E-03 -1.703763E+02 
2.618948E-02 1.129400E+01  4.021481E-03 -1.703199E+02  9.662614E-01 -6.158628E+01 
1.402500E+03  9.622660E-01 -9.977040E+01  4.200826E-03 1.696310E+02  2.610296E-02 1.122449E+01 
4.230082E-03 1.687534E+02  9.563588E-01 -9.127309E+01  3.995764E-03 -1.706542E+02 
2.613990E-02 1.129820E+01  4.014960E-03 -1.701373E+02  9.659761E-01 -6.161088E+01 
1.402750E+03  9.625137E-01 -9.979022E+01  4.190550E-03 1.691848E+02  2.617042E-02 1.133322E+01 
4.184163E-03 1.695516E+02  9.563455E-01 -9.132764E+01  4.006184E-03 -1.702102E+02 
2.619585E-02 1.123777E+01  4.008879E-03 -1.698847E+02  9.659991E-01 -6.160679E+01 
1.403000E+03  9.626560E-01 -9.982702E+01  4.191601E-03 1.681776E+02  2.611342E-02 1.117990E+01 
4.205079E-03 1.690835E+02  9.562381E-01 -9.136950E+01  3.909415E-03 -1.705368E+02 
2.615672E-02 1.123257E+01  4.043586E-03 -1.698418E+02  9.659249E-01 -6.163425E+01 
1.403250E+03  9.621518E-01 -9.984699E+01  4.283683E-03 1.682128E+02  2.614005E-02 1.120310E+01 
4.251948E-03 1.692089E+02  9.564523E-01 -9.140338E+01  3.993000E-03 -1.706959E+02 
2.614861E-02 1.130509E+01  3.978094E-03 -1.697545E+02  9.660525E-01 -6.164641E+01 
1.403500E+03  9.623981E-01 -9.986653E+01  4.252780E-03 1.689327E+02  2.608938E-02 1.126204E+01 
4.245280E-03 1.689733E+02  9.560319E-01 -9.145486E+01  4.013187E-03 -1.703466E+02 
2.613000E-02 1.105026E+01  4.075044E-03 -1.704389E+02  9.657980E-01 -6.167092E+01 
1.403750E+03  9.626347E-01 -9.988190E+01  4.277353E-03 1.684800E+02  2.607733E-02 1.120522E+01 
4.273431E-03 1.683194E+02  9.561177E-01 -9.147854E+01  3.996272E-03 -1.704564E+02 
2.613652E-02 1.108435E+01  3.980458E-03 -1.704332E+02  9.658925E-01 -6.165984E+01 
1.404000E+03  9.626697E-01 -9.990961E+01  4.306800E-03 1.686261E+02  2.607027E-02 1.117545E+01 
4.286448E-03 1.677831E+02  9.558708E-01 -9.152153E+01  3.991689E-03 -1.716527E+02 
2.605820E-02 1.112865E+01  4.025511E-03 -1.703065E+02  9.658649E-01 -6.169866E+01 
1.404250E+03  9.624998E-01 -9.996007E+01  4.311521E-03 1.676191E+02  2.608521E-02 1.115621E+01 
4.281266E-03 1.674404E+02  9.559065E-01 -9.155813E+01  4.030185E-03 -1.708635E+02 
2.608952E-02 1.119746E+01  4.030323E-03 -1.709308E+02  9.656601E-01 -6.170849E+01 
1.404500E+03  9.627727E-01 -9.995924E+01  4.303414E-03 1.679872E+02  2.608471E-02 1.106792E+01 
4.289157E-03 1.678148E+02  9.562277E-01 -9.156997E+01  4.031544E-03 -1.703076E+02 
2.610810E-02 1.115609E+01  4.013081E-03 -1.703509E+02  9.659369E-01 -6.169705E+01 
1.404750E+03  9.629955E-01 -1.000053E+02  4.304964E-03 1.672799E+02  2.604996E-02 1.113378E+01 
4.314440E-03 1.680874E+02  9.559451E-01 -9.163392E+01  3.993956E-03 -1.710225E+02 
2.610188E-02 1.113834E+01  4.046400E-03 -1.699745E+02  9.658852E-01 -6.170841E+01 
1.405000E+03  9.627759E-01 -1.000098E+02  4.313788E-03 1.677690E+02  2.608095E-02 1.106373E+01 
4.302635E-03 1.675515E+02  9.563411E-01 -9.167839E+01  4.030760E-03 -1.709223E+02 
2.609584E-02 1.118072E+01  4.047996E-03 -1.707727E+02  9.658759E-01 -6.173668E+01 
1.405250E+03  9.629529E-01 -1.000697E+02  4.380198E-03 1.670905E+02  2.605529E-02 1.116763E+01 
4.366094E-03 1.680569E+02  9.560973E-01 -9.170604E+01  4.030827E-03 -1.705524E+02 
2.606016E-02 1.117063E+01  4.069794E-03 -1.698089E+02  9.657398E-01 -6.173632E+01 
1.405500E+03  9.626335E-01 -1.000993E+02  4.333451E-03 1.672413E+02  2.604834E-02 1.109733E+01 
4.412403E-03 1.678599E+02  9.560578E-01 -9.175288E+01  4.062335E-03 -1.702620E+02 
2.610639E-02 1.098308E+01  4.061143E-03 -1.697528E+02  9.656274E-01 -6.176263E+01 
1.405750E+03  9.627012E-01 -1.001143E+02  4.402379E-03 1.674463E+02  2.602933E-02 1.102255E+01 
4.374736E-03 1.679692E+02  9.558491E-01 -9.178271E+01  4.052937E-03 -1.710360E+02 
2.608724E-02 1.107943E+01  4.064376E-03 -1.702129E+02  9.659073E-01 -6.177528E+01 
1.406000E+03  9.632339E-01 -1.001314E+02  4.432025E-03 1.668785E+02  2.607340E-02 1.099644E+01 
4.418771E-03 1.666530E+02  9.563697E-01 -9.182451E+01  4.120584E-03 -1.704808E+02 
2.612710E-02 1.104558E+01  4.041927E-03 -1.702913E+02  9.659718E-01 -6.177754E+01 
1.406250E+03  9.627412E-01 -1.001735E+02  4.403130E-03 1.663234E+02  2.599382E-02 1.102004E+01 
4.407293E-03 1.661131E+02  9.560392E-01 -9.185438E+01  4.054090E-03 -1.711028E+02 
2.603491E-02 1.096110E+01  4.071896E-03 -1.711344E+02  9.657227E-01 -6.180531E+01 
1.406500E+03  9.626513E-01 -1.002008E+02  4.384870E-03 1.661185E+02  2.609270E-02 1.084361E+01 
4.426788E-03 1.662504E+02  9.561308E-01 -9.190895E+01  4.005627E-03 -1.709734E+02 
2.607535E-02 1.087562E+01  4.039156E-03 -1.707746E+02  9.658330E-01 -6.182192E+01 
1.406750E+03  9.625907E-01 -1.002189E+02  4.381143E-03 1.671584E+02  2.602027E-02 1.089818E+01 
4.413927E-03 1.661676E+02  9.559099E-01 -9.193414E+01  4.046173E-03 -1.701858E+02 
2.602791E-02 1.091643E+01  4.027899E-03 -1.701215E+02  9.657130E-01 -6.181291E+01 
1.407000E+03  9.629937E-01 -1.002590E+02  4.440246E-03 1.665978E+02  2.599548E-02 1.077765E+01 
4.434176E-03 1.665068E+02  9.562450E-01 -9.197658E+01  3.991707E-03 -1.707215E+02 
2.603842E-02 1.093829E+01  4.024224E-03 -1.705675E+02  9.655722E-01 -6.182736E+01 
1.407250E+03  9.627968E-01 -1.002905E+02  4.457410E-03 1.662910E+02  2.598401E-02 1.086423E+01 
4.430481E-03 1.663094E+02  9.558902E-01 -9.201327E+01  4.076513E-03 -1.708315E+02 
2.601402E-02 1.091778E+01  4.036611E-03 -1.707930E+02  9.655418E-01 -6.186263E+01 
1.407500E+03  9.633225E-01 -1.003301E+02  4.408147E-03 1.655480E+02  2.601745E-02 1.059763E+01 
4.405699E-03 1.651327E+02  9.558942E-01 -9.205067E+01  4.091736E-03 -1.704673E+02 
2.598696E-02 1.088303E+01  4.077033E-03 -1.706009E+02  9.659394E-01 -6.186443E+01 
1.407750E+03  9.629153E-01 -1.003349E+02  4.417836E-03 1.652104E+02  2.596723E-02 1.083733E+01 
4.434469E-03 1.655633E+02  9.556877E-01 -9.208031E+01  4.037844E-03 -1.706808E+02 
2.598057E-02 1.085083E+01  4.081973E-03 -1.701274E+02  9.657130E-01 -6.187291E+01 
1.408000E+03  9.628523E-01 -1.003716E+02  4.421762E-03 1.655066E+02  2.598825E-02 1.082118E+01 
4.486271E-03 1.653025E+02  9.558114E-01 -9.212730E+01  4.090972E-03 -1.699919E+02 
2.600350E-02 1.095524E+01  3.998439E-03 -1.705949E+02  9.656405E-01 -6.188158E+01 
1.408250E+03  9.627415E-01 -1.004233E+02  4.456108E-03 1.650142E+02  2.595675E-02 1.074313E+01 
4.422156E-03 1.654813E+02  9.561374E-01 -9.217945E+01  4.059629E-03 -1.702236E+02 
2.600528E-02 1.089796E+01  4.008000E-03 -1.708728E+02  9.657387E-01 -6.190527E+01 
1.408500E+03  9.627014E-01 -1.004297E+02  4.463875E-03 1.652909E+02  2.595211E-02 1.078039E+01 
4.425309E-03 1.658533E+02  9.556005E-01 -9.220952E+01  4.065438E-03 -1.712993E+02 
2.596324E-02 1.083599E+01  4.031872E-03 -1.700491E+02  9.657892E-01 -6.193214E+01 
1.408750E+03  9.627723E-01 -1.004792E+02  4.499297E-03 1.648594E+02  2.597333E-02 1.085384E+01 
4.483858E-03 1.656294E+02  9.559143E-01 -9.225115E+01  4.030741E-03 -1.708977E+02 
2.597729E-02 1.086129E+01  4.037066E-03 -1.710943E+02  9.657760E-01 -6.193676E+01 
1.409000E+03  9.626771E-01 -1.005011E+02  4.424574E-03 1.649773E+02  2.594731E-02 1.082762E+01 
4.373703E-03 1.647729E+02  9.559622E-01 -9.226927E+01  4.030914E-03 -1.705731E+02 
2.597046E-02 1.078150E+01  4.061760E-03 -1.707407E+02  9.660970E-01 -6.195266E+01 
1.409250E+03  9.625749E-01 -1.005214E+02  4.473252E-03 1.646857E+02  2.596852E-02 1.060223E+01 
4.480231E-03 1.646196E+02  9.555425E-01 -9.233107E+01  4.037087E-03 -1.715368E+02 
2.591787E-02 1.070591E+01  4.021184E-03 -1.710041E+02  9.653347E-01 -6.197262E+01 
1.409500E+03  9.624930E-01 -1.005812E+02  4.499722E-03 1.651592E+02  2.596505E-02 1.058883E+01 
4.520064E-03 1.646842E+02  9.559640E-01 -9.236699E+01  4.103923E-03 -1.707612E+02 
2.594089E-02 1.081776E+01  4.045839E-03 -1.708797E+02  9.657563E-01 -6.197169E+01 
1.409750E+03  9.627123E-01 -1.006002E+02  4.460818E-03 1.654020E+02  2.588326E-02 1.061375E+01 
4.462755E-03 1.650883E+02  9.555065E-01 -9.241711E+01  4.084692E-03 -1.708326E+02 
2.587330E-02 1.080937E+01  4.064325E-03 -1.707776E+02  9.657454E-01 -6.197007E+01 
1.410000E+03  9.627193E-01 -1.006555E+02  4.452366E-03 1.644316E+02  2.589306E-02 1.055444E+01 
4.482623E-03 1.649597E+02  9.554691E-01 -9.246510E+01  4.024916E-03 -1.709908E+02 
2.591366E-02 1.073652E+01  4.094510E-03 -1.710830E+02  9.656843E-01 -6.200755E+01 
1.410250E+03  9.628081E-01 -1.006469E+02  4.489414E-03 1.649271E+02  2.595730E-02 1.060935E+01 
4.485384E-03 1.649240E+02  9.555296E-01 -9.245776E+01  4.082474E-03 -1.704484E+02 
2.592893E-02 1.072192E+01  4.060470E-03 -1.711822E+02  9.655766E-01 -6.200888E+01 
1.410500E+03  9.625857E-01 -1.006979E+02  4.483177E-03 1.645162E+02  2.588018E-02 1.065129E+01 
4.466986E-03 1.643074E+02  9.553098E-01 -9.250773E+01  4.047871E-03 -1.710654E+02 
2.588024E-02 1.055326E+01  4.038469E-03 -1.703385E+02  9.660108E-01 -6.203649E+01 
1.410750E+03  9.625690E-01 -1.007232E+02  4.520967E-03 1.643645E+02  2.587788E-02 1.047317E+01 
4.479559E-03 1.641057E+02  9.550710E-01 -9.255299E+01  4.058445E-03 -1.707067E+02 
2.592852E-02 1.069239E+01  4.048593E-03 -1.704421E+02  9.657743E-01 -6.203076E+01 
1.411000E+03  9.626162E-01 -1.007548E+02  4.476838E-03 1.648987E+02  2.585988E-02 1.051197E+01 
4.427239E-03 1.643443E+02  9.551730E-01 -9.257334E+01  4.116419E-03 -1.703806E+02 
2.586368E-02 1.069762E+01  4.060423E-03 -1.706104E+02  9.655351E-01 -6.205212E+01 
1.411250E+03  9.624631E-01 -1.007653E+02  4.485250E-03 1.641863E+02  2.591553E-02 1.053354E+01 
4.510513E-03 1.641784E+02  9.551109E-01 -9.263663E+01  4.072821E-03 -1.708060E+02 
2.584368E-02 1.064585E+01  4.055310E-03 -1.708407E+02  9.661326E-01 -6.207187E+01 
1.411500E+03  9.622203E-01 -1.007908E+02  4.437419E-03 1.640102E+02  2.587852E-02 1.053787E+01 
4.460212E-03 1.640500E+02  9.551681E-01 -9.263969E+01  4.077630E-03 -1.711868E+02 
2.586717E-02 1.065984E+01  4.055461E-03 -1.713966E+02  9.655437E-01 -6.208105E+01 
1.411750E+03  9.624612E-01 -1.008423E+02  4.421828E-03 1.639636E+02  2.586165E-02 1.050903E+01 
4.475750E-03 1.637675E+02  9.549975E-01 -9.271230E+01  4.019018E-03 -1.710224E+02 
2.590321E-02 1.065070E+01  4.055235E-03 -1.709048E+02  9.659585E-01 -6.208136E+01 
1.412000E+03  9.624626E-01 -1.008770E+02  4.478767E-03 1.654188E+02  2.589820E-02 1.051420E+01 
4.425151E-03 1.650655E+02  9.548005E-01 -9.272619E+01  4.035876E-03 -1.712517E+02 
2.584775E-02 1.062657E+01  4.082517E-03 -1.701414E+02  9.656954E-01 -6.210146E+01 
1.412250E+03  9.623710E-01 -1.009009E+02  4.455344E-03 1.646431E+02  2.584099E-02 1.043015E+01 
4.435176E-03 1.643145E+02  9.551538E-01 -9.276633E+01  4.129070E-03 -1.706594E+02 
2.586110E-02 1.065208E+01  4.011701E-03 -1.704372E+02  9.652736E-01 -6.211456E+01 
1.412500E+03  9.620405E-01 -1.009333E+02  4.449794E-03 1.634760E+02  2.583435E-02 1.055006E+01 
4.398405E-03 1.641985E+02  9.547612E-01 -9.278683E+01  4.087696E-03 -1.708674E+02 
2.587277E-02 1.046827E+01  4.091227E-03 -1.703935E+02  9.658318E-01 -6.213172E+01 
1.412750E+03  9.622098E-01 -1.009549E+02  4.440630E-03 1.642874E+02  2.581226E-02 1.046543E+01 
4.447381E-03 1.648433E+02  9.549728E-01 -9.284797E+01  4.078333E-03 -1.708010E+02 
2.580241E-02 1.052817E+01  4.064009E-03 -1.708465E+02  9.658692E-01 -6.214051E+01 
1.413000E+03  9.620163E-01 -1.009979E+02  4.424665E-03 1.643455E+02  2.578238E-02 1.044654E+01 
4.442780E-03 1.645190E+02  9.552584E-01 -9.288658E+01  4.072070E-03 -1.714002E+02 
2.586237E-02 1.061286E+01  4.049041E-03 -1.708942E+02  9.654805E-01 -6.216070E+01 
1.413250E+03  9.619614E-01 -1.010212E+02  4.376800E-03 1.653977E+02  2.580741E-02 1.043453E+01 
4.391626E-03 1.642921E+02  9.548220E-01 -9.293372E+01  4.062520E-03 -1.706320E+02 
2.579463E-02 1.047901E+01  4.095157E-03 -1.704383E+02  9.658038E-01 -6.214093E+01 
1.413500E+03  9.616214E-01 -1.010475E+02  4.449394E-03 1.651350E+02  2.573358E-02 1.040599E+01 
4.425220E-03 1.646038E+02  9.550238E-01 -9.296671E+01  4.074471E-03 -1.698998E+02 
2.582039E-02 1.044478E+01  4.112900E-03 -1.708024E+02  9.655943E-01 -6.218945E+01 
1.413750E+03  9.616454E-01 -1.010829E+02  4.447614E-03 1.642293E+02  2.575770E-02 1.045418E+01 
4.447382E-03 1.647533E+02  9.548407E-01 -9.301027E+01  4.051251E-03 -1.703993E+02 
2.577033E-02 1.050208E+01  4.058182E-03 -1.706449E+02  9.654781E-01 -6.219183E+01 
1.414000E+03  9.618162E-01 -1.010788E+02  4.453229E-03 1.648033E+02  2.574543E-02 1.041633E+01 
4.442436E-03 1.645052E+02  9.548472E-01 -9.306297E+01  4.086890E-03 -1.712190E+02 
2.577401E-02 1.037989E+01  4.134737E-03 -1.706191E+02  9.658864E-01 -6.218704E+01 
1.414250E+03  9.616100E-01 -1.011370E+02  4.389019E-03 1.652147E+02  2.574372E-02 1.031980E+01 
4.392616E-03 1.648630E+02  9.547937E-01 -9.309714E+01  4.101377E-03 -1.707809E+02 
2.578348E-02 1.042804E+01  4.049629E-03 -1.711138E+02  9.658992E-01 -6.219641E+01 
1.414500E+03  9.614604E-01 -1.011393E+02  4.361487E-03 1.650457E+02  2.572280E-02 1.044223E+01 
4.439569E-03 1.649873E+02  9.545057E-01 -9.312235E+01  4.088529E-03 -1.708309E+02 
2.580519E-02 1.048489E+01  4.100550E-03 -1.707715E+02  9.656741E-01 -6.220184E+01 
1.414750E+03  9.613464E-01 -1.011736E+02  4.367799E-03 1.656674E+02  2.576017E-02 1.024104E+01 
4.368316E-03 1.650575E+02  9.545343E-01 -9.316427E+01  4.124616E-03 -1.708392E+02 
2.577951E-02 1.035968E+01  4.081289E-03 -1.707391E+02  9.653539E-01 -6.224796E+01 
1.415000E+03  9.614447E-01 -1.011952E+02  4.368063E-03 1.658986E+02  2.571481E-02 1.027009E+01 
4.361284E-03 1.664223E+02  9.543344E-01 -9.323539E+01  4.028071E-03 -1.713368E+02 
2.575671E-02 1.048164E+01  4.132387E-03 -1.713882E+02  9.654605E-01 -6.224289E+01 
1.415250E+03  9.610551E-01 -1.012227E+02  4.380765E-03 1.659509E+02  2.573994E-02 1.028825E+01 
4.380799E-03 1.662152E+02  9.550239E-01 -9.323023E+01  4.113921E-03 -1.704717E+02 
2.573548E-02 1.038177E+01  4.029942E-03 -1.711206E+02  9.656789E-01 -6.223009E+01 
1.415500E+03  9.611428E-01 -1.012630E+02  4.431489E-03 1.659913E+02  2.571057E-02 1.023885E+01 
4.429459E-03 1.654730E+02  9.548981E-01 -9.328407E+01  4.094568E-03 -1.704724E+02 
2.570349E-02 1.037950E+01  4.093698E-03 -1.702519E+02  9.656048E-01 -6.226392E+01 
1.415750E+03  9.610568E-01 -1.012925E+02  4.355549E-03 1.659136E+02  2.571544E-02 1.019886E+01 
4.417007E-03 1.658044E+02  9.541861E-01 -9.333216E+01  4.050008E-03 -1.707137E+02 
2.576775E-02 1.023869E+01  4.095255E-03 -1.700568E+02  9.652162E-01 -6.227303E+01 
1.416000E+03  9.608037E-01 -1.013136E+02  4.395571E-03 1.660410E+02  2.573809E-02 1.011838E+01 
4.403491E-03 1.662890E+02  9.543379E-01 -9.335505E+01  4.031628E-03 -1.706173E+02 
2.567940E-02 1.042239E+01  4.109816E-03 -1.710181E+02  9.650735E-01 -6.229361E+01 
1.416250E+03  9.612476E-01 -1.013197E+02  4.401001E-03 1.660971E+02  2.571837E-02 1.020946E+01 
4.333126E-03 1.665514E+02  9.543976E-01 -9.341234E+01  4.071236E-03 -1.704196E+02 
2.566112E-02 1.020605E+01  4.096538E-03 -1.707385E+02  9.654761E-01 -6.231316E+01 
1.416500E+03  9.609053E-01 -1.013262E+02  4.418379E-03 1.667359E+02  2.569012E-02 1.015911E+01 
4.366686E-03 1.656230E+02  9.538549E-01 -9.344748E+01  4.077699E-03 -1.701120E+02 
2.574171E-02 1.035411E+01  4.123279E-03 -1.706980E+02  9.655451E-01 -6.231080E+01 
1.416750E+03  9.610030E-01 -1.013897E+02  4.387758E-03 1.668720E+02  2.564473E-02 1.013131E+01 
4.438832E-03 1.667248E+02  9.541115E-01 -9.350080E+01  4.042234E-03 -1.700033E+02 
2.566996E-02 1.029288E+01  4.093771E-03 -1.707172E+02  9.653499E-01 -6.233371E+01 
1.417000E+03  9.609820E-01 -1.014123E+02  4.387846E-03 1.661877E+02  2.567230E-02 1.016230E+01 
4.321521E-03 1.670171E+02  9.537636E-01 -9.354030E+01  4.053979E-03 -1.702137E+02 
2.570991E-02 1.029031E+01  4.123846E-03 -1.703031E+02  9.655027E-01 -6.234233E+01 
1.417250E+03  9.609554E-01 -1.014328E+02  4.423688E-03 1.666855E+02  2.567371E-02 1.025269E+01 
4.337567E-03 1.662723E+02  9.540823E-01 -9.356557E+01  4.156826E-03 -1.714174E+02 
2.565864E-02 1.031317E+01  4.079512E-03 -1.705355E+02  9.656554E-01 -6.235802E+01 
1.417500E+03  9.612480E-01 -1.014417E+02  4.391992E-03 1.669783E+02  2.563963E-02 1.001890E+01 
4.356373E-03 1.669466E+02  9.541105E-01 -9.360264E+01  4.091197E-03 -1.704911E+02 
2.562614E-02 1.020645E+01  4.138678E-03 -1.710110E+02  9.652802E-01 -6.237022E+01 
1.417750E+03  9.605645E-01 -1.014709E+02  4.359695E-03 1.668778E+02  2.566517E-02 1.016683E+01 
4.326672E-03 1.672777E+02  9.537544E-01 -9.365534E+01  4.191048E-03 -1.700785E+02 
2.564241E-02 1.016421E+01  4.150375E-03 -1.708212E+02  9.656607E-01 -6.238912E+01 
1.418000E+03  9.608972E-01 -1.014950E+02  4.382227E-03 1.674223E+02  2.564547E-02 1.011574E+01 
4.442765E-03 1.673210E+02  9.539930E-01 -9.370147E+01  4.024421E-03 -1.712113E+02 
2.564619E-02 1.019529E+01  4.117486E-03 -1.706067E+02  9.654395E-01 -6.239762E+01 
1.418250E+03  9.608228E-01 -1.015272E+02  4.368561E-03 1.676712E+02  2.561057E-02 1.018420E+01 
4.340845E-03 1.683306E+02  9.539099E-01 -9.372474E+01  4.131612E-03 -1.711134E+02 
2.559138E-02 1.018036E+01  4.118384E-03 -1.707678E+02  9.656281E-01 -6.240816E+01 
1.418500E+03  9.602314E-01 -1.015803E+02  4.363538E-03 1.682034E+02  2.552419E-02 1.001184E+01 
