! Matrix data file written by TouchstoneData, EPCOS AG
! FILENAME: "B3927_WB_UN.s3p"
! COMMENT: "unmatched wideband"
! INFO: nport=3, nfreq=1601
! DATE: "Thu Jul 12 14:02:13 2012"
! USER: "Daniel Harbusch"
!
! port | pin | signal
! -----|-----|--------
!   1  |  2  |  Input
!   2  |  4  |  GPS/GLONASS Output
!   3  |  6  |  SDARS Output
! --------------------
! 
# MHZ S MA R 50
! freq  magS11 angS11  magS12 angS12  magS13 angS13  ...
5.000000E+01  9.975144E-01 -3.754269E+00  5.653383E-04 7.569148E+01  2.069382E-03 8.764794E+01 
4.581069E-04 9.875795E+01  9.980270E-01 -2.957440E+00  1.058389E-04 8.083510E+01 
2.045999E-03 8.685813E+01  1.513929E-04 1.156611E+02  9.987577E-01 -2.130516E+00 
5.184375E+01  9.978369E-01 -3.980431E+00  5.549596E-04 7.857579E+01  2.265638E-03 8.638723E+01 
5.132633E-04 7.992557E+01  9.982498E-01 -3.154848E+00  1.502227E-04 1.063741E+02 
2.190495E-03 8.710577E+01  1.364839E-04 8.630027E+01  9.977925E-01 -2.324350E+00 
5.368750E+01  9.976835E-01 -4.108252E+00  4.533828E-04 7.631620E+01  2.201843E-03 8.616344E+01 
3.869649E-04 6.443857E+01  9.981609E-01 -3.322446E+00  1.046310E-04 9.966014E+01 
2.239689E-03 8.706694E+01  1.765039E-04 6.911194E+01  9.974401E-01 -2.423635E+00 
5.553125E+01  9.979152E-01 -4.221238E+00  4.794365E-04 8.759752E+01  2.309161E-03 8.587259E+01 
5.288431E-04 8.516749E+01  9.990063E-01 -3.393678E+00  1.408838E-04 8.248440E+01 
2.312908E-03 8.584208E+01  1.467265E-04 8.195444E+01  9.974589E-01 -2.466660E+00 
5.737500E+01  9.980324E-01 -4.367270E+00  5.358667E-04 8.436319E+01  2.351024E-03 8.633314E+01 
5.038244E-04 8.657069E+01  9.991021E-01 -3.499571E+00  1.560145E-04 9.600341E+01 
2.384863E-03 8.568089E+01  1.627120E-04 6.471259E+01  9.975409E-01 -2.528978E+00 
5.921875E+01  9.984953E-01 -4.535981E+00  5.401822E-04 8.739717E+01  2.463148E-03 8.602761E+01 
5.693475E-04 8.732611E+01  9.984987E-01 -3.600977E+00  8.361106E-05 1.150119E+02 
2.515206E-03 8.682138E+01  1.278399E-04 9.281232E+01  9.978719E-01 -2.605033E+00 
6.106250E+01  9.984193E-01 -4.690656E+00  5.544168E-04 8.127495E+01  2.535168E-03 8.509571E+01 
5.423916E-04 8.666102E+01  9.987747E-01 -3.724877E+00  1.712138E-04 1.058455E+02 
2.523739E-03 8.655241E+01  1.898685E-04 1.026557E+02  9.979225E-01 -2.677302E+00 
6.290625E+01  9.979972E-01 -4.784442E+00  6.726957E-04 9.329324E+01  2.642608E-03 8.753694E+01 
6.147628E-04 9.296531E+01  9.981527E-01 -3.805318E+00  2.774461E-04 8.911372E+01 
2.718139E-03 8.782906E+01  2.271642E-04 9.213984E+01  9.982552E-01 -2.755614E+00 
6.475000E+01  9.986483E-01 -4.936398E+00  7.232764E-04 8.714721E+01  2.644477E-03 8.539754E+01 
7.765286E-04 9.308693E+01  9.987780E-01 -3.892359E+00  1.005214E-04 1.035055E+02 
2.635787E-03 8.527291E+01  1.610561E-04 7.526935E+01  9.983776E-01 -2.844581E+00 
6.659375E+01  9.993760E-01 -5.070034E+00  6.031316E-04 8.464143E+01  2.821045E-03 8.764056E+01 
6.134960E-04 8.528877E+01  9.992476E-01 -3.924118E+00  1.191484E-04 8.342068E+01 
2.803265E-03 8.552118E+01  1.625679E-04 1.111859E+02  9.986902E-01 -2.857178E+00 
6.843750E+01  9.993522E-01 -5.189513E+00  6.706509E-04 8.092434E+01  2.857598E-03 8.590676E+01 
6.851040E-04 8.436784E+01  9.982966E-01 -4.140075E+00  1.786714E-04 9.079610E+01 
2.851304E-03 8.586956E+01  1.889118E-04 8.671450E+01  9.984618E-01 -2.969775E+00 
7.028125E+01  9.986527E-01 -5.351771E+00  5.310855E-04 9.681875E+01  2.932315E-03 8.440564E+01 
5.778029E-04 9.597910E+01  9.982555E-01 -4.271956E+00  3.267539E-04 4.503978E+01 
2.927707E-03 8.416968E+01  2.974736E-04 6.065620E+01  9.986683E-01 -3.036927E+00 
7.212500E+01  9.981390E-01 -5.459404E+00  6.744847E-04 9.010121E+01  2.978677E-03 8.461706E+01 
7.090336E-04 9.164632E+01  9.987475E-01 -4.381420E+00  2.141512E-04 7.865382E+01 
2.954141E-03 8.395488E+01  1.928464E-04 8.987948E+01  9.987346E-01 -3.131384E+00 
7.396875E+01  9.981394E-01 -5.617184E+00  7.144405E-04 8.410796E+01  3.059121E-03 8.553007E+01 
7.637292E-04 8.422550E+01  9.989853E-01 -4.465275E+00  1.831086E-04 7.618646E+01 
3.107743E-03 8.506483E+01  1.802822E-04 6.820841E+01  9.985230E-01 -3.201979E+00 
7.581250E+01  9.980896E-01 -5.751778E+00  7.481167E-04 8.264504E+01  3.236022E-03 8.591447E+01 
7.189816E-04 8.541563E+01  9.981388E-01 -4.580945E+00  1.996593E-04 7.221863E+01 
3.171495E-03 8.500233E+01  2.002980E-04 7.800567E+01  9.982141E-01 -3.259984E+00 
7.765625E+01  9.988074E-01 -5.918012E+00  7.545532E-04 8.889175E+01  3.263822E-03 8.589880E+01 
7.344330E-04 8.512412E+01  9.985324E-01 -4.705870E+00  2.298842E-04 9.377200E+01 
3.287438E-03 8.512759E+01  2.377888E-04 8.626230E+01  9.986131E-01 -3.338105E+00 
7.950000E+01  9.978607E-01 -6.019248E+00  8.542085E-04 6.774576E+01  3.613858E-03 8.525945E+01 
8.533338E-04 6.741624E+01  9.980729E-01 -4.817172E+00  2.082140E-04 7.466926E+01 
3.601414E-03 8.496081E+01  2.374871E-04 7.466577E+01  9.980042E-01 -3.381864E+00 
8.134375E+01  9.984771E-01 -6.126773E+00  7.920789E-04 8.034280E+01  3.368443E-03 8.615602E+01 
7.697878E-04 8.742529E+01  9.987142E-01 -4.879762E+00  2.897921E-04 9.270895E+01 
3.412396E-03 8.441187E+01  2.309818E-04 7.823921E+01  9.989049E-01 -3.422554E+00 
8.318750E+01  9.986293E-01 -6.297197E+00  8.659428E-04 8.152738E+01  3.469085E-03 8.534810E+01 
7.807564E-04 8.154706E+01  9.985502E-01 -4.999602E+00  2.483523E-04 8.242437E+01 
3.550586E-03 8.550873E+01  1.985912E-04 9.909539E+01  9.988711E-01 -3.493444E+00 
8.503125E+01  9.988041E-01 -6.427326E+00  7.796901E-04 8.692785E+01  3.575474E-03 8.507911E+01 
7.777657E-04 8.764456E+01  9.984508E-01 -5.137533E+00  2.774625E-04 8.212583E+01 
3.552994E-03 8.544337E+01  2.795789E-04 8.435565E+01  9.991478E-01 -3.636692E+00 
8.687500E+01  9.989098E-01 -6.614975E+00  8.385963E-04 9.091903E+01  3.643283E-03 8.462805E+01 
8.241479E-04 8.822150E+01  9.984982E-01 -5.288411E+00  2.494399E-04 7.152131E+01 
3.601370E-03 8.519147E+01  2.982846E-04 7.531455E+01  9.984969E-01 -3.688954E+00 
8.871875E+01  9.990127E-01 -6.708475E+00  6.895091E-04 7.863910E+01  3.759894E-03 8.504064E+01 
6.727861E-04 7.401509E+01  9.978701E-01 -5.337151E+00  2.111509E-04 6.720005E+01 
3.729757E-03 8.553954E+01  1.475214E-04 7.970679E+01  9.981288E-01 -3.762983E+00 
9.056250E+01  9.987462E-01 -6.834174E+00  9.029912E-04 8.765698E+01  3.837741E-03 8.388535E+01 
8.663059E-04 8.525283E+01  9.979269E-01 -5.398256E+00  2.498682E-04 7.863613E+01 
3.764253E-03 8.449540E+01  2.024914E-04 9.195377E+01  9.987762E-01 -3.878174E+00 
9.240625E+01  9.988569E-01 -6.952657E+00  8.309786E-04 8.759519E+01  3.833189E-03 8.408610E+01 
8.910788E-04 8.384660E+01  9.981642E-01 -5.584623E+00  2.142647E-04 7.963156E+01 
3.869987E-03 8.395717E+01  2.292713E-04 7.971768E+01  9.987718E-01 -3.939828E+00 
9.425000E+01  9.987097E-01 -7.092063E+00  9.391203E-04 8.235836E+01  3.974507E-03 8.484601E+01 
8.539596E-04 8.462814E+01  9.984795E-01 -5.776977E+00  2.490737E-04 9.887910E+01 
3.917022E-03 8.359661E+01  2.502676E-04 9.858552E+01  9.988703E-01 -4.062150E+00 
9.609375E+01  9.988716E-01 -7.282495E+00  9.049782E-04 8.155440E+01  3.995490E-03 8.438427E+01 
9.599617E-04 8.079559E+01  9.982528E-01 -5.837664E+00  2.486908E-04 8.097699E+01 
4.025170E-03 8.402886E+01  2.607015E-04 8.613234E+01  9.986707E-01 -4.106643E+00 
9.793750E+01  9.988985E-01 -7.351042E+00  9.841508E-04 9.285198E+01  4.178319E-03 8.350460E+01 
1.000636E-03 9.222401E+01  9.974733E-01 -5.854370E+00  2.912786E-04 9.915116E+01 
4.128195E-03 8.445105E+01  2.714210E-04 8.892497E+01  9.991259E-01 -4.107633E+00 
9.978125E+01  9.990806E-01 -7.489563E+00  9.527006E-04 8.136061E+01  4.206661E-03 8.406996E+01 
9.825096E-04 7.869344E+01  9.976479E-01 -6.000359E+00  2.312176E-04 7.206134E+01 
4.146661E-03 8.445935E+01  2.721441E-04 7.456514E+01  9.990210E-01 -4.181888E+00 
1.016250E+02  9.991476E-01 -7.630658E+00  9.794147E-04 8.723969E+01  4.315426E-03 8.405964E+01 
1.018832E-03 8.139299E+01  9.980047E-01 -6.109573E+00  2.921160E-04 6.834872E+01 
4.297340E-03 8.504912E+01  3.194239E-04 7.833029E+01  9.989684E-01 -4.286820E+00 
1.034688E+02  9.984934E-01 -7.752680E+00  1.013903E-03 8.337494E+01  4.366089E-03 8.394181E+01 
1.022200E-03 8.005370E+01  9.978041E-01 -6.246510E+00  2.852783E-04 8.859260E+01 
4.282223E-03 8.370156E+01  2.912465E-04 8.459164E+01  9.987130E-01 -4.363016E+00 
1.053125E+02  9.984348E-01 -7.946387E+00  1.012039E-03 8.601788E+01  4.401610E-03 8.405575E+01 
9.771503E-04 8.701893E+01  9.977848E-01 -6.369379E+00  2.614979E-04 8.042837E+01 
4.451892E-03 8.324883E+01  2.473323E-04 6.955553E+01  9.985485E-01 -4.468664E+00 
1.071562E+02  9.983505E-01 -8.048786E+00  9.915592E-04 8.371924E+01  4.445425E-03 8.394974E+01 
1.015204E-03 8.382044E+01  9.977626E-01 -6.429142E+00  2.619776E-04 8.113911E+01 
4.506165E-03 8.322241E+01  2.445177E-04 8.223920E+01  9.993249E-01 -4.511117E+00 
1.090000E+02  9.984701E-01 -8.177100E+00  1.051383E-03 8.415017E+01  4.600042E-03 8.387327E+01 
1.004245E-03 8.150290E+01  9.976426E-01 -6.575642E+00  2.867760E-04 9.188485E+01 
4.538228E-03 8.423876E+01  3.231945E-04 9.542696E+01  9.985423E-01 -4.561875E+00 
1.108438E+02  9.983527E-01 -8.333455E+00  1.116324E-03 8.233585E+01  4.624483E-03 8.318817E+01 
1.094031E-03 8.310617E+01  9.983586E-01 -6.691409E+00  3.745733E-04 8.451410E+01 
4.581707E-03 8.257820E+01  3.702093E-04 8.095089E+01  9.986139E-01 -4.653626E+00 
1.126875E+02  9.989859E-01 -8.462216E+00  1.096343E-03 8.399470E+01  4.690552E-03 8.338489E+01 
1.058922E-03 8.089592E+01  9.979616E-01 -6.799170E+00  3.546316E-04 8.856791E+01 
4.714155E-03 8.345116E+01  3.141046E-04 7.687307E+01  9.992887E-01 -4.705332E+00 
1.145312E+02  9.978301E-01 -8.546624E+00  8.668206E-04 6.592534E+01  4.751783E-03 7.886499E+01 
9.033452E-04 6.982342E+01  9.970906E-01 -6.861686E+00  3.425728E-04 7.093156E+01 
4.754694E-03 7.731597E+01  3.544693E-04 7.280151E+01  9.982823E-01 -4.747444E+00 
1.163750E+02  9.982761E-01 -8.722057E+00  1.076901E-03 7.996832E+01  4.904351E-03 8.185437E+01 
1.031303E-03 8.195487E+01  9.979087E-01 -7.020473E+00  3.135214E-04 8.844600E+01 
4.889643E-03 8.256753E+01  3.330978E-04 8.760278E+01  9.987863E-01 -4.848667E+00 
1.182188E+02  9.985666E-01 -8.859662E+00  1.165120E-03 7.945175E+01  4.857828E-03 8.337059E+01 
1.173261E-03 8.153052E+01  9.974623E-01 -7.081087E+00  3.976179E-04 8.986082E+01 
4.899736E-03 8.283712E+01  3.818969E-04 8.778025E+01  9.985279E-01 -4.946939E+00 
1.200625E+02  9.986982E-01 -9.005892E+00  1.112134E-03 8.117578E+01  5.045034E-03 8.268959E+01 
1.181965E-03 8.026249E+01  9.979478E-01 -7.221502E+00  4.042980E-04 9.045201E+01 
4.956366E-03 8.254736E+01  3.567224E-04 8.091279E+01  9.987419E-01 -5.002139E+00 
1.219062E+02  9.985040E-01 -9.146579E+00  1.108826E-03 8.088213E+01  5.096337E-03 8.184908E+01 
1.079190E-03 7.801928E+01  9.977231E-01 -7.324346E+00  3.363519E-04 7.142303E+01 
5.121302E-03 8.225910E+01  3.100303E-04 7.935681E+01  9.987501E-01 -5.099960E+00 
1.237500E+02  9.980560E-01 -9.224445E+00  1.277732E-03 8.018851E+01  5.149382E-03 8.227006E+01 
1.178358E-03 7.826914E+01  9.969607E-01 -7.450144E+00  3.909757E-04 8.638491E+01 
5.124864E-03 8.242859E+01  3.426331E-04 8.895978E+01  9.986094E-01 -5.152298E+00 
1.255938E+02  9.985730E-01 -9.372635E+00  1.242224E-03 8.154442E+01  5.236555E-03 8.203809E+01 
1.187364E-03 8.040222E+01  9.974714E-01 -7.541402E+00  3.036390E-04 9.033233E+01 
5.263320E-03 8.258652E+01  2.770744E-04 9.205174E+01  9.987538E-01 -5.214216E+00 
1.274375E+02  9.978357E-01 -9.538705E+00  1.190930E-03 8.075084E+01  5.266400E-03 8.156431E+01 
1.169109E-03 7.839444E+01  9.978013E-01 -7.658532E+00  3.600294E-04 7.441986E+01 
5.268735E-03 8.290978E+01  3.448913E-04 7.890794E+01  9.984832E-01 -5.315297E+00 
1.292812E+02  9.981732E-01 -9.690162E+00  1.278022E-03 8.140630E+01  5.488287E-03 8.274608E+01 
1.231889E-03 8.209549E+01  9.979622E-01 -7.798157E+00  3.138681E-04 7.946367E+01 
5.372533E-03 8.242292E+01  3.797397E-04 8.486256E+01  9.990377E-01 -5.370423E+00 
1.311250E+02  9.981353E-01 -9.864354E+00  1.306623E-03 8.235122E+01  5.431911E-03 8.238652E+01 
1.219721E-03 8.094757E+01  9.979531E-01 -7.906859E+00  3.787707E-04 9.127337E+01 
5.444018E-03 8.210976E+01  2.955752E-04 8.968752E+01  9.987444E-01 -5.480102E+00 
1.329688E+02  9.980958E-01 -9.960057E+00  1.305440E-03 7.996855E+01  5.506804E-03 8.279057E+01 
1.354170E-03 7.881998E+01  9.971042E-01 -7.989087E+00  3.474958E-04 7.382338E+01 
5.485137E-03 8.227942E+01  3.693902E-04 7.524287E+01  9.984994E-01 -5.512172E+00 
1.348125E+02  9.980171E-01 -1.009699E+01  1.240359E-03 8.246708E+01  5.636903E-03 8.185577E+01 
1.216524E-03 8.078921E+01  9.979505E-01 -8.101189E+00  3.020988E-04 9.977437E+01 
5.596161E-03 8.098378E+01  3.536385E-04 8.560251E+01  9.984630E-01 -5.601917E+00 
1.366562E+02  9.983695E-01 -1.020431E+01  1.221363E-03 8.411669E+01  5.653804E-03 8.137839E+01 
1.277004E-03 8.447643E+01  9.971451E-01 -8.231520E+00  3.990382E-04 8.387591E+01 
5.659584E-03 8.167683E+01  3.696315E-04 8.471634E+01  9.989715E-01 -5.714097E+00 
1.385000E+02  9.978392E-01 -1.029244E+01  1.330503E-03 7.907658E+01  5.794018E-03 8.128784E+01 
1.319909E-03 7.963594E+01  9.973006E-01 -8.356298E+00  4.179402E-04 9.187045E+01 
5.729594E-03 8.134821E+01  3.744793E-04 9.174062E+01  9.982007E-01 -5.770162E+00 
1.403438E+02  9.978143E-01 -1.050534E+01  1.333416E-03 7.743545E+01  5.858798E-03 8.159048E+01 
1.401453E-03 7.911600E+01  9.973297E-01 -8.491743E+00  4.721513E-04 8.409321E+01 
5.829199E-03 8.141287E+01  4.548038E-04 7.292920E+01  9.987246E-01 -5.867861E+00 
1.421875E+02  9.981970E-01 -1.063449E+01  1.456990E-03 8.119059E+01  5.903426E-03 8.102999E+01 
1.407749E-03 8.111747E+01  9.974808E-01 -8.551301E+00  4.176835E-04 7.669881E+01 
5.979548E-03 8.126818E+01  3.510083E-04 8.886867E+01  9.985386E-01 -5.938167E+00 
1.440312E+02  9.977103E-01 -1.076932E+01  1.297562E-03 8.195042E+01  5.891083E-03 8.111295E+01 
1.328975E-03 8.280156E+01  9.969343E-01 -8.671771E+00  3.175134E-04 8.856972E+01 
5.993390E-03 8.109715E+01  3.943249E-04 8.283522E+01  9.981930E-01 -6.021677E+00 
1.458750E+02  9.977855E-01 -1.084559E+01  1.351861E-03 8.142024E+01  6.061559E-03 8.088329E+01 
1.418583E-03 8.026303E+01  9.975315E-01 -8.726513E+00  3.835561E-04 8.140228E+01 
6.049486E-03 8.086699E+01  4.040019E-04 8.284127E+01  9.978625E-01 -6.031448E+00 
1.477188E+02  9.981501E-01 -1.102270E+01  1.382170E-03 7.599309E+01  6.184640E-03 8.153575E+01 
1.439192E-03 8.016054E+01  9.973713E-01 -8.895031E+00  3.781444E-04 8.421565E+01 
6.181292E-03 8.170142E+01  4.160001E-04 7.129446E+01  9.981160E-01 -6.170812E+00 
1.495625E+02  9.967560E-01 -1.115202E+01  1.288572E-03 7.490060E+01  6.143181E-03 7.918830E+01 
1.311024E-03 7.600915E+01  9.965391E-01 -9.037527E+00  3.842640E-04 8.692037E+01 
6.158790E-03 7.896943E+01  3.758970E-04 8.278335E+01  9.978576E-01 -6.224625E+00 
1.514062E+02  9.978879E-01 -1.131281E+01  1.452586E-03 7.859478E+01  6.306981E-03 8.061401E+01 
1.527947E-03 8.117045E+01  9.970696E-01 -9.121980E+00  4.379148E-04 7.506106E+01 
6.264973E-03 8.068822E+01  3.990269E-04 7.910836E+01  9.986861E-01 -6.322293E+00 
1.532500E+02  9.979363E-01 -1.144028E+01  1.372439E-03 7.649177E+01  6.370161E-03 8.094569E+01 
1.380318E-03 8.109538E+01  9.974011E-01 -9.243954E+00  4.116923E-04 8.581874E+01 
6.397501E-03 8.148908E+01  3.637904E-04 8.595900E+01  9.983701E-01 -6.413720E+00 
1.550938E+02  9.977964E-01 -1.157990E+01  1.490558E-03 8.008378E+01  6.423601E-03 8.057090E+01 
1.540586E-03 8.068807E+01  9.975372E-01 -9.345818E+00  4.966492E-04 7.860398E+01 
6.508611E-03 8.033223E+01  4.039135E-04 8.412747E+01  9.981588E-01 -6.495486E+00 
1.569375E+02  9.978958E-01 -1.170680E+01  1.490380E-03 8.217657E+01  6.624030E-03 8.080221E+01 
1.535505E-03 7.982901E+01  9.972194E-01 -9.498663E+00  3.925189E-04 7.551905E+01 
6.597436E-03 8.020175E+01  3.607101E-04 8.661287E+01  9.982163E-01 -6.549583E+00 
1.587812E+02  9.974070E-01 -1.185415E+01  1.521571E-03 7.663072E+01  6.489543E-03 8.051770E+01 
1.492073E-03 7.546825E+01  9.967818E-01 -9.569028E+00  4.702570E-04 8.006462E+01 
6.542482E-03 8.038711E+01  4.447470E-04 8.871084E+01  9.981137E-01 -6.603542E+00 
1.606250E+02  9.977568E-01 -1.194876E+01  1.551163E-03 7.939174E+01  6.668494E-03 8.055438E+01 
1.516169E-03 8.074559E+01  9.965099E-01 -9.705536E+00  4.018411E-04 7.680556E+01 
6.697634E-03 8.065471E+01  3.945181E-04 8.636828E+01  9.986889E-01 -6.685307E+00 
1.624688E+02  9.984951E-01 -1.208836E+01  1.566260E-03 8.205539E+01  6.760041E-03 8.078594E+01 
1.532709E-03 8.270429E+01  9.974131E-01 -9.782539E+00  4.297452E-04 8.265143E+01 
6.789200E-03 8.076332E+01  4.473986E-04 8.171272E+01  9.990449E-01 -6.761677E+00 
1.643125E+02  9.971947E-01 -1.226971E+01  1.573391E-03 7.630610E+01  6.787273E-03 8.004410E+01 
1.594348E-03 7.723770E+01  9.965880E-01 -9.918222E+00  5.275002E-04 8.945616E+01 
6.754172E-03 8.076732E+01  3.997908E-04 8.631975E+01  9.984279E-01 -6.871925E+00 
1.661562E+02  9.969066E-01 -1.241768E+01  1.613871E-03 7.512512E+01  6.859615E-03 8.053322E+01 
1.610438E-03 7.627904E+01  9.962543E-01 -1.004163E+01  4.822729E-04 8.768954E+01 
6.902209E-03 8.015546E+01  5.090459E-04 8.241685E+01  9.978389E-01 -6.992923E+00 
1.680000E+02  9.969975E-01 -1.251110E+01  1.615356E-03 7.644998E+01  6.885605E-03 8.015757E+01 
1.652281E-03 7.752980E+01  9.960987E-01 -1.012584E+01  5.230656E-04 8.540762E+01 
6.968779E-03 8.013511E+01  5.065258E-04 7.245103E+01  9.979798E-01 -7.067651E+00 
1.698438E+02  9.963532E-01 -1.267981E+01  1.639312E-03 7.440839E+01  7.038444E-03 7.984472E+01 
1.594764E-03 7.738817E+01  9.955935E-01 -1.025191E+01  5.061608E-04 8.130866E+01 
7.011864E-03 7.979600E+01  4.137535E-04 7.556565E+01  9.976413E-01 -7.112241E+00 
1.716875E+02  9.965307E-01 -1.281038E+01  1.595247E-03 7.639225E+01  7.098886E-03 8.001792E+01 
1.584365E-03 7.615617E+01  9.958525E-01 -1.034900E+01  4.594097E-04 8.253270E+01 
7.144522E-03 8.010310E+01  4.308322E-04 7.918585E+01  9.984402E-01 -7.214746E+00 
1.735312E+02  9.970241E-01 -1.290199E+01  1.635895E-03 7.782666E+01  7.165680E-03 7.933057E+01 
1.579628E-03 7.760454E+01  9.960782E-01 -1.045098E+01  4.595696E-04 8.927673E+01 
7.219029E-03 7.973193E+01  4.268079E-04 7.674966E+01  9.978698E-01 -7.279884E+00 
1.753750E+02  9.969361E-01 -1.310614E+01  1.673518E-03 7.747423E+01  7.257994E-03 7.930378E+01 
1.699228E-03 7.727576E+01  9.954685E-01 -1.063177E+01  4.493843E-04 7.458946E+01 
7.329955E-03 7.976241E+01  4.447409E-04 8.587959E+01  9.974537E-01 -7.395652E+00 
1.772188E+02  9.972889E-01 -1.326748E+01  1.680290E-03 7.372614E+01  7.254840E-03 7.942100E+01 
1.695072E-03 7.362063E+01  9.953275E-01 -1.073291E+01  4.140107E-04 7.953252E+01 
7.336417E-03 7.915073E+01  4.267122E-04 7.548181E+01  9.977769E-01 -7.509056E+00 
1.790625E+02  9.975591E-01 -1.340064E+01  1.568257E-03 7.473690E+01  7.368178E-03 7.911359E+01 
1.625558E-03 7.554124E+01  9.955930E-01 -1.084614E+01  4.673933E-04 8.356666E+01 
7.401470E-03 7.901285E+01  4.769398E-04 8.026203E+01  9.979507E-01 -7.591880E+00 
1.809062E+02  9.973751E-01 -1.346796E+01  1.650910E-03 7.936057E+01  7.484935E-03 7.965513E+01 
1.630587E-03 7.935590E+01  9.964898E-01 -1.085975E+01  4.517642E-04 8.346255E+01 
7.494098E-03 7.914382E+01  5.270477E-04 7.870822E+01  9.980935E-01 -7.603853E+00 
1.827500E+02  9.972311E-01 -1.359829E+01  1.685787E-03 7.693865E+01  7.591919E-03 7.923088E+01 
1.758160E-03 7.636734E+01  9.966036E-01 -1.098065E+01  4.650350E-04 8.494885E+01 
7.586917E-03 7.905417E+01  5.136549E-04 7.589801E+01  9.982283E-01 -7.693019E+00 
1.845938E+02  9.963937E-01 -1.373318E+01  1.600435E-03 7.917838E+01  7.505414E-03 7.940959E+01 
1.570187E-03 7.936963E+01  9.950545E-01 -1.112626E+01  4.304413E-04 8.760572E+01 
7.618483E-03 8.003044E+01  4.150541E-04 8.667836E+01  9.973693E-01 -7.732774E+00 
1.864375E+02  9.971248E-01 -1.390254E+01  1.794074E-03 7.857650E+01  7.761358E-03 7.867665E+01 
1.719418E-03 7.836475E+01  9.968402E-01 -1.122821E+01  5.640370E-04 7.406417E+01 
7.771026E-03 7.916392E+01  4.646107E-04 7.943062E+01  9.983241E-01 -7.836805E+00 
