! Matrix data file written by TouchstoneData, EPCOS AG
! FILENAME: "B3925_WB.s2p"
! COMMENT: "NWA-Port1 : 98.0ps NWA-Port2 : 98.0ps PCB2031"
! INFO: nport=2, nfreq=1601
! DATE: "Fri Jan 11 2013"
! USER: "Hiroshi Tanaka"
!
! port | pin | signal
! -----|-----|--------
!   1  |  2  |  in
!   2  |  5  |  out
! --------------------
! 
# MHZ S MA R 50
! freq  magS11 angS11  magS21 angS21  magS12 angS12  magS22 angS22
1.000000E+01    9.970525E-01  -2.421086E+00    9.570482E-05   9.985965E+01    1.348229E-04   1.348863E+02    9.985441E-01  -2.070928E+00 
1.186875E+01    9.994198E-01  -2.321252E+00    4.761132E-05  -1.067578E+02    2.131256E-05  -4.652095E+01    9.975500E-01  -2.169086E+00 
1.373750E+01    9.970525E-01  -2.035111E+00    2.075062E-04  -1.278515E+02    1.781621E-04  -1.388634E+02    9.970320E-01  -1.785029E+00 
1.560625E+01    9.956645E-01  -2.135058E+00    5.143021E-05  -1.422433E+00    6.872144E-05   9.289113E+01    9.950257E-01  -1.902648E+00 
1.747500E+01    9.971420E-01  -2.413363E+00    1.764688E-04   1.253251E+01    1.596274E-04   2.582385E+01    9.968143E-01  -2.182064E+00 
1.934375E+01    9.986470E-01  -2.709071E+00    1.560725E-04  -1.268515E+02    1.511885E-04  -1.442724E+02    9.985852E-01  -2.484538E+00 
2.121250E+01    9.970260E-01  -3.041647E+00    6.347737E-05  -1.072381E+02    7.967094E-05  -1.282543E+02    9.968143E-01  -2.735366E+00 
2.308125E+01    9.954468E-01  -3.352103E+00    3.625717E-05   1.445099E+02    3.213834E-05   1.062142E+02    9.994332E-01  -3.010660E+00 
2.495000E+01    9.986470E-01  -3.576455E+00    7.606355E-05   7.304304E+01    8.340424E-05   1.177531E+02    9.981168E-01  -3.255208E+00 
2.681875E+01    9.960513E-01  -3.938358E+00    5.819339E-05   6.297509E+00    7.541628E-06  -1.438617E+02    9.982917E-01  -3.568870E+00 
2.868750E+01    9.970260E-01  -3.870904E+00    1.105370E-04   8.100276E+01    8.962483E-05   8.372950E+01    9.994332E-01  -3.843069E+00 
3.055625E+01    9.994198E-01  -4.604149E+00    1.543998E-05   5.367216E+01    6.152071E-05   4.808311E+01    9.991177E-01  -4.041210E+00 
3.242500E+01    9.970260E-01  -4.667024E+00    6.012669E-05   1.523265E+02    2.910962E-05  -1.210694E+02    9.982917E-01  -4.318614E+00 
3.429375E+01    9.936626E-01  -5.003897E+00    3.222729E-05  -3.477378E+01    6.784111E-05   1.209559E+01    9.955980E-01  -4.631655E+00 
3.616250E+01    9.954468E-01  -5.401584E+00    5.582092E-05   5.885277E+01    2.288682E-05   8.084609E+01    9.962293E-01  -4.878190E+00 
3.803125E+01    9.991190E-01  -5.581438E+00    1.169655E-04   1.086627E+02    1.361219E-04   1.019384E+02    9.995722E-01  -5.113644E+00 
3.990000E+01    9.987201E-01  -5.837140E+00    1.617227E-04   7.644892E+01    1.019281E-04   7.811458E+01    9.991177E-01  -5.450152E+00 
4.176875E+01    9.972444E-01  -6.123351E+00    1.703522E-05  -2.274135E+01    1.783000E-05  -6.882468E+01    9.995722E-01  -5.580146E+00 
4.363750E+01    9.960513E-01  -6.417138E+00    6.691139E-05   6.291153E+01    4.717342E-05   5.499797E+01    9.981499E-01  -5.800982E+00 
4.550625E+01    9.962181E-01  -6.727802E+00    6.568357E-05   6.586199E+01    4.198408E-05   6.891211E+01    9.981247E-01  -6.109767E+00 
4.737500E+01    9.956512E-01  -6.943058E+00    1.095443E-04   2.921115E+01    1.167921E-04   2.130608E+01    9.972991E-01  -6.286962E+00 
4.924375E+01    9.942216E-01  -7.137108E+00    7.610564E-05   8.172485E+01    5.030391E-05   4.343479E+01    9.963678E-01  -6.464039E+00 
5.111250E+01    9.931582E-01  -7.405516E+00    5.073812E-05   6.489209E+01    5.153958E-05   7.138541E+01    9.955969E-01  -6.704496E+00 
5.298125E+01    9.929759E-01  -7.734701E+00    9.560914E-05   7.309322E+01    8.967183E-05   7.681045E+01    9.956849E-01  -7.031318E+00 
5.485000E+01    9.932156E-01  -8.004044E+00    7.310791E-05   8.203431E+01    5.840171E-05   7.852193E+01    9.962281E-01  -7.268476E+00 
5.671875E+01    9.931177E-01  -8.278611E+00    6.307042E-05   8.690992E+01    6.416093E-05   9.307157E+01    9.959034E-01  -7.520012E+00 
5.858750E+01    9.925867E-01  -8.537821E+00    9.471185E-05   3.195819E+01    9.614649E-05   3.273795E+01    9.960890E-01  -7.770609E+00 
6.045625E+01    9.928914E-01  -8.798825E+00    4.753446E-05   9.103334E+01    4.867783E-05   1.024106E+02    9.960008E-01  -7.986581E+00 
6.232500E+01    9.926261E-01  -9.047102E+00    5.182815E-05   3.311820E+01    4.930178E-05   3.600554E+01    9.962527E-01  -8.241512E+00 
6.419375E+01    9.921851E-01  -9.297881E+00    7.040390E-05   1.095969E+02    7.364875E-05   9.991259E+01    9.959504E-01  -8.474526E+00 
6.606250E+01    9.924632E-01  -9.540285E+00    7.727442E-05   9.208785E+01    7.650786E-05   9.689602E+01    9.965270E-01  -8.700450E+00 
6.793125E+01    9.913386E-01  -9.814783E+00    1.115611E-04   7.297744E+01    1.135454E-04   7.353450E+01    9.953900E-01  -8.947739E+00 
6.980000E+01    9.913545E-01  -1.014597E+01    8.186460E-05   6.031085E+01    8.145858E-05   6.588559E+01    9.961716E-01  -9.294122E+00 
7.166875E+01    9.914512E-01  -1.038308E+01    8.168392E-05   9.595985E+01    7.943150E-05   9.252675E+01    9.961535E-01  -9.516277E+00 
7.353750E+01    9.912302E-01  -1.059647E+01    5.872012E-05   6.562396E+01    6.256694E-05   6.230462E+01    9.953901E-01  -9.700607E+00 
7.540625E+01    9.914131E-01  -1.082755E+01    9.830168E-05   1.264870E+02    9.491803E-05   1.202910E+02    9.953608E-01  -9.922023E+00 
7.727500E+01    9.920011E-01  -1.111148E+01    1.027163E-04   9.017873E+01    1.116324E-04   8.764157E+01    9.955217E-01  -1.017881E+01 
7.914375E+01    9.917844E-01  -1.135456E+01    7.418262E-05   6.563723E+01    7.928075E-05   6.244781E+01    9.958800E-01  -1.039772E+01 
8.101250E+01    9.916796E-01  -1.159473E+01    1.044215E-04   8.227138E+01    9.426554E-05   8.178476E+01    9.954757E-01  -1.059571E+01 
8.288125E+01    9.909432E-01  -1.182303E+01    4.077144E-05   6.063307E+01    3.718161E-05   5.225212E+01    9.946470E-01  -1.080883E+01 
8.475000E+01    9.914553E-01  -1.208705E+01    7.339605E-05   4.798438E+01    6.199656E-05   4.878566E+01    9.957908E-01  -1.111145E+01 
8.661875E+01    9.915018E-01  -1.237830E+01    1.145079E-04   8.716501E+01    1.110326E-04   8.443766E+01    9.965007E-01  -1.139125E+01 
8.848750E+01    9.912469E-01  -1.259991E+01    1.076126E-04   8.694320E+01    1.021126E-04   8.396547E+01    9.959205E-01  -1.159142E+01 
9.035625E+01    9.919410E-01  -1.283785E+01    6.942950E-05   8.647974E+01    8.088570E-05   9.109435E+01    9.961782E-01  -1.184286E+01 
9.222500E+01    9.913204E-01  -1.313423E+01    9.945138E-05   5.682153E+01    9.332568E-05   6.965369E+01    9.949703E-01  -1.216711E+01 
9.409375E+01    9.914355E-01  -1.333695E+01    8.858447E-05   8.293224E+01    9.686113E-05   9.107841E+01    9.943254E-01  -1.240311E+01 
9.596250E+01    9.918148E-01  -1.356926E+01    1.325788E-04   9.276402E+01    1.256950E-04   9.343710E+01    9.950009E-01  -1.257633E+01 
9.783125E+01    9.934774E-01  -1.375637E+01    9.449626E-05   7.740051E+01    8.516072E-05   6.493373E+01    9.959277E-01  -1.274731E+01 
9.970000E+01    9.933440E-01  -1.396613E+01    1.183702E-04   6.924235E+01    1.199379E-04   7.189557E+01    9.958196E-01  -1.298303E+01 
1.015687E+02    9.933070E-01  -1.421761E+01    1.036500E-04   7.564725E+01    1.011451E-04   6.907119E+01    9.955730E-01  -1.321835E+01 
1.034375E+02    9.933538E-01  -1.450192E+01    7.885801E-05  -1.840113E+00    8.164543E-05   6.268722E+00    9.958076E-01  -1.347591E+01 
1.053063E+02    9.936275E-01  -1.475051E+01    1.219975E-04   9.589536E+01    1.280589E-04   9.674999E+01    9.959851E-01  -1.370037E+01 
1.071750E+02    9.938249E-01  -1.500432E+01    1.111326E-04   7.661701E+01    1.323004E-04   7.759862E+01    9.957666E-01  -1.393385E+01 
1.090438E+02    9.938237E-01  -1.522583E+01    9.900121E-05   7.588905E+01    1.123697E-04   8.185936E+01    9.955486E-01  -1.419148E+01 
1.109125E+02    9.933809E-01  -1.544802E+01    1.478506E-04   7.192111E+01    1.397947E-04   7.264159E+01    9.953633E-01  -1.441032E+01 
1.127812E+02    9.944248E-01  -1.567729E+01    7.813126E-05   7.325420E+01    7.994473E-05   6.170162E+01    9.953819E-01  -1.462934E+01 
1.146500E+02    9.946731E-01  -1.590270E+01    1.108704E-04   7.501570E+01    1.104758E-04   7.064290E+01    9.956502E-01  -1.486037E+01 
1.165187E+02    9.947252E-01  -1.613115E+01    9.855808E-05   7.344793E+01    9.139068E-05   8.025916E+01    9.955225E-01  -1.509810E+01 
1.183875E+02    9.948455E-01  -1.637104E+01    1.006672E-04   6.603221E+01    1.029045E-04   6.973855E+01    9.953820E-01  -1.531955E+01 
1.202562E+02    9.948226E-01  -1.660834E+01    1.248663E-04   9.156500E+01    1.264103E-04   8.953910E+01    9.953753E-01  -1.554257E+01 
1.221250E+02    9.948844E-01  -1.688769E+01    1.175240E-04   6.531509E+01    1.049942E-04   6.488465E+01    9.952894E-01  -1.578969E+01 
1.239938E+02    9.947979E-01  -1.711542E+01    1.448979E-04   7.151416E+01    1.424550E-04   6.751542E+01    9.950859E-01  -1.604845E+01 
1.258625E+02    9.947743E-01  -1.734089E+01    1.557287E-04   6.827601E+01    1.422938E-04   6.604372E+01    9.953968E-01  -1.624500E+01 
1.277313E+02    9.955388E-01  -1.759038E+01    1.155614E-04   8.283417E+01    1.038226E-04   8.455206E+01    9.957244E-01  -1.647364E+01 
1.296000E+02    9.960385E-01  -1.783155E+01    1.470912E-04   6.310735E+01    1.334907E-04   6.407416E+01    9.963890E-01  -1.667445E+01 
1.314688E+02    9.957423E-01  -1.805290E+01    1.743921E-04   1.218233E+02    1.697598E-04   1.224992E+02    9.960262E-01  -1.688678E+01 
1.333375E+02    9.952442E-01  -1.832437E+01    9.326829E-05   7.223738E+01    7.763527E-05   7.299439E+01    9.951492E-01  -1.718767E+01 
1.352063E+02    9.953002E-01  -1.857260E+01    1.148089E-04   7.760573E+01    1.138466E-04   8.033177E+01    9.955686E-01  -1.744262E+01 
1.370750E+02    9.955848E-01  -1.877786E+01    1.204503E-04   7.511049E+01    1.243354E-04   7.833849E+01    9.956077E-01  -1.760892E+01 
1.389437E+02    9.950372E-01  -1.903543E+01    1.186410E-04   6.686551E+01    1.180298E-04   6.304642E+01    9.951425E-01  -1.784905E+01 
1.408125E+02    9.948758E-01  -1.927364E+01    1.102742E-04   5.635586E+01    1.093331E-04   5.100263E+01    9.951899E-01  -1.807494E+01 
1.426813E+02    9.950521E-01  -1.952520E+01    1.133673E-04   7.068501E+01    1.091033E-04   6.885231E+01    9.954012E-01  -1.830100E+01 
1.445500E+02    9.947560E-01  -1.980657E+01    1.124942E-04   5.790857E+01    9.992423E-05   5.562965E+01    9.953523E-01  -1.855212E+01 
1.464187E+02    9.943298E-01  -2.006902E+01    1.492132E-04   8.547784E+01    1.414011E-04   8.623252E+01    9.950894E-01  -1.876936E+01 
1.482875E+02    9.937782E-01  -2.033181E+01    1.104585E-04   5.535037E+01    1.185671E-04   5.238391E+01    9.944849E-01  -1.901699E+01 
1.501562E+02    9.937302E-01  -2.059017E+01    1.472677E-04   6.508342E+01    1.426901E-04   6.236947E+01    9.946803E-01  -1.924067E+01 
1.520250E+02    9.936568E-01  -2.083830E+01    8.619791E-05   6.430731E+01    8.844611E-05   7.058128E+01    9.945580E-01  -1.947443E+01 
1.538938E+02    9.934979E-01  -2.111255E+01    1.092379E-04   7.556121E+01    9.994958E-05   7.426780E+01    9.949297E-01  -1.973057E+01 
1.557625E+02    9.931208E-01  -2.137556E+01    1.407337E-04   7.252229E+01    1.258616E-04   7.476095E+01    9.946161E-01  -1.996567E+01 
1.576312E+02    9.926883E-01  -2.163116E+01    1.101948E-04   6.793520E+01    1.108176E-04   6.671964E+01    9.944752E-01  -2.020632E+01 
1.595000E+02    9.925558E-01  -2.189563E+01    2.012149E-04   4.259046E+01    1.945664E-04   4.357845E+01    9.947219E-01  -2.046038E+01 
1.613688E+02    9.926769E-01  -2.213825E+01    1.298081E-04   7.278796E+01    1.277062E-04   7.240366E+01    9.950204E-01  -2.066057E+01 
1.632375E+02    9.912603E-01  -2.245081E+01    1.566412E-04   6.669675E+01    1.536197E-04   7.084558E+01    9.939680E-01  -2.091921E+01 
1.651062E+02    9.906687E-01  -2.272541E+01    1.304385E-04   6.773187E+01    1.288358E-04   6.846884E+01    9.933076E-01  -2.114392E+01 
1.669750E+02    9.901448E-01  -2.298395E+01    1.563992E-04   6.800269E+01    1.523056E-04   7.085353E+01    9.930740E-01  -2.138208E+01 
1.688438E+02    9.901706E-01  -2.323985E+01    1.266354E-04   6.644698E+01    1.281044E-04   6.446059E+01    9.938291E-01  -2.162914E+01 
1.707125E+02    9.888473E-01  -2.351252E+01    1.493232E-04   5.532929E+01    1.447527E-04   5.833287E+01    9.927544E-01  -2.187251E+01 
1.725813E+02    9.878333E-01  -2.378699E+01    1.224454E-04   6.010342E+01    1.119998E-04   5.552657E+01    9.923534E-01  -2.211470E+01 
1.744500E+02    9.882709E-01  -2.406625E+01    8.292031E-05   6.154940E+01    8.518514E-05   6.304742E+01    9.927153E-01  -2.235551E+01 
1.763187E+02    9.878867E-01  -2.434893E+01    1.282445E-04   7.550343E+01    1.302432E-04   7.441704E+01    9.927766E-01  -2.262265E+01 
1.781875E+02    9.879065E-01  -2.469360E+01    1.230877E-04   7.095289E+01    1.250494E-04   7.356800E+01    9.934583E-01  -2.295610E+01 
1.800563E+02    9.874339E-01  -2.487186E+01    1.657242E-04   6.888515E+01    1.771142E-04   6.865892E+01    9.930246E-01  -2.309720E+01 
1.819250E+02    9.870890E-01  -2.508958E+01    1.280696E-04   4.676299E+01    1.344079E-04   4.655107E+01    9.931193E-01  -2.329663E+01 
1.837937E+02    9.869071E-01  -2.533351E+01    1.163140E-04   6.763985E+01    1.229702E-04   7.038597E+01    9.931485E-01  -2.353882E+01 
1.856625E+02    9.863377E-01  -2.561686E+01    1.313939E-04   6.213789E+01    1.416847E-04   6.472198E+01    9.927208E-01  -2.378597E+01 
1.875312E+02    9.857068E-01  -2.592915E+01    8.415161E-05   9.877767E+01    9.591539E-05   9.509508E+01    9.925300E-01  -2.403312E+01 
1.894000E+02    9.866651E-01  -2.614879E+01    1.365760E-04   6.251395E+01    1.358864E-04   6.598293E+01    9.932912E-01  -2.421770E+01 
1.912688E+02    9.862501E-01  -2.642643E+01    1.350704E-04   6.508164E+01    1.343732E-04   6.103012E+01    9.930533E-01  -2.448253E+01 
1.931375E+02    9.846397E-01  -2.669777E+01    1.079726E-04   6.755579E+01    1.113024E-04   7.080707E+01    9.917752E-01  -2.476872E+01 
1.950062E+02    9.839078E-01  -2.696123E+01    1.067945E-04   5.821160E+01    1.153029E-04   6.264666E+01    9.910795E-01  -2.502699E+01 
1.968750E+02    9.840503E-01  -2.727580E+01    1.097839E-04   5.508264E+01    1.187777E-04   5.306842E+01    9.918671E-01  -2.530749E+01 
1.987438E+02    9.838258E-01  -2.751289E+01    1.205526E-04   6.684433E+01    1.133807E-04   7.278975E+01    9.920340E-01  -2.551792E+01 
2.006125E+02    9.826767E-01  -2.782670E+01    1.499873E-04   6.924615E+01    1.387203E-04   6.612745E+01    9.917033E-01  -2.579020E+01 
2.024812E+02    9.822134E-01  -2.808459E+01    1.056444E-04   5.788292E+01    1.089426E-04   6.483903E+01    9.914421E-01  -2.602491E+01 
2.043500E+02    9.828726E-01  -2.827755E+01    9.395582E-05   7.079316E+01    9.263846E-05   7.159818E+01    9.916167E-01  -2.623476E+01 
2.062188E+02    9.828967E-01  -2.847983E+01    1.118978E-04   5.941547E+01    1.189222E-04   6.531388E+01    9.918361E-01  -2.645269E+01 
2.080875E+02    9.829915E-01  -2.870427E+01    1.373871E-04   8.421423E+01    1.331219E-04   8.132712E+01    9.919979E-01  -2.667694E+01 
2.099563E+02    9.836859E-01  -2.899716E+01    1.428785E-04   6.172591E+01    1.367371E-04   5.884620E+01    9.919550E-01  -2.690711E+01 
2.118250E+02    9.838453E-01  -2.925035E+01    1.254536E-04   4.881681E+01    1.285563E-04   5.372129E+01    9.912417E-01  -2.726162E+01 
2.136937E+02    9.845845E-01  -2.947413E+01    1.281665E-04   5.881037E+01    1.195803E-04   6.257278E+01    9.911958E-01  -2.751239E+01 
2.155625E+02    9.843165E-01  -2.975971E+01    1.318650E-04   5.336202E+01    1.447938E-04   5.095155E+01    9.910743E-01  -2.774805E+01 
2.174313E+02    9.843147E-01  -3.005335E+01    1.305046E-04   8.005431E+01    1.319195E-04   7.965214E+01    9.911198E-01  -2.798391E+01 
2.193000E+02    9.846144E-01  -3.037490E+01    1.114225E-04   5.950853E+01    9.201240E-05   6.210956E+01    9.903929E-01  -2.826044E+01 
2.211687E+02    9.846517E-01  -3.062538E+01    1.237453E-04   6.625236E+01    1.281842E-04   7.073891E+01    9.904722E-01  -2.850869E+01 
2.230375E+02    9.849508E-01  -3.080974E+01    1.331177E-04   6.404805E+01    1.529465E-04   6.318773E+01    9.914811E-01  -2.873472E+01 
2.249062E+02    9.848923E-01  -3.100279E+01    1.001299E-04   6.394491E+01    9.484871E-05   6.173418E+01    9.920354E-01  -2.896961E+01 
2.267750E+02    9.853402E-01  -3.124855E+01    1.160276E-04   5.983000E+01    1.135433E-04   6.290524E+01    9.924789E-01  -2.922349E+01 
2.286438E+02    9.853019E-01  -3.153381E+01    1.210229E-04   6.161447E+01    1.301955E-04   6.319499E+01    9.913477E-01  -2.946707E+01 
2.305125E+02    9.857739E-01  -3.179456E+01    1.116763E-04   4.916720E+01    1.181768E-04   5.377678E+01    9.915079E-01  -2.971795E+01 
2.323812E+02    9.867488E-01  -3.204439E+01    1.285943E-04   6.380599E+01    1.221588E-04   6.138411E+01    9.920503E-01  -2.999118E+01 
2.342500E+02    9.871036E-01  -3.226660E+01    9.857466E-05   6.583455E+01    8.976018E-05   6.948292E+01    9.915587E-01  -3.024203E+01 
2.361188E+02    9.871304E-01  -3.259879E+01    1.305067E-04   6.608987E+01    1.321566E-04   6.651960E+01    9.915405E-01  -3.053115E+01 
2.379875E+02    9.872321E-01  -3.286069E+01    1.366757E-04   6.767317E+01    1.215460E-04   6.956307E+01    9.911981E-01  -3.079455E+01 
2.398562E+02    9.873922E-01  -3.307280E+01    1.048070E-04   5.829405E+01    1.070527E-04   5.687508E+01    9.906664E-01  -3.103395E+01 
2.417250E+02    9.878674E-01  -3.331439E+01    1.084936E-04   5.093999E+01    1.176174E-04   4.858953E+01    9.907853E-01  -3.126872E+01 
2.435938E+02    9.882776E-01  -3.356504E+01    3.517693E-05   3.586823E+01    4.241077E-05   5.293042E+01    9.910256E-01  -3.147995E+01 
2.454625E+02    9.888684E-01  -3.382766E+01    6.485460E-05   6.251546E+01    7.295018E-05   6.571082E+01    9.912445E-01  -3.176179E+01 
2.473313E+02    9.892783E-01  -3.410191E+01    1.069640E-04   6.942537E+01    1.061304E-04   7.509837E+01    9.912565E-01  -3.206879E+01 
2.492000E+02    9.892429E-01  -3.437446E+01    9.007444E-05   6.986525E+01    8.677811E-05   6.747528E+01    9.909005E-01  -3.236274E+01 
2.510687E+02    9.892461E-01  -3.463335E+01    1.067519E-04   5.636959E+01    1.044875E-04   6.319613E+01    9.905626E-01  -3.263019E+01 
2.529375E+02    9.890037E-01  -3.488261E+01    1.067803E-04   5.336204E+01    1.063354E-04   5.464481E+01    9.905016E-01  -3.282544E+01 
2.548063E+02    9.892934E-01  -3.514949E+01    9.796733E-05   5.629999E+01    9.804077E-05   5.735761E+01    9.903249E-01  -3.307382E+01 
2.566750E+02    9.897259E-01  -3.540352E+01    8.354659E-05   5.570412E+01    8.313492E-05   5.234201E+01    9.905303E-01  -3.331412E+01 
2.585437E+02    9.900144E-01  -3.568201E+01    7.344471E-05   7.544652E+01    7.093539E-05   7.500726E+01    9.904904E-01  -3.359431E+01 
2.604125E+02    9.903196E-01  -3.596552E+01    8.245561E-05   6.132703E+01    9.153065E-05   5.488975E+01    9.905861E-01  -3.387167E+01 
2.622812E+02    9.900403E-01  -3.625264E+01    8.954084E-05   6.032288E+01    8.902862E-05   5.738301E+01    9.903953E-01  -3.414317E+01 
2.641500E+02    9.897663E-01  -3.653984E+01    4.731003E-05   6.005314E+01    4.131028E-05   4.501142E+01    9.897678E-01  -3.441705E+01 
2.660188E+02    9.895577E-01  -3.678756E+01    6.521426E-05   6.743854E+01    6.209049E-05   5.724569E+01    9.895825E-01  -3.466949E+01 
2.678875E+02    9.891223E-01  -3.706593E+01    6.367776E-05   7.092143E+01    6.983325E-05   6.395795E+01    9.893429E-01  -3.489205E+01 
2.697563E+02    9.896709E-01  -3.733702E+01    7.322995E-05   5.894431E+01    7.857860E-05   6.418143E+01    9.895490E-01  -3.516139E+01 
2.716250E+02    9.897953E-01  -3.763210E+01    1.068509E-04   4.075061E+01    1.115017E-04   4.351588E+01    9.897301E-01  -3.544537E+01 
