! Matrix data file written by TouchstoneData, EPCOS AG
! FILENAME: "B3936_NB.s2p"
! COMMENT: "(LY28A_NB.s2p) EPCOS AG 11.11.10 09:56:26"
! INFO: nport=2, nfreq=1601
! DATE: "Tue Apr 19 08:50:38 2011"
! USER: "Wilfried Schott"
!
! port | pin | signal
! -----|-----|--------
!   1  |  1  |  in
!   2  |  4  |  out
! --------------------
! 
# MHZ S MA R 50
! freq  magS11 angS11  magS21 angS21  magS12 angS12  magS22 angS22
4.314200E+02  9.820983E-01 -3.911798E+01  3.626982E-03 -3.953054E+01  3.635273E-03 -3.980065E+01  9.830838E-01 -3.653926E+01 
4.314231E+02  9.824025E-01 -3.910564E+01  3.626007E-03 -4.117622E+01  3.612584E-03 -4.152630E+01  9.833127E-01 -3.653948E+01 
4.314263E+02  9.825373E-01 -3.910379E+01  3.604935E-03 -4.357708E+01  3.611742E-03 -4.362208E+01  9.834478E-01 -3.653075E+01 
4.314294E+02  9.827204E-01 -3.910088E+01  3.588195E-03 -4.552024E+01  3.594351E-03 -4.568512E+01  9.836066E-01 -3.653046E+01 
4.314325E+02  9.830170E-01 -3.911215E+01  3.570786E-03 -4.739389E+01  3.576295E-03 -4.780109E+01  9.837913E-01 -3.652707E+01 
4.314356E+02  9.830009E-01 -3.910704E+01  3.551369E-03 -4.950670E+01  3.550831E-03 -4.949391E+01  9.839991E-01 -3.653722E+01 
4.314388E+02  9.832544E-01 -3.910599E+01  3.546010E-03 -5.127962E+01  3.525410E-03 -5.113608E+01  9.842478E-01 -3.653648E+01 
4.314419E+02  9.834386E-01 -3.910861E+01  3.509263E-03 -5.307237E+01  3.500506E-03 -5.295442E+01  9.843134E-01 -3.654103E+01 
4.314450E+02  9.835344E-01 -3.910511E+01  3.476996E-03 -5.471648E+01  3.470965E-03 -5.501575E+01  9.845148E-01 -3.653970E+01 
4.314481E+02  9.838524E-01 -3.910796E+01  3.443658E-03 -5.643205E+01  3.447812E-03 -5.638350E+01  9.847624E-01 -3.653411E+01 
4.314513E+02  9.839525E-01 -3.910197E+01  3.419047E-03 -5.838677E+01  3.425084E-03 -5.822823E+01  9.847601E-01 -3.653946E+01 
4.314544E+02  9.842356E-01 -3.911114E+01  3.377541E-03 -5.991963E+01  3.376710E-03 -6.005883E+01  9.849888E-01 -3.654280E+01 
4.314575E+02  9.841995E-01 -3.911230E+01  3.345173E-03 -6.153369E+01  3.331470E-03 -6.159314E+01  9.850721E-01 -3.654310E+01 
4.314606E+02  9.843471E-01 -3.911701E+01  3.319805E-03 -6.321018E+01  3.314114E-03 -6.315330E+01  9.851225E-01 -3.654653E+01 
4.314638E+02  9.845026E-01 -3.911376E+01  3.289593E-03 -6.426957E+01  3.269078E-03 -6.461814E+01  9.853924E-01 -3.654703E+01 
4.314669E+02  9.848141E-01 -3.911965E+01  3.230572E-03 -6.609334E+01  3.239459E-03 -6.610885E+01  9.854911E-01 -3.655082E+01 
4.314700E+02  9.848645E-01 -3.913164E+01  3.210445E-03 -6.755066E+01  3.207625E-03 -6.766391E+01  9.856314E-01 -3.655348E+01 
4.314731E+02  9.849953E-01 -3.912689E+01  3.170705E-03 -6.867789E+01  3.163819E-03 -6.920499E+01  9.857261E-01 -3.655583E+01 
4.314762E+02  9.851325E-01 -3.913686E+01  3.128246E-03 -7.041222E+01  3.133783E-03 -7.043686E+01  9.859210E-01 -3.655866E+01 
4.314794E+02  9.852890E-01 -3.913695E+01  3.089535E-03 -7.170133E+01  3.098370E-03 -7.172060E+01  9.858651E-01 -3.657377E+01 
4.314825E+02  9.855398E-01 -3.914616E+01  3.060729E-03 -7.276838E+01  3.058893E-03 -7.307143E+01  9.860546E-01 -3.657658E+01 
4.314856E+02  9.855512E-01 -3.915206E+01  3.022868E-03 -7.450356E+01  3.014741E-03 -7.436234E+01  9.861885E-01 -3.657769E+01 
4.314888E+02  9.856886E-01 -3.916071E+01  2.990274E-03 -7.574100E+01  2.990596E-03 -7.570854E+01  9.863059E-01 -3.658392E+01 
4.314919E+02  9.857225E-01 -3.916326E+01  2.938948E-03 -7.676838E+01  2.940705E-03 -7.695178E+01  9.863961E-01 -3.658784E+01 
4.314950E+02  9.859986E-01 -3.916479E+01  2.899797E-03 -7.767016E+01  2.908963E-03 -7.795946E+01  9.864346E-01 -3.659830E+01 
4.314981E+02  9.860027E-01 -3.917146E+01  2.873694E-03 -7.906024E+01  2.877642E-03 -7.913176E+01  9.867012E-01 -3.660259E+01 
4.315013E+02  9.860975E-01 -3.917206E+01  2.827702E-03 -8.020939E+01  2.833974E-03 -8.028898E+01  9.866135E-01 -3.661257E+01 
4.315044E+02  9.861976E-01 -3.917488E+01  2.796621E-03 -8.097207E+01  2.791933E-03 -8.122631E+01  9.868004E-01 -3.661918E+01 
4.315075E+02  9.862343E-01 -3.918668E+01  2.768026E-03 -8.249606E+01  2.750259E-03 -8.221804E+01  9.869215E-01 -3.661863E+01 
4.315106E+02  9.864359E-01 -3.919711E+01  2.726685E-03 -8.344436E+01  2.723368E-03 -8.325220E+01  9.871369E-01 -3.661840E+01 
4.315138E+02  9.865063E-01 -3.919468E+01  2.682316E-03 -8.418464E+01  2.692714E-03 -8.430937E+01  9.869718E-01 -3.662829E+01 
4.315169E+02  9.864956E-01 -3.919806E+01  2.665194E-03 -8.526942E+01  2.662796E-03 -8.530029E+01  9.871809E-01 -3.663823E+01 
4.315200E+02  9.866409E-01 -3.920765E+01  2.618267E-03 -8.634675E+01  2.633375E-03 -8.647467E+01  9.872096E-01 -3.664331E+01 
4.315231E+02  9.866316E-01 -3.922948E+01  2.585650E-03 -8.717525E+01  2.584887E-03 -8.750229E+01  9.872869E-01 -3.664158E+01 
4.315263E+02  9.868535E-01 -3.921946E+01  2.563938E-03 -8.824174E+01  2.553436E-03 -8.813728E+01  9.873666E-01 -3.665109E+01 
4.315294E+02  9.869450E-01 -3.923190E+01  2.524812E-03 -8.931815E+01  2.514895E-03 -8.933748E+01  9.876075E-01 -3.665649E+01 
4.315325E+02  9.869776E-01 -3.923181E+01  2.491235E-03 -9.026107E+01  2.488439E-03 -9.005876E+01  9.874268E-01 -3.667035E+01 
4.315356E+02  9.870734E-01 -3.924411E+01  2.482442E-03 -9.073452E+01  2.456785E-03 -9.091154E+01  9.874051E-01 -3.667176E+01 
4.315387E+02  9.870318E-01 -3.924271E+01  2.431776E-03 -9.157887E+01  2.445125E-03 -9.170158E+01  9.877018E-01 -3.667477E+01 
4.315419E+02  9.873014E-01 -3.925336E+01  2.395741E-03 -9.265364E+01  2.398701E-03 -9.242026E+01  9.876674E-01 -3.668750E+01 
4.315450E+02  9.871189E-01 -3.925662E+01  2.360124E-03 -9.312601E+01  2.385917E-03 -9.320441E+01  9.877736E-01 -3.669553E+01 
4.315481E+02  9.873468E-01 -3.927032E+01  2.343696E-03 -9.367048E+01  2.337512E-03 -9.374677E+01  9.876455E-01 -3.669589E+01 
4.315513E+02  9.873073E-01 -3.926759E+01  2.320396E-03 -9.475391E+01  2.313866E-03 -9.468697E+01  9.878221E-01 -3.669748E+01 
4.315544E+02  9.873266E-01 -3.926758E+01  2.293001E-03 -9.562094E+01  2.305068E-03 -9.508030E+01  9.880139E-01 -3.671066E+01 
4.315575E+02  9.874722E-01 -3.928444E+01  2.268400E-03 -9.584395E+01  2.259588E-03 -9.619314E+01  9.879830E-01 -3.671508E+01 
4.315606E+02  9.875004E-01 -3.928537E+01  2.242740E-03 -9.666446E+01  2.222925E-03 -9.721259E+01  9.879409E-01 -3.671776E+01 
4.315638E+02  9.874959E-01 -3.928381E+01  2.208897E-03 -9.744108E+01  2.189092E-03 -9.732181E+01  9.881052E-01 -3.671787E+01 
4.315669E+02  9.876089E-01 -3.930360E+01  2.182165E-03 -9.807308E+01  2.172075E-03 -9.750898E+01  9.880864E-01 -3.673097E+01 
4.315700E+02  9.876098E-01 -3.930543E+01  2.171365E-03 -9.903312E+01  2.156125E-03 -9.887063E+01  9.881706E-01 -3.673747E+01 
4.315731E+02  9.876636E-01 -3.930859E+01  2.129612E-03 -9.949244E+01  2.103848E-03 -9.952817E+01  9.882372E-01 -3.674729E+01 
4.315763E+02  9.877090E-01 -3.932103E+01  2.107671E-03 -9.985761E+01  2.102658E-03 -1.001940E+02  9.882000E-01 -3.674854E+01 
4.315794E+02  9.878079E-01 -3.932496E+01  2.089417E-03 -1.007911E+02  2.076052E-03 -1.005553E+02  9.883095E-01 -3.675010E+01 
4.315825E+02  9.876936E-01 -3.932993E+01  2.058909E-03 -1.008760E+02  2.066807E-03 -1.010889E+02  9.883184E-01 -3.675900E+01 
4.315856E+02  9.878428E-01 -3.933237E+01  2.033046E-03 -1.015585E+02  2.026111E-03 -1.015473E+02  9.884559E-01 -3.676623E+01 
4.315888E+02  9.879162E-01 -3.933620E+01  2.013955E-03 -1.021671E+02  2.008787E-03 -1.022522E+02  9.883693E-01 -3.677433E+01 
4.315919E+02  9.878238E-01 -3.935025E+01  1.973986E-03 -1.025477E+02  1.994687E-03 -1.029613E+02  9.883378E-01 -3.677294E+01 
4.315950E+02  9.879311E-01 -3.935345E+01  1.963592E-03 -1.035889E+02  1.965071E-03 -1.036225E+02  9.884204E-01 -3.678386E+01 
4.315981E+02  9.880416E-01 -3.936028E+01  1.936460E-03 -1.040352E+02  1.952374E-03 -1.040495E+02  9.884536E-01 -3.679447E+01 
4.316012E+02  9.878323E-01 -3.936794E+01  1.929959E-03 -1.043295E+02  1.927979E-03 -1.045029E+02  9.885102E-01 -3.680148E+01 
4.316044E+02  9.880111E-01 -3.936708E+01  1.899105E-03 -1.054881E+02  1.890478E-03 -1.048175E+02  9.884487E-01 -3.680367E+01 
4.316075E+02  9.881131E-01 -3.937990E+01  1.893130E-03 -1.057780E+02  1.879829E-03 -1.055173E+02  9.885221E-01 -3.680960E+01 
4.316106E+02  9.879336E-01 -3.938692E+01  1.856617E-03 -1.060733E+02  1.864631E-03 -1.056234E+02  9.885753E-01 -3.680403E+01 
4.316138E+02  9.881265E-01 -3.938523E+01  1.843216E-03 -1.061294E+02  1.846165E-03 -1.064901E+02  9.885854E-01 -3.681692E+01 
4.316169E+02  9.881214E-01 -3.939559E+01  1.829898E-03 -1.067779E+02  1.827174E-03 -1.065833E+02  9.886991E-01 -3.682384E+01 
4.316200E+02  9.882203E-01 -3.939896E+01  1.802502E-03 -1.075261E+02  1.812831E-03 -1.071750E+02  9.887492E-01 -3.683084E+01 
4.316231E+02  9.880819E-01 -3.940934E+01  1.796133E-03 -1.076481E+02  1.788549E-03 -1.079217E+02  9.886286E-01 -3.683583E+01 
4.316263E+02  9.881914E-01 -3.941647E+01  1.777773E-03 -1.081019E+02  1.776532E-03 -1.083718E+02  9.888586E-01 -3.683586E+01 
4.316294E+02  9.882080E-01 -3.943026E+01  1.756268E-03 -1.086780E+02  1.756351E-03 -1.087341E+02  9.887450E-01 -3.685130E+01 
4.316325E+02  9.882937E-01 -3.942011E+01  1.723600E-03 -1.089418E+02  1.735976E-03 -1.092898E+02  9.885600E-01 -3.685637E+01 
4.316356E+02  9.881588E-01 -3.943082E+01  1.722712E-03 -1.091041E+02  1.724898E-03 -1.096910E+02  9.886928E-01 -3.685996E+01 
4.316388E+02  9.882532E-01 -3.943422E+01  1.708939E-03 -1.102183E+02  1.704515E-03 -1.099587E+02  9.887144E-01 -3.686144E+01 
4.316419E+02  9.882025E-01 -3.944288E+01  1.694942E-03 -1.103751E+02  1.689254E-03 -1.102049E+02  9.887581E-01 -3.686603E+01 
4.316450E+02  9.883909E-01 -3.944488E+01  1.679940E-03 -1.109748E+02  1.676757E-03 -1.105224E+02  9.886369E-01 -3.686718E+01 
4.316481E+02  9.882880E-01 -3.944809E+01  1.651949E-03 -1.105730E+02  1.658621E-03 -1.113029E+02  9.888046E-01 -3.687659E+01 
4.316513E+02  9.883568E-01 -3.946120E+01  1.649807E-03 -1.114554E+02  1.639627E-03 -1.112402E+02  9.888917E-01 -3.689161E+01 
4.316544E+02  9.883507E-01 -3.946103E+01  1.621488E-03 -1.117464E+02  1.641094E-03 -1.118123E+02  9.889712E-01 -3.689897E+01 
4.316575E+02  9.885308E-01 -3.947041E+01  1.600580E-03 -1.119871E+02  1.629473E-03 -1.121995E+02  9.889205E-01 -3.689690E+01 
4.316606E+02  9.883195E-01 -3.947307E+01  1.609798E-03 -1.125062E+02  1.609372E-03 -1.120343E+02  9.888900E-01 -3.690178E+01 
4.316637E+02  9.884180E-01 -3.947419E+01  1.581577E-03 -1.126351E+02  1.597414E-03 -1.126399E+02  9.888407E-01 -3.689718E+01 
4.316669E+02  9.883014E-01 -3.947788E+01  1.583037E-03 -1.129918E+02  1.578538E-03 -1.132531E+02  9.889183E-01 -3.691170E+01 
4.316700E+02  9.885157E-01 -3.948393E+01  1.587528E-03 -1.132880E+02  1.563620E-03 -1.134104E+02  9.889021E-01 -3.691587E+01 
4.316731E+02  9.884395E-01 -3.949209E+01  1.539341E-03 -1.134420E+02  1.536787E-03 -1.142310E+02  9.889712E-01 -3.691665E+01 
4.316763E+02  9.884612E-01 -3.950223E+01  1.529418E-03 -1.141512E+02  1.534958E-03 -1.143275E+02  9.890157E-01 -3.692688E+01 
4.316794E+02  9.885867E-01 -3.950450E+01  1.516463E-03 -1.143575E+02  1.525369E-03 -1.144180E+02  9.888983E-01 -3.693481E+01 
4.316825E+02  9.884189E-01 -3.950824E+01  1.498463E-03 -1.147347E+02  1.510418E-03 -1.153095E+02  9.889740E-01 -3.694421E+01 
4.316856E+02  9.885517E-01 -3.951410E+01  1.503399E-03 -1.150058E+02  1.483960E-03 -1.151149E+02  9.890688E-01 -3.694347E+01 
4.316888E+02  9.884322E-01 -3.952212E+01  1.493514E-03 -1.158062E+02  1.476557E-03 -1.152914E+02  9.890676E-01 -3.694537E+01 
4.316919E+02  9.884502E-01 -3.952746E+01  1.462769E-03 -1.151188E+02  1.458523E-03 -1.154308E+02  9.890249E-01 -3.694849E+01 
4.316950E+02  9.885436E-01 -3.953181E+01  1.476465E-03 -1.157664E+02  1.452900E-03 -1.164127E+02  9.889891E-01 -3.696079E+01 
4.316981E+02  9.886220E-01 -3.954250E+01  1.449820E-03 -1.161780E+02  1.445082E-03 -1.158900E+02  9.890154E-01 -3.696288E+01 
4.317013E+02  9.884090E-01 -3.954134E+01  1.438313E-03 -1.160474E+02  1.437981E-03 -1.167784E+02  9.890063E-01 -3.696869E+01 
4.317044E+02  9.884761E-01 -3.954877E+01  1.426811E-03 -1.167488E+02  1.413437E-03 -1.168631E+02  9.890542E-01 -3.697199E+01 
4.317075E+02  9.884840E-01 -3.955228E+01  1.410932E-03 -1.166284E+02  1.408068E-03 -1.165240E+02  9.890995E-01 -3.697691E+01 
4.317106E+02  9.883742E-01 -3.955676E+01  1.398496E-03 -1.174577E+02  1.403381E-03 -1.173530E+02  9.889616E-01 -3.698514E+01 
4.317138E+02  9.885243E-01 -3.956618E+01  1.382936E-03 -1.172129E+02  1.399946E-03 -1.171680E+02  9.889594E-01 -3.699267E+01 
4.317169E+02  9.886570E-01 -3.957834E+01  1.387759E-03 -1.179869E+02  1.386909E-03 -1.179239E+02  9.891384E-01 -3.699293E+01 
4.317200E+02  9.885414E-01 -3.958112E+01  1.379193E-03 -1.169672E+02  1.374336E-03 -1.182709E+02  9.890417E-01 -3.699250E+01 
4.317231E+02  9.884445E-01 -3.958793E+01  1.356616E-03 -1.184344E+02  1.368159E-03 -1.186011E+02  9.891159E-01 -3.701614E+01 
4.317262E+02  9.886585E-01 -3.958054E+01  1.363906E-03 -1.189772E+02  1.343407E-03 -1.185434E+02  9.889882E-01 -3.701521E+01 
4.317294E+02  9.886498E-01 -3.959410E+01  1.345160E-03 -1.182238E+02  1.344630E-03 -1.187027E+02  9.890162E-01 -3.701824E+01 
4.317325E+02  9.886088E-01 -3.959382E+01  1.325948E-03 -1.196928E+02  1.334481E-03 -1.194828E+02  9.890783E-01 -3.702635E+01 
4.317356E+02  9.886015E-01 -3.960781E+01  1.333098E-03 -1.196868E+02  1.328828E-03 -1.194007E+02  9.890377E-01 -3.703371E+01 
4.317388E+02  9.885704E-01 -3.959967E+01  1.301756E-03 -1.197767E+02  1.316048E-03 -1.191681E+02  9.890420E-01 -3.703315E+01 
4.317419E+02  9.884973E-01 -3.961212E+01  1.298734E-03 -1.199670E+02  1.321943E-03 -1.204687E+02  9.890535E-01 -3.703587E+01 
4.317450E+02  9.886086E-01 -3.961862E+01  1.301322E-03 -1.199150E+02  1.296395E-03 -1.199517E+02  9.890545E-01 -3.704395E+01 
4.317481E+02  9.885715E-01 -3.961879E+01  1.289006E-03 -1.205604E+02  1.287982E-03 -1.202648E+02  9.890824E-01 -3.704835E+01 
4.317513E+02  9.884551E-01 -3.962662E+01  1.289845E-03 -1.198624E+02  1.287725E-03 -1.204329E+02  9.890728E-01 -3.705903E+01 
4.317544E+02  9.885028E-01 -3.962899E+01  1.272036E-03 -1.209420E+02  1.265313E-03 -1.206914E+02  9.891008E-01 -3.705679E+01 
4.317575E+02  9.886328E-01 -3.963864E+01  1.273973E-03 -1.214796E+02  1.257535E-03 -1.213007E+02  9.890224E-01 -3.706390E+01 
4.317606E+02  9.887707E-01 -3.964094E+01  1.258103E-03 -1.209219E+02  1.248104E-03 -1.213247E+02  9.890862E-01 -3.707407E+01 
4.317638E+02  9.888641E-01 -3.964076E+01  1.245570E-03 -1.218773E+02  1.250488E-03 -1.217108E+02  9.891195E-01 -3.707414E+01 
4.317669E+02  9.887489E-01 -3.966259E+01  1.240632E-03 -1.219111E+02  1.244894E-03 -1.217502E+02  9.890364E-01 -3.708687E+01 
4.317700E+02  9.887289E-01 -3.966080E+01  1.229363E-03 -1.220175E+02  1.231915E-03 -1.218942E+02  9.889501E-01 -3.708892E+01 
4.317731E+02  9.885862E-01 -3.966865E+01  1.216539E-03 -1.221413E+02  1.234886E-03 -1.218785E+02  9.890532E-01 -3.708903E+01 
4.317763E+02  9.885732E-01 -3.966715E+01  1.221472E-03 -1.220069E+02  1.213929E-03 -1.217792E+02  9.890851E-01 -3.709942E+01 
4.317794E+02  9.885218E-01 -3.966971E+01  1.203151E-03 -1.227119E+02  1.219990E-03 -1.227895E+02  9.890899E-01 -3.710514E+01 
4.317825E+02  9.886409E-01 -3.967774E+01  1.199566E-03 -1.224017E+02  1.186106E-03 -1.222954E+02  9.889439E-01 -3.710528E+01 
4.317856E+02  9.886593E-01 -3.968610E+01  1.185003E-03 -1.223551E+02  1.183181E-03 -1.229426E+02  9.890869E-01 -3.711924E+01 
4.317887E+02  9.885715E-01 -3.968911E+01  1.183163E-03 -1.230046E+02  1.174488E-03 -1.232256E+02  9.890499E-01 -3.710605E+01 
4.317919E+02  9.887328E-01 -3.969581E+01  1.173655E-03 -1.233059E+02  1.176698E-03 -1.232143E+02  9.890986E-01 -3.712252E+01 
4.317950E+02  9.886481E-01 -3.969494E+01  1.160138E-03 -1.232100E+02  1.175408E-03 -1.236503E+02  9.892019E-01 -3.712924E+01 
4.317981E+02  9.886420E-01 -3.970574E+01  1.141082E-03 -1.242699E+02  1.157581E-03 -1.236890E+02  9.891918E-01 -3.713526E+01 
4.318013E+02  9.887969E-01 -3.971172E+01  1.146670E-03 -1.241181E+02  1.152436E-03 -1.241962E+02  9.890336E-01 -3.714671E+01 
4.318044E+02  9.887229E-01 -3.971439E+01  1.147435E-03 -1.237824E+02  1.133750E-03 -1.241176E+02  9.891717E-01 -3.714962E+01 
4.318075E+02  9.887036E-01 -3.972433E+01  1.133748E-03 -1.239672E+02  1.126858E-03 -1.238023E+02  9.890104E-01 -3.715353E+01 
4.318106E+02  9.886813E-01 -3.972842E+01  1.145103E-03 -1.238189E+02  1.126334E-03 -1.243940E+02  9.890988E-01 -3.714630E+01 
4.318138E+02  9.885913E-01 -3.973422E+01  1.122595E-03 -1.248365E+02  1.116405E-03 -1.238359E+02  9.891435E-01 -3.716058E+01 
4.318169E+02  9.885557E-01 -3.972999E+01  1.110607E-03 -1.246626E+02  1.092162E-03 -1.244603E+02  9.889227E-01 -3.717176E+01 
4.318200E+02  9.885915E-01 -3.974001E+01  1.105195E-03 -1.247429E+02  1.117795E-03 -1.247272E+02  9.889063E-01 -3.717752E+01 
4.318231E+02  9.884893E-01 -3.975032E+01  1.097364E-03 -1.249501E+02  1.104004E-03 -1.248913E+02  9.889876E-01 -3.717459E+01 
4.318263E+02  9.886044E-01 -3.975302E+01  1.076130E-03 -1.251196E+02  1.110453E-03 -1.252955E+02  9.890769E-01 -3.717706E+01 
4.318294E+02  9.885474E-01 -3.975823E+01  1.094287E-03 -1.252034E+02  1.079215E-03 -1.256183E+02  9.891450E-01 -3.718642E+01 
4.318325E+02  9.886905E-01 -3.975604E+01  1.072633E-03 -1.257128E+02  1.079018E-03 -1.256934E+02  9.890379E-01 -3.719622E+01 
4.318356E+02  9.886037E-01 -3.976228E+01  1.065648E-03 -1.252104E+02  1.073611E-03 -1.253672E+02  9.891338E-01 -3.720117E+01 
4.318388E+02  9.886200E-01 -3.976442E+01  1.068563E-03 -1.253823E+02  1.062372E-03 -1.251459E+02  9.891116E-01 -3.721008E+01 
4.318419E+02  9.886455E-01 -3.977779E+01  1.055695E-03 -1.257449E+02  1.073548E-03 -1.257449E+02  9.890918E-01 -3.721037E+01 
4.318450E+02  9.885477E-01 -3.977587E+01  1.050857E-03 -1.261658E+02  1.038106E-03 -1.258519E+02  9.891580E-01 -3.720822E+01 
4.318481E+02  9.886914E-01 -3.978866E+01  1.031082E-03 -1.258562E+02  1.041578E-03 -1.260220E+02  9.890437E-01 -3.722692E+01 
4.318512E+02  9.885720E-01 -3.979313E+01  1.024121E-03 -1.256783E+02  1.037514E-03 -1.259990E+02  9.890937E-01 -3.722500E+01 
4.318544E+02  9.887424E-01 -3.979920E+01  1.024859E-03 -1.259118E+02  1.030739E-03 -1.259924E+02  9.890151E-01 -3.723451E+01 
4.318575E+02  9.885388E-01 -3.980567E+01  1.026058E-03 -1.266499E+02  1.023497E-03 -1.269123E+02  9.889921E-01 -3.723406E+01 
4.318606E+02  9.885775E-01 -3.981434E+01  1.013975E-03 -1.266904E+02  1.000478E-03 -1.271046E+02  9.890285E-01 -3.723337E+01 
4.318638E+02  9.884914E-01 -3.981643E+01  1.005435E-03 -1.268142E+02  1.012620E-03 -1.272559E+02  9.889753E-01 -3.724266E+01 
4.318669E+02  9.885756E-01 -3.981913E+01  1.004749E-03 -1.273279E+02  9.993848E-04 -1.266473E+02  9.891791E-01 -3.725217E+01 
4.318700E+02  9.886870E-01 -3.981393E+01  9.980247E-04 -1.266684E+02  9.968805E-04 -1.267656E+02  9.890437E-01 -3.726099E+01 
4.318731E+02  9.886917E-01 -3.982925E+01  9.892665E-04 -1.265360E+02  9.989815E-04 -1.272201E+02  9.890913E-01 -3.726072E+01 
4.318763E+02  9.886638E-01 -3.983846E+01  9.775097E-04 -1.269878E+02  9.768537E-04 -1.270681E+02  9.891778E-01 -3.726881E+01 
4.318794E+02  9.886810E-01 -3.984348E+01  9.734701E-04 -1.268146E+02  9.752325E-04 -1.270437E+02  9.890923E-01 -3.727583E+01 
4.318825E+02  9.886892E-01 -3.984315E+01  9.641683E-04 -1.268537E+02  9.475827E-04 -1.275752E+02  9.891760E-01 -3.728008E+01 
4.318856E+02  9.885878E-01 -3.984555E+01  9.658860E-04 -1.277159E+02  9.589114E-04 -1.271905E+02  9.890212E-01 -3.728433E+01 
4.318888E+02  9.887735E-01 -3.986044E+01  9.372324E-04 -1.280038E+02  9.583784E-04 -1.276789E+02  9.891974E-01 -3.729584E+01 
4.318919E+02  9.886731E-01 -3.985697E+01  9.283165E-04 -1.286034E+02  9.468645E-04 -1.276414E+02  9.890807E-01 -3.729901E+01 
4.318950E+02  9.885580E-01 -3.986763E+01  9.296066E-04 -1.278954E+02  9.257290E-04 -1.279022E+02  9.890725E-01 -3.730556E+01 
4.318981E+02  9.885950E-01 -3.987492E+01  9.237487E-04 -1.281864E+02  9.156382E-04 -1.282052E+02  9.890685E-01 -3.730377E+01 
4.319013E+02  9.886372E-01 -3.987330E+01  9.202000E-04 -1.284707E+02  9.224655E-04 -1.276344E+02  9.888888E-01 -3.730575E+01 
