! Matrix data file written by TouchstoneData, EPCOS AG
! FILENAME: "B3936_WB.s2p"
! COMMENT: "(LY28A_MB.s2p) EPCOS AG 11.11.10 09:57:13"
! INFO: nport=2, nfreq=1601
! DATE: "Tue Apr 19 08:51:09 2011"
! USER: "Wilfried Schott"
!
! port | pin | signal
! -----|-----|--------
!   1  |  1  |  in
!   2  |  4  |  out
! --------------------
! 
# MHZ S MA R 50
! freq  magS11 angS11  magS21 angS21  magS12 angS12  magS22 angS22
4.089200E+02  9.899963E-01 -3.582194E+01  5.743736E-05 1.490511E+01  6.334126E-05 4.135617E+00  9.908021E-01 -3.328597E+01 
4.089513E+02  9.900788E-01 -3.582984E+01  4.523674E-05 -1.560050E+01  6.117930E-05 -2.510035E+00  9.909554E-01 -3.330557E+01 
4.089825E+02  9.901510E-01 -3.583890E+01  6.095945E-05 -4.133994E-01  6.481116E-05 -8.567039E+00  9.910489E-01 -3.329717E+01 
4.090138E+02  9.900886E-01 -3.584173E+01  5.467947E-05 -5.784795E+00  5.671092E-05 -2.216069E+01  9.910375E-01 -3.330589E+01 
4.090450E+02  9.901979E-01 -3.582724E+01  4.812880E-05 -3.010844E+01  5.603331E-05 -1.345922E+01  9.910329E-01 -3.330979E+01 
4.090763E+02  9.903091E-01 -3.582799E+01  3.720144E-05 -1.548855E+01  2.723050E-05 -3.510351E+01  9.910378E-01 -3.330671E+01 
4.091075E+02  9.902401E-01 -3.583271E+01  5.846673E-05 -2.645033E+01  2.351819E-05 -2.417312E+01  9.910131E-01 -3.330837E+01 
4.091388E+02  9.902856E-01 -3.584425E+01  2.286129E-05 -2.313008E+01  2.425477E-05 -1.813420E+01  9.911275E-01 -3.331297E+01 
4.091700E+02  9.901272E-01 -3.584332E+01  1.815627E-05 -2.858603E+01  3.687315E-05 -3.294623E+01  9.910883E-01 -3.332936E+01 
4.092013E+02  9.902870E-01 -3.584539E+01  2.152757E-05 -5.013268E+01  2.418409E-05 -4.217980E+01  9.911041E-01 -3.332564E+01 
4.092325E+02  9.902717E-01 -3.583898E+01  2.378108E-05 -1.453761E+01  2.918711E-05 -3.409422E+01  9.911335E-01 -3.333840E+01 
4.092638E+02  9.902652E-01 -3.585052E+01  1.153459E-05 -4.426306E+01  2.276915E-05 -2.390243E+00  9.912400E-01 -3.333296E+01 
4.092950E+02  9.904221E-01 -3.584766E+01  9.129249E-06 -1.938635E+01  1.233410E-05 -1.257908E+02  9.913174E-01 -3.334267E+01 
4.093263E+02  9.902862E-01 -3.585263E+01  8.803368E-06 1.076897E+02  2.357408E-05 2.510254E+01  9.911530E-01 -3.334200E+01 
4.093575E+02  9.903431E-01 -3.584446E+01  1.826176E-06 -8.597949E+01  9.674500E-06 -1.609336E+01  9.912612E-01 -3.335058E+01 
4.093888E+02  9.903801E-01 -3.585312E+01  2.182559E-05 9.813643E+01  1.583330E-05 2.683917E+00  9.913033E-01 -3.334945E+01 
4.094200E+02  9.904693E-01 -3.585015E+01  2.311573E-05 5.171862E+00  1.144710E-05 2.273032E+01  9.912943E-01 -3.336148E+01 
4.094513E+02  9.905784E-01 -3.585933E+01  2.070510E-05 5.098860E+01  2.792071E-05 5.116544E+01  9.912825E-01 -3.334977E+01 
4.094825E+02  9.905199E-01 -3.585392E+01  7.268619E-07 1.107515E+01  3.913299E-06 -7.818594E+01  9.911232E-01 -3.335551E+01 
4.095138E+02  9.905693E-01 -3.585478E+01  4.622380E-06 -1.140322E+02  1.303573E-05 6.178291E+01  9.912179E-01 -3.336893E+01 
4.095450E+02  9.906527E-01 -3.586181E+01  1.574543E-05 6.420984E+01  1.446572E-05 9.135678E+01  9.912950E-01 -3.337165E+01 
4.095763E+02  9.907898E-01 -3.585839E+01  1.430976E-05 1.705086E+02  1.297784E-05 1.420169E+02  9.913201E-01 -3.336701E+01 
4.096075E+02  9.907157E-01 -3.586112E+01  2.506600E-05 7.092935E+01  3.341848E-05 1.337907E+02  9.912921E-01 -3.337176E+01 
4.096388E+02  9.906967E-01 -3.586575E+01  1.171852E-05 1.203152E+02  2.755365E-05 8.942912E+01  9.913898E-01 -3.338484E+01 
4.096700E+02  9.907710E-01 -3.586794E+01  2.464846E-05 1.189108E+02  2.214225E-05 1.125989E+02  9.913051E-01 -3.338937E+01 
4.097013E+02  9.908223E-01 -3.586913E+01  9.804848E-06 9.900069E+01  1.806994E-05 5.750747E+01  9.913013E-01 -3.338646E+01 
4.097325E+02  9.908275E-01 -3.587143E+01  3.389619E-05 1.295838E+02  1.835315E-05 1.344211E+02  9.912928E-01 -3.338870E+01 
4.097638E+02  9.908865E-01 -3.587535E+01  3.713164E-05 8.779195E+01  2.553488E-05 1.280019E+02  9.914479E-01 -3.338862E+01 
4.097950E+02  9.907528E-01 -3.587042E+01  2.614003E-05 1.109611E+02  3.961735E-05 1.118930E+02  9.913474E-01 -3.339892E+01 
4.098263E+02  9.909303E-01 -3.587453E+01  3.260045E-05 9.940542E+01  3.398667E-05 1.077985E+02  9.915034E-01 -3.339542E+01 
4.098575E+02  9.908793E-01 -3.587854E+01  1.956283E-05 9.056076E+01  3.331785E-05 1.011398E+02  9.913945E-01 -3.339989E+01 
4.098888E+02  9.909053E-01 -3.587626E+01  4.780711E-05 1.102548E+02  4.163210E-05 1.137110E+02  9.913493E-01 -3.340577E+01 
4.099200E+02  9.909639E-01 -3.588093E+01  3.329579E-05 1.023263E+02  4.317415E-05 9.765309E+01  9.914306E-01 -3.340276E+01 
4.099513E+02  9.908657E-01 -3.587209E+01  3.437001E-05 9.437272E+01  3.968723E-05 1.060592E+02  9.914890E-01 -3.341263E+01 
4.099825E+02  9.910514E-01 -3.588786E+01  3.960465E-05 9.306563E+01  3.506858E-05 8.281059E+01  9.914531E-01 -3.341559E+01 
4.100138E+02  9.873340E-01 -3.598231E+01  4.817903E-05 1.027767E+02  3.142122E-05 8.774325E+01  9.894123E-01 -3.334092E+01 
4.100450E+02  9.873398E-01 -3.599031E+01  3.893969E-05 8.815291E+01  3.189790E-05 8.290917E+01  9.893044E-01 -3.334243E+01 
4.100763E+02  9.874957E-01 -3.598647E+01  3.920827E-05 8.936317E+01  4.317092E-05 1.255768E+02  9.894472E-01 -3.334034E+01 
4.101075E+02  9.874673E-01 -3.599078E+01  6.330861E-05 1.018264E+02  5.850621E-05 1.045577E+02  9.895176E-01 -3.334391E+01 
4.101388E+02  9.875242E-01 -3.599363E+01  3.399421E-05 1.167275E+02  4.456338E-05 9.735565E+01  9.894599E-01 -3.334969E+01 
4.101700E+02  9.875266E-01 -3.598845E+01  5.418358E-05 1.175344E+02  4.082830E-05 1.054149E+02  9.893590E-01 -3.336745E+01 
4.102013E+02  9.876087E-01 -3.598643E+01  5.532134E-05 1.038586E+02  4.035661E-05 8.728952E+01  9.895255E-01 -3.335239E+01 
4.102325E+02  9.874948E-01 -3.599140E+01  3.995969E-05 7.712477E+01  5.616327E-05 1.035845E+02  9.894728E-01 -3.335492E+01 
4.102638E+02  9.876816E-01 -3.599306E+01  6.220276E-05 1.210712E+02  4.725309E-05 1.038561E+02  9.896117E-01 -3.336505E+01 
4.102950E+02  9.874845E-01 -3.599743E+01  3.881437E-05 9.009920E+01  4.907891E-05 8.401884E+01  9.894384E-01 -3.336407E+01 
4.103263E+02  9.875911E-01 -3.599847E+01  5.400422E-05 1.179682E+02  6.558606E-05 1.004742E+02  9.895648E-01 -3.336594E+01 
4.103575E+02  9.876227E-01 -3.600840E+01  7.500901E-05 9.197970E+01  6.299177E-05 1.033451E+02  9.895638E-01 -3.337580E+01 
4.103888E+02  9.876770E-01 -3.600301E+01  5.359152E-05 1.096588E+02  5.381543E-05 1.023465E+02  9.895220E-01 -3.338453E+01 
4.104200E+02  9.877343E-01 -3.600931E+01  5.811066E-05 9.911703E+01  6.382890E-05 9.247940E+01  9.897498E-01 -3.338608E+01 
4.104513E+02  9.878253E-01 -3.600904E+01  5.415466E-05 1.045741E+02  7.091532E-05 1.001594E+02  9.896519E-01 -3.339407E+01 
4.104825E+02  9.879411E-01 -3.601544E+01  8.607503E-05 9.182096E+01  5.985538E-05 1.036936E+02  9.896494E-01 -3.338805E+01 
4.105138E+02  9.878043E-01 -3.601147E+01  8.050687E-05 9.986553E+01  7.845661E-05 9.760037E+01  9.895765E-01 -3.340953E+01 
4.105450E+02  9.877237E-01 -3.601075E+01  8.138999E-05 9.700442E+01  6.610403E-05 1.016703E+02  9.895413E-01 -3.339982E+01 
4.105763E+02  9.878851E-01 -3.601453E+01  7.608935E-05 9.934553E+01  8.377554E-05 1.075276E+02  9.895979E-01 -3.340366E+01 
4.106075E+02  9.876944E-01 -3.601606E+01  8.856854E-05 9.117210E+01  7.722009E-05 9.288751E+01  9.895213E-01 -3.339729E+01 
4.106388E+02  9.879815E-01 -3.602212E+01  9.926249E-05 9.622240E+01  7.762783E-05 9.421204E+01  9.895873E-01 -3.341524E+01 
4.106700E+02  9.879492E-01 -3.601935E+01  9.132380E-05 9.339386E+01  8.414871E-05 8.585022E+01  9.895831E-01 -3.342205E+01 
4.107013E+02  9.880564E-01 -3.601849E+01  7.825094E-05 9.403218E+01  9.582228E-05 9.239596E+01  9.897119E-01 -3.341740E+01 
4.107325E+02  9.880714E-01 -3.602516E+01  1.031834E-04 9.247294E+01  8.944078E-05 8.865665E+01  9.896793E-01 -3.342400E+01 
4.107638E+02  9.882029E-01 -3.602820E+01  1.060979E-04 9.247000E+01  9.626327E-05 8.960976E+01  9.897697E-01 -3.341739E+01 
4.107950E+02  9.881832E-01 -3.602834E+01  1.049078E-04 8.832901E+01  1.073893E-04 8.752573E+01  9.896741E-01 -3.343032E+01 
4.108263E+02  9.882514E-01 -3.603236E+01  1.130484E-04 7.925572E+01  1.084292E-04 9.341781E+01  9.898978E-01 -3.343054E+01 
4.108575E+02  9.881632E-01 -3.603750E+01  1.046006E-04 8.030770E+01  1.121824E-04 8.003238E+01  9.896578E-01 -3.343010E+01 
4.108888E+02  9.883296E-01 -3.603506E+01  1.190338E-04 8.938007E+01  1.205026E-04 7.811120E+01  9.894599E-01 -3.343725E+01 
4.109200E+02  9.882127E-01 -3.603978E+01  1.331957E-04 7.496842E+01  1.206233E-04 7.403418E+01  9.898007E-01 -3.344092E+01 
4.109513E+02  9.883795E-01 -3.604387E+01  1.201297E-04 7.087864E+01  1.117905E-04 8.024760E+01  9.897449E-01 -3.343669E+01 
4.109825E+02  9.883088E-01 -3.603799E+01  1.313823E-04 6.369215E+01  1.075651E-04 7.738891E+01  9.897654E-01 -3.344548E+01 
4.110138E+02  9.883274E-01 -3.603571E+01  1.132792E-04 6.539517E+01  1.319817E-04 6.385297E+01  9.898011E-01 -3.345074E+01 
4.110450E+02  9.884088E-01 -3.604761E+01  1.468426E-04 7.496930E+01  1.311563E-04 6.504860E+01  9.899701E-01 -3.345964E+01 
4.110763E+02  9.884591E-01 -3.604836E+01  1.390317E-04 6.462970E+01  1.391892E-04 5.601128E+01  9.899341E-01 -3.346567E+01 
4.111075E+02  9.884709E-01 -3.605586E+01  1.334909E-04 6.277031E+01  1.321272E-04 5.748829E+01  9.898686E-01 -3.345685E+01 
4.111388E+02  9.885292E-01 -3.605713E+01  1.291253E-04 5.697090E+01  1.273660E-04 4.967132E+01  9.900369E-01 -3.346017E+01 
4.111700E+02  9.885147E-01 -3.606632E+01  1.509950E-04 4.902962E+01  1.511455E-04 5.664560E+01  9.900979E-01 -3.346946E+01 
4.112013E+02  9.885056E-01 -3.606040E+01  1.302339E-04 4.883319E+01  1.228866E-04 4.749008E+01  9.899947E-01 -3.347709E+01 
4.112325E+02  9.884800E-01 -3.605438E+01  1.296144E-04 5.160863E+01  1.222348E-04 5.282164E+01  9.901959E-01 -3.347737E+01 
4.112638E+02  9.886854E-01 -3.605866E+01  1.276715E-04 5.645437E+01  1.318297E-04 4.899257E+01  9.899665E-01 -3.347799E+01 
4.112950E+02  9.887080E-01 -3.606282E+01  1.271431E-04 3.770150E+01  1.284354E-04 4.373478E+01  9.900234E-01 -3.348559E+01 
4.113263E+02  9.886468E-01 -3.606380E+01  1.224496E-04 4.128855E+01  1.267122E-04 4.265888E+01  9.900586E-01 -3.349079E+01 
4.113575E+02  9.887311E-01 -3.606329E+01  1.413900E-04 4.334201E+01  1.176278E-04 4.446364E+01  9.899576E-01 -3.348762E+01 
4.113888E+02  9.888260E-01 -3.606490E+01  1.081226E-04 3.323102E+01  1.246844E-04 3.815670E+01  9.901478E-01 -3.349687E+01 
4.114200E+02  9.887426E-01 -3.606985E+01  1.307832E-04 3.578348E+01  1.474458E-04 3.365653E+01  9.901274E-01 -3.350443E+01 
4.114513E+02  9.888145E-01 -3.607503E+01  1.087828E-04 2.391179E+01  1.385096E-04 3.404834E+01  9.902609E-01 -3.350361E+01 
4.114825E+02  9.888822E-01 -3.607565E+01  1.388128E-04 2.237222E+01  1.352540E-04 2.472045E+01  9.903036E-01 -3.351680E+01 
4.115138E+02  9.887551E-01 -3.607995E+01  1.366325E-04 2.365750E+01  1.079691E-04 2.576755E+01  9.902141E-01 -3.351198E+01 
4.115450E+02  9.889447E-01 -3.607192E+01  1.282680E-04 1.779295E+01  1.284680E-04 2.539663E+01  9.902683E-01 -3.351951E+01 
4.115763E+02  9.888897E-01 -3.609096E+01  1.157924E-04 2.231178E+01  1.091678E-04 1.673159E+01  9.901239E-01 -3.351176E+01 
4.116075E+02  9.889910E-01 -3.608194E+01  1.114274E-04 1.260684E+01  1.139984E-04 1.831663E+01  9.902766E-01 -3.353000E+01 
4.116388E+02  9.889054E-01 -3.608035E+01  9.828290E-05 1.511516E+01  1.141632E-04 1.141852E+01  9.902330E-01 -3.352382E+01 
4.116700E+02  9.888114E-01 -3.608733E+01  1.058488E-04 5.212224E+00  9.672792E-05 2.199215E+01  9.902729E-01 -3.352662E+01 
4.117013E+02  9.889835E-01 -3.608598E+01  8.094353E-05 1.406029E+01  1.132002E-04 1.639048E+01  9.903823E-01 -3.353698E+01 
4.117325E+02  9.892552E-01 -3.609217E+01  1.028784E-04 8.689051E+00  1.082701E-04 8.649202E+00  9.903330E-01 -3.354934E+01 
4.117638E+02  9.891413E-01 -3.609578E+01  8.792842E-05 1.122917E+01  1.042357E-04 8.432287E-01  9.903651E-01 -3.353567E+01 
4.117950E+02  9.891410E-01 -3.609779E+01  1.216848E-04 3.404273E+00  9.609793E-05 -5.089674E+00  9.904499E-01 -3.355427E+01 
4.118263E+02  9.893082E-01 -3.609332E+01  1.018321E-04 2.447707E+00  7.528470E-05 1.012661E+00  9.902619E-01 -3.354702E+01 
4.118575E+02  9.893877E-01 -3.610480E+01  7.387695E-05 -8.282556E+00  8.644744E-05 -4.274811E+00  9.904344E-01 -3.355060E+01 
4.118888E+02  9.893324E-01 -3.609988E+01  7.907140E-05 -1.161325E+01  7.028154E-05 -7.625252E+00  9.904601E-01 -3.356695E+01 
4.119200E+02  9.892775E-01 -3.610594E+01  7.660035E-05 -1.070232E+01  7.391867E-05 -1.227892E+01  9.906374E-01 -3.356528E+01 
4.119513E+02  9.892985E-01 -3.611126E+01  6.928835E-05 -8.565912E+00  4.366616E-05 -1.296313E+01  9.905849E-01 -3.356766E+01 
4.119825E+02  9.893857E-01 -3.610551E+01  6.733388E-05 -9.228802E+00  5.990403E-05 -3.267322E+01  9.904444E-01 -3.357714E+01 
4.120138E+02  9.894886E-01 -3.611938E+01  6.072365E-05 -1.123758E+01  4.687034E-05 7.901502E+00  9.903631E-01 -3.357365E+01 
4.120450E+02  9.894443E-01 -3.611626E+01  6.143927E-05 -7.090750E+00  4.140316E-05 -1.659600E+01  9.904519E-01 -3.357337E+01 
4.120763E+02  9.894075E-01 -3.611173E+01  4.385182E-05 1.293534E+01  5.422599E-05 -1.672504E+01  9.905319E-01 -3.358244E+01 
4.121075E+02  9.895379E-01 -3.612154E+01  4.528643E-05 -6.457759E+00  3.604795E-05 -2.910444E+01  9.904688E-01 -3.358748E+01 
4.121388E+02  9.897681E-01 -3.612208E+01  4.183794E-05 -6.060755E+00  4.023219E-05 2.291872E+00  9.906518E-01 -3.358608E+01 
4.121700E+02  9.897378E-01 -3.612264E+01  3.983381E-05 -4.411660E+00  3.646503E-05 -7.060203E+00  9.906385E-01 -3.359515E+01 
4.122013E+02  9.897828E-01 -3.613113E+01  2.705284E-05 -1.931448E+00  4.270091E-05 -2.879615E+01  9.907081E-01 -3.359316E+01 
4.122325E+02  9.896649E-01 -3.613321E+01  2.895944E-05 3.111501E+01  3.241878E-05 2.088475E+01  9.907145E-01 -3.360655E+01 
4.122638E+02  9.897261E-01 -3.613094E+01  2.678560E-05 1.003989E+01  2.412447E-05 -7.718998E+00  9.906859E-01 -3.360498E+01 
4.122950E+02  9.898096E-01 -3.612807E+01  3.497244E-05 -5.559879E+00  2.623671E-05 7.483006E+00  9.907693E-01 -3.361804E+01 
4.123263E+02  9.897064E-01 -3.613797E+01  2.845911E-05 1.189178E+01  2.455496E-05 2.559521E+01  9.908023E-01 -3.361823E+01 
4.123575E+02  9.897617E-01 -3.614164E+01  3.051250E-05 1.887597E+01  2.308590E-05 6.025817E+01  9.906530E-01 -3.361506E+01 
4.123888E+02  9.897398E-01 -3.614698E+01  2.578229E-05 7.216705E+00  3.017999E-05 4.456596E+00  9.908311E-01 -3.362687E+01 
4.124200E+02  9.897831E-01 -3.613971E+01  2.802433E-05 2.134516E+01  2.846770E-05 2.921202E+01  9.907444E-01 -3.363016E+01 
4.124513E+02  9.898395E-01 -3.615509E+01  3.570712E-05 4.882115E+01  2.002876E-05 6.481409E+01  9.908403E-01 -3.362456E+01 
4.124825E+02  9.897718E-01 -3.614767E+01  3.871111E-05 3.806293E+01  1.668603E-05 1.876855E+01  9.908631E-01 -3.362754E+01 
4.125138E+02  9.897042E-01 -3.616175E+01  3.299667E-05 7.095876E+01  2.031639E-05 6.737226E+01  9.908217E-01 -3.363475E+01 
4.125450E+02  9.897570E-01 -3.616945E+01  4.246966E-05 5.893035E+01  2.552458E-05 5.558165E+01  9.907218E-01 -3.362950E+01 
4.125763E+02  9.897466E-01 -3.616138E+01  4.836889E-05 5.390386E+01  2.523132E-05 4.284079E+01  9.908644E-01 -3.363049E+01 
4.126075E+02  9.898204E-01 -3.616933E+01  4.740867E-05 4.858909E+01  1.834863E-05 4.271580E+01  9.908314E-01 -3.362651E+01 
4.126388E+02  9.897999E-01 -3.617876E+01  3.340163E-05 7.971259E+01  3.282520E-05 5.369036E+01  9.908102E-01 -3.363725E+01 
4.126700E+02  9.897209E-01 -3.616873E+01  3.282423E-05 2.537936E+01  4.839070E-05 6.060697E+01  9.905827E-01 -3.363222E+01 
4.127013E+02  9.898002E-01 -3.617578E+01  5.041092E-05 5.733945E+01  4.824995E-05 7.123325E+01  9.906924E-01 -3.364463E+01 
4.127325E+02  9.897892E-01 -3.618184E+01  4.236041E-05 4.276075E+01  4.048079E-05 6.711149E+01  9.906575E-01 -3.364618E+01 
4.127638E+02  9.897720E-01 -3.618246E+01  4.331817E-05 5.127362E+01  4.528593E-05 5.534270E+01  9.907064E-01 -3.364667E+01 
4.127950E+02  9.898616E-01 -3.619651E+01  5.594757E-05 5.005770E+01  4.496861E-05 4.904412E+01  9.906877E-01 -3.364886E+01 
4.128263E+02  9.898658E-01 -3.618876E+01  6.458985E-05 2.712093E+01  6.328357E-05 4.633808E+01  9.906975E-01 -3.365767E+01 
4.128575E+02  9.898311E-01 -3.619453E+01  4.848233E-05 5.912817E+01  5.705259E-05 4.065622E+01  9.906997E-01 -3.365660E+01 
4.128888E+02  9.897814E-01 -3.619217E+01  4.905350E-05 5.393507E+01  5.067911E-05 5.187790E+01  9.906888E-01 -3.366219E+01 
4.129200E+02  9.898188E-01 -3.619819E+01  6.020399E-05 3.677278E+01  5.890516E-05 5.131532E+01  9.906536E-01 -3.364923E+01 
4.129513E+02  9.897478E-01 -3.621178E+01  5.253244E-05 4.570360E+01  6.129837E-05 4.400498E+01  9.905703E-01 -3.365588E+01 
4.129825E+02  9.898728E-01 -3.620475E+01  5.218901E-05 4.091423E+01  3.667307E-05 2.730328E+01  9.906322E-01 -3.366253E+01 
4.130138E+02  9.896858E-01 -3.621622E+01  4.316487E-05 2.115176E+01  5.846379E-05 4.595934E+01  9.907395E-01 -3.366349E+01 
4.130450E+02  9.897340E-01 -3.621469E+01  5.614822E-05 3.144769E+01  4.576022E-05 4.054080E+01  9.906393E-01 -3.366393E+01 
4.130763E+02  9.897266E-01 -3.622080E+01  5.328416E-05 3.293861E+01  6.774850E-05 4.209137E+01  9.907882E-01 -3.367360E+01 
4.131075E+02  9.898578E-01 -3.622635E+01  5.644253E-05 4.630226E+01  6.455381E-05 4.364361E+01  9.906051E-01 -3.366941E+01 
4.131388E+02  9.898439E-01 -3.623062E+01  3.693370E-05 4.857324E+01  7.545300E-05 2.617823E+01  9.907304E-01 -3.366928E+01 
4.131700E+02  9.897304E-01 -3.622894E+01  6.272416E-05 1.790766E+01  6.435369E-05 2.954125E+01  9.906436E-01 -3.368168E+01 
4.132013E+02  9.898163E-01 -3.623609E+01  5.981526E-05 3.594921E+01  5.456189E-05 4.256799E+01  9.907205E-01 -3.368111E+01 
4.132325E+02  9.895573E-01 -3.623576E+01  6.366618E-05 3.563822E+01  7.503071E-05 2.693843E+01  9.906603E-01 -3.369025E+01 
4.132638E+02  9.897511E-01 -3.623836E+01  6.660285E-05 2.233442E+01  7.137739E-05 3.250345E+01  9.907300E-01 -3.368495E+01 
4.132950E+02  9.896835E-01 -3.624434E+01  7.660526E-05 2.204190E+01  6.986448E-05 2.944290E+01  9.906184E-01 -3.368464E+01 
4.133263E+02  9.896732E-01 -3.624900E+01  5.548907E-05 3.016997E+01  5.518608E-05 3.701166E+01  9.905968E-01 -3.369298E+01 
4.133575E+02  9.897754E-01 -3.625715E+01  6.359850E-05 1.089199E+01  5.582084E-05 1.217865E+01  9.906660E-01 -3.369380E+01 
4.133888E+02  9.898802E-01 -3.625269E+01  5.636191E-05 8.835329E+00  6.207930E-05 5.867003E+00  9.905814E-01 -3.368850E+01 
4.134200E+02  9.896433E-01 -3.625007E+01  5.952514E-05 1.214390E+01  6.493619E-05 2.368423E+00  9.904873E-01 -3.369480E+01 
4.134513E+02  9.896848E-01 -3.626377E+01  5.837096E-05 -5.906149E+00  6.031224E-05 2.305115E+01  9.904343E-01 -3.369508E+01 
4.134825E+02  9.896363E-01 -3.626973E+01  6.362089E-05 9.465500E+00  6.345178E-05 3.917223E+00  9.906514E-01 -3.369705E+01 
4.135138E+02  9.897907E-01 -3.626636E+01  7.719592E-05 -4.801214E+00  5.168139E-05 -1.299314E+01  9.906632E-01 -3.370865E+01 
4.135450E+02  9.894797E-01 -3.627128E+01  5.055427E-05 -2.540041E+01  4.785855E-05 -8.759169E+00  9.905952E-01 -3.370014E+01 
4.135763E+02  9.895154E-01 -3.627344E+01  6.053668E-05 -2.529738E+01  4.127376E-05 -5.003531E+00  9.905948E-01 -3.370192E+01 
4.136075E+02  9.897239E-01 -3.627828E+01  5.803577E-05 -1.228103E+01  4.443103E-05 -1.766277E+01  9.906472E-01 -3.371458E+01 
4.136388E+02  9.895626E-01 -3.627773E+01  4.864816E-05 -3.831188E+01  3.580520E-05 -3.659667E+01  9.906055E-01 -3.371205E+01 
4.136700E+02  9.894385E-01 -3.628498E+01  4.147229E-05 -2.111902E+01  3.494545E-05 -1.535683E+01  9.904958E-01 -3.371466E+01 
4.137013E+02  9.896106E-01 -3.628798E+01  5.171508E-05 -3.836263E+01  4.199418E-05 -2.551651E+01  9.904617E-01 -3.371087E+01 
4.137325E+02  9.897242E-01 -3.629644E+01  4.722790E-05 -3.538530E+01  3.443722E-05 -4.057196E+01  9.904974E-01 -3.372671E+01 
4.137638E+02  9.894189E-01 -3.629522E+01  2.534102E-05 -1.895177E+01  4.904741E-05 -3.532897E+01  9.904800E-01 -3.371578E+01 
4.137950E+02  9.894786E-01 -3.630720E+01  1.698155E-05 -3.328070E+01  1.013318E-05 -9.079656E+01  9.905555E-01 -3.371898E+01 
