! Matrix data file written by TouchstoneData, EPCOS AG
! FILENAME: "B3935_NB.s2p"
! COMMENT: "(LY10A_14_NB.s2p) EPCOS AG 09.04.2010 16:40:"
! INFO: nport=2, nfreq=1601
! DATE: "Fri Apr  9 17:13:58 2010"
! USER: "Aleksander Breg"
!
! port | pin | signal
! -----|-----|--------
!   1  |  1  |  IN
!   2  |  4  |  OUT
! --------------------
! 
# MHZ S MA R 50
! freq  magS11 angS11  magS21 angS21  magS12 angS12  magS22 angS22
4.314200E+02  9.885139E-01 -3.636591E+01  6.929871E-05 6.192736E+01  6.751003E-05 6.392557E+01  9.820883E-01 -3.362231E+01 
4.314231E+02  9.884995E-01 -3.636732E+01  7.432482E-05 8.489445E+01  5.712581E-05 6.439713E+01  9.820682E-01 -3.363484E+01 
4.314263E+02  9.883383E-01 -3.636950E+01  7.061684E-05 6.383698E+01  5.928518E-05 7.573308E+01  9.819790E-01 -3.363641E+01 
4.314294E+02  9.885273E-01 -3.636748E+01  6.768315E-05 4.530815E+01  4.972585E-05 7.014778E+01  9.820210E-01 -3.364169E+01 
4.314325E+02  9.886894E-01 -3.638537E+01  2.683359E-05 6.227525E+01  5.732701E-05 6.419592E+01  9.819369E-01 -3.363792E+01 
4.314356E+02  9.885648E-01 -3.636919E+01  5.727729E-05 7.361775E+01  5.020010E-05 6.255591E+01  9.822601E-01 -3.364247E+01 
4.314388E+02  9.884612E-01 -3.638482E+01  3.702770E-05 8.811631E+01  5.321099E-05 7.293543E+01  9.820220E-01 -3.364346E+01 
4.314419E+02  9.885689E-01 -3.638755E+01  3.593121E-05 5.022701E+01  6.452053E-05 8.107143E+01  9.819622E-01 -3.365142E+01 
4.314450E+02  9.886705E-01 -3.638112E+01  5.069536E-05 6.551818E+01  5.448843E-05 8.243380E+01  9.820477E-01 -3.364962E+01 
4.314481E+02  9.887377E-01 -3.638484E+01  3.544043E-05 7.153192E+01  4.108972E-05 6.926015E+01  9.821286E-01 -3.365285E+01 
4.314513E+02  9.886754E-01 -3.639632E+01  3.278861E-05 9.590376E+01  2.900481E-05 8.155744E+01  9.820416E-01 -3.366027E+01 
4.314544E+02  9.884298E-01 -3.639215E+01  4.422484E-05 9.692243E+01  2.403158E-05 9.299026E+01  9.819004E-01 -3.366472E+01 
4.314575E+02  9.884842E-01 -3.639684E+01  2.630793E-05 7.701628E+01  3.563292E-05 1.249488E+02  9.820126E-01 -3.366594E+01 
4.314606E+02  9.884862E-01 -3.639946E+01  7.717376E-06 1.372418E+02  2.465938E-05 5.426437E+01  9.819727E-01 -3.367649E+01 
4.314638E+02  9.884528E-01 -3.639455E+01  1.932430E-05 2.953479E+01  1.313634E-05 8.118588E+01  9.818886E-01 -3.367121E+01 
4.314669E+02  9.886552E-01 -3.640610E+01  3.201912E-05 9.583259E+01  6.734763E-06 1.203068E+02  9.820308E-01 -3.367360E+01 
4.314700E+02  9.887081E-01 -3.641431E+01  4.508359E-05 9.579702E+01  2.254366E-05 1.304932E+02  9.819458E-01 -3.367103E+01 
4.314731E+02  9.886028E-01 -3.641258E+01  2.539622E-05 1.576919E+02  1.670913E-05 1.133801E+02  9.818888E-01 -3.368481E+01 
4.314762E+02  9.886904E-01 -3.641623E+01  2.039543E-05 1.387718E+02  1.977997E-05 -1.601933E+02  9.821988E-01 -3.367691E+01 
4.314794E+02  9.887001E-01 -3.640985E+01  3.262233E-05 1.677261E+02  3.293832E-05 1.608672E+02  9.818948E-01 -3.367944E+01 
4.314825E+02  9.885773E-01 -3.641552E+01  4.712771E-05 1.758231E+02  2.934212E-05 -1.517320E+02  9.818709E-01 -3.367766E+01 
4.314856E+02  9.886390E-01 -3.641951E+01  4.339066E-05 1.770701E+02  2.246900E-05 1.725122E+02  9.819360E-01 -3.369741E+01 
4.314888E+02  9.885720E-01 -3.642461E+01  2.425830E-05 1.573123E+02  5.093826E-05 -1.679587E+02  9.818773E-01 -3.369339E+01 
4.314919E+02  9.886291E-01 -3.643032E+01  6.178445E-05 -1.651808E+02  3.648451E-05 -1.604550E+02  9.820267E-01 -3.369696E+01 
4.314950E+02  9.886927E-01 -3.643090E+01  7.172311E-05 -1.707068E+02  5.228953E-05 -1.555558E+02  9.819642E-01 -3.369954E+01 
4.314981E+02  9.885423E-01 -3.643850E+01  6.130967E-05 -1.585536E+02  6.126450E-05 -1.687839E+02  9.821747E-01 -3.370862E+01 
4.315013E+02  9.886617E-01 -3.644545E+01  4.912810E-05 -1.601695E+02  6.482486E-05 -1.473097E+02  9.820618E-01 -3.371185E+01 
4.315044E+02  9.885814E-01 -3.644198E+01  5.586006E-05 -1.446550E+02  7.712532E-05 -1.565553E+02  9.820933E-01 -3.370808E+01 
4.315075E+02  9.885613E-01 -3.644494E+01  1.020257E-04 -1.417808E+02  9.579415E-05 -1.619263E+02  9.820715E-01 -3.371187E+01 
4.315106E+02  9.885921E-01 -3.645176E+01  8.456937E-05 -1.536655E+02  8.882413E-05 -1.530627E+02  9.819568E-01 -3.371767E+01 
4.315138E+02  9.885478E-01 -3.645096E+01  9.511319E-05 -1.554758E+02  1.150690E-04 -1.471195E+02  9.818715E-01 -3.372179E+01 
4.315169E+02  9.885182E-01 -3.644635E+01  9.559737E-05 -1.544139E+02  9.650705E-05 -1.455562E+02  9.818628E-01 -3.372121E+01 
4.315200E+02  9.884501E-01 -3.645179E+01  1.101089E-04 -1.455326E+02  1.090053E-04 -1.484560E+02  9.819030E-01 -3.372654E+01 
4.315231E+02  9.886197E-01 -3.646121E+01  9.639961E-05 -1.615463E+02  1.369401E-04 -1.451835E+02  9.819211E-01 -3.372869E+01 
4.315263E+02  9.883596E-01 -3.646009E+01  1.375591E-04 -1.453019E+02  1.252357E-04 -1.452971E+02  9.820595E-01 -3.373260E+01 
4.315294E+02  9.886433E-01 -3.646819E+01  1.710915E-04 -1.442404E+02  1.373374E-04 -1.424219E+02  9.819077E-01 -3.373195E+01 
4.315325E+02  9.885016E-01 -3.647069E+01  1.390057E-04 -1.513495E+02  1.603803E-04 -1.456453E+02  9.819485E-01 -3.374922E+01 
4.315356E+02  9.885490E-01 -3.647318E+01  1.623875E-04 -1.497301E+02  1.588003E-04 -1.455340E+02  9.818798E-01 -3.374408E+01 
4.315387E+02  9.884836E-01 -3.648123E+01  1.779227E-04 -1.469949E+02  1.610944E-04 -1.418652E+02  9.819263E-01 -3.374413E+01 
4.315419E+02  9.886716E-01 -3.648204E+01  1.768473E-04 -1.426623E+02  1.983840E-04 -1.433043E+02  9.819363E-01 -3.375267E+01 
4.315450E+02  9.884873E-01 -3.648121E+01  1.804548E-04 -1.453862E+02  2.004021E-04 -1.482124E+02  9.818525E-01 -3.375554E+01 
4.315481E+02  9.885582E-01 -3.648283E+01  1.862147E-04 -1.418453E+02  2.078940E-04 -1.489947E+02  9.820184E-01 -3.375587E+01 
4.315513E+02  9.884138E-01 -3.648841E+01  2.208796E-04 -1.478034E+02  2.177882E-04 -1.430921E+02  9.819425E-01 -3.377493E+01 
4.315544E+02  9.886996E-01 -3.648979E+01  2.250200E-04 -1.495752E+02  2.196041E-04 -1.461158E+02  9.817527E-01 -3.376387E+01 
4.315575E+02  9.885664E-01 -3.650379E+01  2.313597E-04 -1.469473E+02  2.461963E-04 -1.465694E+02  9.819610E-01 -3.376419E+01 
4.315606E+02  9.884917E-01 -3.649726E+01  2.428837E-04 -1.486814E+02  2.650216E-04 -1.430077E+02  9.819994E-01 -3.377583E+01 
4.315638E+02  9.885479E-01 -3.649681E+01  2.727095E-04 -1.443903E+02  2.754482E-04 -1.460977E+02  9.818905E-01 -3.377455E+01 
4.315669E+02  9.884279E-01 -3.651140E+01  3.002140E-04 -1.465480E+02  2.925457E-04 -1.463684E+02  9.818454E-01 -3.377401E+01 
4.315700E+02  9.885906E-01 -3.651081E+01  2.883178E-04 -1.452363E+02  2.980100E-04 -1.479773E+02  9.817511E-01 -3.378357E+01 
4.315731E+02  9.885268E-01 -3.652174E+01  2.950658E-04 -1.483212E+02  3.174249E-04 -1.454336E+02  9.818419E-01 -3.379004E+01 
4.315763E+02  9.885878E-01 -3.652749E+01  3.331418E-04 -1.483740E+02  3.410233E-04 -1.472629E+02  9.819822E-01 -3.378950E+01 
4.315794E+02  9.884481E-01 -3.652621E+01  3.474234E-04 -1.459634E+02  3.494457E-04 -1.458528E+02  9.818216E-01 -3.380636E+01 
4.315825E+02  9.884359E-01 -3.652932E+01  3.446488E-04 -1.453911E+02  3.703399E-04 -1.448964E+02  9.818405E-01 -3.380190E+01 
4.315856E+02  9.884854E-01 -3.652539E+01  3.859143E-04 -1.459042E+02  3.814665E-04 -1.458096E+02  9.819603E-01 -3.380366E+01 
4.315888E+02  9.883971E-01 -3.652698E+01  3.842555E-04 -1.457150E+02  4.042184E-04 -1.478452E+02  9.817809E-01 -3.381704E+01 
4.315919E+02  9.884288E-01 -3.653761E+01  4.319359E-04 -1.472219E+02  4.003588E-04 -1.433362E+02  9.818600E-01 -3.381111E+01 
4.315950E+02  9.883354E-01 -3.653744E+01  4.196753E-04 -1.476955E+02  4.267104E-04 -1.464678E+02  9.816366E-01 -3.381475E+01 
4.315981E+02  9.885159E-01 -3.654701E+01  4.721235E-04 -1.475554E+02  4.633479E-04 -1.470142E+02  9.817446E-01 -3.382230E+01 
4.316012E+02  9.884107E-01 -3.655939E+01  4.627276E-04 -1.471881E+02  4.776067E-04 -1.468647E+02  9.818779E-01 -3.382863E+01 
4.316044E+02  9.886128E-01 -3.656791E+01  4.945629E-04 -1.459718E+02  5.091602E-04 -1.453996E+02  9.816910E-01 -3.382496E+01 
4.316075E+02  9.882421E-01 -3.655969E+01  5.387592E-04 -1.462512E+02  5.238149E-04 -1.474315E+02  9.818010E-01 -3.383180E+01 
4.316106E+02  9.883587E-01 -3.655673E+01  5.220274E-04 -1.468208E+02  5.470965E-04 -1.472065E+02  9.818712E-01 -3.383421E+01 
4.316138E+02  9.884343E-01 -3.657223E+01  5.760007E-04 -1.475804E+02  5.713322E-04 -1.465052E+02  9.817576E-01 -3.384781E+01 
4.316169E+02  9.883338E-01 -3.658316E+01  6.013865E-04 -1.487606E+02  5.910618E-04 -1.483121E+02  9.817472E-01 -3.384582E+01 
4.316200E+02  9.884117E-01 -3.658243E+01  6.040106E-04 -1.471250E+02  6.198117E-04 -1.486203E+02  9.817139E-01 -3.384668E+01 
4.316231E+02  9.884301E-01 -3.657594E+01  6.466484E-04 -1.497503E+02  6.421768E-04 -1.486401E+02  9.817412E-01 -3.385997E+01 
4.316263E+02  9.880942E-01 -3.658989E+01  6.688566E-04 -1.511025E+02  6.755266E-04 -1.478260E+02  9.818199E-01 -3.385876E+01 
4.316294E+02  9.882528E-01 -3.659917E+01  6.897750E-04 -1.483117E+02  7.062799E-04 -1.502670E+02  9.816347E-01 -3.385873E+01 
4.316325E+02  9.883682E-01 -3.659336E+01  7.095534E-04 -1.495442E+02  7.338920E-04 -1.478543E+02  9.815577E-01 -3.387184E+01 
4.316356E+02  9.880879E-01 -3.659849E+01  7.756867E-04 -1.493753E+02  7.733689E-04 -1.493856E+02  9.816341E-01 -3.387637E+01 
4.316388E+02  9.879697E-01 -3.661008E+01  8.002185E-04 -1.503045E+02  7.965883E-04 -1.495826E+02  9.815251E-01 -3.387362E+01 
4.316419E+02  9.881740E-01 -3.661334E+01  8.331571E-04 -1.514228E+02  8.373047E-04 -1.514951E+02  9.816464E-01 -3.387323E+01 
4.316450E+02  9.883866E-01 -3.661004E+01  8.784884E-04 -1.502307E+02  8.741869E-04 -1.506996E+02  9.815086E-01 -3.388178E+01 
4.316481E+02  9.881786E-01 -3.662164E+01  9.207934E-04 -1.506202E+02  9.089955E-04 -1.512051E+02  9.815658E-01 -3.388920E+01 
4.316513E+02  9.882353E-01 -3.662343E+01  9.443519E-04 -1.514529E+02  9.370613E-04 -1.515080E+02  9.815952E-01 -3.389305E+01 
4.316544E+02  9.881798E-01 -3.663608E+01  9.712211E-04 -1.520525E+02  1.004128E-03 -1.518693E+02  9.814202E-01 -3.389783E+01 
4.316575E+02  9.880411E-01 -3.663844E+01  1.018895E-03 -1.529493E+02  1.036382E-03 -1.528985E+02  9.813638E-01 -3.390510E+01 
4.316606E+02  9.879699E-01 -3.664118E+01  1.041793E-03 -1.531953E+02  1.068369E-03 -1.524981E+02  9.814902E-01 -3.390965E+01 
4.316637E+02  9.880187E-01 -3.664622E+01  1.101436E-03 -1.538097E+02  1.112285E-03 -1.539782E+02  9.814245E-01 -3.391300E+01 
4.316669E+02  9.879547E-01 -3.665826E+01  1.161173E-03 -1.543918E+02  1.170766E-03 -1.543698E+02  9.813486E-01 -3.392200E+01 
4.316700E+02  9.880967E-01 -3.665465E+01  1.205084E-03 -1.545823E+02  1.216170E-03 -1.549400E+02  9.814021E-01 -3.393248E+01 
4.316731E+02  9.880342E-01 -3.666356E+01  1.272857E-03 -1.559905E+02  1.261254E-03 -1.559669E+02  9.813170E-01 -3.393163E+01 
4.316763E+02  9.878069E-01 -3.666306E+01  1.340463E-03 -1.557435E+02  1.312224E-03 -1.561717E+02  9.812485E-01 -3.393800E+01 
4.316794E+02  9.878171E-01 -3.667766E+01  1.391639E-03 -1.562065E+02  1.388644E-03 -1.569285E+02  9.814170E-01 -3.394688E+01 
4.316825E+02  9.876344E-01 -3.667676E+01  1.458762E-03 -1.575516E+02  1.441647E-03 -1.579858E+02  9.812118E-01 -3.394696E+01 
4.316856E+02  9.876990E-01 -3.668925E+01  1.497117E-03 -1.590669E+02  1.503862E-03 -1.590592E+02  9.811087E-01 -3.394562E+01 
4.316888E+02  9.876210E-01 -3.668696E+01  1.558879E-03 -1.595259E+02  1.573102E-03 -1.598741E+02  9.810758E-01 -3.395954E+01 
4.316919E+02  9.875927E-01 -3.669689E+01  1.622942E-03 -1.606923E+02  1.641683E-03 -1.607100E+02  9.809679E-01 -3.396619E+01 
4.316950E+02  9.872874E-01 -3.670954E+01  1.696190E-03 -1.611957E+02  1.715158E-03 -1.623522E+02  9.807275E-01 -3.397089E+01 
4.316981E+02  9.874021E-01 -3.671646E+01  1.801685E-03 -1.626180E+02  1.796346E-03 -1.623234E+02  9.809582E-01 -3.397607E+01 
4.317013E+02  9.871691E-01 -3.672063E+01  1.872059E-03 -1.637252E+02  1.856115E-03 -1.640045E+02  9.806751E-01 -3.398901E+01 
4.317044E+02  9.870434E-01 -3.673457E+01  1.941979E-03 -1.651318E+02  1.952224E-03 -1.651518E+02  9.806873E-01 -3.398565E+01 
4.317075E+02  9.870152E-01 -3.672892E+01  2.058334E-03 -1.658115E+02  2.033136E-03 -1.663510E+02  9.807306E-01 -3.399339E+01 
4.317106E+02  9.870146E-01 -3.673997E+01  2.137844E-03 -1.669384E+02  2.146505E-03 -1.673507E+02  9.805493E-01 -3.400116E+01 
4.317138E+02  9.869020E-01 -3.673523E+01  2.234762E-03 -1.688061E+02  2.239950E-03 -1.689859E+02  9.806121E-01 -3.400862E+01 
4.317169E+02  9.867073E-01 -3.673567E+01  2.343028E-03 -1.702703E+02  2.327198E-03 -1.704156E+02  9.802448E-01 -3.400628E+01 
4.317200E+02  9.866568E-01 -3.675337E+01  2.423207E-03 -1.723409E+02  2.430074E-03 -1.719389E+02  9.802580E-01 -3.401903E+01 
4.317231E+02  9.864255E-01 -3.675440E+01  2.560622E-03 -1.735119E+02  2.536016E-03 -1.734505E+02  9.800935E-01 -3.402220E+01 
4.317262E+02  9.863043E-01 -3.675531E+01  2.662505E-03 -1.753295E+02  2.644082E-03 -1.751577E+02  9.800456E-01 -3.401870E+01 
4.317294E+02  9.861888E-01 -3.676349E+01  2.763972E-03 -1.770340E+02  2.758969E-03 -1.772950E+02  9.797835E-01 -3.402730E+01 
4.317325E+02  9.860915E-01 -3.675860E+01  2.899751E-03 -1.790649E+02  2.898504E-03 -1.790677E+02  9.796444E-01 -3.403364E+01 
4.317356E+02  9.858997E-01 -3.676951E+01  3.017809E-03 1.786531E+02  3.031558E-03 1.792016E+02  9.794969E-01 -3.402897E+01 
4.317388E+02  9.857089E-01 -3.675903E+01  3.144031E-03 1.764014E+02  3.131233E-03 1.763392E+02  9.793071E-01 -3.404350E+01 
4.317419E+02  9.855503E-01 -3.676219E+01  3.255589E-03 1.745835E+02  3.260396E-03 1.745703E+02  9.792976E-01 -3.403951E+01 
4.317450E+02  9.852015E-01 -3.676227E+01  3.381770E-03 1.720469E+02  3.384889E-03 1.722619E+02  9.790641E-01 -3.403634E+01 
4.317481E+02  9.850859E-01 -3.676642E+01  3.522678E-03 1.699827E+02  3.501305E-03 1.695223E+02  9.789583E-01 -3.403301E+01 
4.317513E+02  9.846908E-01 -3.676354E+01  3.618255E-03 1.669405E+02  3.642558E-03 1.670262E+02  9.787471E-01 -3.404074E+01 
4.317544E+02  9.845872E-01 -3.676201E+01  3.762253E-03 1.645705E+02  3.752831E-03 1.643600E+02  9.784775E-01 -3.402791E+01 
4.317575E+02  9.847238E-01 -3.675276E+01  3.854996E-03 1.616631E+02  3.863506E-03 1.617549E+02  9.783441E-01 -3.401980E+01 
4.317606E+02  9.843633E-01 -3.674038E+01  3.960425E-03 1.589499E+02  3.984286E-03 1.587971E+02  9.781840E-01 -3.402319E+01 
4.317638E+02  9.842384E-01 -3.674645E+01  4.054516E-03 1.559646E+02  4.071832E-03 1.559899E+02  9.780959E-01 -3.401686E+01 
4.317669E+02  9.840816E-01 -3.673409E+01  4.185751E-03 1.530781E+02  4.163199E-03 1.528877E+02  9.780834E-01 -3.401231E+01 
4.317700E+02  9.838314E-01 -3.672004E+01  4.248212E-03 1.498905E+02  4.253280E-03 1.499695E+02  9.778337E-01 -3.400491E+01 
4.317731E+02  9.838204E-01 -3.670390E+01  4.315958E-03 1.465162E+02  4.338904E-03 1.466990E+02  9.778651E-01 -3.399267E+01 
4.317763E+02  9.838097E-01 -3.669849E+01  4.378092E-03 1.439892E+02  4.381415E-03 1.438612E+02  9.776590E-01 -3.399105E+01 
4.317794E+02  9.837033E-01 -3.668650E+01  4.439991E-03 1.408211E+02  4.430014E-03 1.407817E+02  9.776750E-01 -3.397297E+01 
4.317825E+02  9.836059E-01 -3.668232E+01  4.458415E-03 1.379805E+02  4.486903E-03 1.377025E+02  9.775907E-01 -3.396672E+01 
4.317856E+02  9.837326E-01 -3.667007E+01  4.479615E-03 1.351151E+02  4.505059E-03 1.348189E+02  9.775221E-01 -3.395938E+01 
4.317887E+02  9.838396E-01 -3.665610E+01  4.523113E-03 1.320892E+02  4.523978E-03 1.319233E+02  9.777160E-01 -3.395209E+01 
4.317919E+02  9.838698E-01 -3.663835E+01  4.520446E-03 1.292946E+02  4.526170E-03 1.292187E+02  9.776267E-01 -3.393682E+01 
4.317950E+02  9.839458E-01 -3.662532E+01  4.498768E-03 1.264620E+02  4.490804E-03 1.261857E+02  9.778154E-01 -3.393365E+01 
4.317981E+02  9.839515E-01 -3.661643E+01  4.484645E-03 1.237067E+02  4.486207E-03 1.234200E+02  9.779037E-01 -3.392062E+01 
4.318013E+02  9.842913E-01 -3.661526E+01  4.446584E-03 1.211975E+02  4.458997E-03 1.211685E+02  9.778650E-01 -3.391355E+01 
4.318044E+02  9.842236E-01 -3.661412E+01  4.426945E-03 1.188185E+02  4.411678E-03 1.186020E+02  9.781044E-01 -3.389765E+01 
4.318075E+02  9.844378E-01 -3.660122E+01  4.399082E-03 1.163324E+02  4.392852E-03 1.162514E+02  9.781585E-01 -3.390251E+01 
4.318106E+02  9.846221E-01 -3.660254E+01  4.352074E-03 1.142842E+02  4.355272E-03 1.137400E+02  9.782436E-01 -3.390598E+01 
4.318138E+02  9.847252E-01 -3.660074E+01  4.306609E-03 1.117118E+02  4.290166E-03 1.118125E+02  9.783363E-01 -3.389149E+01 
4.318169E+02  9.848682E-01 -3.659016E+01  4.244644E-03 1.097483E+02  4.236928E-03 1.097541E+02  9.785270E-01 -3.389486E+01 
4.318200E+02  9.848123E-01 -3.659163E+01  4.156007E-03 1.076800E+02  4.176178E-03 1.075822E+02  9.787281E-01 -3.389813E+01 
4.318231E+02  9.851084E-01 -3.659573E+01  4.148718E-03 1.058582E+02  4.141384E-03 1.055493E+02  9.786180E-01 -3.390428E+01 
4.318263E+02  9.849810E-01 -3.659949E+01  4.064859E-03 1.041282E+02  4.069561E-03 1.039056E+02  9.789693E-01 -3.390717E+01 
4.318294E+02  9.852875E-01 -3.659750E+01  4.032324E-03 1.019370E+02  4.005769E-03 1.021928E+02  9.789505E-01 -3.389359E+01 
4.318325E+02  9.856444E-01 -3.659668E+01  3.945234E-03 1.006846E+02  3.971640E-03 1.005136E+02  9.791363E-01 -3.390546E+01 
4.318356E+02  9.855658E-01 -3.658788E+01  3.893535E-03 9.909769E+01  3.896229E-03 9.896287E+01  9.793127E-01 -3.390688E+01 
4.318388E+02  9.856590E-01 -3.660828E+01  3.835904E-03 9.768617E+01  3.835503E-03 9.729950E+01  9.792466E-01 -3.390645E+01 
4.318419E+02  9.859057E-01 -3.660077E+01  3.777668E-03 9.636843E+01  3.781129E-03 9.636134E+01  9.794196E-01 -3.389792E+01 
4.318450E+02  9.858692E-01 -3.660466E+01  3.727464E-03 9.513016E+01  3.713865E-03 9.482045E+01  9.795099E-01 -3.390301E+01 
4.318481E+02  9.861480E-01 -3.660581E+01  3.681665E-03 9.350285E+01  3.665755E-03 9.358885E+01  9.795485E-01 -3.391957E+01 
4.318512E+02  9.862412E-01 -3.660909E+01  3.614540E-03 9.239881E+01  3.599178E-03 9.254326E+01  9.796051E-01 -3.391918E+01 
4.318544E+02  9.862988E-01 -3.662025E+01  3.565275E-03 9.121337E+01  3.553836E-03 9.147722E+01  9.797641E-01 -3.392496E+01 
4.318575E+02  9.862154E-01 -3.661878E+01  3.518062E-03 9.055982E+01  3.507193E-03 9.000893E+01  9.798566E-01 -3.392636E+01 
4.318606E+02  9.862607E-01 -3.662037E+01  3.456962E-03 8.922058E+01  3.444463E-03 8.911973E+01  9.800127E-01 -3.393077E+01 
4.318638E+02  9.863784E-01 -3.662999E+01  3.427813E-03 8.836865E+01  3.419301E-03 8.814964E+01  9.799399E-01 -3.393194E+01 
4.318669E+02  9.865196E-01 -3.663006E+01  3.344656E-03 8.732263E+01  3.364838E-03 8.739196E+01  9.800640E-01 -3.393772E+01 
4.318700E+02  9.866824E-01 -3.663954E+01  3.342116E-03 8.624260E+01  3.309488E-03 8.630335E+01  9.800033E-01 -3.394824E+01 
4.318731E+02  9.866663E-01 -3.664204E+01  3.290548E-03 8.573316E+01  3.264170E-03 8.555193E+01  9.802444E-01 -3.395150E+01 
4.318763E+02  9.868180E-01 -3.664858E+01  3.224719E-03 8.447925E+01  3.232237E-03 8.471883E+01  9.801179E-01 -3.394935E+01 
4.318794E+02  9.868125E-01 -3.665734E+01  3.195048E-03 8.404826E+01  3.176232E-03 8.413809E+01  9.802371E-01 -3.395404E+01 
4.318825E+02  9.868401E-01 -3.665848E+01  3.162459E-03 8.296383E+01  3.129574E-03 8.323223E+01  9.802726E-01 -3.396592E+01 
4.318856E+02  9.868995E-01 -3.666291E+01  3.113414E-03 8.264295E+01  3.100941E-03 8.258850E+01  9.802848E-01 -3.395489E+01 
4.318888E+02  9.870330E-01 -3.666999E+01  3.091739E-03 8.192535E+01  3.075175E-03 8.180381E+01  9.804209E-01 -3.396777E+01 
4.318919E+02  9.869358E-01 -3.667553E+01  3.025443E-03 8.091290E+01  3.027547E-03 8.142569E+01  9.804205E-01 -3.397234E+01 
4.318950E+02  9.869700E-01 -3.667364E+01  3.002470E-03 8.073567E+01  2.990408E-03 8.063367E+01  9.803981E-01 -3.398363E+01 
4.318981E+02  9.869778E-01 -3.668107E+01  2.968229E-03 8.021647E+01  2.963165E-03 7.977973E+01  9.804018E-01 -3.398181E+01 
4.319013E+02  9.871657E-01 -3.668284E+01  2.939178E-03 7.989756E+01  2.935707E-03 7.932176E+01  9.805366E-01 -3.398990E+01 
4.319044E+02  9.872411E-01 -3.669063E+01  2.895557E-03 7.903965E+01  2.895782E-03 7.896120E+01  9.806477E-01 -3.399134E+01 
