! Matrix data file written by TouchstoneData, EPCOS AG
! FILENAME: "B3935_MB.s2p"
! COMMENT: "(LY10A_14_MB.s2p) EPCOS AG 09.04.2010 16:41:"
! INFO: nport=2, nfreq=1601
! DATE: "Fri Apr  9 17:13:45 2010"
! USER: "Aleksander Breg"
!
! port | pin | signal
! -----|-----|--------
!   1  |  1  |  IN
!   2  |  4  |  OUT
! --------------------
! 
# MHZ S MA R 50
! freq  magS11 angS11  magS21 angS21  magS12 angS12  magS22 angS22
4.089200E+02  9.901146E-01 -3.307890E+01  2.452406E-04 1.116265E+02  2.444578E-04 1.065854E+02  9.844461E-01 -3.044194E+01 
4.089513E+02  9.905854E-01 -3.308730E+01  2.261323E-04 1.084050E+02  2.311742E-04 1.068350E+02  9.844773E-01 -3.044625E+01 
4.089825E+02  9.904053E-01 -3.308398E+01  2.294189E-04 1.088757E+02  2.366864E-04 1.034686E+02  9.844529E-01 -3.044912E+01 
4.090138E+02  9.906076E-01 -3.308526E+01  2.483946E-04 1.070346E+02  2.308999E-04 9.984970E+01  9.846146E-01 -3.044366E+01 
4.090450E+02  9.906042E-01 -3.308353E+01  2.587667E-04 9.889426E+01  2.342461E-04 1.034663E+02  9.847179E-01 -3.044316E+01 
4.090763E+02  9.906874E-01 -3.309072E+01  2.463792E-04 9.787261E+01  2.543812E-04 1.036313E+02  9.847870E-01 -3.044602E+01 
4.091075E+02  9.907560E-01 -3.308964E+01  2.681114E-04 9.466510E+01  2.537972E-04 9.810296E+01  9.848981E-01 -3.045039E+01 
4.091388E+02  9.906924E-01 -3.308328E+01  2.578470E-04 9.664426E+01  2.582282E-04 9.624725E+01  9.850391E-01 -3.044625E+01 
4.091700E+02  9.907672E-01 -3.309044E+01  2.551423E-04 9.324569E+01  2.600402E-04 9.338153E+01  9.848551E-01 -3.044596E+01 
4.092013E+02  9.908456E-01 -3.310026E+01  2.622526E-04 9.311076E+01  2.677294E-04 9.214036E+01  9.850082E-01 -3.044616E+01 
4.092325E+02  9.909489E-01 -3.309149E+01  2.617569E-04 9.221776E+01  2.748236E-04 9.192309E+01  9.850874E-01 -3.045642E+01 
4.092638E+02  9.909798E-01 -3.309435E+01  2.543882E-04 8.917337E+01  2.525113E-04 8.573036E+01  9.848998E-01 -3.045137E+01 
4.092950E+02  9.908857E-01 -3.309251E+01  2.616864E-04 8.643494E+01  2.421752E-04 8.911480E+01  9.851424E-01 -3.045595E+01 
4.093263E+02  9.910333E-01 -3.308416E+01  2.554208E-04 8.917641E+01  2.366258E-04 8.495757E+01  9.852527E-01 -3.046774E+01 
4.093575E+02  9.910534E-01 -3.308380E+01  2.460519E-04 8.091079E+01  2.620965E-04 8.331424E+01  9.852235E-01 -3.046186E+01 
4.093888E+02  9.910454E-01 -3.310143E+01  2.510549E-04 8.289526E+01  2.612859E-04 8.401905E+01  9.852434E-01 -3.046176E+01 
4.094200E+02  9.910069E-01 -3.310320E+01  2.632090E-04 8.085709E+01  2.571751E-04 8.337917E+01  9.853921E-01 -3.046003E+01 
4.094513E+02  9.911482E-01 -3.310057E+01  2.650978E-04 8.452078E+01  2.625073E-04 7.761687E+01  9.853634E-01 -3.046759E+01 
4.094825E+02  9.911796E-01 -3.310407E+01  2.522023E-04 8.093511E+01  2.554993E-04 8.131052E+01  9.854544E-01 -3.047295E+01 
4.095138E+02  9.913316E-01 -3.310240E+01  2.511460E-04 7.758990E+01  2.407208E-04 7.415586E+01  9.854668E-01 -3.047335E+01 
4.095450E+02  9.911560E-01 -3.310351E+01  2.338312E-04 6.784465E+01  2.181049E-04 7.453488E+01  9.857306E-01 -3.046957E+01 
4.095763E+02  9.912809E-01 -3.310110E+01  2.437532E-04 6.607714E+01  2.592362E-04 7.171071E+01  9.857079E-01 -3.046949E+01 
4.096075E+02  9.914953E-01 -3.310187E+01  2.599583E-04 6.759853E+01  2.431515E-04 6.780106E+01  9.857425E-01 -3.047379E+01 
4.096388E+02  9.913604E-01 -3.310710E+01  2.395422E-04 7.630505E+01  2.344266E-04 7.060211E+01  9.856582E-01 -3.047099E+01 
4.096700E+02  9.915936E-01 -3.310042E+01  2.302039E-04 7.018189E+01  2.689370E-04 6.770843E+01  9.857621E-01 -3.048132E+01 
4.097013E+02  9.915970E-01 -3.310250E+01  2.396489E-04 6.693941E+01  2.231245E-04 6.810091E+01  9.858759E-01 -3.048418E+01 
4.097325E+02  9.915078E-01 -3.310939E+01  2.532847E-04 6.647261E+01  2.320276E-04 7.015013E+01  9.859774E-01 -3.047781E+01 
4.097638E+02  9.917384E-01 -3.310338E+01  2.247154E-04 6.520051E+01  2.318669E-04 6.392179E+01  9.860057E-01 -3.048605E+01 
4.097950E+02  9.917314E-01 -3.310528E+01  2.061345E-04 6.470112E+01  2.096905E-04 6.272577E+01  9.861293E-01 -3.047590E+01 
4.098263E+02  9.917400E-01 -3.311045E+01  2.236827E-04 6.407539E+01  2.076278E-04 6.260266E+01  9.862623E-01 -3.048960E+01 
4.098575E+02  9.917843E-01 -3.310971E+01  2.025649E-04 5.804470E+01  2.244270E-04 6.096472E+01  9.861243E-01 -3.048937E+01 
4.098888E+02  9.919165E-01 -3.311119E+01  2.160206E-04 6.323109E+01  2.174124E-04 6.007718E+01  9.862755E-01 -3.048599E+01 
4.099200E+02  9.917470E-01 -3.311178E+01  2.059355E-04 5.951318E+01  2.069696E-04 5.708929E+01  9.862398E-01 -3.049025E+01 
4.099513E+02  9.917544E-01 -3.311886E+01  2.213465E-04 5.543602E+01  1.874789E-04 6.488369E+01  9.862332E-01 -3.049253E+01 
4.099825E+02  9.919600E-01 -3.311837E+01  1.967548E-04 6.159583E+01  1.895743E-04 5.572109E+01  9.863262E-01 -3.049656E+01 
4.100138E+02  9.864085E-01 -3.318116E+01  1.811436E-04 5.749354E+01  1.892979E-04 6.043827E+01  9.799071E-01 -3.040692E+01 
4.100450E+02  9.865603E-01 -3.318897E+01  1.924125E-04 5.909738E+01  2.095893E-04 6.071032E+01  9.802133E-01 -3.041115E+01 
4.100763E+02  9.864612E-01 -3.319104E+01  1.717288E-04 5.046185E+01  1.875351E-04 5.909137E+01  9.801287E-01 -3.041432E+01 
4.101075E+02  9.866729E-01 -3.319724E+01  1.703188E-04 6.794872E+01  1.785849E-04 6.069420E+01  9.803060E-01 -3.041747E+01 
4.101388E+02  9.866389E-01 -3.319842E+01  1.583809E-04 5.432963E+01  1.860019E-04 5.554429E+01  9.803759E-01 -3.043692E+01 
4.101700E+02  9.867616E-01 -3.319937E+01  1.768393E-04 5.713304E+01  1.852538E-04 6.450778E+01  9.803754E-01 -3.043458E+01 
4.102013E+02  9.866210E-01 -3.320219E+01  1.836099E-04 5.647251E+01  1.601135E-04 5.985912E+01  9.804625E-01 -3.043588E+01 
4.102325E+02  9.867897E-01 -3.321317E+01  1.479174E-04 5.619737E+01  1.834667E-04 5.939921E+01  9.804831E-01 -3.043394E+01 
4.102638E+02  9.867436E-01 -3.321127E+01  1.747204E-04 5.103272E+01  1.476048E-04 6.053081E+01  9.805616E-01 -3.043978E+01 
4.102950E+02  9.868130E-01 -3.320844E+01  1.471620E-04 6.106352E+01  1.432773E-04 5.656168E+01  9.804566E-01 -3.044575E+01 
4.103263E+02  9.869400E-01 -3.321273E+01  1.680117E-04 5.817500E+01  1.629345E-04 5.635038E+01  9.806977E-01 -3.045262E+01 
4.103575E+02  9.868382E-01 -3.321372E+01  1.765463E-04 6.567543E+01  1.631882E-04 5.865445E+01  9.807391E-01 -3.046036E+01 
4.103888E+02  9.868075E-01 -3.321260E+01  1.683352E-04 5.519859E+01  1.692397E-04 5.912229E+01  9.809689E-01 -3.045198E+01 
4.104200E+02  9.867700E-01 -3.322758E+01  1.532680E-04 6.618968E+01  1.433141E-04 6.683937E+01  9.808684E-01 -3.046566E+01 
4.104513E+02  9.873031E-01 -3.322708E+01  1.482602E-04 6.574958E+01  1.542989E-04 5.884750E+01  9.808776E-01 -3.046765E+01 
4.104825E+02  9.870517E-01 -3.322736E+01  1.652701E-04 6.132914E+01  1.371029E-04 6.345751E+01  9.810164E-01 -3.047363E+01 
4.105138E+02  9.871153E-01 -3.322012E+01  1.598567E-04 5.536480E+01  1.559930E-04 5.309912E+01  9.810649E-01 -3.048654E+01 
4.105450E+02  9.871823E-01 -3.324036E+01  1.445152E-04 5.438957E+01  1.451291E-04 5.928853E+01  9.811098E-01 -3.048855E+01 
4.105763E+02  9.873460E-01 -3.323177E+01  1.544764E-04 5.978307E+01  1.391076E-04 6.440549E+01  9.811427E-01 -3.049133E+01 
4.106075E+02  9.871696E-01 -3.324434E+01  1.622437E-04 5.910905E+01  1.573337E-04 5.803929E+01  9.813102E-01 -3.049304E+01 
4.106388E+02  9.872638E-01 -3.323517E+01  1.426612E-04 5.674598E+01  1.408354E-04 6.316916E+01  9.812065E-01 -3.049214E+01 
4.106700E+02  9.872500E-01 -3.324576E+01  1.485756E-04 6.400946E+01  1.396152E-04 7.117452E+01  9.814027E-01 -3.050145E+01 
4.107013E+02  9.871824E-01 -3.324533E+01  1.322927E-04 6.464614E+01  1.655080E-04 6.715834E+01  9.813541E-01 -3.049831E+01 
4.107325E+02  9.873974E-01 -3.325416E+01  1.737057E-04 5.625965E+01  1.680847E-04 6.479917E+01  9.813435E-01 -3.050768E+01 
4.107638E+02  9.875582E-01 -3.325181E+01  1.436064E-04 6.748028E+01  1.262130E-04 6.255061E+01  9.814479E-01 -3.051985E+01 
4.107950E+02  9.874546E-01 -3.325382E+01  1.332907E-04 6.501359E+01  1.436402E-04 5.474569E+01  9.814581E-01 -3.051846E+01 
4.108263E+02  9.875122E-01 -3.325023E+01  1.438527E-04 6.371873E+01  1.357004E-04 5.853943E+01  9.815337E-01 -3.051860E+01 
4.108575E+02  9.875689E-01 -3.325334E+01  1.308283E-04 5.725418E+01  1.539463E-04 6.357040E+01  9.814976E-01 -3.052249E+01 
4.108888E+02  9.875517E-01 -3.326147E+01  1.562859E-04 6.162310E+01  1.379641E-04 6.108919E+01  9.816390E-01 -3.053598E+01 
4.109200E+02  9.875651E-01 -3.327807E+01  1.255771E-04 5.902688E+01  1.323203E-04 6.504473E+01  9.816750E-01 -3.053056E+01 
4.109513E+02  9.875973E-01 -3.326874E+01  1.583571E-04 6.414105E+01  1.409967E-04 5.767933E+01  9.819100E-01 -3.054499E+01 
4.109825E+02  9.876233E-01 -3.327723E+01  1.049777E-04 7.191116E+01  1.375666E-04 5.688579E+01  9.819172E-01 -3.054253E+01 
4.110138E+02  9.876856E-01 -3.326809E+01  1.307646E-04 6.261264E+01  1.252161E-04 6.007645E+01  9.818217E-01 -3.055350E+01 
4.110450E+02  9.878353E-01 -3.326786E+01  1.329357E-04 5.283193E+01  1.582810E-04 6.203063E+01  9.818426E-01 -3.055181E+01 
4.110763E+02  9.879751E-01 -3.327367E+01  1.233650E-04 6.275709E+01  1.291331E-04 5.657743E+01  9.820271E-01 -3.055569E+01 
4.111075E+02  9.878589E-01 -3.327540E+01  1.384233E-04 5.745774E+01  1.222496E-04 6.263225E+01  9.820535E-01 -3.056235E+01 
4.111388E+02  9.877413E-01 -3.328358E+01  1.270807E-04 6.197693E+01  1.388979E-04 6.084041E+01  9.820166E-01 -3.056378E+01 
4.111700E+02  9.880958E-01 -3.328795E+01  1.524412E-04 5.545233E+01  1.193465E-04 6.536920E+01  9.822531E-01 -3.056636E+01 
4.112013E+02  9.877987E-01 -3.329392E+01  1.072327E-04 6.229817E+01  1.425318E-04 7.122523E+01  9.823676E-01 -3.058027E+01 
4.112325E+02  9.879822E-01 -3.329141E+01  1.438949E-04 6.341211E+01  1.545303E-04 7.022426E+01  9.824295E-01 -3.057891E+01 
4.112638E+02  9.879948E-01 -3.330548E+01  1.394758E-04 6.083823E+01  1.251160E-04 6.471808E+01  9.823027E-01 -3.058302E+01 
4.112950E+02  9.881635E-01 -3.329708E+01  1.249370E-04 6.772768E+01  1.127925E-04 5.980185E+01  9.824586E-01 -3.059303E+01 
4.113263E+02  9.880292E-01 -3.330476E+01  1.379135E-04 5.813381E+01  1.332722E-04 5.994363E+01  9.822853E-01 -3.059885E+01 
4.113575E+02  9.881514E-01 -3.331423E+01  1.157321E-04 6.588096E+01  1.266022E-04 6.740342E+01  9.824140E-01 -3.060576E+01 
4.113888E+02  9.881808E-01 -3.330456E+01  1.256817E-04 6.171188E+01  1.112970E-04 5.164304E+01  9.824549E-01 -3.060092E+01 
4.114200E+02  9.881529E-01 -3.330947E+01  1.601303E-04 6.265956E+01  1.400351E-04 6.101736E+01  9.825939E-01 -3.061195E+01 
4.114513E+02  9.882952E-01 -3.331515E+01  1.206888E-04 6.645738E+01  1.102974E-04 6.495047E+01  9.826181E-01 -3.061835E+01 
4.114825E+02  9.883325E-01 -3.332022E+01  1.310157E-04 6.495306E+01  1.223039E-04 5.837305E+01  9.827266E-01 -3.061638E+01 
4.115138E+02  9.883806E-01 -3.332770E+01  1.274946E-04 5.790439E+01  1.088922E-04 5.813919E+01  9.829400E-01 -3.062465E+01 
4.115450E+02  9.880743E-01 -3.332311E+01  1.057957E-04 5.921869E+01  1.295717E-04 5.564346E+01  9.827517E-01 -3.061750E+01 
4.115763E+02  9.883446E-01 -3.332727E+01  1.238718E-04 4.880284E+01  1.179458E-04 6.440994E+01  9.829707E-01 -3.062160E+01 
4.116075E+02  9.883216E-01 -3.332965E+01  1.168961E-04 4.832823E+01  1.086093E-04 5.031525E+01  9.829553E-01 -3.063471E+01 
4.116388E+02  9.886457E-01 -3.334034E+01  1.195086E-04 6.291282E+01  1.131996E-04 4.478767E+01  9.831124E-01 -3.064160E+01 
4.116700E+02  9.885559E-01 -3.333686E+01  1.096982E-04 5.018389E+01  1.219397E-04 5.724613E+01  9.831727E-01 -3.064456E+01 
4.117013E+02  9.884570E-01 -3.334283E+01  1.053115E-04 6.167182E+01  9.587178E-05 5.962169E+01  9.831878E-01 -3.065440E+01 
4.117325E+02  9.885788E-01 -3.335200E+01  9.521917E-05 4.736103E+01  1.000085E-04 6.316819E+01  9.831856E-01 -3.065105E+01 
4.117638E+02  9.888162E-01 -3.334447E+01  7.805385E-05 6.149501E+01  1.178982E-04 6.360461E+01  9.833397E-01 -3.066073E+01 
4.117950E+02  9.887545E-01 -3.336009E+01  9.166747E-05 6.789327E+01  1.056597E-04 5.401900E+01  9.833685E-01 -3.066936E+01 
4.118263E+02  9.886899E-01 -3.334593E+01  9.718206E-05 6.303207E+01  1.071014E-04 4.301545E+01  9.831784E-01 -3.066467E+01 
4.118575E+02  9.887814E-01 -3.335279E+01  9.574948E-05 7.213596E+01  8.359534E-05 6.542585E+01  9.833258E-01 -3.067083E+01 
4.118888E+02  9.887905E-01 -3.336294E+01  1.052381E-04 6.283785E+01  6.174850E-05 6.557968E+01  9.833118E-01 -3.068121E+01 
4.119200E+02  9.888563E-01 -3.336184E+01  8.834410E-05 5.917162E+01  8.915001E-05 4.864352E+01  9.834472E-01 -3.068137E+01 
4.119513E+02  9.886868E-01 -3.336640E+01  9.197749E-05 7.444127E+01  9.380230E-05 4.601406E+01  9.834261E-01 -3.068454E+01 
4.119825E+02  9.888086E-01 -3.337008E+01  7.390116E-05 5.841021E+01  6.792702E-05 6.028448E+01  9.835236E-01 -3.069550E+01 
4.120138E+02  9.889569E-01 -3.337329E+01  9.390595E-05 5.873012E+01  7.652736E-05 6.958696E+01  9.835585E-01 -3.069485E+01 
4.120450E+02  9.889288E-01 -3.337429E+01  1.043275E-04 6.736679E+01  7.321195E-05 5.534373E+01  9.835568E-01 -3.070446E+01 
4.120763E+02  9.888911E-01 -3.337139E+01  7.976237E-05 6.996283E+01  8.571451E-05 7.609568E+01  9.837028E-01 -3.070981E+01 
4.121075E+02  9.892592E-01 -3.337795E+01  6.602227E-05 7.418374E+01  6.732726E-05 7.536770E+01  9.837539E-01 -3.071117E+01 
4.121388E+02  9.892376E-01 -3.339028E+01  6.496172E-05 7.889308E+01  7.029920E-05 7.863816E+01  9.837420E-01 -3.071598E+01 
4.121700E+02  9.890397E-01 -3.339802E+01  7.694375E-05 8.183156E+01  6.124298E-05 6.818426E+01  9.839133E-01 -3.072551E+01 
4.122013E+02  9.892223E-01 -3.338928E+01  8.421391E-05 7.061268E+01  6.661753E-05 8.635759E+01  9.838133E-01 -3.072525E+01 
4.122325E+02  9.891883E-01 -3.338993E+01  6.708033E-05 9.658505E+01  5.057400E-05 1.032373E+02  9.839356E-01 -3.073911E+01 
4.122638E+02  9.894893E-01 -3.339374E+01  9.949405E-05 9.241661E+01  6.397664E-05 8.611286E+01  9.838221E-01 -3.073233E+01 
4.122950E+02  9.892750E-01 -3.340033E+01  7.034024E-05 7.830945E+01  6.955482E-05 9.663345E+01  9.839909E-01 -3.074035E+01 
4.123263E+02  9.894088E-01 -3.340371E+01  7.220229E-05 9.526941E+01  6.625153E-05 1.020547E+02  9.841037E-01 -3.074344E+01 
4.123575E+02  9.892984E-01 -3.339778E+01  7.306413E-05 1.232094E+02  8.069180E-05 1.054654E+02  9.841579E-01 -3.075365E+01 
4.123888E+02  9.892717E-01 -3.340530E+01  8.766837E-05 9.974425E+01  8.965871E-05 1.069529E+02  9.839448E-01 -3.074530E+01 
4.124200E+02  9.891995E-01 -3.340014E+01  9.547770E-05 1.128254E+02  7.235602E-05 9.385566E+01  9.840840E-01 -3.074361E+01 
4.124513E+02  9.891766E-01 -3.341628E+01  1.087854E-04 1.029497E+02  8.678966E-05 1.098890E+02  9.841410E-01 -3.075161E+01 
4.124825E+02  9.892839E-01 -3.342007E+01  8.361001E-05 1.157844E+02  9.357272E-05 1.165920E+02  9.841154E-01 -3.075508E+01 
4.125138E+02  9.892878E-01 -3.341476E+01  1.086768E-04 1.245312E+02  1.115643E-04 1.164199E+02  9.839913E-01 -3.075601E+01 
4.125450E+02  9.891657E-01 -3.342988E+01  1.118805E-04 1.068379E+02  1.139962E-04 1.256280E+02  9.839641E-01 -3.075626E+01 
4.125763E+02  9.893146E-01 -3.342424E+01  1.224594E-04 1.176628E+02  1.039875E-04 1.231659E+02  9.840475E-01 -3.075918E+01 
4.126075E+02  9.891357E-01 -3.342594E+01  1.169166E-04 1.238785E+02  1.258165E-04 1.161378E+02  9.839549E-01 -3.075556E+01 
4.126388E+02  9.891962E-01 -3.343097E+01  1.075570E-04 1.170327E+02  1.419769E-04 1.146216E+02  9.839287E-01 -3.075699E+01 
4.126700E+02  9.894136E-01 -3.342760E+01  1.485850E-04 1.179185E+02  1.239622E-04 1.209228E+02  9.839281E-01 -3.077111E+01 
4.127013E+02  9.893307E-01 -3.343437E+01  1.232511E-04 1.206572E+02  1.285001E-04 1.147403E+02  9.839354E-01 -3.076606E+01 
4.127325E+02  9.893013E-01 -3.344549E+01  1.311221E-04 1.139075E+02  1.366302E-04 1.158441E+02  9.838707E-01 -3.076580E+01 
4.127638E+02  9.891938E-01 -3.344372E+01  1.442992E-04 1.190495E+02  1.571382E-04 1.200792E+02  9.839753E-01 -3.077086E+01 
4.127950E+02  9.892337E-01 -3.344394E+01  1.611469E-04 1.031268E+02  1.613119E-04 1.182143E+02  9.840050E-01 -3.077024E+01 
4.128263E+02  9.891837E-01 -3.344470E+01  1.545353E-04 1.109424E+02  1.517920E-04 1.033958E+02  9.839505E-01 -3.077588E+01 
4.128575E+02  9.891762E-01 -3.344259E+01  1.935987E-04 1.094677E+02  1.831456E-04 1.075082E+02  9.840915E-01 -3.078255E+01 
4.128888E+02  9.891723E-01 -3.344800E+01  1.861227E-04 1.145727E+02  1.605281E-04 1.071986E+02  9.839665E-01 -3.078854E+01 
4.129200E+02  9.894027E-01 -3.344457E+01  1.723450E-04 1.104361E+02  1.915187E-04 1.079907E+02  9.840691E-01 -3.078776E+01 
4.129513E+02  9.891832E-01 -3.345935E+01  1.955099E-04 1.060543E+02  1.730840E-04 1.015404E+02  9.840873E-01 -3.078964E+01 
4.129825E+02  9.891597E-01 -3.346403E+01  2.029873E-04 1.060305E+02  1.938718E-04 9.970193E+01  9.839778E-01 -3.079185E+01 
4.130138E+02  9.893599E-01 -3.346121E+01  1.902015E-04 1.106613E+02  1.976955E-04 1.013063E+02  9.840908E-01 -3.079425E+01 
4.130450E+02  9.894052E-01 -3.346039E+01  1.824727E-04 1.035027E+02  1.929979E-04 1.006526E+02  9.839999E-01 -3.079110E+01 
4.130763E+02  9.889883E-01 -3.346601E+01  1.872148E-04 1.040274E+02  1.846894E-04 9.836541E+01  9.839857E-01 -3.080780E+01 
4.131075E+02  9.892902E-01 -3.346940E+01  1.972191E-04 1.051359E+02  1.960802E-04 1.082947E+02  9.840886E-01 -3.079428E+01 
4.131388E+02  9.891412E-01 -3.346384E+01  2.003012E-04 9.420305E+01  1.750461E-04 1.079657E+02  9.838195E-01 -3.079699E+01 
4.131700E+02  9.891998E-01 -3.347528E+01  1.812631E-04 9.256416E+01  1.890484E-04 9.906110E+01  9.841636E-01 -3.080091E+01 
4.132013E+02  9.894280E-01 -3.347897E+01  1.912099E-04 9.744696E+01  1.829200E-04 9.268957E+01  9.840593E-01 -3.081176E+01 
4.132325E+02  9.893706E-01 -3.347591E+01  1.813367E-04 9.204752E+01  1.967280E-04 9.549394E+01  9.840603E-01 -3.081115E+01 
4.132638E+02  9.893438E-01 -3.348648E+01  2.052004E-04 9.389891E+01  1.978092E-04 9.468112E+01  9.840514E-01 -3.081812E+01 
4.132950E+02  9.893819E-01 -3.348575E+01  2.015563E-04 9.354806E+01  1.980283E-04 1.008356E+02  9.840054E-01 -3.081569E+01 
4.133263E+02  9.891889E-01 -3.349070E+01  1.898626E-04 9.526299E+01  2.006655E-04 9.456026E+01  9.840540E-01 -3.081924E+01 
4.133575E+02  9.893308E-01 -3.350239E+01  1.909443E-04 9.000122E+01  1.908585E-04 9.657357E+01  9.840411E-01 -3.081847E+01 
4.133888E+02  9.893747E-01 -3.349247E+01  2.147123E-04 9.504101E+01  1.930225E-04 8.809447E+01  9.840043E-01 -3.082380E+01 
4.134200E+02  9.892914E-01 -3.349984E+01  2.201446E-04 8.876662E+01  2.233603E-04 9.107862E+01  9.841531E-01 -3.082813E+01 
4.134513E+02  9.892258E-01 -3.349710E+01  1.961696E-04 8.786565E+01  2.223844E-04 9.613051E+01  9.840209E-01 -3.082690E+01 
4.134825E+02  9.892448E-01 -3.349854E+01  2.085844E-04 8.687118E+01  2.034621E-04 9.815733E+01  9.840477E-01 -3.082762E+01 
4.135138E+02  9.892684E-01 -3.350883E+01  2.055135E-04 9.259156E+01  2.024310E-04 9.479796E+01  9.840945E-01 -3.082920E+01 
4.135450E+02  9.891860E-01 -3.351018E+01  2.140821E-04 8.976243E+01  2.153399E-04 9.293750E+01  9.841026E-01 -3.083404E+01 
4.135763E+02  9.892206E-01 -3.350926E+01  2.302719E-04 8.701790E+01  2.404019E-04 8.788481E+01  9.839170E-01 -3.084048E+01 
4.136075E+02  9.892190E-01 -3.351271E+01  2.124727E-04 8.620711E+01  2.139987E-04 8.930331E+01  9.840228E-01 -3.083757E+01 
4.136388E+02  9.892729E-01 -3.350258E+01  2.167097E-04 8.917589E+01  2.238932E-04 8.771956E+01  9.841473E-01 -3.083941E+01 
4.136700E+02  9.893756E-01 -3.352048E+01  2.123620E-04 8.496996E+01  2.255037E-04 8.906952E+01  9.841555E-01 -3.084894E+01 
4.137013E+02  9.893190E-01 -3.351587E+01  2.245632E-04 8.300603E+01  2.191588E-04 9.072033E+01  9.839145E-01 -3.085324E+01 
4.137325E+02  9.892346E-01 -3.352384E+01  2.093246E-04 8.592161E+01  2.287288E-04 8.458095E+01  9.841877E-01 -3.085050E+01 
4.137638E+02  9.892426E-01 -3.352609E+01  2.121128E-04 8.268192E+01  2.269325E-04 8.589070E+01  9.840331E-01 -3.085477E+01 
4.137950E+02  9.892671E-01 -3.353233E+01  2.020881E-04 8.313165E+01  2.217237E-04 8.307937E+01  9.840810E-01 -3.085602E+01 
