! Matrix data file written by TouchstoneData, EPCOS AG
! FILENAME: "B3932_NB.s2p"
! COMMENT: "PINNING 1/4; PORTEX 1=93PS; 2=179.5PS; 13 Ja"
! INFO: nport=2, nfreq=1601
! DATE: "Thu Jun 25 17:21:56 2009"
! USER: "Aleksander Breg"
!
! port | pin | signal
! -----|-----|--------
!   1  |  1  |  input
!   2  |  4  |  output
! --------------------
! 
# MHZ S MA R 50
! freq  magS11 angS11  magS21 angS21  magS12 angS12  magS22 angS22
4.316700E+02  9.882318E-01 -3.100252E+01  5.074480E-04 -1.518174E+02  5.025322E-04 -1.525416E+02  9.855836E-01 -3.427569E+01 
4.316731E+02  9.880290E-01 -3.102152E+01  5.098485E-04 -1.515275E+02  5.023465E-04 -1.517252E+02  9.853243E-01 -3.428062E+01 
4.316763E+02  9.882708E-01 -3.101213E+01  5.178429E-04 -1.511711E+02  5.092851E-04 -1.513063E+02  9.854515E-01 -3.427898E+01 
4.316794E+02  9.880323E-01 -3.101781E+01  5.199503E-04 -1.517171E+02  5.203659E-04 -1.509805E+02  9.855410E-01 -3.427968E+01 
4.316825E+02  9.881244E-01 -3.101771E+01  5.163043E-04 -1.505910E+02  5.124211E-04 -1.507422E+02  9.854735E-01 -3.428325E+01 
4.316856E+02  9.883873E-01 -3.101929E+01  5.269213E-04 -1.506057E+02  5.297392E-04 -1.506919E+02  9.851697E-01 -3.429551E+01 
4.316888E+02  9.883229E-01 -3.102405E+01  5.365053E-04 -1.505209E+02  5.333373E-04 -1.502325E+02  9.850614E-01 -3.430294E+01 
4.316919E+02  9.883120E-01 -3.101966E+01  5.368817E-04 -1.497611E+02  5.368273E-04 -1.495991E+02  9.850723E-01 -3.428511E+01 
4.316950E+02  9.882752E-01 -3.103275E+01  5.488166E-04 -1.496540E+02  5.408947E-04 -1.490413E+02  9.851590E-01 -3.430253E+01 
4.316981E+02  9.882926E-01 -3.102129E+01  5.453908E-04 -1.495268E+02  5.441131E-04 -1.491956E+02  9.850689E-01 -3.430654E+01 
4.317013E+02  9.885564E-01 -3.102330E+01  5.556927E-04 -1.495137E+02  5.532819E-04 -1.495304E+02  9.850329E-01 -3.430427E+01 
4.317044E+02  9.882567E-01 -3.104179E+01  5.543753E-04 -1.489860E+02  5.540044E-04 -1.488533E+02  9.852840E-01 -3.431158E+01 
4.317075E+02  9.882300E-01 -3.103734E+01  5.626362E-04 -1.488977E+02  5.648661E-04 -1.483349E+02  9.850022E-01 -3.430314E+01 
4.317106E+02  9.883918E-01 -3.104702E+01  5.756976E-04 -1.485953E+02  5.681818E-04 -1.486204E+02  9.850449E-01 -3.431119E+01 
4.317138E+02  9.883314E-01 -3.103739E+01  5.763180E-04 -1.488546E+02  5.693578E-04 -1.482021E+02  9.849650E-01 -3.431883E+01 
4.317169E+02  9.886005E-01 -3.104053E+01  5.879301E-04 -1.481399E+02  5.747550E-04 -1.482210E+02  9.849788E-01 -3.431628E+01 
4.317200E+02  9.881071E-01 -3.106542E+01  5.835596E-04 -1.472992E+02  5.857833E-04 -1.473521E+02  9.849922E-01 -3.432440E+01 
4.317231E+02  9.883289E-01 -3.105774E+01  5.974091E-04 -1.474286E+02  5.942799E-04 -1.477249E+02  9.850617E-01 -3.432392E+01 
4.317262E+02  9.882857E-01 -3.106150E+01  6.065500E-04 -1.474654E+02  6.018345E-04 -1.473377E+02  9.850524E-01 -3.431939E+01 
4.317294E+02  9.882718E-01 -3.107433E+01  6.121060E-04 -1.472080E+02  6.081947E-04 -1.473726E+02  9.849940E-01 -3.434080E+01 
4.317325E+02  9.885194E-01 -3.107012E+01  6.178345E-04 -1.472362E+02  6.241309E-04 -1.467825E+02  9.851100E-01 -3.432351E+01 
4.317356E+02  9.882527E-01 -3.107824E+01  6.247671E-04 -1.466681E+02  6.200596E-04 -1.473097E+02  9.848788E-01 -3.433935E+01 
4.317388E+02  9.883740E-01 -3.106383E+01  6.324603E-04 -1.474216E+02  6.330496E-04 -1.471191E+02  9.850430E-01 -3.433224E+01 
4.317419E+02  9.883184E-01 -3.108136E+01  6.438852E-04 -1.467949E+02  6.457990E-04 -1.461752E+02  9.853074E-01 -3.434951E+01 
4.317450E+02  9.884822E-01 -3.108073E+01  6.506275E-04 -1.464479E+02  6.496373E-04 -1.467438E+02  9.850851E-01 -3.434860E+01 
4.317481E+02  9.884746E-01 -3.108440E+01  6.560913E-04 -1.470218E+02  6.609280E-04 -1.469955E+02  9.851301E-01 -3.434127E+01 
4.317513E+02  9.883221E-01 -3.110017E+01  6.664412E-04 -1.464782E+02  6.645307E-04 -1.464105E+02  9.851205E-01 -3.435355E+01 
4.317544E+02  9.883277E-01 -3.109548E+01  6.799313E-04 -1.471327E+02  6.752763E-04 -1.463388E+02  9.849048E-01 -3.434503E+01 
4.317575E+02  9.882378E-01 -3.110238E+01  6.898285E-04 -1.463124E+02  6.869497E-04 -1.467234E+02  9.853137E-01 -3.436002E+01 
4.317606E+02  9.882948E-01 -3.109996E+01  7.073008E-04 -1.466422E+02  6.973477E-04 -1.463575E+02  9.848618E-01 -3.436849E+01 
4.317638E+02  9.886434E-01 -3.108855E+01  7.071337E-04 -1.465519E+02  7.045413E-04 -1.466398E+02  9.850854E-01 -3.435745E+01 
4.317669E+02  9.883338E-01 -3.110333E+01  7.213358E-04 -1.465494E+02  7.199582E-04 -1.469980E+02  9.850782E-01 -3.436547E+01 
4.317700E+02  9.882718E-01 -3.110241E+01  7.324143E-04 -1.465681E+02  7.281893E-04 -1.469184E+02  9.851144E-01 -3.436005E+01 
4.317731E+02  9.881982E-01 -3.111736E+01  7.443463E-04 -1.470703E+02  7.410950E-04 -1.462734E+02  9.852357E-01 -3.437088E+01 
4.317763E+02  9.883602E-01 -3.111381E+01  7.529635E-04 -1.469018E+02  7.548755E-04 -1.463233E+02  9.848525E-01 -3.437289E+01 
4.317794E+02  9.884673E-01 -3.111085E+01  7.632699E-04 -1.468905E+02  7.634866E-04 -1.463993E+02  9.851574E-01 -3.436680E+01 
4.317825E+02  9.882831E-01 -3.111117E+01  7.822291E-04 -1.465293E+02  7.746462E-04 -1.464823E+02  9.848679E-01 -3.437011E+01 
4.317856E+02  9.883777E-01 -3.110640E+01  7.866199E-04 -1.466829E+02  7.790019E-04 -1.466821E+02  9.850657E-01 -3.436912E+01 
4.317887E+02  9.882283E-01 -3.112246E+01  8.065644E-04 -1.467237E+02  7.974689E-04 -1.463560E+02  9.852152E-01 -3.437936E+01 
4.317919E+02  9.883295E-01 -3.112346E+01  8.092492E-04 -1.471147E+02  8.105957E-04 -1.461655E+02  9.850279E-01 -3.438858E+01 
4.317950E+02  9.882650E-01 -3.112797E+01  8.278766E-04 -1.471665E+02  8.227432E-04 -1.468497E+02  9.851148E-01 -3.438328E+01 
4.317981E+02  9.882191E-01 -3.112720E+01  8.359221E-04 -1.470225E+02  8.357663E-04 -1.472675E+02  9.849428E-01 -3.438831E+01 
4.318013E+02  9.882499E-01 -3.112630E+01  8.505330E-04 -1.476102E+02  8.527416E-04 -1.472936E+02  9.849936E-01 -3.438465E+01 
4.318044E+02  9.880442E-01 -3.114851E+01  8.618936E-04 -1.474987E+02  8.666131E-04 -1.471476E+02  9.850296E-01 -3.438944E+01 
4.318075E+02  9.880029E-01 -3.113570E+01  8.807224E-04 -1.474892E+02  8.711049E-04 -1.479292E+02  9.850280E-01 -3.439017E+01 
4.318106E+02  9.880027E-01 -3.114769E+01  8.918913E-04 -1.479724E+02  8.938301E-04 -1.477631E+02  9.849936E-01 -3.439560E+01 
4.318138E+02  9.880818E-01 -3.115396E+01  9.078511E-04 -1.483304E+02  9.037393E-04 -1.481084E+02  9.848922E-01 -3.440737E+01 
4.318169E+02  9.880947E-01 -3.114994E+01  9.285136E-04 -1.485485E+02  9.172527E-04 -1.481246E+02  9.849703E-01 -3.440129E+01 
4.318200E+02  9.878601E-01 -3.114727E+01  9.405997E-04 -1.487158E+02  9.427437E-04 -1.488259E+02  9.849062E-01 -3.441323E+01 
4.318231E+02  9.879796E-01 -3.116244E+01  9.552323E-04 -1.490061E+02  9.454881E-04 -1.484275E+02  9.848281E-01 -3.441602E+01 
4.318263E+02  9.878252E-01 -3.116120E+01  9.718538E-04 -1.490837E+02  9.665361E-04 -1.490388E+02  9.850665E-01 -3.442314E+01 
4.318294E+02  9.879563E-01 -3.117089E+01  9.902191E-04 -1.494354E+02  9.879782E-04 -1.494320E+02  9.848216E-01 -3.442870E+01 
4.318325E+02  9.878846E-01 -3.116701E+01  1.007000E-03 -1.499473E+02  1.001250E-03 -1.491877E+02  9.850398E-01 -3.442394E+01 
4.318356E+02  9.880339E-01 -3.117903E+01  1.020226E-03 -1.498497E+02  1.014875E-03 -1.501118E+02  9.849086E-01 -3.443610E+01 
4.318388E+02  9.881139E-01 -3.118084E+01  1.039237E-03 -1.502768E+02  1.035927E-03 -1.501398E+02  9.849240E-01 -3.443300E+01 
4.318419E+02  9.880157E-01 -3.118113E+01  1.056627E-03 -1.508469E+02  1.053331E-03 -1.506536E+02  9.849656E-01 -3.444381E+01 
4.318450E+02  9.879406E-01 -3.118297E+01  1.074822E-03 -1.509113E+02  1.074268E-03 -1.507711E+02  9.847562E-01 -3.445336E+01 
4.318481E+02  9.879458E-01 -3.118557E+01  1.100542E-03 -1.515050E+02  1.089066E-03 -1.512075E+02  9.849050E-01 -3.444551E+01 
4.318512E+02  9.880872E-01 -3.119156E+01  1.118549E-03 -1.515764E+02  1.114910E-03 -1.517191E+02  9.845970E-01 -3.446667E+01 
4.318544E+02  9.881127E-01 -3.119312E+01  1.131683E-03 -1.522906E+02  1.133551E-03 -1.521437E+02  9.849294E-01 -3.445635E+01 
4.318575E+02  9.878955E-01 -3.119947E+01  1.153572E-03 -1.524137E+02  1.155608E-03 -1.524622E+02  9.848018E-01 -3.446213E+01 
4.318606E+02  9.881993E-01 -3.119852E+01  1.178774E-03 -1.528799E+02  1.176856E-03 -1.524854E+02  9.848018E-01 -3.446795E+01 
4.318638E+02  9.880394E-01 -3.120829E+01  1.201713E-03 -1.535167E+02  1.198125E-03 -1.532337E+02  9.848994E-01 -3.446967E+01 
4.318669E+02  9.878971E-01 -3.121233E+01  1.219633E-03 -1.537880E+02  1.218640E-03 -1.536348E+02  9.844574E-01 -3.448408E+01 
4.318700E+02  9.878917E-01 -3.121637E+01  1.242064E-03 -1.542663E+02  1.234225E-03 -1.543935E+02  9.846418E-01 -3.448318E+01 
4.318731E+02  9.878034E-01 -3.122142E+01  1.258488E-03 -1.550663E+02  1.256663E-03 -1.545725E+02  9.845040E-01 -3.448365E+01 
4.318763E+02  9.879737E-01 -3.122212E+01  1.290745E-03 -1.554757E+02  1.282259E-03 -1.550824E+02  9.845656E-01 -3.447092E+01 
4.318794E+02  9.877034E-01 -3.123913E+01  1.314716E-03 -1.560612E+02  1.300206E-03 -1.555756E+02  9.845198E-01 -3.447895E+01 
4.318825E+02  9.875711E-01 -3.123462E+01  1.336138E-03 -1.565338E+02  1.331606E-03 -1.563228E+02  9.842930E-01 -3.448996E+01 
4.318856E+02  9.879427E-01 -3.123188E+01  1.356354E-03 -1.568495E+02  1.352528E-03 -1.570962E+02  9.844686E-01 -3.448512E+01 
4.318888E+02  9.876442E-01 -3.123940E+01  1.384207E-03 -1.574842E+02  1.376710E-03 -1.572852E+02  9.841048E-01 -3.450159E+01 
4.318919E+02  9.878080E-01 -3.124069E+01  1.410655E-03 -1.582911E+02  1.403752E-03 -1.581613E+02  9.842807E-01 -3.449845E+01 
4.318950E+02  9.875252E-01 -3.125002E+01  1.433820E-03 -1.588671E+02  1.424629E-03 -1.587303E+02  9.842263E-01 -3.450154E+01 
4.318981E+02  9.875605E-01 -3.125410E+01  1.462469E-03 -1.594530E+02  1.456328E-03 -1.592190E+02  9.839458E-01 -3.450705E+01 
4.319013E+02  9.876459E-01 -3.124807E+01  1.488111E-03 -1.599964E+02  1.480904E-03 -1.597380E+02  9.841514E-01 -3.450976E+01 
4.319044E+02  9.873257E-01 -3.125505E+01  1.516522E-03 -1.607077E+02  1.501859E-03 -1.605731E+02  9.838853E-01 -3.451352E+01 
4.319075E+02  9.876873E-01 -3.126244E+01  1.543722E-03 -1.615013E+02  1.538293E-03 -1.611074E+02  9.840419E-01 -3.451519E+01 
4.319106E+02  9.874778E-01 -3.127483E+01  1.568218E-03 -1.621196E+02  1.559244E-03 -1.620309E+02  9.840066E-01 -3.452068E+01 
4.319137E+02  9.874229E-01 -3.127333E+01  1.606622E-03 -1.630490E+02  1.588342E-03 -1.627939E+02  9.839519E-01 -3.451687E+01 
4.319169E+02  9.873700E-01 -3.127726E+01  1.631181E-03 -1.635937E+02  1.625753E-03 -1.636748E+02  9.840305E-01 -3.452772E+01 
4.319200E+02  9.873027E-01 -3.128905E+01  1.661436E-03 -1.644082E+02  1.652804E-03 -1.643327E+02  9.837171E-01 -3.452908E+01 
4.319231E+02  9.875769E-01 -3.128464E+01  1.695602E-03 -1.651147E+02  1.685140E-03 -1.651162E+02  9.839531E-01 -3.452388E+01 
4.319263E+02  9.872554E-01 -3.129478E+01  1.723597E-03 -1.660725E+02  1.717347E-03 -1.658442E+02  9.837638E-01 -3.453412E+01 
4.319294E+02  9.873878E-01 -3.129451E+01  1.748261E-03 -1.668756E+02  1.740727E-03 -1.668650E+02  9.839613E-01 -3.452551E+01 
4.319325E+02  9.871266E-01 -3.129765E+01  1.785319E-03 -1.676275E+02  1.781965E-03 -1.675003E+02  9.839752E-01 -3.453565E+01 
4.319356E+02  9.872242E-01 -3.129603E+01  1.811687E-03 -1.685298E+02  1.810371E-03 -1.685907E+02  9.836205E-01 -3.453936E+01 
4.319388E+02  9.873531E-01 -3.129657E+01  1.848074E-03 -1.695852E+02  1.838322E-03 -1.692760E+02  9.837666E-01 -3.453340E+01 
4.319419E+02  9.870889E-01 -3.130923E+01  1.882569E-03 -1.703464E+02  1.871080E-03 -1.703322E+02  9.836233E-01 -3.454467E+01 
4.319450E+02  9.871507E-01 -3.130886E+01  1.920125E-03 -1.714032E+02  1.906069E-03 -1.714122E+02  9.836107E-01 -3.453997E+01 
4.319481E+02  9.869682E-01 -3.130816E+01  1.952634E-03 -1.723730E+02  1.942818E-03 -1.723456E+02  9.836796E-01 -3.454280E+01 
4.319513E+02  9.869136E-01 -3.132094E+01  1.987299E-03 -1.734069E+02  1.973465E-03 -1.731390E+02  9.836434E-01 -3.454936E+01 
4.319544E+02  9.869457E-01 -3.131829E+01  2.018651E-03 -1.745042E+02  2.010624E-03 -1.741352E+02  9.836664E-01 -3.454579E+01 
4.319575E+02  9.868405E-01 -3.132607E+01  2.054957E-03 -1.756596E+02  2.045825E-03 -1.752957E+02  9.832535E-01 -3.455043E+01 
4.319606E+02  9.871233E-01 -3.131363E+01  2.087363E-03 -1.766097E+02  2.085808E-03 -1.764338E+02  9.833334E-01 -3.454214E+01 
4.319638E+02  9.866133E-01 -3.132449E+01  2.124425E-03 -1.775414E+02  2.114167E-03 -1.774445E+02  9.835754E-01 -3.455995E+01 
4.319669E+02  9.867434E-01 -3.131816E+01  2.163575E-03 -1.787516E+02  2.156396E-03 -1.784859E+02  9.833324E-01 -3.455731E+01 
4.319700E+02  9.865145E-01 -3.133961E+01  2.198569E-03 -1.799231E+02  2.189035E-03 -1.795980E+02  9.834674E-01 -3.456625E+01 
4.319731E+02  9.865673E-01 -3.134038E+01  2.234027E-03 1.788187E+02  2.224960E-03 1.788301E+02  9.832278E-01 -3.456941E+01 
4.319762E+02  9.867242E-01 -3.133233E+01  2.264839E-03 1.778035E+02  2.261448E-03 1.777878E+02  9.831638E-01 -3.456304E+01 
4.319794E+02  9.863870E-01 -3.134324E+01  2.309857E-03 1.765207E+02  2.294423E-03 1.766115E+02  9.830904E-01 -3.456692E+01 
4.319825E+02  9.864194E-01 -3.133050E+01  2.348574E-03 1.752152E+02  2.336095E-03 1.751920E+02  9.831932E-01 -3.456886E+01 
4.319856E+02  9.863931E-01 -3.134149E+01  2.387249E-03 1.739614E+02  2.367334E-03 1.740849E+02  9.832748E-01 -3.456968E+01 
4.319888E+02  9.861279E-01 -3.133694E+01  2.411974E-03 1.726300E+02  2.406031E-03 1.728001E+02  9.828648E-01 -3.457897E+01 
4.319919E+02  9.862827E-01 -3.133526E+01  2.453286E-03 1.712623E+02  2.441115E-03 1.715176E+02  9.828593E-01 -3.457184E+01 
4.319950E+02  9.859422E-01 -3.133967E+01  2.485750E-03 1.699817E+02  2.475800E-03 1.701449E+02  9.827646E-01 -3.457864E+01 
4.319981E+02  9.859046E-01 -3.132575E+01  2.522108E-03 1.684988E+02  2.512887E-03 1.685960E+02  9.828190E-01 -3.458571E+01 
4.320013E+02  9.859577E-01 -3.134202E+01  2.557614E-03 1.671998E+02  2.542337E-03 1.673429E+02  9.829737E-01 -3.457969E+01 
4.320044E+02  9.856246E-01 -3.135363E+01  2.591909E-03 1.657793E+02  2.575926E-03 1.659485E+02  9.827745E-01 -3.458767E+01 
4.320075E+02  9.858827E-01 -3.134571E+01  2.624527E-03 1.642907E+02  2.609759E-03 1.645940E+02  9.827049E-01 -3.458238E+01 
4.320106E+02  9.855040E-01 -3.134797E+01  2.652791E-03 1.628521E+02  2.644134E-03 1.630600E+02  9.825951E-01 -3.459303E+01 
4.320138E+02  9.856256E-01 -3.133194E+01  2.692397E-03 1.613350E+02  2.669053E-03 1.614691E+02  9.826597E-01 -3.457928E+01 
4.320169E+02  9.854078E-01 -3.134787E+01  2.721863E-03 1.598691E+02  2.700979E-03 1.600611E+02  9.826510E-01 -3.458192E+01 
4.320200E+02  9.854051E-01 -3.134032E+01  2.747967E-03 1.582375E+02  2.732985E-03 1.585164E+02  9.822097E-01 -3.459060E+01 
4.320231E+02  9.854964E-01 -3.134133E+01  2.779060E-03 1.567811E+02  2.760386E-03 1.569762E+02  9.826633E-01 -3.457746E+01 
4.320263E+02  9.854692E-01 -3.135108E+01  2.793128E-03 1.552437E+02  2.778344E-03 1.554621E+02  9.822695E-01 -3.457799E+01 
4.320294E+02  9.853061E-01 -3.134459E+01  2.816593E-03 1.538182E+02  2.809065E-03 1.539440E+02  9.822401E-01 -3.457440E+01 
4.320325E+02  9.852723E-01 -3.135132E+01  2.848201E-03 1.521714E+02  2.831275E-03 1.524243E+02  9.824116E-01 -3.457579E+01 
4.320356E+02  9.852724E-01 -3.135288E+01  2.869813E-03 1.506197E+02  2.852281E-03 1.508753E+02  9.821886E-01 -3.458429E+01 
4.320387E+02  9.852003E-01 -3.134643E+01  2.888424E-03 1.491472E+02  2.869558E-03 1.492712E+02  9.822955E-01 -3.456766E+01 
4.320419E+02  9.850945E-01 -3.133881E+01  2.902300E-03 1.475487E+02  2.895952E-03 1.477022E+02  9.818622E-01 -3.457711E+01 
4.320450E+02  9.852465E-01 -3.135045E+01  2.921245E-03 1.459423E+02  2.917273E-03 1.461027E+02  9.820368E-01 -3.456333E+01 
4.320481E+02  9.850761E-01 -3.135541E+01  2.930407E-03 1.443632E+02  2.926363E-03 1.444918E+02  9.823322E-01 -3.457135E+01 
4.320513E+02  9.849685E-01 -3.132828E+01  2.946812E-03 1.427782E+02  2.943892E-03 1.429209E+02  9.820636E-01 -3.457721E+01 
4.320544E+02  9.850710E-01 -3.134666E+01  2.959316E-03 1.412559E+02  2.954652E-03 1.413172E+02  9.820478E-01 -3.456267E+01 
4.320575E+02  9.850094E-01 -3.133454E+01  2.976311E-03 1.396472E+02  2.963203E-03 1.398012E+02  9.820830E-01 -3.456269E+01 
4.320606E+02  9.851670E-01 -3.133762E+01  2.979263E-03 1.382068E+02  2.970619E-03 1.382915E+02  9.822500E-01 -3.456450E+01 
4.320638E+02  9.849838E-01 -3.133491E+01  2.992552E-03 1.365855E+02  2.977913E-03 1.367518E+02  9.823337E-01 -3.456005E+01 
4.320669E+02  9.849619E-01 -3.132353E+01  3.001142E-03 1.350125E+02  2.986011E-03 1.352443E+02  9.821434E-01 -3.457253E+01 
4.320700E+02  9.849883E-01 -3.133914E+01  3.003348E-03 1.336895E+02  2.986694E-03 1.338172E+02  9.821386E-01 -3.456305E+01 
4.320731E+02  9.849770E-01 -3.132606E+01  3.010290E-03 1.319574E+02  2.992302E-03 1.321352E+02  9.821592E-01 -3.456930E+01 
4.320763E+02  9.850719E-01 -3.133366E+01  3.008066E-03 1.305678E+02  2.992006E-03 1.305781E+02  9.824284E-01 -3.456993E+01 
4.320794E+02  9.851137E-01 -3.131872E+01  3.006024E-03 1.289920E+02  2.991252E-03 1.292203E+02  9.823836E-01 -3.455414E+01 
4.320825E+02  9.851896E-01 -3.132383E+01  3.012854E-03 1.276664E+02  2.992599E-03 1.277820E+02  9.821888E-01 -3.456333E+01 
4.320856E+02  9.849787E-01 -3.133516E+01  3.005577E-03 1.262000E+02  2.994282E-03 1.264122E+02  9.823948E-01 -3.455269E+01 
4.320888E+02  9.850688E-01 -3.131966E+01  2.998456E-03 1.247783E+02  2.990525E-03 1.248272E+02  9.823683E-01 -3.456911E+01 
4.320919E+02  9.850157E-01 -3.133237E+01  2.993874E-03 1.234589E+02  2.986138E-03 1.234769E+02  9.825376E-01 -3.457001E+01 
4.320950E+02  9.850471E-01 -3.132899E+01  2.995977E-03 1.219534E+02  2.977467E-03 1.221097E+02  9.827050E-01 -3.456374E+01 
4.320981E+02  9.851494E-01 -3.133015E+01  2.986417E-03 1.206542E+02  2.976275E-03 1.207661E+02  9.824363E-01 -3.456829E+01 
4.321012E+02  9.851423E-01 -3.133007E+01  2.983705E-03 1.191218E+02  2.968460E-03 1.194287E+02  9.825855E-01 -3.456385E+01 
4.321044E+02  9.853245E-01 -3.133525E+01  2.970435E-03 1.178423E+02  2.964128E-03 1.179984E+02  9.825234E-01 -3.456916E+01 
4.321075E+02  9.852152E-01 -3.134251E+01  2.965746E-03 1.164631E+02  2.960100E-03 1.166764E+02  9.827831E-01 -3.455942E+01 
4.321106E+02  9.851112E-01 -3.134337E+01  2.960516E-03 1.152350E+02  2.948420E-03 1.152676E+02  9.829117E-01 -3.457003E+01 
4.321138E+02  9.852808E-01 -3.133173E+01  2.951083E-03 1.139105E+02  2.940977E-03 1.139877E+02  9.827142E-01 -3.457497E+01 
4.321169E+02  9.852295E-01 -3.132559E+01  2.947229E-03 1.127356E+02  2.934122E-03 1.128788E+02  9.828309E-01 -3.456591E+01 
4.321200E+02  9.854142E-01 -3.134273E+01  2.931805E-03 1.113170E+02  2.925697E-03 1.116172E+02  9.826102E-01 -3.457641E+01 
4.321231E+02  9.853140E-01 -3.133926E+01  2.930945E-03 1.101164E+02  2.914784E-03 1.103859E+02  9.829011E-01 -3.456738E+01 
4.321263E+02  9.852962E-01 -3.134499E+01  2.921401E-03 1.089869E+02  2.902704E-03 1.092074E+02  9.831762E-01 -3.458390E+01 
4.321294E+02  9.857798E-01 -3.134565E+01  2.909831E-03 1.077112E+02  2.894006E-03 1.078566E+02  9.828935E-01 -3.458782E+01 
4.321325E+02  9.853935E-01 -3.135257E+01  2.898992E-03 1.066283E+02  2.888142E-03 1.068641E+02  9.831664E-01 -3.458342E+01 
4.321356E+02  9.855237E-01 -3.135584E+01  2.891175E-03 1.055066E+02  2.878962E-03 1.056752E+02  9.829552E-01 -3.458516E+01 
4.321388E+02  9.852473E-01 -3.135015E+01  2.877670E-03 1.042799E+02  2.863951E-03 1.044741E+02  9.832539E-01 -3.458991E+01 
4.321419E+02  9.854777E-01 -3.134551E+01  2.869996E-03 1.031350E+02  2.854193E-03 1.033401E+02  9.832438E-01 -3.459746E+01 
4.321450E+02  9.854700E-01 -3.135618E+01  2.857102E-03 1.020429E+02  2.850465E-03 1.021678E+02  9.833411E-01 -3.459742E+01 
4.321481E+02  9.857248E-01 -3.135671E+01  2.848981E-03 1.010255E+02  2.834343E-03 1.011925E+02  9.833807E-01 -3.459214E+01 
