! Matrix data file written by TouchstoneData, EPCOS AG
! FILENAME: "LY32A_24_NB.s2p"
! COMMENT: "(/home/netware/tmp/Aleks/LY32A/unmatched/LY3"
! INFO: nport=2, nfreq=1601
! DATE: "Tue Apr 20 09:12:50 2010"
! USER: "Aleksander Breg"
!
! port | pin | signal
! -----|-----|--------
!   1  |  2  |  input
!   2  |  4  |  output
! --------------------
! 
# MHZ S MA R 50
! freq  magS11 angS11  magS21 angS21  magS12 angS12  magS22 angS22
8.980000E+02  9.637864E-01 -4.460604E+01  5.793764E-03 -4.849628E+00  5.803772E-03 -4.600944E+00  9.636083E-01 -4.771305E+01 
8.980063E+02  9.636068E-01 -4.460186E+01  5.863560E-03 -5.599072E+00  5.880389E-03 -5.377038E+00  9.634398E-01 -4.771197E+01 
8.980125E+02  9.635087E-01 -4.460798E+01  5.953212E-03 -6.224289E+00  5.945199E-03 -6.330576E+00  9.632079E-01 -4.771427E+01 
8.980187E+02  9.633949E-01 -4.462541E+01  6.034635E-03 -7.397161E+00  6.014949E-03 -7.186137E+00  9.630591E-01 -4.772861E+01 
8.980250E+02  9.632438E-01 -4.460963E+01  6.115237E-03 -8.180914E+00  6.123985E-03 -8.199498E+00  9.629488E-01 -4.770840E+01 
8.980312E+02  9.631267E-01 -4.462691E+01  6.191424E-03 -9.464384E+00  6.175790E-03 -9.325589E+00  9.628368E-01 -4.772727E+01 
8.980375E+02  9.629900E-01 -4.462880E+01  6.277632E-03 -1.028488E+01  6.268558E-03 -1.044082E+01  9.627327E-01 -4.773018E+01 
8.980438E+02  9.628777E-01 -4.462754E+01  6.338446E-03 -1.149120E+01  6.330656E-03 -1.141418E+01  9.626798E-01 -4.772829E+01 
8.980500E+02  9.627219E-01 -4.462055E+01  6.410876E-03 -1.265486E+01  6.449802E-03 -1.215257E+01  9.625082E-01 -4.773357E+01 
8.980562E+02  9.626209E-01 -4.463646E+01  6.486109E-03 -1.378020E+01  6.533598E-03 -1.360661E+01  9.622563E-01 -4.772741E+01 
8.980625E+02  9.624690E-01 -4.462787E+01  6.600089E-03 -1.507001E+01  6.605563E-03 -1.493353E+01  9.621177E-01 -4.774410E+01 
8.980688E+02  9.623204E-01 -4.463050E+01  6.682527E-03 -1.628652E+01  6.693274E-03 -1.630773E+01  9.622083E-01 -4.774133E+01 
8.980750E+02  9.620709E-01 -4.462921E+01  6.769964E-03 -1.772557E+01  6.786214E-03 -1.776651E+01  9.617914E-01 -4.773787E+01 
8.980812E+02  9.618291E-01 -4.463584E+01  6.834264E-03 -1.902887E+01  6.848285E-03 -1.912068E+01  9.616479E-01 -4.773856E+01 
8.980875E+02  9.617165E-01 -4.462589E+01  6.933791E-03 -2.050872E+01  6.948126E-03 -2.035127E+01  9.614700E-01 -4.774659E+01 
8.980938E+02  9.617436E-01 -4.460991E+01  7.033570E-03 -2.214126E+01  7.025351E-03 -2.196407E+01  9.611562E-01 -4.771667E+01 
8.981000E+02  9.613714E-01 -4.460467E+01  7.117176E-03 -2.366258E+01  7.121328E-03 -2.347863E+01  9.611506E-01 -4.771848E+01 
8.981063E+02  9.613469E-01 -4.460482E+01  7.185598E-03 -2.530025E+01  7.205960E-03 -2.512916E+01  9.609383E-01 -4.771924E+01 
8.981125E+02  9.610573E-01 -4.460726E+01  7.250654E-03 -2.703219E+01  7.268526E-03 -2.707934E+01  9.608268E-01 -4.771353E+01 
8.981187E+02  9.608728E-01 -4.458999E+01  7.321591E-03 -2.889056E+01  7.341308E-03 -2.894825E+01  9.606708E-01 -4.770540E+01 
8.981250E+02  9.607183E-01 -4.459167E+01  7.363938E-03 -3.059112E+01  7.382408E-03 -3.060385E+01  9.606339E-01 -4.770194E+01 
8.981313E+02  9.608000E-01 -4.458185E+01  7.424046E-03 -3.252978E+01  7.429149E-03 -3.255050E+01  9.604251E-01 -4.770529E+01 
8.981375E+02  9.605946E-01 -4.456902E+01  7.505739E-03 -3.455356E+01  7.525676E-03 -3.445006E+01  9.603895E-01 -4.768157E+01 
8.981437E+02  9.604990E-01 -4.456036E+01  7.537860E-03 -3.654017E+01  7.536212E-03 -3.649594E+01  9.602686E-01 -4.767585E+01 
8.981500E+02  9.604660E-01 -4.457217E+01  7.568156E-03 -3.882504E+01  7.580483E-03 -3.868581E+01  9.598777E-01 -4.766897E+01 
8.981562E+02  9.603953E-01 -4.453918E+01  7.609493E-03 -4.087733E+01  7.612046E-03 -4.073084E+01  9.601208E-01 -4.766431E+01 
8.981625E+02  9.603411E-01 -4.451644E+01  7.619455E-03 -4.290183E+01  7.611484E-03 -4.284010E+01  9.600841E-01 -4.764143E+01 
8.981688E+02  9.601515E-01 -4.451131E+01  7.605327E-03 -4.510272E+01  7.628967E-03 -4.540752E+01  9.600038E-01 -4.763667E+01 
8.981750E+02  9.602226E-01 -4.449564E+01  7.619506E-03 -4.759127E+01  7.589183E-03 -4.750215E+01  9.599252E-01 -4.761200E+01 
8.981812E+02  9.602451E-01 -4.448316E+01  7.572964E-03 -4.983501E+01  7.578141E-03 -4.979980E+01  9.600634E-01 -4.760766E+01 
8.981875E+02  9.602991E-01 -4.446537E+01  7.567033E-03 -5.233317E+01  7.538277E-03 -5.196766E+01  9.599283E-01 -4.758010E+01 
8.981938E+02  9.604580E-01 -4.446563E+01  7.500362E-03 -5.464622E+01  7.504305E-03 -5.438383E+01  9.602029E-01 -4.758308E+01 
8.982000E+02  9.606178E-01 -4.445424E+01  7.442377E-03 -5.691375E+01  7.449506E-03 -5.680745E+01  9.601952E-01 -4.756805E+01 
8.982062E+02  9.607012E-01 -4.443694E+01  7.379992E-03 -5.913913E+01  7.365032E-03 -5.921771E+01  9.605333E-01 -4.756227E+01 
8.982125E+02  9.605760E-01 -4.441232E+01  7.286471E-03 -6.153968E+01  7.287691E-03 -6.154144E+01  9.605759E-01 -4.754140E+01 
8.982188E+02  9.609288E-01 -4.442633E+01  7.178479E-03 -6.397053E+01  7.184358E-03 -6.391457E+01  9.607231E-01 -4.752692E+01 
8.982250E+02  9.610973E-01 -4.441172E+01  7.095645E-03 -6.628234E+01  7.069349E-03 -6.617311E+01  9.608355E-01 -4.754485E+01 
8.982313E+02  9.613164E-01 -4.440565E+01  6.963112E-03 -6.872088E+01  6.960163E-03 -6.846273E+01  9.611803E-01 -4.752301E+01 
8.982375E+02  9.615854E-01 -4.437794E+01  6.823821E-03 -7.068634E+01  6.825700E-03 -7.064220E+01  9.613419E-01 -4.752135E+01 
8.982437E+02  9.617726E-01 -4.438311E+01  6.681754E-03 -7.280890E+01  6.710790E-03 -7.291620E+01  9.614686E-01 -4.751125E+01 
8.982500E+02  9.619475E-01 -4.437092E+01  6.553938E-03 -7.496488E+01  6.577417E-03 -7.496266E+01  9.616733E-01 -4.750808E+01 
8.982563E+02  9.621979E-01 -4.437236E+01  6.406372E-03 -7.690899E+01  6.431692E-03 -7.702729E+01  9.618848E-01 -4.750299E+01 
8.982625E+02  9.623067E-01 -4.438272E+01  6.263990E-03 -7.896912E+01  6.282443E-03 -7.891956E+01  9.619917E-01 -4.750186E+01 
8.982687E+02  9.627220E-01 -4.437275E+01  6.101018E-03 -8.103748E+01  6.122285E-03 -8.078542E+01  9.623558E-01 -4.749810E+01 
8.982750E+02  9.629568E-01 -4.437589E+01  5.927172E-03 -8.311359E+01  5.982051E-03 -8.290636E+01  9.626433E-01 -4.750326E+01 
8.982812E+02  9.633266E-01 -4.437573E+01  5.815274E-03 -8.490533E+01  5.801236E-03 -8.490143E+01  9.629649E-01 -4.749022E+01 
8.982875E+02  9.635949E-01 -4.437836E+01  5.636089E-03 -8.666760E+01  5.657205E-03 -8.650250E+01  9.630069E-01 -4.751855E+01 
8.982938E+02  9.636911E-01 -4.438064E+01  5.491630E-03 -8.826028E+01  5.502213E-03 -8.810799E+01  9.632999E-01 -4.750943E+01 
8.983000E+02  9.637448E-01 -4.439423E+01  5.310100E-03 -9.004537E+01  5.321876E-03 -8.971759E+01  9.636456E-01 -4.753686E+01 
8.983062E+02  9.643361E-01 -4.439511E+01  5.191507E-03 -9.168493E+01  5.184580E-03 -9.128907E+01  9.636662E-01 -4.752558E+01 
8.983125E+02  9.643565E-01 -4.440846E+01  5.028730E-03 -9.285175E+01  5.030750E-03 -9.291547E+01  9.638848E-01 -4.752480E+01 
8.983188E+02  9.643373E-01 -4.441203E+01  4.844879E-03 -9.447568E+01  4.864466E-03 -9.413514E+01  9.639194E-01 -4.753685E+01 
8.983250E+02  9.646177E-01 -4.441968E+01  4.724357E-03 -9.569335E+01  4.724168E-03 -9.594544E+01  9.641693E-01 -4.753773E+01 
8.983312E+02  9.647875E-01 -4.442644E+01  4.571155E-03 -9.722039E+01  4.594865E-03 -9.702336E+01  9.642920E-01 -4.755779E+01 
8.983375E+02  9.650402E-01 -4.441975E+01  4.450284E-03 -9.849887E+01  4.478165E-03 -9.825959E+01  9.644660E-01 -4.755296E+01 
8.983438E+02  9.650758E-01 -4.444046E+01  4.315101E-03 -9.950568E+01  4.295118E-03 -9.965213E+01  9.646782E-01 -4.756162E+01 
8.983500E+02  9.650644E-01 -4.444934E+01  4.155100E-03 -1.004764E+02  4.200348E-03 -1.008565E+02  9.648089E-01 -4.757388E+01 
8.983563E+02  9.652987E-01 -4.445771E+01  4.082276E-03 -1.017544E+02  4.078094E-03 -1.017615E+02  9.649655E-01 -4.758540E+01 
8.983625E+02  9.654873E-01 -4.446191E+01  3.920889E-03 -1.027717E+02  3.949468E-03 -1.028556E+02  9.650152E-01 -4.759187E+01 
8.983687E+02  9.656682E-01 -4.446532E+01  3.797799E-03 -1.041711E+02  3.811664E-03 -1.037320E+02  9.652020E-01 -4.760302E+01 
8.983750E+02  9.656714E-01 -4.448524E+01  3.670953E-03 -1.045977E+02  3.706638E-03 -1.046521E+02  9.652082E-01 -4.760981E+01 
8.983813E+02  9.658065E-01 -4.448217E+01  3.588015E-03 -1.057014E+02  3.600698E-03 -1.053190E+02  9.654593E-01 -4.762277E+01 
8.983875E+02  9.660036E-01 -4.450522E+01  3.475544E-03 -1.066839E+02  3.486011E-03 -1.068415E+02  9.656293E-01 -4.762986E+01 
8.983937E+02  9.659887E-01 -4.451041E+01  3.338036E-03 -1.075881E+02  3.393802E-03 -1.072476E+02  9.654164E-01 -4.764717E+01 
8.984000E+02  9.660637E-01 -4.452107E+01  3.272256E-03 -1.082729E+02  3.305939E-03 -1.081750E+02  9.655639E-01 -4.764776E+01 
8.984062E+02  9.661316E-01 -4.452847E+01  3.164241E-03 -1.089623E+02  3.165344E-03 -1.090324E+02  9.656090E-01 -4.765419E+01 
8.984125E+02  9.662809E-01 -4.453162E+01  3.060982E-03 -1.101569E+02  3.093039E-03 -1.096632E+02  9.655219E-01 -4.766010E+01 
8.984188E+02  9.663197E-01 -4.454853E+01  2.971055E-03 -1.108862E+02  2.995001E-03 -1.106123E+02  9.657092E-01 -4.767214E+01 
8.984250E+02  9.663001E-01 -4.454635E+01  2.896572E-03 -1.114390E+02  2.909793E-03 -1.110689E+02  9.657332E-01 -4.768081E+01 
8.984312E+02  9.664802E-01 -4.455450E+01  2.808055E-03 -1.118714E+02  2.824640E-03 -1.115234E+02  9.658426E-01 -4.768086E+01 
8.984375E+02  9.664057E-01 -4.457650E+01  2.740907E-03 -1.123805E+02  2.735257E-03 -1.131139E+02  9.660479E-01 -4.770038E+01 
8.984438E+02  9.665029E-01 -4.458135E+01  2.656801E-03 -1.134072E+02  2.631892E-03 -1.133675E+02  9.660340E-01 -4.771031E+01 
8.984500E+02  9.666774E-01 -4.460055E+01  2.591073E-03 -1.137058E+02  2.584692E-03 -1.136790E+02  9.661216E-01 -4.771906E+01 
8.984562E+02  9.665364E-01 -4.460091E+01  2.496252E-03 -1.141445E+02  2.516095E-03 -1.143107E+02  9.660975E-01 -4.773718E+01 
8.984625E+02  9.666563E-01 -4.461675E+01  2.442405E-03 -1.146697E+02  2.416989E-03 -1.152442E+02  9.663121E-01 -4.774739E+01 
8.984688E+02  9.666043E-01 -4.462313E+01  2.360121E-03 -1.152560E+02  2.375626E-03 -1.152415E+02  9.662162E-01 -4.774552E+01 
8.984750E+02  9.665969E-01 -4.462562E+01  2.285239E-03 -1.160966E+02  2.309515E-03 -1.159069E+02  9.662746E-01 -4.775828E+01 
8.984813E+02  9.666900E-01 -4.464291E+01  2.222166E-03 -1.165443E+02  2.236711E-03 -1.160942E+02  9.660347E-01 -4.776289E+01 
8.984875E+02  9.667313E-01 -4.464585E+01  2.164398E-03 -1.163966E+02  2.160966E-03 -1.172625E+02  9.661835E-01 -4.776485E+01 
8.984937E+02  9.667796E-01 -4.464838E+01  2.092508E-03 -1.173804E+02  2.109071E-03 -1.170523E+02  9.662891E-01 -4.778213E+01 
8.985000E+02  9.666560E-01 -4.465662E+01  2.045557E-03 -1.175402E+02  2.065185E-03 -1.178312E+02  9.662506E-01 -4.778637E+01 
8.985063E+02  9.668128E-01 -4.466749E+01  1.999263E-03 -1.186125E+02  2.000085E-03 -1.185879E+02  9.662505E-01 -4.779102E+01 
8.985125E+02  9.668643E-01 -4.469054E+01  1.934601E-03 -1.184424E+02  1.934261E-03 -1.180155E+02  9.662379E-01 -4.780577E+01 
8.985187E+02  9.669049E-01 -4.469278E+01  1.871542E-03 -1.195262E+02  1.909168E-03 -1.190476E+02  9.663524E-01 -4.782052E+01 
8.985250E+02  9.669051E-01 -4.470884E+01  1.828798E-03 -1.196153E+02  1.834150E-03 -1.187887E+02  9.663726E-01 -4.783346E+01 
8.985312E+02  9.669639E-01 -4.471359E+01  1.790260E-03 -1.201480E+02  1.806271E-03 -1.204391E+02  9.663903E-01 -4.784116E+01 
8.985375E+02  9.668334E-01 -4.471831E+01  1.740931E-03 -1.207168E+02  1.754328E-03 -1.205514E+02  9.663669E-01 -4.784809E+01 
8.985438E+02  9.669167E-01 -4.473153E+01  1.696597E-03 -1.208031E+02  1.697110E-03 -1.202241E+02  9.664274E-01 -4.785921E+01 
8.985500E+02  9.668775E-01 -4.473680E+01  1.660508E-03 -1.219184E+02  1.646811E-03 -1.211221E+02  9.663386E-01 -4.785529E+01 
8.985562E+02  9.669719E-01 -4.473844E+01  1.593349E-03 -1.217045E+02  1.621431E-03 -1.210803E+02  9.664735E-01 -4.787087E+01 
8.985625E+02  9.670245E-01 -4.473524E+01  1.560100E-03 -1.214169E+02  1.574093E-03 -1.214779E+02  9.664475E-01 -4.786940E+01 
8.985688E+02  9.669082E-01 -4.475388E+01  1.497281E-03 -1.223101E+02  1.509531E-03 -1.217528E+02  9.662730E-01 -4.786722E+01 
8.985750E+02  9.668305E-01 -4.476335E+01  1.466336E-03 -1.225676E+02  1.479070E-03 -1.221062E+02  9.662778E-01 -4.788112E+01 
8.985812E+02  9.668940E-01 -4.475737E+01  1.428156E-03 -1.229582E+02  1.442774E-03 -1.226245E+02  9.662787E-01 -4.790815E+01 
8.985875E+02  9.670427E-01 -4.476620E+01  1.409875E-03 -1.222874E+02  1.395328E-03 -1.231680E+02  9.665086E-01 -4.789906E+01 
8.985938E+02  9.669212E-01 -4.479173E+01  1.353328E-03 -1.233155E+02  1.383707E-03 -1.216984E+02  9.665015E-01 -4.791720E+01 
8.986000E+02  9.671403E-01 -4.479498E+01  1.329617E-03 -1.232169E+02  1.328469E-03 -1.236325E+02  9.665010E-01 -4.793336E+01 
8.986063E+02  9.670539E-01 -4.480483E+01  1.312546E-03 -1.233623E+02  1.290080E-03 -1.242656E+02  9.663864E-01 -4.793681E+01 
8.986125E+02  9.670632E-01 -4.481063E+01  1.255299E-03 -1.242049E+02  1.254671E-03 -1.243847E+02  9.663930E-01 -4.794136E+01 
8.986187E+02  9.669414E-01 -4.482392E+01  1.224615E-03 -1.235319E+02  1.234941E-03 -1.238805E+02  9.664792E-01 -4.793821E+01 
8.986250E+02  9.669789E-01 -4.482147E+01  1.202752E-03 -1.250346E+02  1.221908E-03 -1.234403E+02  9.665287E-01 -4.794943E+01 
8.986313E+02  9.669132E-01 -4.483299E+01  1.156029E-03 -1.253019E+02  1.166231E-03 -1.250239E+02  9.664624E-01 -4.795334E+01 
8.986375E+02  9.669997E-01 -4.484589E+01  1.105324E-03 -1.246857E+02  1.140521E-03 -1.255944E+02  9.664276E-01 -4.795608E+01 
8.986437E+02  9.669553E-01 -4.485715E+01  1.083889E-03 -1.258355E+02  1.114925E-03 -1.252484E+02  9.663908E-01 -4.798527E+01 
8.986500E+02  9.670947E-01 -4.484743E+01  1.071279E-03 -1.254242E+02  1.097157E-03 -1.251027E+02  9.663285E-01 -4.797810E+01 
8.986562E+02  9.669719E-01 -4.485803E+01  1.056552E-03 -1.254600E+02  1.064514E-03 -1.256796E+02  9.661889E-01 -4.797872E+01 
8.986625E+02  9.668587E-01 -4.487385E+01  1.044205E-03 -1.269174E+02  1.035843E-03 -1.259559E+02  9.662722E-01 -4.799011E+01 
8.986688E+02  9.670940E-01 -4.488417E+01  9.761063E-04 -1.268054E+02  9.921062E-04 -1.263349E+02  9.663999E-01 -4.799840E+01 
8.986750E+02  9.670491E-01 -4.489052E+01  9.865653E-04 -1.265252E+02  9.947180E-04 -1.247867E+02  9.664230E-01 -4.801155E+01 
8.986812E+02  9.669966E-01 -4.488572E+01  9.514516E-04 -1.269007E+02  9.299679E-04 -1.257864E+02  9.665697E-01 -4.801608E+01 
8.986875E+02  9.668563E-01 -4.490132E+01  9.332900E-04 -1.262361E+02  9.136074E-04 -1.273699E+02  9.665063E-01 -4.803346E+01 
8.986938E+02  9.668754E-01 -4.490843E+01  9.021812E-04 -1.274019E+02  9.053138E-04 -1.269549E+02  9.663785E-01 -4.803542E+01 
8.987000E+02  9.669444E-01 -4.491134E+01  8.775366E-04 -1.268836E+02  8.654937E-04 -1.264634E+02  9.662253E-01 -4.804189E+01 
8.987062E+02  9.669286E-01 -4.493329E+01  8.565124E-04 -1.282036E+02  8.542398E-04 -1.282770E+02  9.660873E-01 -4.803960E+01 
8.987125E+02  9.669711E-01 -4.492994E+01  8.222901E-04 -1.280233E+02  8.543553E-04 -1.270998E+02  9.662984E-01 -4.806248E+01 
8.987188E+02  9.668554E-01 -4.492409E+01  8.305794E-04 -1.275631E+02  8.145181E-04 -1.278779E+02  9.663480E-01 -4.805148E+01 
8.987250E+02  9.669266E-01 -4.493871E+01  7.872883E-04 -1.279988E+02  7.833630E-04 -1.270749E+02  9.661187E-01 -4.806252E+01 
8.987313E+02  9.671041E-01 -4.495060E+01  7.758825E-04 -1.275733E+02  7.683320E-04 -1.286047E+02  9.661766E-01 -4.808161E+01 
8.987375E+02  9.667792E-01 -4.495745E+01  7.683358E-04 -1.289961E+02  7.620030E-04 -1.284041E+02  9.662298E-01 -4.807831E+01 
8.987437E+02  9.666889E-01 -4.497004E+01  7.342411E-04 -1.282566E+02  7.285264E-04 -1.268492E+02  9.662718E-01 -4.809993E+01 
8.987500E+02  9.666854E-01 -4.497837E+01  7.301196E-04 -1.281324E+02  7.077239E-04 -1.299632E+02  9.662885E-01 -4.811126E+01 
8.987563E+02  9.669461E-01 -4.498951E+01  6.708359E-04 -1.294627E+02  7.269656E-04 -1.276860E+02  9.663495E-01 -4.810895E+01 
8.987625E+02  9.669159E-01 -4.499312E+01  6.643351E-04 -1.290982E+02  6.628793E-04 -1.309835E+02  9.663535E-01 -4.812144E+01 
8.987687E+02  9.669534E-01 -4.499224E+01  6.475484E-04 -1.289706E+02  6.575536E-04 -1.300676E+02  9.662702E-01 -4.811836E+01 
8.987750E+02  9.668000E-01 -4.499027E+01  6.214818E-04 -1.306083E+02  6.389458E-04 -1.311670E+02  9.661900E-01 -4.813239E+01 
8.987812E+02  9.667752E-01 -4.502373E+01  6.224928E-04 -1.307980E+02  6.386186E-04 -1.301843E+02  9.663004E-01 -4.812503E+01 
8.987875E+02  9.667991E-01 -4.501500E+01  6.175457E-04 -1.291291E+02  6.162190E-04 -1.300845E+02  9.661335E-01 -4.813845E+01 
8.987938E+02  9.669066E-01 -4.501214E+01  5.791880E-04 -1.308408E+02  5.865853E-04 -1.312848E+02  9.662587E-01 -4.813887E+01 
8.988000E+02  9.667667E-01 -4.502501E+01  5.808689E-04 -1.307418E+02  5.796279E-04 -1.302216E+02  9.661977E-01 -4.816054E+01 
8.988062E+02  9.667814E-01 -4.504411E+01  5.660325E-04 -1.314811E+02  5.699311E-04 -1.281037E+02  9.662723E-01 -4.816095E+01 
8.988125E+02  9.669448E-01 -4.504173E+01  5.597271E-04 -1.320521E+02  5.657023E-04 -1.286190E+02  9.663428E-01 -4.816835E+01 
8.988188E+02  9.669007E-01 -4.506017E+01  5.462610E-04 -1.319865E+02  5.219929E-04 -1.316842E+02  9.662039E-01 -4.819005E+01 
8.988250E+02  9.665999E-01 -4.506514E+01  5.226752E-04 -1.318432E+02  5.243772E-04 -1.307115E+02  9.661276E-01 -4.818622E+01 
8.988312E+02  9.668080E-01 -4.508168E+01  5.038457E-04 -1.330132E+02  4.909528E-04 -1.318696E+02  9.663001E-01 -4.818882E+01 
8.988375E+02  9.666512E-01 -4.507510E+01  4.999029E-04 -1.321625E+02  4.724418E-04 -1.341690E+02  9.661509E-01 -4.820628E+01 
8.988438E+02  9.668521E-01 -4.509265E+01  4.820851E-04 -1.307157E+02  5.076304E-04 -1.319641E+02  9.662195E-01 -4.820741E+01 
8.988500E+02  9.666422E-01 -4.510236E+01  4.726439E-04 -1.324380E+02  4.900084E-04 -1.351925E+02  9.660915E-01 -4.820739E+01 
8.988563E+02  9.667668E-01 -4.509381E+01  4.534658E-04 -1.326509E+02  4.653238E-04 -1.314066E+02  9.661746E-01 -4.821616E+01 
8.988625E+02  9.666044E-01 -4.510492E+01  4.554029E-04 -1.336885E+02  4.298662E-04 -1.349035E+02  9.660909E-01 -4.822961E+01 
8.988687E+02  9.667488E-01 -4.511218E+01  4.474465E-04 -1.344675E+02  4.494305E-04 -1.334081E+02  9.660312E-01 -4.823776E+01 
8.988750E+02  9.665967E-01 -4.512195E+01  4.414170E-04 -1.362620E+02  4.350433E-04 -1.341270E+02  9.660680E-01 -4.824933E+01 
8.988813E+02  9.666344E-01 -4.512710E+01  4.499208E-04 -1.359961E+02  4.513891E-04 -1.332792E+02  9.660104E-01 -4.824852E+01 
8.988875E+02  9.666009E-01 -4.513072E+01  4.187655E-04 -1.337258E+02  3.995681E-04 -1.363265E+02  9.660623E-01 -4.826349E+01 
8.988937E+02  9.666688E-01 -4.514840E+01  4.086139E-04 -1.358661E+02  4.036347E-04 -1.367539E+02  9.662723E-01 -4.827157E+01 
8.989000E+02  9.666388E-01 -4.515811E+01  4.084780E-04 -1.379191E+02  3.991155E-04 -1.350363E+02  9.659813E-01 -4.828535E+01 
8.989062E+02  9.668020E-01 -4.516954E+01  3.943699E-04 -1.333674E+02  3.769786E-04 -1.378045E+02  9.660943E-01 -4.829111E+01 
8.989125E+02  9.666824E-01 -4.517680E+01  3.769917E-04 -1.374552E+02  3.618796E-04 -1.351896E+02  9.661037E-01 -4.829270E+01 
8.989188E+02  9.665375E-01 -4.518610E+01  3.541123E-04 -1.387859E+02  3.462759E-04 -1.392079E+02  9.659419E-01 -4.829536E+01 
8.989250E+02  9.665404E-01 -4.518261E+01  3.425965E-04 -1.381321E+02  3.891254E-04 -1.404527E+02  9.660152E-01 -4.830680E+01 
8.989312E+02  9.665856E-01 -4.518539E+01  3.389717E-04 -1.386693E+02  3.725387E-04 -1.384731E+02  9.660044E-01 -4.831276E+01 
8.989375E+02  9.665570E-01 -4.519361E+01  3.528079E-04 -1.358122E+02  3.572631E-04 -1.421045E+02  9.659442E-01 -4.832154E+01 
8.989438E+02  9.665354E-01 -4.519243E+01  3.217608E-04 -1.387886E+02  3.400487E-04 -1.413565E+02  9.658757E-01 -4.831961E+01 
8.989500E+02  9.664990E-01 -4.521229E+01  3.329993E-04 -1.436192E+02  3.516052E-04 -1.427552E+02  9.657780E-01 -4.834154E+01 
8.989562E+02  9.664205E-01 -4.521235E+01  3.334722E-04 -1.414122E+02  3.415466E-04 -1.379062E+02  9.659331E-01 -4.834177E+01 
8.989625E+02  9.666111E-01 -4.522616E+01  3.232477E-04 -1.422026E+02  3.525982E-04 -1.367633E+02  9.658399E-01 -4.834945E+01 
