! Matrix data file written by TouchstoneData, EPCOS AG
! FILENAME: "LT70A_WB.s2p"
! COMMENT: "PCB: 2019; PINNING: 14; Ls=39nH; 25 Mar 2008"
! INFO: nport=2, nfreq=1601
! DATE: "Wed Apr  9 13:13:34 2008"
! USER: "Thomas Telgmann"
!
! port | pin | signal
! -----|-----|--------
!   1  |  1  |  in
!   2  |  4  |  out
! --------------------
!
# MHZ S MA R 50
! freq  magS11 angS11  magS21 angS21  magS12 angS12  magS22 angS22
4.089200E+02  9.898591E-01 -3.229301E+01  1.297475E-04 5.775372E+01  1.266080E-04 5.922278E+01  9.902877E-01 -2.905223E+01 
4.089513E+02  9.897494E-01 -3.229269E+01  1.292653E-04 5.833930E+01  1.297469E-04 5.822746E+01  9.903104E-01 -2.905029E+01 
4.089825E+02  9.899294E-01 -3.229717E+01  1.279025E-04 5.807520E+01  1.223454E-04 5.642017E+01  9.903852E-01 -2.905505E+01 
4.090138E+02  9.898778E-01 -3.229656E+01  1.297550E-04 5.786725E+01  1.271420E-04 5.921113E+01  9.903977E-01 -2.905672E+01 
4.090450E+02  9.897787E-01 -3.229315E+01  1.313561E-04 5.716757E+01  1.214517E-04 5.785344E+01  9.904749E-01 -2.905629E+01 
4.090763E+02  9.898342E-01 -3.230713E+01  1.199658E-04 5.869231E+01  1.239429E-04 5.885512E+01  9.904731E-01 -2.906434E+01 
4.091075E+02  9.897675E-01 -3.230584E+01  1.215332E-04 5.511832E+01  1.190193E-04 5.594327E+01  9.904143E-01 -2.906539E+01 
4.091388E+02  9.897682E-01 -3.230332E+01  1.289607E-04 5.608030E+01  1.213626E-04 6.018638E+01  9.903705E-01 -2.906992E+01 
4.091700E+02  9.898652E-01 -3.230663E+01  1.230199E-04 5.654014E+01  1.212581E-04 5.607895E+01  9.903172E-01 -2.906835E+01 
4.092013E+02  9.897820E-01 -3.232037E+01  1.312230E-04 6.057600E+01  1.210640E-04 5.925318E+01  9.903167E-01 -2.907253E+01 
4.092325E+02  9.897552E-01 -3.231702E+01  1.204960E-04 5.780717E+01  1.216513E-04 5.931767E+01  9.903584E-01 -2.907209E+01 
4.092638E+02  9.898122E-01 -3.230896E+01  1.221580E-04 5.814085E+01  1.265158E-04 6.088161E+01  9.903271E-01 -2.907708E+01 
4.092950E+02  9.897251E-01 -3.232184E+01  1.258988E-04 5.994032E+01  1.267040E-04 5.762499E+01  9.904690E-01 -2.907896E+01 
4.093263E+02  9.898163E-01 -3.231512E+01  1.170923E-04 5.550051E+01  1.253942E-04 5.866559E+01  9.902266E-01 -2.908750E+01 
4.093575E+02  9.898122E-01 -3.232201E+01  1.277503E-04 5.824467E+01  1.266449E-04 5.866033E+01  9.903477E-01 -2.908984E+01 
4.093888E+02  9.899041E-01 -3.232397E+01  1.269110E-04 5.906827E+01  1.239851E-04 6.017372E+01  9.903097E-01 -2.908973E+01 
4.094200E+02  9.898524E-01 -3.232463E+01  1.253083E-04 5.733871E+01  1.203124E-04 5.897731E+01  9.904247E-01 -2.908837E+01 
4.094513E+02  9.897499E-01 -3.232958E+01  1.288994E-04 5.676591E+01  1.222302E-04 5.851245E+01  9.903243E-01 -2.908796E+01 
4.094825E+02  9.897320E-01 -3.233544E+01  1.193492E-04 6.087469E+01  1.157898E-04 6.268096E+01  9.903357E-01 -2.909935E+01 
4.095138E+02  9.898248E-01 -3.233542E+01  1.262782E-04 5.778385E+01  1.213488E-04 5.939249E+01  9.903969E-01 -2.909692E+01 
4.095450E+02  9.897908E-01 -3.232720E+01  1.237455E-04 5.807756E+01  1.205975E-04 5.834002E+01  9.902308E-01 -2.910487E+01 
4.095763E+02  9.898486E-01 -3.234158E+01  1.283223E-04 6.174594E+01  1.236797E-04 5.939908E+01  9.902739E-01 -2.910313E+01 
4.096075E+02  9.899346E-01 -3.234670E+01  1.255341E-04 5.872438E+01  1.211991E-04 5.873366E+01  9.903096E-01 -2.910476E+01 
4.096388E+02  9.896555E-01 -3.235232E+01  1.287809E-04 5.987243E+01  1.198852E-04 6.146971E+01  9.903519E-01 -2.910599E+01 
4.096700E+02  9.898234E-01 -3.235442E+01  1.223447E-04 6.181599E+01  1.270505E-04 6.063673E+01  9.903363E-01 -2.910908E+01 
4.097013E+02  9.898668E-01 -3.235377E+01  1.277047E-04 6.310321E+01  1.261194E-04 6.041987E+01  9.903381E-01 -2.911177E+01 
4.097325E+02  9.898133E-01 -3.235723E+01  1.254336E-04 5.793673E+01  1.283145E-04 5.965506E+01  9.902583E-01 -2.911593E+01 
4.097638E+02  9.898262E-01 -3.236711E+01  1.249261E-04 5.937181E+01  1.310645E-04 6.068310E+01  9.904285E-01 -2.912011E+01 
4.097950E+02  9.897793E-01 -3.236864E+01  1.296965E-04 6.131140E+01  1.210171E-04 6.000459E+01  9.904369E-01 -2.911747E+01 
4.098263E+02  9.896467E-01 -3.236419E+01  1.323393E-04 6.040737E+01  1.250530E-04 5.669586E+01  9.903227E-01 -2.912607E+01 
4.098575E+02  9.897966E-01 -3.236882E+01  1.320046E-04 5.843099E+01  1.255063E-04 6.080926E+01  9.903176E-01 -2.912077E+01 
4.098888E+02  9.897344E-01 -3.237506E+01  1.295951E-04 5.986758E+01  1.251438E-04 5.574752E+01  9.903245E-01 -2.912832E+01 
4.099200E+02  9.898412E-01 -3.238561E+01  1.331207E-04 5.822316E+01  1.258269E-04 5.660800E+01  9.903707E-01 -2.912951E+01 
4.099513E+02  9.897584E-01 -3.238209E+01  1.300586E-04 5.983126E+01  1.280015E-04 6.080497E+01  9.903702E-01 -2.913504E+01 
4.099825E+02  9.898026E-01 -3.238318E+01  1.245631E-04 5.835027E+01  1.281373E-04 5.810252E+01  9.904205E-01 -2.914224E+01 
4.100138E+02  9.899164E-01 -3.238066E+01  1.328106E-04 5.790565E+01  1.299784E-04 5.797281E+01  9.903323E-01 -2.914481E+01 
4.100450E+02  9.897019E-01 -3.238655E+01  1.330824E-04 5.934407E+01  1.301074E-04 5.779138E+01  9.902445E-01 -2.914471E+01 
4.100763E+02  9.898268E-01 -3.239452E+01  1.317593E-04 5.445689E+01  1.334880E-04 5.825547E+01  9.903170E-01 -2.914351E+01 
4.101075E+02  9.895841E-01 -3.239744E+01  1.210559E-04 5.659857E+01  1.275421E-04 5.736110E+01  9.903362E-01 -2.914635E+01 
4.101388E+02  9.896640E-01 -3.239735E+01  1.279848E-04 5.900989E+01  1.267168E-04 5.625802E+01  9.902296E-01 -2.914780E+01 
4.101700E+02  9.897088E-01 -3.239767E+01  1.303821E-04 5.688322E+01  1.242015E-04 5.570476E+01  9.903375E-01 -2.915165E+01 
4.102013E+02  9.897992E-01 -3.240962E+01  1.228471E-04 5.892543E+01  1.232204E-04 5.979858E+01  9.903378E-01 -2.916171E+01 
4.102325E+02  9.897315E-01 -3.240029E+01  1.233319E-04 5.870842E+01  1.299675E-04 6.101193E+01  9.902398E-01 -2.916374E+01 
4.102638E+02  9.898166E-01 -3.241065E+01  1.284628E-04 6.036746E+01  1.314553E-04 5.855763E+01  9.903469E-01 -2.916863E+01 
4.102950E+02  9.897888E-01 -3.240387E+01  1.291415E-04 5.826199E+01  1.263592E-04 5.643060E+01  9.903537E-01 -2.916878E+01 
4.103263E+02  9.897590E-01 -3.240211E+01  1.276559E-04 5.650206E+01  1.298479E-04 6.111433E+01  9.901589E-01 -2.917141E+01 
4.103575E+02  9.896765E-01 -3.241545E+01  1.345260E-04 5.756255E+01  1.238376E-04 5.969801E+01  9.903772E-01 -2.917600E+01 
4.103888E+02  9.896377E-01 -3.241259E+01  1.248753E-04 5.979464E+01  1.295130E-04 5.450656E+01  9.903414E-01 -2.918160E+01 
4.104200E+02  9.898529E-01 -3.242765E+01  1.275312E-04 5.563370E+01  1.208853E-04 5.736625E+01  9.902901E-01 -2.917541E+01 
4.104513E+02  9.897640E-01 -3.241777E+01  1.234619E-04 6.069717E+01  1.284772E-04 6.039425E+01  9.903386E-01 -2.917317E+01 
4.104825E+02  9.897167E-01 -3.242864E+01  1.299391E-04 5.881394E+01  1.324698E-04 6.142172E+01  9.902165E-01 -2.917947E+01 
4.105138E+02  9.896813E-01 -3.243012E+01  1.290618E-04 5.913041E+01  1.285169E-04 5.903290E+01  9.902621E-01 -2.918276E+01 
4.105450E+02  9.897015E-01 -3.243590E+01  1.324240E-04 5.984364E+01  1.235815E-04 5.660146E+01  9.901558E-01 -2.918744E+01 
4.105763E+02  9.897013E-01 -3.244306E+01  1.315619E-04 6.151187E+01  1.321055E-04 6.301781E+01  9.904392E-01 -2.918705E+01 
4.106075E+02  9.896090E-01 -3.244005E+01  1.379337E-04 6.181455E+01  1.285639E-04 5.971094E+01  9.902928E-01 -2.919292E+01 
4.106388E+02  9.896426E-01 -3.243911E+01  1.283080E-04 5.696539E+01  1.353141E-04 5.815900E+01  9.901244E-01 -2.920150E+01 
4.106700E+02  9.898288E-01 -3.244249E+01  1.351647E-04 6.044186E+01  1.310727E-04 6.136020E+01  9.902048E-01 -2.920296E+01 
4.107013E+02  9.895643E-01 -3.245326E+01  1.410085E-04 6.058373E+01  1.360544E-04 5.724719E+01  9.901896E-01 -2.919621E+01 
4.107325E+02  9.896740E-01 -3.244946E+01  1.446026E-04 5.814222E+01  1.348135E-04 5.940317E+01  9.903392E-01 -2.920407E+01 
4.107638E+02  9.895752E-01 -3.246019E+01  1.492844E-04 5.894530E+01  1.376480E-04 6.037803E+01  9.902873E-01 -2.920688E+01 
4.107950E+02  9.896236E-01 -3.245476E+01  1.294502E-04 5.656776E+01  1.338763E-04 6.210090E+01  9.900936E-01 -2.920776E+01 
4.108263E+02  9.896054E-01 -3.246234E+01  1.420298E-04 5.668644E+01  1.370731E-04 5.622685E+01  9.902884E-01 -2.920968E+01 
4.108575E+02  9.897760E-01 -3.246957E+01  1.398988E-04 5.722373E+01  1.331967E-04 5.868279E+01  9.900836E-01 -2.921913E+01 
4.108888E+02  9.895406E-01 -3.246293E+01  1.415467E-04 5.467916E+01  1.457676E-04 5.801851E+01  9.902193E-01 -2.920790E+01 
4.109200E+02  9.896498E-01 -3.247242E+01  1.429555E-04 5.664383E+01  1.351700E-04 5.656376E+01  9.902608E-01 -2.921613E+01 
4.109513E+02  9.897025E-01 -3.246465E+01  1.498670E-04 5.621147E+01  1.404800E-04 5.792303E+01  9.902310E-01 -2.922580E+01 
4.109825E+02  9.896760E-01 -3.247659E+01  1.477532E-04 5.464612E+01  1.501604E-04 5.533988E+01  9.901889E-01 -2.922275E+01 
4.110138E+02  9.896383E-01 -3.248507E+01  1.406445E-04 5.594129E+01  1.534809E-04 5.479622E+01  9.901339E-01 -2.922452E+01 
4.110450E+02  9.894029E-01 -3.248200E+01  1.472422E-04 5.369535E+01  1.451393E-04 5.423904E+01  9.902005E-01 -2.922828E+01 
4.110763E+02  9.896068E-01 -3.248269E+01  1.556613E-04 5.301778E+01  1.550990E-04 5.432541E+01  9.902215E-01 -2.923243E+01 
4.111075E+02  9.895064E-01 -3.248238E+01  1.473098E-04 5.257823E+01  1.433896E-04 5.290813E+01  9.901727E-01 -2.923391E+01 
4.111388E+02  9.895289E-01 -3.248648E+01  1.499922E-04 4.981774E+01  1.501766E-04 5.020547E+01  9.902270E-01 -2.923294E+01 
4.111700E+02  9.896858E-01 -3.248755E+01  1.536025E-04 4.875825E+01  1.479334E-04 4.883493E+01  9.901066E-01 -2.924059E+01 
4.112013E+02  9.895956E-01 -3.249355E+01  1.521474E-04 4.754522E+01  1.556929E-04 5.085979E+01  9.901523E-01 -2.923636E+01 
4.112325E+02  9.897109E-01 -3.250301E+01  1.477158E-04 4.605833E+01  1.505616E-04 4.838753E+01  9.901004E-01 -2.924972E+01 
4.112638E+02  9.895166E-01 -3.249916E+01  1.511492E-04 4.254713E+01  1.539112E-04 4.519832E+01  9.901673E-01 -2.924867E+01 
4.112950E+02  9.895657E-01 -3.249773E+01  1.552023E-04 4.679347E+01  1.527649E-04 4.320480E+01  9.900914E-01 -2.925577E+01 
4.113263E+02  9.894438E-01 -3.249918E+01  1.497603E-04 4.098247E+01  1.499231E-04 4.379666E+01  9.901516E-01 -2.925001E+01 
4.113575E+02  9.896190E-01 -3.251337E+01  1.521848E-04 3.851990E+01  1.489252E-04 3.847436E+01  9.902219E-01 -2.925773E+01 
4.113888E+02  9.895501E-01 -3.251621E+01  1.485582E-04 3.767514E+01  1.494768E-04 3.867511E+01  9.902004E-01 -2.925343E+01 
4.114200E+02  9.895416E-01 -3.252243E+01  1.417753E-04 3.470944E+01  1.446541E-04 3.708703E+01  9.902296E-01 -2.925884E+01 
4.114513E+02  9.894668E-01 -3.251247E+01  1.428052E-04 3.451755E+01  1.419455E-04 3.442898E+01  9.901342E-01 -2.926575E+01 
4.114825E+02  9.895059E-01 -3.252292E+01  1.422320E-04 3.378168E+01  1.382574E-04 2.888828E+01  9.901270E-01 -2.926182E+01 
4.115138E+02  9.896287E-01 -3.251538E+01  1.334390E-04 2.974731E+01  1.361995E-04 3.013489E+01  9.901729E-01 -2.927238E+01 
4.115450E+02  9.895346E-01 -3.253086E+01  1.288107E-04 2.852950E+01  1.368075E-04 2.955087E+01  9.901545E-01 -2.926680E+01 
4.115763E+02  9.894682E-01 -3.251578E+01  1.246092E-04 2.508613E+01  1.247668E-04 2.659503E+01  9.901659E-01 -2.927185E+01 
4.116075E+02  9.896046E-01 -3.252545E+01  1.164302E-04 2.331294E+01  1.284054E-04 2.584615E+01  9.900308E-01 -2.927324E+01 
4.116388E+02  9.896706E-01 -3.253569E+01  1.109172E-04 2.522410E+01  1.234015E-04 2.414010E+01  9.901656E-01 -2.927862E+01 
4.116700E+02  9.894700E-01 -3.253063E+01  1.102436E-04 2.140393E+01  1.097847E-04 2.098983E+01  9.900044E-01 -2.928384E+01 
4.117013E+02  9.894559E-01 -3.254057E+01  1.079050E-04 1.831266E+01  1.014744E-04 2.017907E+01  9.901451E-01 -2.927390E+01 
4.117325E+02  9.896050E-01 -3.253513E+01  1.052661E-04 1.621282E+01  1.031332E-04 1.682592E+01  9.900987E-01 -2.928890E+01 
4.117638E+02  9.894620E-01 -3.253963E+01  9.237975E-05 1.764343E+01  9.423496E-05 1.507748E+01  9.901383E-01 -2.928996E+01 
4.117950E+02  9.895908E-01 -3.254655E+01  7.899891E-05 1.535558E+01  8.086096E-05 1.853580E+01  9.900586E-01 -2.929715E+01 
4.118263E+02  9.895888E-01 -3.254227E+01  7.782822E-05 1.457127E+01  7.449273E-05 1.408884E+01  9.900664E-01 -2.928626E+01 
4.118575E+02  9.896598E-01 -3.254835E+01  7.193517E-05 9.121156E+00  6.728236E-05 1.385526E+01  9.900137E-01 -2.929950E+01 
4.118888E+02  9.893550E-01 -3.255011E+01  6.798616E-05 1.186290E+01  6.109324E-05 2.001757E+01  9.900822E-01 -2.929692E+01 
4.119200E+02  9.895813E-01 -3.256215E+01  5.735616E-05 7.482181E+00  6.145163E-05 1.480889E+01  9.901571E-01 -2.929402E+01 
4.119513E+02  9.894409E-01 -3.255212E+01  4.433599E-05 2.723156E+01  5.080403E-05 1.854937E+01  9.900139E-01 -2.929659E+01 
4.119825E+02  9.894555E-01 -3.255296E+01  4.536726E-05 2.917121E+01  3.915381E-05 2.749325E+01  9.902261E-01 -2.929786E+01 
4.120138E+02  9.894335E-01 -3.255669E+01  3.879018E-05 4.349460E+01  3.322485E-05 2.475441E+01  9.899659E-01 -2.930802E+01 
4.120450E+02  9.894909E-01 -3.256008E+01  3.682576E-05 4.515962E+01  2.853382E-05 5.181366E+01  9.900452E-01 -2.930166E+01 
4.120763E+02  9.894995E-01 -3.256390E+01  3.248005E-05 5.252177E+01  3.715865E-05 6.217097E+01  9.901154E-01 -2.930636E+01 
4.121075E+02  9.895594E-01 -3.256908E+01  3.226041E-05 6.298967E+01  3.345799E-05 7.820026E+01  9.901232E-01 -2.931377E+01 
4.121388E+02  9.894883E-01 -3.257349E+01  3.688570E-05 7.784120E+01  3.017614E-05 7.852366E+01  9.902130E-01 -2.931623E+01 
4.121700E+02  9.894878E-01 -3.257672E+01  4.886057E-05 9.280510E+01  3.528012E-05 8.888763E+01  9.900566E-01 -2.931275E+01 
4.122013E+02  9.894831E-01 -3.257703E+01  4.482466E-05 9.027323E+01  4.429729E-05 9.661017E+01  9.901000E-01 -2.932343E+01 
4.122325E+02  9.896281E-01 -3.258468E+01  5.332375E-05 1.050287E+02  5.047003E-05 1.063988E+02  9.901878E-01 -2.931707E+01 
4.122638E+02  9.894774E-01 -3.258020E+01  5.557631E-05 1.079693E+02  6.535314E-05 1.098398E+02  9.900991E-01 -2.932107E+01 
4.122950E+02  9.894218E-01 -3.258411E+01  6.651746E-05 1.063490E+02  6.501475E-05 1.112153E+02  9.901045E-01 -2.932347E+01 
4.123263E+02  9.894050E-01 -3.258906E+01  7.060624E-05 1.138712E+02  7.812252E-05 1.074537E+02  9.901388E-01 -2.932396E+01 
4.123575E+02  9.895909E-01 -3.258342E+01  8.437699E-05 1.079260E+02  8.095884E-05 1.096557E+02  9.900384E-01 -2.933184E+01 
4.123888E+02  9.893918E-01 -3.259298E+01  9.408288E-05 1.070266E+02  8.871266E-05 1.043011E+02  9.901229E-01 -2.934175E+01 
4.124200E+02  9.893619E-01 -3.258886E+01  1.049753E-04 1.032721E+02  1.030336E-04 1.038137E+02  9.901460E-01 -2.933425E+01 
4.124513E+02  9.896201E-01 -3.259086E+01  1.043553E-04 1.026611E+02  1.061265E-04 1.028601E+02  9.900688E-01 -2.933820E+01 
4.124825E+02  9.892956E-01 -3.259884E+01  1.099245E-04 1.022776E+02  1.184135E-04 1.031817E+02  9.900678E-01 -2.934407E+01 
4.125138E+02  9.895246E-01 -3.259813E+01  1.161301E-04 9.878802E+01  1.206781E-04 1.012332E+02  9.900266E-01 -2.934542E+01 
4.125450E+02  9.895344E-01 -3.260643E+01  1.266104E-04 9.841697E+01  1.253770E-04 1.002630E+02  9.900907E-01 -2.934337E+01 
4.125763E+02  9.895751E-01 -3.260337E+01  1.251821E-04 9.312033E+01  1.354841E-04 9.679477E+01  9.900530E-01 -2.934939E+01 
4.126075E+02  9.893641E-01 -3.260703E+01  1.431638E-04 9.578302E+01  1.450027E-04 9.397164E+01  9.901481E-01 -2.935036E+01 
4.126388E+02  9.895630E-01 -3.260862E+01  1.523183E-04 9.057291E+01  1.452588E-04 9.594063E+01  9.901888E-01 -2.935753E+01 
4.126700E+02  9.894853E-01 -3.261119E+01  1.541637E-04 8.750051E+01  1.545312E-04 8.574861E+01  9.902323E-01 -2.935515E+01 
4.127013E+02  9.894795E-01 -3.261664E+01  1.616885E-04 8.642792E+01  1.560121E-04 8.639817E+01  9.900681E-01 -2.935979E+01 
4.127325E+02  9.895143E-01 -3.261993E+01  1.671872E-04 8.443513E+01  1.640165E-04 8.582549E+01  9.901410E-01 -2.935825E+01 
4.127638E+02  9.894462E-01 -3.262506E+01  1.640177E-04 8.184332E+01  1.644700E-04 8.143293E+01  9.899801E-01 -2.936133E+01 
4.127950E+02  9.895798E-01 -3.262082E+01  1.700971E-04 7.732832E+01  1.653347E-04 7.844339E+01  9.899649E-01 -2.936313E+01 
4.128263E+02  9.896471E-01 -3.262629E+01  1.730074E-04 7.592086E+01  1.719590E-04 7.764774E+01  9.900990E-01 -2.936160E+01 
4.128575E+02  9.895055E-01 -3.262677E+01  1.616715E-04 7.525246E+01  1.676580E-04 7.409594E+01  9.902114E-01 -2.937391E+01 
4.128888E+02  9.894841E-01 -3.263418E+01  1.679029E-04 7.229034E+01  1.724717E-04 7.093622E+01  9.901117E-01 -2.937368E+01 
4.129200E+02  9.895900E-01 -3.263688E+01  1.664495E-04 7.194024E+01  1.655920E-04 7.041878E+01  9.899733E-01 -2.937764E+01 
4.129513E+02  9.894754E-01 -3.263545E+01  1.639186E-04 6.996994E+01  1.665367E-04 7.078139E+01  9.901698E-01 -2.937128E+01 
4.129825E+02  9.894974E-01 -3.264361E+01  1.797662E-04 6.616089E+01  1.648347E-04 6.720657E+01  9.900562E-01 -2.937739E+01 
4.130138E+02  9.895296E-01 -3.263257E+01  1.627680E-04 6.442881E+01  1.642107E-04 6.412794E+01  9.900966E-01 -2.938568E+01 
4.130450E+02  9.895714E-01 -3.264870E+01  1.698224E-04 6.122211E+01  1.634016E-04 6.202321E+01  9.900603E-01 -2.938495E+01 
4.130763E+02  9.894851E-01 -3.265120E+01  1.623069E-04 6.094544E+01  1.670124E-04 6.078495E+01  9.900086E-01 -2.938875E+01 
4.131075E+02  9.894351E-01 -3.265206E+01  1.671284E-04 5.781560E+01  1.584502E-04 5.743400E+01  9.901396E-01 -2.938797E+01 
4.131388E+02  9.896262E-01 -3.265255E+01  1.609072E-04 5.652906E+01  1.555565E-04 5.934708E+01  9.901932E-01 -2.939274E+01 
4.131700E+02  9.895027E-01 -3.265351E+01  1.550014E-04 5.489870E+01  1.540301E-04 5.489509E+01  9.902315E-01 -2.939251E+01 
4.132013E+02  9.895502E-01 -3.265708E+01  1.569133E-04 5.320150E+01  1.480275E-04 5.483112E+01  9.901046E-01 -2.940154E+01 
4.132325E+02  9.896106E-01 -3.266482E+01  1.538404E-04 5.257196E+01  1.472875E-04 5.365549E+01  9.901678E-01 -2.940127E+01 
4.132638E+02  9.896006E-01 -3.266659E+01  1.414107E-04 5.345499E+01  1.375123E-04 5.061417E+01  9.899532E-01 -2.940047E+01 
4.132950E+02  9.895434E-01 -3.266461E+01  1.410890E-04 5.285676E+01  1.383914E-04 5.182068E+01  9.901930E-01 -2.940299E+01 
4.133263E+02  9.895564E-01 -3.266826E+01  1.414306E-04 5.204291E+01  1.421954E-04 5.094159E+01  9.901341E-01 -2.940029E+01 
4.133575E+02  9.895157E-01 -3.266472E+01  1.313763E-04 4.788381E+01  1.354129E-04 5.131120E+01  9.901762E-01 -2.940794E+01 
4.133888E+02  9.896159E-01 -3.267929E+01  1.314677E-04 5.056422E+01  1.319605E-04 4.912763E+01  9.901370E-01 -2.941241E+01 
4.134200E+02  9.894694E-01 -3.268432E+01  1.238496E-04 4.745796E+01  1.233123E-04 5.158889E+01  9.900752E-01 -2.941315E+01 
4.134513E+02  9.896418E-01 -3.268682E+01  1.227984E-04 4.615613E+01  1.314002E-04 5.078036E+01  9.902381E-01 -2.941485E+01 
4.134825E+02  9.895374E-01 -3.268417E+01  1.210145E-04 4.671348E+01  1.196438E-04 4.796014E+01  9.901589E-01 -2.941848E+01 
4.135138E+02  9.895601E-01 -3.268711E+01  1.235030E-04 5.232683E+01  1.148974E-04 5.268851E+01  9.900802E-01 -2.941868E+01 
4.135450E+02  9.895659E-01 -3.269424E+01  1.210811E-04 5.266350E+01  1.159973E-04 5.158144E+01  9.901831E-01 -2.942278E+01 
4.135763E+02  9.896075E-01 -3.268785E+01  1.167076E-04 5.095167E+01  1.098973E-04 5.170620E+01  9.901035E-01 -2.942493E+01 
4.136075E+02  9.895542E-01 -3.269430E+01  1.073432E-04 5.008430E+01  1.153188E-04 5.575039E+01  9.902397E-01 -2.942462E+01 
4.136388E+02  9.895952E-01 -3.269948E+01  1.133360E-04 5.618123E+01  1.051635E-04 5.496799E+01  9.901250E-01 -2.942783E+01 
4.136700E+02  9.894490E-01 -3.269699E+01  1.099759E-04 5.594404E+01  1.066670E-04 5.792501E+01  9.902036E-01 -2.943186E+01 
4.137013E+02  9.895495E-01 -3.270370E+01  1.171036E-04 5.711905E+01  1.111489E-04 5.793880E+01  9.902968E-01 -2.943280E+01 
4.137325E+02  9.894586E-01 -3.270123E+01  1.137208E-04 6.069377E+01  1.133259E-04 6.137926E+01  9.903121E-01 -2.944222E+01 
4.137638E+02  9.896086E-01 -3.271378E+01  1.107047E-04 5.900532E+01  1.178477E-04 6.013913E+01  9.900986E-01 -2.943761E+01 
4.137950E+02  9.896522E-01 -3.271505E+01  1.092402E-04 6.068950E+01  1.164811E-04 6.039111E+01  9.901443E-01 -2.944721E+01 
