! Matrix data file written by TouchstoneData, EPCOS AG
! FILENAME: "B3932_WB.s2p"
! COMMENT: "PINNING 1/4; PORTEX 1=93PS; 2=179.5PS; 13 Ja"
! INFO: nport=2, nfreq=1601
! DATE: "Thu Jun 25 17:21:50 2009"
! USER: "Aleksander Breg"
!
! port | pin | signal
! -----|-----|--------
!   1  |  1  |  input
!   2  |  4  |  output
! --------------------
! 
# MHZ S MA R 50
! freq  magS11 angS11  magS21 angS21  magS12 angS12  magS22 angS22
4.091700E+02  9.909726E-01 -2.803063E+01  7.520517E-05 4.654894E+01  7.606508E-05 4.688347E+01  9.877681E-01 -3.121512E+01 
4.092013E+02  9.908801E-01 -2.803543E+01  7.573213E-05 5.170394E+01  8.188117E-05 5.019864E+01  9.879412E-01 -3.122908E+01 
4.092325E+02  9.908003E-01 -2.805616E+01  7.031796E-05 5.250603E+01  7.150837E-05 5.178874E+01  9.879096E-01 -3.121245E+01 
4.092638E+02  9.907171E-01 -2.806320E+01  7.116321E-05 5.369156E+01  7.331990E-05 5.351866E+01  9.879941E-01 -3.120887E+01 
4.092950E+02  9.908973E-01 -2.805093E+01  7.634625E-05 5.519863E+01  7.470352E-05 5.252795E+01  9.880720E-01 -3.121428E+01 
4.093263E+02  9.908057E-01 -2.805383E+01  6.944095E-05 5.837778E+01  7.873006E-05 5.510773E+01  9.878402E-01 -3.122673E+01 
4.093575E+02  9.905304E-01 -2.805315E+01  7.439383E-05 6.045909E+01  6.841460E-05 6.162850E+01  9.879580E-01 -3.123133E+01 
4.093888E+02  9.909180E-01 -2.804764E+01  7.045010E-05 6.337274E+01  7.345961E-05 6.601873E+01  9.879634E-01 -3.121631E+01 
4.094200E+02  9.907102E-01 -2.804735E+01  7.477771E-05 6.241547E+01  7.221472E-05 6.587128E+01  9.880064E-01 -3.119581E+01 
4.094513E+02  9.911080E-01 -2.805570E+01  7.303829E-05 6.910843E+01  7.620140E-05 7.344558E+01  9.882603E-01 -3.122503E+01 
4.094825E+02  9.909796E-01 -2.805706E+01  8.370332E-05 7.046183E+01  7.730739E-05 7.201061E+01  9.881047E-01 -3.123866E+01 
4.095138E+02  9.908138E-01 -2.807146E+01  8.352215E-05 7.111390E+01  8.279636E-05 7.308426E+01  9.881291E-01 -3.122667E+01 
4.095450E+02  9.907662E-01 -2.806626E+01  8.941475E-05 7.340544E+01  9.108522E-05 7.318282E+01  9.878379E-01 -3.123568E+01 
4.095763E+02  9.909107E-01 -2.806201E+01  9.117557E-05 7.071851E+01  9.719950E-05 7.190653E+01  9.881613E-01 -3.123213E+01 
4.096075E+02  9.907420E-01 -2.806252E+01  8.855003E-05 7.211760E+01  9.173591E-05 7.090657E+01  9.882235E-01 -3.123519E+01 
4.096388E+02  9.910183E-01 -2.806843E+01  9.872738E-05 7.326444E+01  9.663431E-05 7.434116E+01  9.881505E-01 -3.124610E+01 
4.096700E+02  9.907633E-01 -2.807743E+01  9.781690E-05 7.542993E+01  9.419385E-05 7.488661E+01  9.880365E-01 -3.125038E+01 
4.097013E+02  9.906959E-01 -2.808204E+01  9.615100E-05 7.345918E+01  9.786236E-05 7.729632E+01  9.880061E-01 -3.123171E+01 
4.097325E+02  9.911331E-01 -2.807788E+01  9.534687E-05 7.625114E+01  9.917659E-05 7.691409E+01  9.881624E-01 -3.125550E+01 
4.097638E+02  9.907421E-01 -2.807606E+01  9.804541E-05 7.392195E+01  1.021935E-04 7.773144E+01  9.879254E-01 -3.125824E+01 
4.097950E+02  9.906414E-01 -2.809597E+01  1.042731E-04 7.788852E+01  1.117407E-04 7.904140E+01  9.878996E-01 -3.124462E+01 
4.098263E+02  9.906900E-01 -2.808272E+01  1.091126E-04 7.567721E+01  1.110908E-04 8.329678E+01  9.882249E-01 -3.126081E+01 
4.098575E+02  9.909177E-01 -2.809518E+01  1.208163E-04 7.895675E+01  1.202991E-04 7.627640E+01  9.880370E-01 -3.126675E+01 
4.098888E+02  9.910384E-01 -2.808987E+01  1.216279E-04 7.637734E+01  1.237424E-04 7.479381E+01  9.880393E-01 -3.126848E+01 
4.099200E+02  9.908696E-01 -2.810388E+01  1.271907E-04 7.313991E+01  1.258846E-04 7.119162E+01  9.881259E-01 -3.126417E+01 
4.099513E+02  9.906553E-01 -2.810693E+01  1.290043E-04 6.974903E+01  1.278478E-04 6.808822E+01  9.879793E-01 -3.126808E+01 
4.099825E+02  9.906934E-01 -2.808680E+01  1.265248E-04 6.853710E+01  1.302495E-04 6.695624E+01  9.880533E-01 -3.127117E+01 
4.100138E+02  9.908862E-01 -2.809256E+01  1.259894E-04 6.720206E+01  1.275507E-04 6.607827E+01  9.880855E-01 -3.124986E+01 
4.100450E+02  9.908824E-01 -2.811325E+01  1.236113E-04 6.263426E+01  1.247497E-04 6.534755E+01  9.879111E-01 -3.126863E+01 
4.100763E+02  9.908401E-01 -2.810011E+01  1.231147E-04 6.195004E+01  1.186681E-04 6.545240E+01  9.880464E-01 -3.128937E+01 
4.101075E+02  9.907830E-01 -2.811060E+01  1.192828E-04 6.273461E+01  1.172560E-04 6.080037E+01  9.878860E-01 -3.128264E+01 
4.101388E+02  9.908665E-01 -2.811198E+01  1.138373E-04 6.276254E+01  1.142537E-04 6.234743E+01  9.879609E-01 -3.128436E+01 
4.101700E+02  9.907680E-01 -2.811349E+01  1.135192E-04 6.875129E+01  1.092398E-04 6.655692E+01  9.881416E-01 -3.127317E+01 
4.102013E+02  9.907292E-01 -2.812279E+01  1.110273E-04 6.777700E+01  1.085130E-04 6.703138E+01  9.880637E-01 -3.128325E+01 
4.102325E+02  9.905525E-01 -2.812176E+01  1.133851E-04 6.936706E+01  1.168364E-04 7.076255E+01  9.879885E-01 -3.129606E+01 
4.102638E+02  9.908839E-01 -2.812559E+01  1.186929E-04 6.902725E+01  1.117578E-04 7.357900E+01  9.879991E-01 -3.130165E+01 
4.102950E+02  9.909954E-01 -2.812982E+01  1.204104E-04 6.987132E+01  1.130152E-04 7.037791E+01  9.878683E-01 -3.130034E+01 
4.103263E+02  9.907769E-01 -2.813319E+01  1.191563E-04 6.876471E+01  1.120723E-04 6.923033E+01  9.880617E-01 -3.129009E+01 
4.103575E+02  9.908670E-01 -2.812031E+01  1.184460E-04 6.868427E+01  1.119212E-04 7.133982E+01  9.881602E-01 -3.129002E+01 
4.103888E+02  9.909311E-01 -2.813493E+01  1.252385E-04 6.776320E+01  1.231616E-04 6.587841E+01  9.879416E-01 -3.130627E+01 
4.104200E+02  9.909563E-01 -2.813109E+01  1.303295E-04 6.868214E+01  1.215234E-04 6.906449E+01  9.877843E-01 -3.131329E+01 
4.104513E+02  9.910420E-01 -2.813174E+01  1.258638E-04 6.641976E+01  1.210579E-04 6.766536E+01  9.879405E-01 -3.129378E+01 
4.104825E+02  9.906536E-01 -2.812916E+01  1.184393E-04 6.599216E+01  1.266553E-04 6.673158E+01  9.879840E-01 -3.131349E+01 
4.105138E+02  9.907067E-01 -2.813234E+01  1.263182E-04 6.804154E+01  1.303393E-04 6.480786E+01  9.879584E-01 -3.130433E+01 
4.105450E+02  9.907516E-01 -2.814301E+01  1.194916E-04 6.488380E+01  1.277069E-04 6.509072E+01  9.880545E-01 -3.132013E+01 
4.105763E+02  9.906391E-01 -2.815290E+01  1.234570E-04 6.282796E+01  1.163044E-04 6.272149E+01  9.880211E-01 -3.131544E+01 
4.106075E+02  9.906602E-01 -2.813727E+01  1.183249E-04 6.410059E+01  1.112816E-04 6.601151E+01  9.877555E-01 -3.132564E+01 
4.106388E+02  9.905747E-01 -2.815154E+01  1.152859E-04 6.567747E+01  1.208882E-04 6.654468E+01  9.881641E-01 -3.131934E+01 
4.106700E+02  9.906131E-01 -2.815157E+01  1.120398E-04 6.187250E+01  1.197356E-04 6.695867E+01  9.878859E-01 -3.134945E+01 
4.107013E+02  9.910069E-01 -2.815751E+01  1.171532E-04 6.837306E+01  1.182073E-04 6.877320E+01  9.882467E-01 -3.133190E+01 
4.107325E+02  9.907070E-01 -2.816115E+01  1.154726E-04 6.894663E+01  1.157702E-04 6.973973E+01  9.881581E-01 -3.131860E+01 
4.107638E+02  9.906084E-01 -2.817219E+01  1.215841E-04 6.909542E+01  1.153516E-04 6.884975E+01  9.881606E-01 -3.133639E+01 
4.107950E+02  9.908455E-01 -2.817313E+01  1.206910E-04 7.203285E+01  1.200879E-04 7.165904E+01  9.877329E-01 -3.133109E+01 
4.108263E+02  9.906605E-01 -2.816624E+01  1.273870E-04 6.934998E+01  1.240435E-04 6.866020E+01  9.878205E-01 -3.135965E+01 
4.108575E+02  9.907725E-01 -2.816764E+01  1.336139E-04 6.911055E+01  1.371584E-04 6.804486E+01  9.881594E-01 -3.134144E+01 
4.108888E+02  9.907427E-01 -2.817057E+01  1.314022E-04 6.808739E+01  1.270848E-04 6.831405E+01  9.879694E-01 -3.134029E+01 
4.109200E+02  9.908108E-01 -2.816834E+01  1.342345E-04 6.302660E+01  1.307581E-04 6.880135E+01  9.879385E-01 -3.135101E+01 
4.109513E+02  9.909857E-01 -2.817782E+01  1.273845E-04 6.384017E+01  1.238862E-04 6.487767E+01  9.878353E-01 -3.135054E+01 
4.109825E+02  9.908080E-01 -2.818246E+01  1.311068E-04 6.371350E+01  1.244498E-04 6.254736E+01  9.879329E-01 -3.136143E+01 
4.110138E+02  9.906506E-01 -2.818968E+01  1.277296E-04 5.981927E+01  1.332670E-04 6.402312E+01  9.878140E-01 -3.134222E+01 
4.110450E+02  9.906688E-01 -2.817158E+01  1.289713E-04 6.093595E+01  1.261863E-04 6.126205E+01  9.878626E-01 -3.135847E+01 
4.110763E+02  9.906029E-01 -2.819044E+01  1.215660E-04 5.799701E+01  1.225133E-04 5.809433E+01  9.880680E-01 -3.136010E+01 
4.111075E+02  9.906982E-01 -2.819597E+01  1.187678E-04 5.826554E+01  1.196495E-04 6.114504E+01  9.881994E-01 -3.138631E+01 
4.111388E+02  9.907209E-01 -2.820070E+01  1.193924E-04 6.003080E+01  1.129816E-04 5.870517E+01  9.878116E-01 -3.136670E+01 
4.111700E+02  9.906679E-01 -2.819327E+01  1.089897E-04 6.166318E+01  1.123753E-04 6.075673E+01  9.878636E-01 -3.138168E+01 
4.112013E+02  9.907049E-01 -2.819549E+01  1.086995E-04 6.495028E+01  1.114599E-04 6.197027E+01  9.878969E-01 -3.138383E+01 
4.112325E+02  9.905874E-01 -2.819865E+01  1.119308E-04 6.023224E+01  1.147854E-04 6.513974E+01  9.881191E-01 -3.138425E+01 
4.112638E+02  9.903760E-01 -2.819820E+01  1.096064E-04 6.549559E+01  1.072618E-04 6.437691E+01  9.877232E-01 -3.138823E+01 
4.112950E+02  9.907882E-01 -2.819680E+01  1.088984E-04 6.422443E+01  1.083292E-04 6.491690E+01  9.878929E-01 -3.139382E+01 
4.113263E+02  9.906551E-01 -2.820343E+01  1.119568E-04 6.494560E+01  1.089439E-04 6.468351E+01  9.879574E-01 -3.139603E+01 
4.113575E+02  9.905573E-01 -2.821236E+01  1.094431E-04 6.362409E+01  1.039269E-04 6.342461E+01  9.881738E-01 -3.138866E+01 
4.113888E+02  9.906351E-01 -2.819811E+01  1.001149E-04 6.939583E+01  1.065953E-04 6.998898E+01  9.881175E-01 -3.138472E+01 
4.114200E+02  9.905055E-01 -2.820863E+01  1.032787E-04 7.048176E+01  1.088275E-04 7.008165E+01  9.878346E-01 -3.139873E+01 
4.114513E+02  9.907231E-01 -2.820620E+01  1.100366E-04 6.923147E+01  1.067757E-04 6.945613E+01  9.880024E-01 -3.138352E+01 
4.114825E+02  9.906735E-01 -2.821802E+01  1.098762E-04 7.286163E+01  1.076001E-04 7.385765E+01  9.880288E-01 -3.140788E+01 
4.115138E+02  9.907431E-01 -2.822514E+01  1.169459E-04 7.205077E+01  1.128165E-04 7.493146E+01  9.877437E-01 -3.139989E+01 
4.115450E+02  9.907996E-01 -2.822428E+01  1.129998E-04 7.135873E+01  1.109267E-04 7.575951E+01  9.878463E-01 -3.139325E+01 
4.115763E+02  9.908746E-01 -2.822871E+01  1.224126E-04 7.236947E+01  1.211691E-04 7.520227E+01  9.879117E-01 -3.138371E+01 
4.116075E+02  9.906041E-01 -2.822169E+01  1.146552E-04 7.097632E+01  1.212825E-04 7.717987E+01  9.880826E-01 -3.139869E+01 
4.116388E+02  9.906237E-01 -2.823479E+01  1.217403E-04 7.546896E+01  1.284839E-04 7.431252E+01  9.881559E-01 -3.140464E+01 
4.116700E+02  9.908485E-01 -2.822348E+01  1.274267E-04 7.162131E+01  1.271800E-04 7.310489E+01  9.878726E-01 -3.142693E+01 
4.117013E+02  9.906324E-01 -2.823754E+01  1.254979E-04 7.475102E+01  1.305593E-04 7.533259E+01  9.877097E-01 -3.141882E+01 
4.117325E+02  9.904963E-01 -2.824167E+01  1.354249E-04 7.255572E+01  1.323941E-04 7.186033E+01  9.879216E-01 -3.141194E+01 
4.117638E+02  9.909212E-01 -2.824166E+01  1.289861E-04 7.177265E+01  1.314481E-04 6.926643E+01  9.879977E-01 -3.143059E+01 
4.117950E+02  9.909019E-01 -2.824575E+01  1.311360E-04 6.794579E+01  1.285942E-04 6.935134E+01  9.879359E-01 -3.142450E+01 
4.118263E+02  9.905922E-01 -2.825092E+01  1.283292E-04 6.842295E+01  1.272376E-04 6.690958E+01  9.879587E-01 -3.142967E+01 
4.118575E+02  9.908550E-01 -2.825144E+01  1.248073E-04 6.539897E+01  1.276023E-04 6.680925E+01  9.875340E-01 -3.144449E+01 
4.118888E+02  9.907738E-01 -2.825579E+01  1.243585E-04 6.476349E+01  1.241943E-04 6.568790E+01  9.878599E-01 -3.144181E+01 
4.119200E+02  9.907738E-01 -2.825980E+01  1.200596E-04 6.519042E+01  1.161218E-04 6.899194E+01  9.879807E-01 -3.143791E+01 
4.119513E+02  9.905955E-01 -2.824438E+01  1.207518E-04 6.520052E+01  1.187230E-04 7.054795E+01  9.878139E-01 -3.143536E+01 
4.119825E+02  9.905422E-01 -2.825051E+01  1.209569E-04 6.788383E+01  1.166137E-04 7.016428E+01  9.877696E-01 -3.143146E+01 
4.120138E+02  9.908157E-01 -2.827651E+01  1.191044E-04 6.861674E+01  1.157171E-04 6.995516E+01  9.880448E-01 -3.143403E+01 
4.120450E+02  9.909784E-01 -2.826536E+01  1.147007E-04 7.270155E+01  1.186478E-04 7.261130E+01  9.880702E-01 -3.144573E+01 
4.120763E+02  9.906065E-01 -2.824839E+01  1.147134E-04 7.513066E+01  1.162343E-04 7.144352E+01  9.878660E-01 -3.144847E+01 
4.121075E+02  9.909987E-01 -2.827303E+01  1.184132E-04 7.491178E+01  1.214529E-04 7.851034E+01  9.879021E-01 -3.145226E+01 
4.121388E+02  9.907011E-01 -2.826449E+01  1.202427E-04 7.725634E+01  1.234529E-04 7.615784E+01  9.878557E-01 -3.143376E+01 
4.121700E+02  9.906729E-01 -2.827846E+01  1.270232E-04 7.497922E+01  1.191487E-04 7.576128E+01  9.876492E-01 -3.144753E+01 
4.122013E+02  9.907141E-01 -2.826869E+01  1.262124E-04 7.897432E+01  1.250918E-04 7.757013E+01  9.879189E-01 -3.144713E+01 
4.122325E+02  9.906006E-01 -2.828160E+01  1.327575E-04 7.763137E+01  1.299770E-04 8.006606E+01  9.878553E-01 -3.145489E+01 
4.122638E+02  9.906332E-01 -2.827397E+01  1.266699E-04 7.889943E+01  1.299914E-04 7.780667E+01  9.878410E-01 -3.145649E+01 
4.122950E+02  9.905687E-01 -2.829310E+01  1.335780E-04 7.754962E+01  1.350740E-04 7.875911E+01  9.878468E-01 -3.146642E+01 
4.123263E+02  9.904161E-01 -2.826291E+01  1.335285E-04 7.685592E+01  1.368623E-04 7.840870E+01  9.875641E-01 -3.146607E+01 
4.123575E+02  9.904704E-01 -2.827920E+01  1.348486E-04 8.076202E+01  1.378536E-04 8.025235E+01  9.880745E-01 -3.146789E+01 
4.123888E+02  9.907049E-01 -2.827951E+01  1.372895E-04 7.949417E+01  1.419486E-04 7.921026E+01  9.879240E-01 -3.146345E+01 
4.124200E+02  9.906737E-01 -2.830495E+01  1.420698E-04 7.934297E+01  1.420805E-04 7.958643E+01  9.878180E-01 -3.146620E+01 
4.124513E+02  9.907240E-01 -2.829029E+01  1.482219E-04 7.847951E+01  1.428861E-04 7.910932E+01  9.876104E-01 -3.147672E+01 
4.124825E+02  9.904943E-01 -2.829987E+01  1.489181E-04 8.180231E+01  1.493647E-04 8.073589E+01  9.880458E-01 -3.148706E+01 
4.125138E+02  9.905724E-01 -2.829637E+01  1.532300E-04 8.303796E+01  1.492780E-04 8.156582E+01  9.876177E-01 -3.149484E+01 
4.125450E+02  9.905992E-01 -2.827474E+01  1.623797E-04 8.032467E+01  1.548678E-04 8.174261E+01  9.878295E-01 -3.148534E+01 
4.125763E+02  9.904316E-01 -2.830112E+01  1.549494E-04 8.015121E+01  1.635716E-04 8.205142E+01  9.877918E-01 -3.147656E+01 
4.126075E+02  9.905442E-01 -2.831241E+01  1.662206E-04 7.936877E+01  1.696501E-04 8.018321E+01  9.879228E-01 -3.149677E+01 
4.126388E+02  9.905980E-01 -2.830642E+01  1.753904E-04 8.097031E+01  1.628430E-04 7.957664E+01  9.880008E-01 -3.148364E+01 
4.126700E+02  9.908216E-01 -2.830906E+01  1.789965E-04 8.011029E+01  1.775229E-04 7.985484E+01  9.877892E-01 -3.151012E+01 
4.127013E+02  9.906220E-01 -2.832110E+01  1.782305E-04 7.990912E+01  1.882339E-04 7.965521E+01  9.877655E-01 -3.149002E+01 
4.127325E+02  9.908112E-01 -2.830846E+01  1.918200E-04 7.809488E+01  1.921313E-04 8.019883E+01  9.877387E-01 -3.149089E+01 
4.127638E+02  9.904994E-01 -2.831330E+01  2.025707E-04 7.897173E+01  2.024866E-04 7.877589E+01  9.878769E-01 -3.150124E+01 
4.127950E+02  9.906095E-01 -2.831674E+01  2.015945E-04 7.615948E+01  2.102044E-04 7.761476E+01  9.879821E-01 -3.151095E+01 
4.128263E+02  9.907637E-01 -2.832091E+01  2.162243E-04 7.402195E+01  2.118384E-04 7.461734E+01  9.878221E-01 -3.151692E+01 
4.128575E+02  9.906043E-01 -2.833850E+01  2.152879E-04 7.201649E+01  2.127973E-04 7.262400E+01  9.878919E-01 -3.150933E+01 
4.128888E+02  9.907254E-01 -2.832133E+01  2.201454E-04 6.961803E+01  2.225055E-04 7.037289E+01  9.879250E-01 -3.149953E+01 
4.129200E+02  9.905742E-01 -2.832165E+01  2.271957E-04 6.821246E+01  2.265083E-04 6.717088E+01  9.876971E-01 -3.150105E+01 
4.129513E+02  9.908235E-01 -2.831469E+01  2.307296E-04 6.557169E+01  2.306543E-04 6.481490E+01  9.879140E-01 -3.152367E+01 
4.129825E+02  9.904968E-01 -2.832971E+01  2.349189E-04 6.263567E+01  2.390363E-04 6.286809E+01  9.879252E-01 -3.151064E+01 
4.130138E+02  9.904972E-01 -2.832811E+01  2.360905E-04 5.947759E+01  2.375724E-04 5.903288E+01  9.877137E-01 -3.150672E+01 
4.130450E+02  9.906630E-01 -2.833466E+01  2.385925E-04 5.823695E+01  2.357483E-04 5.860144E+01  9.876728E-01 -3.151623E+01 
4.130763E+02  9.905734E-01 -2.834000E+01  2.364705E-04 5.425797E+01  2.362845E-04 5.500704E+01  9.878510E-01 -3.152180E+01 
4.131075E+02  9.907277E-01 -2.833616E+01  2.376746E-04 5.334459E+01  2.347599E-04 5.228694E+01  9.877191E-01 -3.153496E+01 
4.131388E+02  9.903545E-01 -2.833983E+01  2.321605E-04 5.018895E+01  2.341740E-04 5.033174E+01  9.878856E-01 -3.154635E+01 
4.131700E+02  9.906987E-01 -2.833996E+01  2.306563E-04 4.878007E+01  2.289092E-04 4.694605E+01  9.878117E-01 -3.152518E+01 
4.132013E+02  9.906675E-01 -2.834528E+01  2.291439E-04 4.484786E+01  2.252206E-04 4.482397E+01  9.879042E-01 -3.154046E+01 
4.132325E+02  9.906498E-01 -2.836922E+01  2.318394E-04 4.453250E+01  2.275258E-04 4.388053E+01  9.881172E-01 -3.153549E+01 
4.132638E+02  9.903389E-01 -2.834876E+01  2.271430E-04 4.117867E+01  2.281193E-04 4.117714E+01  9.877442E-01 -3.155850E+01 
4.132950E+02  9.905232E-01 -2.835242E+01  2.282415E-04 4.012913E+01  2.241219E-04 4.127913E+01  9.879541E-01 -3.155404E+01 
4.133263E+02  9.906114E-01 -2.836063E+01  2.222453E-04 3.809186E+01  2.194131E-04 3.979027E+01  9.876580E-01 -3.153216E+01 
4.133575E+02  9.904239E-01 -2.837728E+01  2.244937E-04 3.536052E+01  2.196942E-04 3.564410E+01  9.876495E-01 -3.154989E+01 
4.133888E+02  9.909098E-01 -2.836641E+01  2.218770E-04 3.448795E+01  2.161505E-04 3.418562E+01  9.880541E-01 -3.155502E+01 
4.134200E+02  9.904023E-01 -2.836352E+01  2.164880E-04 3.200371E+01  2.183857E-04 3.337610E+01  9.880065E-01 -3.156482E+01 
4.134513E+02  9.905075E-01 -2.837595E+01  2.077749E-04 2.941504E+01  2.134345E-04 2.925534E+01  9.879439E-01 -3.155648E+01 
4.134825E+02  9.907042E-01 -2.836465E+01  2.080975E-04 2.634860E+01  2.060616E-04 2.702800E+01  9.876544E-01 -3.154310E+01 
4.135138E+02  9.905869E-01 -2.837795E+01  2.041358E-04 2.666753E+01  1.980577E-04 2.618550E+01  9.878313E-01 -3.156062E+01 
4.135450E+02  9.908033E-01 -2.837012E+01  2.015290E-04 2.213071E+01  2.025989E-04 2.324727E+01  9.875620E-01 -3.155865E+01 
4.135763E+02  9.905578E-01 -2.837308E+01  1.980426E-04 2.057230E+01  1.968575E-04 2.096620E+01  9.877613E-01 -3.156735E+01 
4.136075E+02  9.904971E-01 -2.837437E+01  1.920075E-04 1.597235E+01  1.869869E-04 1.627594E+01  9.880481E-01 -3.157539E+01 
4.136388E+02  9.903624E-01 -2.837862E+01  1.804894E-04 1.361728E+01  1.737180E-04 1.476810E+01  9.876268E-01 -3.156168E+01 
4.136700E+02  9.904416E-01 -2.838719E+01  1.686189E-04 1.153286E+01  1.784534E-04 9.283119E+00  9.876630E-01 -3.156101E+01 
4.137013E+02  9.905182E-01 -2.839289E+01  1.612154E-04 8.967998E+00  1.655786E-04 9.907767E+00  9.877208E-01 -3.155868E+01 
4.137325E+02  9.905965E-01 -2.838369E+01  1.552278E-04 6.806226E+00  1.512544E-04 1.015323E+01  9.880622E-01 -3.156197E+01 
4.137638E+02  9.905904E-01 -2.839718E+01  1.483519E-04 3.784005E+00  1.415159E-04 3.100925E+00  9.878095E-01 -3.156985E+01 
4.137950E+02  9.903863E-01 -2.837982E+01  1.351424E-04 4.852815E+00  1.353733E-04 2.993691E+00  9.874675E-01 -3.158655E+01 
4.138263E+02  9.906204E-01 -2.839260E+01  1.283386E-04 3.760956E+00  1.269273E-04 2.024047E+00  9.879503E-01 -3.157376E+01 
4.138575E+02  9.905047E-01 -2.838970E+01  1.198131E-04 5.029189E+00  1.161171E-04 6.275441E+00  9.876545E-01 -3.158622E+01 
4.138888E+02  9.906249E-01 -2.839059E+01  1.086987E-04 5.431020E+00  1.066975E-04 5.765358E+00  9.877281E-01 -3.158496E+01 
4.139200E+02  9.906083E-01 -2.840642E+01  1.056143E-04 9.489386E+00  1.081379E-04 7.298644E+00  9.877146E-01 -3.157600E+01 
4.139513E+02  9.904443E-01 -2.840550E+01  1.008860E-04 4.323812E+00  1.027257E-04 4.758942E+00  9.879309E-01 -3.160033E+01 
4.139825E+02  9.903937E-01 -2.840855E+01  9.378046E-05 5.064036E+00  9.760438E-05 6.479920E+00  9.882137E-01 -3.159311E+01 
4.140138E+02  9.906646E-01 -2.840368E+01  9.436072E-05 4.501678E+00  9.435148E-05 5.685044E+00  9.876197E-01 -3.159927E+01 
