! Matrix data file written by TouchstoneData, EPCOS AG
! FILENAME: "LY32A_24_MB.s2p"
! COMMENT: "(/home/netware/tmp/Aleks/LY32A/unmatched/LY3"
! INFO: nport=2, nfreq=1601
! DATE: "Tue Apr 20 09:13:09 2010"
! USER: "Aleksander Breg"
!
! port | pin | signal
! -----|-----|--------
!   1  |  2  |  input
!   2  |  4  |  output
! --------------------
! 
# MHZ S MA R 50
! freq  magS11 angS11  magS21 angS21  magS12 angS12  magS22 angS22
8.530000E+02  9.747103E-01 -3.987134E+01  8.949317E-05 1.296246E+02  8.280423E-05 1.328324E+02  9.738114E-01 -4.304687E+01 
8.530625E+02  9.746016E-01 -3.987477E+01  9.949208E-05 1.162902E+02  6.885617E-05 1.255326E+02  9.738685E-01 -4.305126E+01 
8.531250E+02  9.746132E-01 -3.988934E+01  5.884809E-05 1.285125E+02  8.707299E-05 1.256164E+02  9.738871E-01 -4.304376E+01 
8.531875E+02  9.746618E-01 -3.989050E+01  8.583068E-05 1.204417E+02  6.412870E-05 1.206045E+02  9.737540E-01 -4.305192E+01 
8.532500E+02  9.747702E-01 -3.988987E+01  7.028459E-05 1.153273E+02  5.390462E-05 1.081953E+02  9.737808E-01 -4.304915E+01 
8.533125E+02  9.745355E-01 -3.989339E+01  6.644357E-05 9.913370E+01  7.563609E-05 1.131695E+02  9.736921E-01 -4.305095E+01 
8.533750E+02  9.747451E-01 -3.990448E+01  6.719068E-05 1.241845E+02  4.776327E-05 1.152231E+02  9.737307E-01 -4.306379E+01 
8.534375E+02  9.745847E-01 -3.989533E+01  6.387037E-05 1.068830E+02  5.398290E-05 1.137441E+02  9.735148E-01 -4.306853E+01 
8.535000E+02  9.747814E-01 -3.990869E+01  6.674118E-05 1.139577E+02  5.222265E-05 1.424281E+02  9.738210E-01 -4.307191E+01 
8.535625E+02  9.746143E-01 -3.992382E+01  7.235787E-05 1.064374E+02  4.363211E-05 1.179226E+02  9.736246E-01 -4.308143E+01 
8.536250E+02  9.746555E-01 -3.992711E+01  5.724735E-05 1.069437E+02  4.401439E-05 1.076191E+02  9.736931E-01 -4.307867E+01 
8.536875E+02  9.746477E-01 -3.992812E+01  2.626959E-05 1.324149E+02  3.752903E-05 1.202082E+02  9.737362E-01 -4.308701E+01 
8.537500E+02  9.745388E-01 -3.994656E+01  2.743302E-05 6.884907E+01  2.939410E-05 1.211144E+02  9.737860E-01 -4.308398E+01 
8.538125E+02  9.745782E-01 -3.995693E+01  3.700813E-05 9.001902E+01  3.300661E-05 1.004091E+02  9.736897E-01 -4.310897E+01 
8.538750E+02  9.746656E-01 -3.994384E+01  4.398228E-05 1.060248E+02  2.226647E-05 6.900617E+01  9.736944E-01 -4.310426E+01 
8.539375E+02  9.744479E-01 -3.994292E+01  3.383629E-05 6.832384E+01  3.158120E-05 1.493424E+02  9.735498E-01 -4.310841E+01 
8.540000E+02  9.747184E-01 -3.996208E+01  1.484149E-05 -4.119546E+01  1.115173E-05 1.022498E+02  9.736036E-01 -4.311103E+01 
8.540625E+02  9.745779E-01 -3.995466E+01  2.916088E-05 9.783185E+01  8.253367E-06 1.106999E+02  9.735606E-01 -4.311943E+01 
8.541250E+02  9.745787E-01 -3.996025E+01  1.098399E-05 1.001590E+02  1.332613E-05 -1.790021E+02  9.735046E-01 -4.312110E+01 
8.541875E+02  9.746442E-01 -3.995558E+01  1.645273E-05 1.412070E+02  1.252528E-05 -9.209036E+01  9.735083E-01 -4.313046E+01 
8.542500E+02  9.744738E-01 -3.995958E+01  2.725906E-05 -1.696255E+02  2.270137E-05 -1.225337E+02  9.735357E-01 -4.312468E+01 
8.543125E+02  9.745974E-01 -3.997610E+01  5.706415E-06 -1.442637E+02  1.530106E-05 -1.344949E+02  9.734856E-01 -4.312793E+01 
8.543750E+02  9.747164E-01 -3.997514E+01  3.793950E-05 -1.362935E+02  3.992978E-05 -1.027686E+02  9.735726E-01 -4.312748E+01 
8.544375E+02  9.745696E-01 -3.999667E+01  2.385933E-05 -1.461417E+02  1.644000E-05 1.680084E+02  9.735712E-01 -4.313450E+01 
8.545000E+02  9.746459E-01 -3.997793E+01  4.741702E-05 -1.605680E+02  2.624742E-05 -9.240485E+01  9.734668E-01 -4.317441E+01 
8.545625E+02  9.745224E-01 -3.998271E+01  2.772057E-05 -1.475446E+02  4.165880E-05 -1.342009E+02  9.733944E-01 -4.314729E+01 
8.546250E+02  9.745607E-01 -3.998607E+01  3.695573E-05 -1.628344E+02  5.022079E-05 -1.628830E+02  9.735446E-01 -4.314745E+01 
8.546875E+02  9.745982E-01 -4.001184E+01  3.799643E-05 -1.569062E+02  4.886648E-05 -1.510344E+02  9.734499E-01 -4.316530E+01 
8.547500E+02  9.745745E-01 -3.999658E+01  4.596419E-05 -1.605504E+02  6.648079E-05 -1.422018E+02  9.734949E-01 -4.316744E+01 
8.548125E+02  9.746146E-01 -4.001297E+01  6.714140E-05 -1.625804E+02  5.313656E-05 -1.686477E+02  9.733641E-01 -4.317698E+01 
8.548750E+02  9.746270E-01 -4.000656E+01  6.888968E-05 -1.571609E+02  6.287126E-05 -1.610427E+02  9.733607E-01 -4.317088E+01 
8.549375E+02  9.745036E-01 -4.001342E+01  5.603038E-05 -1.625248E+02  6.778478E-05 -1.661896E+02  9.734232E-01 -4.318067E+01 
8.550000E+02  9.745248E-01 -4.000427E+01  4.532504E-05 -1.708961E+02  7.260793E-05 -1.553111E+02  9.733491E-01 -4.318530E+01 
8.550625E+02  9.747055E-01 -4.001221E+01  6.554274E-05 -1.698873E+02  6.101824E-05 -1.603431E+02  9.733056E-01 -4.316976E+01 
8.551250E+02  9.745372E-01 -4.003173E+01  8.598659E-05 -1.771416E+02  6.904543E-05 1.770516E+02  9.734991E-01 -4.317956E+01 
8.551875E+02  9.745987E-01 -4.002340E+01  7.551695E-05 -1.734015E+02  6.238032E-05 -1.723961E+02  9.732189E-01 -4.321579E+01 
8.552500E+02  9.744450E-01 -4.001841E+01  5.744202E-05 1.724993E+02  6.833494E-05 1.747158E+02  9.734439E-01 -4.318461E+01 
8.553125E+02  9.745956E-01 -4.002989E+01  6.244409E-05 -1.695931E+02  9.039670E-05 -1.737401E+02  9.733953E-01 -4.319702E+01 
8.553750E+02  9.745980E-01 -4.003751E+01  6.413620E-05 1.784305E+02  7.414814E-05 1.616004E+02  9.733849E-01 -4.319713E+01 
8.554375E+02  9.746025E-01 -4.003615E+01  7.250243E-05 1.572790E+02  7.019974E-05 1.674087E+02  9.733174E-01 -4.321736E+01 
8.555000E+02  9.747048E-01 -4.004572E+01  7.508495E-05 1.729840E+02  9.364106E-05 1.764520E+02  9.732924E-01 -4.321604E+01 
8.555625E+02  9.745653E-01 -4.004837E+01  7.699568E-05 -1.750637E+02  9.589987E-05 1.699235E+02  9.733146E-01 -4.320949E+01 
8.556250E+02  9.748633E-01 -4.004088E+01  6.435750E-05 1.515019E+02  6.397863E-05 1.718442E+02  9.733150E-01 -4.322136E+01 
8.556875E+02  9.746294E-01 -4.005385E+01  7.276729E-05 1.567563E+02  8.540979E-05 1.717223E+02  9.733603E-01 -4.321167E+01 
8.557500E+02  9.746280E-01 -4.004828E+01  7.779660E-05 1.547182E+02  8.006380E-05 1.676995E+02  9.733912E-01 -4.321483E+01 
8.558125E+02  9.746481E-01 -4.006124E+01  7.842425E-05 1.485470E+02  8.049935E-05 1.502428E+02  9.732579E-01 -4.320439E+01 
8.558750E+02  9.746322E-01 -4.004829E+01  8.246327E-05 1.487862E+02  7.930865E-05 1.456455E+02  9.732725E-01 -4.323769E+01 
8.559375E+02  9.747953E-01 -4.005163E+01  6.756972E-05 1.595359E+02  7.471011E-05 1.520982E+02  9.734542E-01 -4.321625E+01 
8.560000E+02  9.746338E-01 -4.006343E+01  9.493974E-05 1.391894E+02  8.006065E-05 1.393919E+02  9.734408E-01 -4.323997E+01 
8.560625E+02  9.747642E-01 -4.005713E+01  7.970225E-05 1.266117E+02  8.668706E-05 1.410113E+02  9.732786E-01 -4.325188E+01 
8.561250E+02  9.747054E-01 -4.005963E+01  8.508290E-05 1.352557E+02  7.649357E-05 1.222778E+02  9.733640E-01 -4.324565E+01 
8.561875E+02  9.745310E-01 -4.007643E+01  8.100415E-05 1.352408E+02  8.766272E-05 1.326252E+02  9.732843E-01 -4.326118E+01 
8.562500E+02  9.746860E-01 -4.008290E+01  5.954487E-05 1.213456E+02  6.487938E-05 1.354884E+02  9.732062E-01 -4.324697E+01 
8.563125E+02  9.747408E-01 -4.007956E+01  7.232463E-05 1.304912E+02  8.438843E-05 1.223945E+02  9.733151E-01 -4.325254E+01 
8.563750E+02  9.745355E-01 -4.008819E+01  8.244844E-05 1.113238E+02  6.927368E-05 1.151953E+02  9.733468E-01 -4.325913E+01 
8.564375E+02  9.747517E-01 -4.008321E+01  6.570330E-05 1.262230E+02  7.878710E-05 1.158500E+02  9.732998E-01 -4.326032E+01 
8.565000E+02  9.747222E-01 -4.007663E+01  6.491750E-05 1.166504E+02  5.573016E-05 1.181586E+02  9.731767E-01 -4.327070E+01 
8.565625E+02  9.747616E-01 -4.007429E+01  6.647303E-05 1.007680E+02  8.265279E-05 1.063256E+02  9.733094E-01 -4.326221E+01 
8.566250E+02  9.746787E-01 -4.008470E+01  7.867980E-05 9.459210E+01  5.960474E-05 9.236284E+01  9.731325E-01 -4.325915E+01 
8.566875E+02  9.747003E-01 -4.009898E+01  6.857548E-05 9.595831E+01  4.297482E-05 7.871946E+01  9.732229E-01 -4.328053E+01 
8.567500E+02  9.746268E-01 -4.010072E+01  5.591411E-05 9.783125E+01  7.195168E-05 7.841600E+01  9.733481E-01 -4.327725E+01 
8.568125E+02  9.745130E-01 -4.011119E+01  7.131053E-05 8.139839E+01  5.591921E-05 8.869652E+01  9.733376E-01 -4.328309E+01 
8.568750E+02  9.746012E-01 -4.011271E+01  6.914724E-05 8.209436E+01  6.120725E-05 7.353715E+01  9.732412E-01 -4.330111E+01 
8.569375E+02  9.744972E-01 -4.012506E+01  6.304913E-05 7.296269E+01  4.015922E-05 6.103168E+01  9.732226E-01 -4.331213E+01 
8.570000E+02  9.744293E-01 -4.013143E+01  5.607511E-05 4.715396E+01  5.054754E-05 6.017014E+01  9.731239E-01 -4.331152E+01 
8.570625E+02  9.745515E-01 -4.012107E+01  5.314266E-05 4.897906E+01  5.761584E-05 6.148588E+01  9.731390E-01 -4.331326E+01 
8.571250E+02  9.745786E-01 -4.013084E+01  5.047127E-05 4.920033E+01  5.332917E-05 5.083394E+01  9.732241E-01 -4.330641E+01 
8.571875E+02  9.745201E-01 -4.012627E+01  6.058868E-05 4.385376E+01  5.147385E-05 3.546212E+01  9.732341E-01 -4.331855E+01 
8.572500E+02  9.744347E-01 -4.012213E+01  6.290375E-05 3.007541E+01  3.694866E-05 3.087624E+01  9.732677E-01 -4.330364E+01 
8.573125E+02  9.744574E-01 -4.012475E+01  8.106067E-05 2.848353E+01  6.284216E-05 2.366262E+01  9.731969E-01 -4.330128E+01 
8.573750E+02  9.742952E-01 -4.014220E+01  5.206211E-05 2.138876E+01  6.629684E-05 1.010785E+01  9.731846E-01 -4.332034E+01 
8.574375E+02  9.744652E-01 -4.014555E+01  6.006717E-05 -5.630801E+00  6.373396E-05 1.233350E+01  9.731314E-01 -4.332133E+01 
8.575000E+02  9.743608E-01 -4.014000E+01  7.454226E-05 1.153718E+01  8.370322E-05 -8.669356E+00  9.731346E-01 -4.332760E+01 
8.575625E+02  9.744169E-01 -4.015427E+01  8.826394E-05 -1.564055E+01  7.924111E-05 -1.563406E+00  9.732158E-01 -4.334647E+01 
8.576250E+02  9.744573E-01 -4.016506E+01  7.422771E-05 -2.086113E+01  8.199562E-05 -3.344779E+01  9.729983E-01 -4.335797E+01 
8.576875E+02  9.742881E-01 -4.017731E+01  7.800441E-05 -2.361800E+01  9.418091E-05 -2.563290E+01  9.732058E-01 -4.336393E+01 
8.577500E+02  9.744064E-01 -4.017620E+01  8.308838E-05 -4.022771E+01  7.962426E-05 -3.875456E+01  9.728956E-01 -4.335804E+01 
8.578125E+02  9.742811E-01 -4.016604E+01  1.008598E-04 -4.742539E+01  1.024118E-04 -4.970396E+01  9.731125E-01 -4.335633E+01 
8.578750E+02  9.742679E-01 -4.016353E+01  8.929332E-05 -4.386513E+01  1.046599E-04 -5.678760E+01  9.731615E-01 -4.336219E+01 
8.579375E+02  9.742608E-01 -4.016017E+01  1.068335E-04 -5.088690E+01  1.193820E-04 -5.330537E+01  9.731207E-01 -4.335618E+01 
8.580000E+02  9.743858E-01 -4.017273E+01  1.092073E-04 -5.665601E+01  1.150616E-04 -5.596854E+01  9.728990E-01 -4.334795E+01 
8.580625E+02  9.741230E-01 -4.018385E+01  1.300890E-04 -6.659705E+01  1.289614E-04 -7.364214E+01  9.730413E-01 -4.336207E+01 
8.581250E+02  9.741953E-01 -4.017885E+01  1.261330E-04 -7.124028E+01  1.373346E-04 -6.925849E+01  9.730830E-01 -4.335743E+01 
8.581875E+02  9.743274E-01 -4.017871E+01  1.234452E-04 -7.683733E+01  1.210404E-04 -7.557471E+01  9.729150E-01 -4.336428E+01 
8.582500E+02  9.742307E-01 -4.019744E+01  1.310740E-04 -7.929653E+01  1.322752E-04 -8.443255E+01  9.729088E-01 -4.338091E+01 
8.583125E+02  9.743754E-01 -4.019812E+01  1.286679E-04 -9.195548E+01  1.380212E-04 -8.044267E+01  9.729392E-01 -4.338934E+01 
8.583750E+02  9.742157E-01 -4.020860E+01  1.349355E-04 -8.910524E+01  1.379805E-04 -9.511344E+01  9.728845E-01 -4.339726E+01 
8.584375E+02  9.743137E-01 -4.020555E+01  1.462937E-04 -1.003834E+02  1.489950E-04 -9.198474E+01  9.729569E-01 -4.340328E+01 
8.585000E+02  9.742139E-01 -4.021013E+01  1.414414E-04 -9.603262E+01  1.346539E-04 -9.483954E+01  9.729756E-01 -4.340521E+01 
8.585625E+02  9.742979E-01 -4.021372E+01  1.531802E-04 -1.029028E+02  1.571367E-04 -1.045255E+02  9.727986E-01 -4.341030E+01 
8.586250E+02  9.742361E-01 -4.021177E+01  1.480044E-04 -1.099777E+02  1.588925E-04 -1.085045E+02  9.728487E-01 -4.339716E+01 
8.586875E+02  9.742365E-01 -4.020267E+01  1.479432E-04 -1.125447E+02  1.405915E-04 -1.082519E+02  9.728971E-01 -4.339478E+01 
8.587500E+02  9.743926E-01 -4.021331E+01  1.401320E-04 -1.182263E+02  1.576949E-04 -1.155714E+02  9.729330E-01 -4.339883E+01 
8.588125E+02  9.743061E-01 -4.021599E+01  1.485501E-04 -1.205124E+02  1.632620E-04 -1.119446E+02  9.728623E-01 -4.340579E+01 
8.588750E+02  9.742332E-01 -4.024823E+01  1.729895E-04 -1.229230E+02  1.731311E-04 -1.146547E+02  9.731019E-01 -4.341070E+01 
8.589375E+02  9.742556E-01 -4.022998E+01  1.631688E-04 -1.170365E+02  1.625393E-04 -1.232903E+02  9.729081E-01 -4.342123E+01 
8.590000E+02  9.741958E-01 -4.023433E+01  1.528168E-04 -1.280736E+02  1.699442E-04 -1.294776E+02  9.728249E-01 -4.342841E+01 
8.590625E+02  9.741723E-01 -4.024256E+01  1.526656E-04 -1.247544E+02  1.661970E-04 -1.253413E+02  9.730543E-01 -4.344178E+01 
8.591250E+02  9.742493E-01 -4.025031E+01  1.564914E-04 -1.288569E+02  1.790391E-04 -1.288588E+02  9.726589E-01 -4.344320E+01 
8.591875E+02  9.743185E-01 -4.024694E+01  1.529846E-04 -1.356937E+02  1.777266E-04 -1.345351E+02  9.728216E-01 -4.344894E+01 
8.592500E+02  9.742844E-01 -4.025322E+01  1.497771E-04 -1.340022E+02  1.690403E-04 -1.379923E+02  9.729264E-01 -4.344458E+01 
8.593125E+02  9.742171E-01 -4.026606E+01  1.470263E-04 -1.457661E+02  1.716790E-04 -1.471279E+02  9.730093E-01 -4.344463E+01 
8.593750E+02  9.742078E-01 -4.026350E+01  1.640599E-04 -1.510010E+02  1.787938E-04 -1.445658E+02  9.729151E-01 -4.344454E+01 
8.594375E+02  9.742060E-01 -4.025365E+01  1.733170E-04 -1.464747E+02  1.684690E-04 -1.399670E+02  9.729540E-01 -4.345304E+01 
8.595000E+02  9.742649E-01 -4.026621E+01  1.638343E-04 -1.456006E+02  1.552150E-04 -1.470044E+02  9.729693E-01 -4.345249E+01 
8.595625E+02  9.741336E-01 -4.026114E+01  1.604214E-04 -1.510269E+02  1.907620E-04 -1.514482E+02  9.728119E-01 -4.349172E+01 
8.596250E+02  9.742719E-01 -4.026092E+01  1.663893E-04 -1.506671E+02  1.597342E-04 -1.571670E+02  9.728837E-01 -4.345714E+01 
8.596875E+02  9.739965E-01 -4.026859E+01  1.641672E-04 -1.554708E+02  1.563508E-04 -1.499173E+02  9.729466E-01 -4.346032E+01 
8.597500E+02  9.741239E-01 -4.027587E+01  1.624472E-04 -1.602944E+02  1.496497E-04 -1.568201E+02  9.728182E-01 -4.346956E+01 
8.598125E+02  9.742025E-01 -4.028987E+01  1.705750E-04 -1.648617E+02  1.617143E-04 -1.582693E+02  9.728589E-01 -4.347646E+01 
8.598750E+02  9.741338E-01 -4.029441E+01  1.395061E-04 -1.564200E+02  1.445208E-04 -1.641366E+02  9.728455E-01 -4.348019E+01 
8.599375E+02  9.741279E-01 -4.029445E+01  1.569861E-04 -1.711386E+02  1.606714E-04 -1.647657E+02  9.728808E-01 -4.348764E+01 
8.600000E+02  9.740658E-01 -4.030393E+01  1.414394E-04 -1.657515E+02  1.482200E-04 -1.682157E+02  9.729080E-01 -4.348773E+01 
8.600625E+02  9.742670E-01 -4.032003E+01  1.425355E-04 -1.795885E+02  1.655739E-04 -1.751177E+02  9.727202E-01 -4.349452E+01 
8.601250E+02  9.740765E-01 -4.029877E+01  1.437977E-04 -1.733154E+02  1.452441E-04 -1.736826E+02  9.728112E-01 -4.350583E+01 
8.601875E+02  9.742377E-01 -4.030350E+01  1.356914E-04 -1.733624E+02  1.362572E-04 -1.747587E+02  9.727372E-01 -4.350151E+01 
8.602500E+02  9.740285E-01 -4.029934E+01  1.460769E-04 -1.757286E+02  1.373710E-04 -1.722285E+02  9.728573E-01 -4.351985E+01 
8.603125E+02  9.742415E-01 -4.030461E+01  1.145960E-04 -1.746240E+02  1.495657E-04 -1.711534E+02  9.727591E-01 -4.349733E+01 
8.603750E+02  9.740989E-01 -4.030905E+01  1.355160E-04 1.759240E+02  1.248478E-04 1.784212E+02  9.728483E-01 -4.351677E+01 
8.604375E+02  9.739946E-01 -4.031546E+01  1.369537E-04 1.786341E+02  1.163595E-04 1.758884E+02  9.728908E-01 -4.351819E+01 
8.605000E+02  9.741041E-01 -4.032097E+01  1.207380E-04 1.714906E+02  1.194886E-04 -1.797225E+02  9.727281E-01 -4.352205E+01 
8.605625E+02  9.741021E-01 -4.032162E+01  1.205143E-04 1.684557E+02  1.134535E-04 -1.798237E+02  9.727664E-01 -4.352250E+01 
8.606250E+02  9.740048E-01 -4.032773E+01  1.134191E-04 1.792142E+02  1.214776E-04 1.743644E+02  9.727697E-01 -4.353032E+01 
8.606875E+02  9.741405E-01 -4.035117E+01  1.110291E-04 1.687100E+02  1.175008E-04 1.691902E+02  9.729401E-01 -4.353348E+01 
8.607500E+02  9.741615E-01 -4.034376E+01  1.067444E-04 1.612311E+02  1.159176E-04 1.682135E+02  9.728056E-01 -4.355265E+01 
8.608125E+02  9.740859E-01 -4.033851E+01  1.013074E-04 1.772945E+02  9.808525E-05 1.791437E+02  9.727597E-01 -4.354154E+01 
8.608750E+02  9.740072E-01 -4.034868E+01  9.869748E-05 1.699427E+02  8.911138E-05 1.664979E+02  9.727726E-01 -4.355058E+01 
8.609375E+02  9.740018E-01 -4.034372E+01  9.888643E-05 1.720932E+02  1.021756E-04 1.784214E+02  9.728169E-01 -4.354601E+01 
8.610000E+02  9.740280E-01 -4.034720E+01  9.778801E-05 1.703454E+02  8.317140E-05 1.665862E+02  9.727424E-01 -4.355057E+01 
8.610625E+02  9.741199E-01 -4.034285E+01  8.312705E-05 1.648028E+02  9.575242E-05 1.571688E+02  9.726684E-01 -4.355296E+01 
8.611250E+02  9.740432E-01 -4.035317E+01  5.727686E-05 1.737012E+02  9.701956E-05 1.723849E+02  9.727512E-01 -4.355902E+01 
8.611875E+02  9.740424E-01 -4.034449E+01  7.023835E-05 1.625342E+02  7.583267E-05 -1.769189E+02  9.728687E-01 -4.355065E+01 
8.612500E+02  9.740147E-01 -4.035546E+01  5.555658E-05 1.676169E+02  7.799065E-05 -1.742704E+02  9.727044E-01 -4.356742E+01 
8.613125E+02  9.739658E-01 -4.036339E+01  8.496161E-05 1.648746E+02  8.264702E-05 1.763551E+02  9.728487E-01 -4.356849E+01 
8.613750E+02  9.739887E-01 -4.038631E+01  7.192988E-05 1.753669E+02  6.828466E-05 -1.594332E+02  9.726811E-01 -4.356967E+01 
8.614375E+02  9.738743E-01 -4.038293E+01  6.211876E-05 1.792205E+02  8.082711E-05 1.656265E+02  9.727253E-01 -4.358521E+01 
8.615000E+02  9.740674E-01 -4.037722E+01  5.634157E-05 -1.726102E+02  6.314318E-05 -1.595803E+02  9.729232E-01 -4.358186E+01 
8.615625E+02  9.739470E-01 -4.037548E+01  6.044317E-05 -1.760609E+02  9.184510E-05 -1.699085E+02  9.727690E-01 -4.358829E+01 
8.616250E+02  9.739428E-01 -4.038933E+01  5.767219E-05 1.772419E+02  6.921389E-05 -1.692019E+02  9.726475E-01 -4.359204E+01 
8.616875E+02  9.740366E-01 -4.038555E+01  6.974628E-05 1.799529E+02  5.807719E-05 -1.686626E+02  9.728185E-01 -4.360435E+01 
8.617500E+02  9.740107E-01 -4.038912E+01  5.761531E-05 -1.629501E+02  6.379997E-05 -1.638827E+02  9.725724E-01 -4.359704E+01 
8.618125E+02  9.741555E-01 -4.038906E+01  5.462575E-05 1.778387E+02  7.304093E-05 -1.606567E+02  9.725901E-01 -4.359652E+01 
8.618750E+02  9.739357E-01 -4.039960E+01  4.992020E-05 -1.525485E+02  6.967362E-05 -1.471581E+02  9.725883E-01 -4.360943E+01 
8.619375E+02  9.739453E-01 -4.039600E+01  7.051224E-05 -1.577686E+02  6.556388E-05 -1.581279E+02  9.726671E-01 -4.360639E+01 
8.620000E+02  9.739137E-01 -4.039463E+01  6.953385E-05 -1.705630E+02  5.609671E-05 -1.756012E+02  9.726348E-01 -4.361384E+01 
8.620625E+02  9.740592E-01 -4.039502E+01  8.945765E-05 -1.710137E+02  7.487028E-05 -1.684040E+02  9.726588E-01 -4.363492E+01 
8.621250E+02  9.740180E-01 -4.039763E+01  6.409669E-05 -1.625676E+02  8.578708E-05 -1.606238E+02  9.726275E-01 -4.362952E+01 
8.621875E+02  9.739791E-01 -4.040858E+01  6.444057E-05 -1.580147E+02  1.082920E-04 -1.497473E+02  9.727683E-01 -4.362029E+01 
8.622500E+02  9.739168E-01 -4.042591E+01  1.046679E-04 -1.626663E+02  8.641047E-05 -1.591542E+02  9.728089E-01 -4.363040E+01 
8.623125E+02  9.737415E-01 -4.042863E+01  9.351726E-05 -1.597060E+02  8.441973E-05 -1.644634E+02  9.726511E-01 -4.364297E+01 
8.623750E+02  9.739600E-01 -4.044378E+01  8.956303E-05 -1.575258E+02  8.728917E-05 -1.441448E+02  9.725963E-01 -4.364039E+01 
8.624375E+02  9.739322E-01 -4.043245E+01  7.792878E-05 -1.584410E+02  9.645387E-05 -1.561020E+02  9.726243E-01 -4.363989E+01 
8.625000E+02  9.737631E-01 -4.043595E+01  8.741583E-05 -1.554476E+02  8.272083E-05 -1.589845E+02  9.724251E-01 -4.364908E+01 
8.625625E+02  9.740569E-01 -4.043880E+01  9.215696E-05 -1.556922E+02  1.136084E-04 -1.571920E+02  9.725719E-01 -4.365486E+01 
8.626250E+02  9.738090E-01 -4.044353E+01  7.447631E-05 -1.679711E+02  1.027273E-04 -1.611729E+02  9.727109E-01 -4.365643E+01 
8.626875E+02  9.737414E-01 -4.044056E+01  9.061554E-05 -1.570068E+02  9.739928E-05 -1.633633E+02  9.725515E-01 -4.365913E+01 
