! Matrix data file written by TouchstoneData, EPCOS AG
! FILENAME: "LT70A_NB.s2p"
! COMMENT: "PCB: 2019; PINNING: 14; Ls=39nH; 25 Mar 2008"
! INFO: nport=2, nfreq=1601
! DATE: "Wed Apr  9 13:13:28 2008"
! USER: "Thomas Telgmann"
!
! port | pin | signal
! -----|-----|--------
!   1  |  1  |  in
!   2  |  4  |  out
! --------------------
!
# MHZ S MA R 50
! freq  magS11 angS11  magS21 angS21  magS12 angS12  magS22 angS22
4.314200E+02  9.887866E-01 -3.545115E+01  9.672138E-05 6.334924E+01  1.012862E-04 6.139835E+01  9.893600E-01 -3.210825E+01 
4.314231E+02  9.887491E-01 -3.545644E+01  1.001187E-04 6.282765E+01  9.065093E-05 6.053429E+01  9.892977E-01 -3.210720E+01 
4.314263E+02  9.888016E-01 -3.545314E+01  8.353518E-05 6.386822E+01  8.841815E-05 6.443761E+01  9.892389E-01 -3.211196E+01 
4.314294E+02  9.887976E-01 -3.545546E+01  8.207465E-05 6.580628E+01  8.635740E-05 6.117497E+01  9.892666E-01 -3.212109E+01 
4.314325E+02  9.889011E-01 -3.545136E+01  8.649530E-05 5.892207E+01  8.247461E-05 6.375304E+01  9.893243E-01 -3.211863E+01 
4.314356E+02  9.889243E-01 -3.546466E+01  8.877823E-05 6.062037E+01  8.781600E-05 5.930853E+01  9.893146E-01 -3.212802E+01 
4.314388E+02  9.888306E-01 -3.546610E+01  8.126811E-05 6.458616E+01  7.819341E-05 6.226545E+01  9.891951E-01 -3.212358E+01 
4.314419E+02  9.888764E-01 -3.546727E+01  8.193835E-05 6.351411E+01  7.914181E-05 6.686651E+01  9.892806E-01 -3.212169E+01 
4.314450E+02  9.887426E-01 -3.547183E+01  6.753109E-05 6.588677E+01  8.059454E-05 6.178286E+01  9.892150E-01 -3.212871E+01 
4.314481E+02  9.887366E-01 -3.547572E+01  7.274688E-05 6.365680E+01  7.000758E-05 6.011727E+01  9.892351E-01 -3.213180E+01 
4.314513E+02  9.888911E-01 -3.547594E+01  7.360090E-05 5.779947E+01  7.476412E-05 5.780922E+01  9.892842E-01 -3.212992E+01 
4.314544E+02  9.888746E-01 -3.547404E+01  6.371387E-05 6.491894E+01  6.684531E-05 6.180871E+01  9.892187E-01 -3.213814E+01 
4.314575E+02  9.888311E-01 -3.547701E+01  6.582058E-05 6.289527E+01  5.954343E-05 6.018627E+01  9.892957E-01 -3.213778E+01 
4.314606E+02  9.888154E-01 -3.549007E+01  5.605673E-05 5.564193E+01  6.567579E-05 5.779474E+01  9.891916E-01 -3.214897E+01 
4.314638E+02  9.888242E-01 -3.548320E+01  6.062265E-05 5.627575E+01  6.603645E-05 5.687553E+01  9.892785E-01 -3.214592E+01 
4.314669E+02  9.887444E-01 -3.549514E+01  5.996762E-05 6.628465E+01  5.821669E-05 5.437468E+01  9.892496E-01 -3.214204E+01 
4.314700E+02  9.887855E-01 -3.549717E+01  6.120895E-05 6.593759E+01  5.232810E-05 5.766089E+01  9.891742E-01 -3.215173E+01 
4.314731E+02  9.887579E-01 -3.550087E+01  5.510743E-05 5.900398E+01  4.978162E-05 5.876914E+01  9.892700E-01 -3.214820E+01 
4.314762E+02  9.888077E-01 -3.550252E+01  5.787982E-05 6.607988E+01  5.036488E-05 5.702230E+01  9.892949E-01 -3.215468E+01 
4.314794E+02  9.887925E-01 -3.550623E+01  5.035619E-05 5.482331E+01  5.776752E-05 5.795821E+01  9.891731E-01 -3.216046E+01 
4.314825E+02  9.887292E-01 -3.550889E+01  4.711075E-05 6.217471E+01  4.594444E-05 5.690469E+01  9.891419E-01 -3.215619E+01 
4.314856E+02  9.887528E-01 -3.551331E+01  5.136413E-05 6.112930E+01  4.185377E-05 4.939944E+01  9.892244E-01 -3.215701E+01 
4.314888E+02  9.887332E-01 -3.551515E+01  4.155285E-05 6.084479E+01  4.494475E-05 5.461370E+01  9.892513E-01 -3.216425E+01 
4.314919E+02  9.887020E-01 -3.552027E+01  4.121740E-05 5.490825E+01  3.943985E-05 5.635055E+01  9.892203E-01 -3.217583E+01 
4.314950E+02  9.888473E-01 -3.552052E+01  3.450565E-05 5.962682E+01  4.431754E-05 6.247721E+01  9.891655E-01 -3.217166E+01 
4.314981E+02  9.887917E-01 -3.552205E+01  3.127882E-05 5.276849E+01  3.261639E-05 4.328669E+01  9.891983E-01 -3.217212E+01 
4.315013E+02  9.887140E-01 -3.552760E+01  2.973231E-05 6.690852E+01  3.540303E-05 4.695257E+01  9.891921E-01 -3.218077E+01 
4.315044E+02  9.888166E-01 -3.552510E+01  3.563477E-05 4.371762E+01  3.158554E-05 6.044606E+01  9.892221E-01 -3.218042E+01 
4.315075E+02  9.887261E-01 -3.553091E+01  2.054381E-05 6.975153E+01  3.378491E-05 5.953444E+01  9.892358E-01 -3.217799E+01 
4.315106E+02  9.888599E-01 -3.552954E+01  1.972538E-05 4.818692E+01  2.722457E-05 5.515743E+01  9.892512E-01 -3.218720E+01 
4.315138E+02  9.888043E-01 -3.553430E+01  2.463758E-05 6.549964E+01  2.248258E-05 4.372633E+01  9.892407E-01 -3.219267E+01 
4.315169E+02  9.887754E-01 -3.553364E+01  2.334433E-05 6.466668E+01  2.615800E-05 4.845404E+01  9.892641E-01 -3.218654E+01 
4.315200E+02  9.888476E-01 -3.554392E+01  2.228692E-05 5.276054E+01  1.559280E-05 5.742283E+01  9.892634E-01 -3.219734E+01 
4.315231E+02  9.887940E-01 -3.554093E+01  1.193843E-05 2.778451E+01  1.815639E-05 2.945385E+01  9.892800E-01 -3.220181E+01 
4.315263E+02  9.888013E-01 -3.553736E+01  1.392614E-05 7.004992E+01  1.392568E-05 4.022003E+01  9.892557E-01 -3.220026E+01 
4.315294E+02  9.888603E-01 -3.554913E+01  9.388486E-06 3.122928E+01  9.678900E-06 3.110411E+01  9.891773E-01 -3.220807E+01 
4.315325E+02  9.887273E-01 -3.555541E+01  9.168855E-06 1.158746E+02  1.123892E-05 5.147290E+01  9.893063E-01 -3.220037E+01 
4.315356E+02  9.888914E-01 -3.555065E+01  8.464194E-06 3.757300E+00  1.958447E-06 -3.602732E+00  9.892600E-01 -3.221523E+01 
4.315387E+02  9.886972E-01 -3.555476E+01  6.687659E-06 7.108878E+01  1.388100E-05 2.252511E+01  9.892639E-01 -3.221345E+01 
4.315419E+02  9.887286E-01 -3.556249E+01  3.493337E-06 2.301113E+01  5.304989E-06 -8.244747E+01  9.892392E-01 -3.221245E+01 
4.315450E+02  9.888931E-01 -3.556151E+01  1.160757E-06 -7.037334E+01  3.670129E-06 4.508681E+00  9.891976E-01 -3.222846E+01 
4.315481E+02  9.887982E-01 -3.555930E+01  2.149262E-06 1.570186E+02  2.687807E-06 8.523460E+00  9.892108E-01 -3.222920E+01 
4.315513E+02  9.887863E-01 -3.557120E+01  2.928113E-06 4.459104E+00  6.503898E-06 -3.178024E+01  9.892448E-01 -3.222411E+01 
4.315544E+02  9.887824E-01 -3.557385E+01  6.983804E-06 1.754688E+02  8.492037E-06 -8.280380E+01  9.891895E-01 -3.223327E+01 
4.315575E+02  9.887155E-01 -3.558077E+01  7.350303E-06 -1.561648E+02  9.095381E-06 -1.202234E+02  9.892583E-01 -3.222744E+01 
4.315606E+02  9.886963E-01 -3.558138E+01  1.631762E-05 -1.256296E+02  7.723274E-06 -1.283343E+02  9.892476E-01 -3.223544E+01 
4.315638E+02  9.887457E-01 -3.558951E+01  8.864744E-06 -1.710671E+02  1.078379E-05 -1.293408E+02  9.891734E-01 -3.224678E+01 
4.315669E+02  9.887653E-01 -3.558996E+01  1.846608E-05 -1.349755E+02  1.667740E-05 -1.039892E+02  9.891411E-01 -3.224320E+01 
4.315700E+02  9.887513E-01 -3.559523E+01  1.684819E-05 -1.105121E+02  2.129979E-05 -1.088840E+02  9.891169E-01 -3.224647E+01 
4.315731E+02  9.886671E-01 -3.559895E+01  1.291222E-05 -1.188568E+02  2.511416E-05 -1.197364E+02  9.891675E-01 -3.224372E+01 
4.315763E+02  9.886743E-01 -3.560189E+01  2.579499E-05 -1.274744E+02  2.041207E-05 -1.087290E+02  9.890154E-01 -3.224937E+01 
4.315794E+02  9.887901E-01 -3.559448E+01  2.910075E-05 -1.201768E+02  2.032464E-05 -1.231128E+02  9.891264E-01 -3.225469E+01 
4.315825E+02  9.886997E-01 -3.560790E+01  2.668847E-05 -1.305202E+02  2.075651E-05 -1.126729E+02  9.891834E-01 -3.225113E+01 
4.315856E+02  9.887148E-01 -3.561238E+01  2.559051E-05 -1.233874E+02  2.249358E-05 -1.155845E+02  9.891069E-01 -3.226060E+01 
4.315888E+02  9.887500E-01 -3.560449E+01  3.033556E-05 -1.114101E+02  3.152082E-05 -1.106195E+02  9.890964E-01 -3.226128E+01 
4.315919E+02  9.886758E-01 -3.561328E+01  3.664335E-05 -1.285880E+02  3.331495E-05 -1.143736E+02  9.891406E-01 -3.227366E+01 
4.315950E+02  9.888091E-01 -3.561296E+01  3.970401E-05 -1.263611E+02  3.732938E-05 -1.152420E+02  9.890927E-01 -3.226883E+01 
4.315981E+02  9.887705E-01 -3.561818E+01  3.412385E-05 -1.189189E+02  3.662610E-05 -1.139978E+02  9.890393E-01 -3.226925E+01 
4.316012E+02  9.887558E-01 -3.561810E+01  3.803266E-05 -1.249551E+02  3.954617E-05 -1.105140E+02  9.891135E-01 -3.228137E+01 
4.316044E+02  9.887339E-01 -3.562488E+01  4.550282E-05 -1.218487E+02  4.938537E-05 -1.167130E+02  9.891022E-01 -3.227857E+01 
4.316075E+02  9.887438E-01 -3.562365E+01  4.367103E-05 -1.194927E+02  5.328885E-05 -1.146226E+02  9.890491E-01 -3.227782E+01 
4.316106E+02  9.887707E-01 -3.562453E+01  5.092709E-05 -1.247956E+02  4.277115E-05 -1.124607E+02  9.890994E-01 -3.228721E+01 
4.316138E+02  9.885948E-01 -3.563409E+01  5.922981E-05 -1.223297E+02  5.009635E-05 -1.151644E+02  9.891333E-01 -3.228623E+01 
4.316169E+02  9.886745E-01 -3.563581E+01  4.602916E-05 -1.198199E+02  5.386442E-05 -1.252062E+02  9.891519E-01 -3.229733E+01 
4.316200E+02  9.887890E-01 -3.563462E+01  6.504434E-05 -1.210945E+02  5.843863E-05 -1.207252E+02  9.890844E-01 -3.229637E+01 
4.316231E+02  9.887067E-01 -3.563858E+01  5.500460E-05 -1.173413E+02  5.863029E-05 -1.177769E+02  9.891420E-01 -3.229799E+01 
4.316263E+02  9.887107E-01 -3.564812E+01  5.762808E-05 -1.267381E+02  5.975789E-05 -1.155657E+02  9.892382E-01 -3.230128E+01 
4.316294E+02  9.886952E-01 -3.564965E+01  6.452252E-05 -1.220465E+02  6.061192E-05 -1.148054E+02  9.891536E-01 -3.230614E+01 
4.316325E+02  9.888331E-01 -3.566015E+01  6.467946E-05 -1.244329E+02  5.923557E-05 -1.204070E+02  9.890956E-01 -3.230775E+01 
4.316356E+02  9.886864E-01 -3.565764E+01  6.898089E-05 -1.229020E+02  6.813383E-05 -1.221556E+02  9.891469E-01 -3.231118E+01 
4.316388E+02  9.886217E-01 -3.565891E+01  7.131435E-05 -1.237380E+02  6.879553E-05 -1.168206E+02  9.891417E-01 -3.231518E+01 
4.316419E+02  9.886520E-01 -3.566225E+01  6.967697E-05 -1.256774E+02  6.870338E-05 -1.192129E+02  9.891242E-01 -3.231597E+01 
4.316450E+02  9.886339E-01 -3.566297E+01  7.413898E-05 -1.249456E+02  7.554704E-05 -1.190181E+02  9.891328E-01 -3.231850E+01 
4.316481E+02  9.887126E-01 -3.566818E+01  8.151856E-05 -1.210776E+02  8.260477E-05 -1.157170E+02  9.891575E-01 -3.232166E+01 
4.316513E+02  9.888168E-01 -3.567528E+01  8.200134E-05 -1.227867E+02  7.655667E-05 -1.226098E+02  9.891795E-01 -3.232434E+01 
4.316544E+02  9.887934E-01 -3.567692E+01  9.000717E-05 -1.176060E+02  8.334809E-05 -1.216692E+02  9.892039E-01 -3.232832E+01 
4.316575E+02  9.887917E-01 -3.568243E+01  7.848632E-05 -1.232223E+02  8.198696E-05 -1.213593E+02  9.891493E-01 -3.232740E+01 
4.316606E+02  9.887728E-01 -3.568332E+01  8.812407E-05 -1.210989E+02  8.852022E-05 -1.241446E+02  9.891044E-01 -3.233630E+01 
4.316637E+02  9.888259E-01 -3.569555E+01  9.014788E-05 -1.289609E+02  9.201135E-05 -1.239202E+02  9.890033E-01 -3.234443E+01 
4.316669E+02  9.887166E-01 -3.568917E+01  9.619357E-05 -1.248114E+02  9.331324E-05 -1.239699E+02  9.890790E-01 -3.234140E+01 
4.316700E+02  9.888243E-01 -3.569346E+01  1.005305E-04 -1.254856E+02  9.912727E-05 -1.244563E+02  9.891019E-01 -3.234386E+01 
4.316731E+02  9.888557E-01 -3.569895E+01  9.827088E-05 -1.255544E+02  9.865205E-05 -1.255114E+02  9.890465E-01 -3.234657E+01 
4.316763E+02  9.888218E-01 -3.569666E+01  1.037197E-04 -1.264845E+02  1.003477E-04 -1.226330E+02  9.891013E-01 -3.235396E+01 
4.316794E+02  9.888261E-01 -3.570254E+01  1.060617E-04 -1.201373E+02  1.035750E-04 -1.250682E+02  9.890686E-01 -3.235572E+01 
4.316825E+02  9.887271E-01 -3.570241E+01  1.043684E-04 -1.249082E+02  1.063339E-04 -1.277571E+02  9.890269E-01 -3.235927E+01 
4.316856E+02  9.886647E-01 -3.571040E+01  1.095415E-04 -1.215753E+02  1.110235E-04 -1.218787E+02  9.891708E-01 -3.236647E+01 
4.316888E+02  9.886966E-01 -3.572039E+01  1.128198E-04 -1.227550E+02  1.152989E-04 -1.216662E+02  9.890532E-01 -3.236413E+01 
4.316919E+02  9.886197E-01 -3.571587E+01  1.230205E-04 -1.229005E+02  1.154755E-04 -1.255631E+02  9.890681E-01 -3.236746E+01 
4.316950E+02  9.887342E-01 -3.572297E+01  1.290755E-04 -1.261804E+02  1.217226E-04 -1.224637E+02  9.891122E-01 -3.237714E+01 
4.316981E+02  9.886262E-01 -3.572597E+01  1.261854E-04 -1.246814E+02  1.258078E-04 -1.238832E+02  9.891696E-01 -3.237556E+01 
4.317013E+02  9.886809E-01 -3.572944E+01  1.281849E-04 -1.280597E+02  1.232693E-04 -1.236883E+02  9.891223E-01 -3.238340E+01 
4.317044E+02  9.885857E-01 -3.572811E+01  1.266807E-04 -1.231189E+02  1.256736E-04 -1.226593E+02  9.890565E-01 -3.237810E+01 
4.317075E+02  9.886269E-01 -3.573172E+01  1.285155E-04 -1.258091E+02  1.370501E-04 -1.235375E+02  9.891159E-01 -3.238900E+01 
4.317106E+02  9.886791E-01 -3.574038E+01  1.372647E-04 -1.236652E+02  1.371605E-04 -1.248694E+02  9.892238E-01 -3.239322E+01 
4.317138E+02  9.886117E-01 -3.573777E+01  1.435753E-04 -1.249166E+02  1.371825E-04 -1.234382E+02  9.890569E-01 -3.239161E+01 
4.317169E+02  9.887694E-01 -3.574283E+01  1.475185E-04 -1.283388E+02  1.422526E-04 -1.238104E+02  9.891285E-01 -3.239093E+01 
4.317200E+02  9.887683E-01 -3.574519E+01  1.499681E-04 -1.250972E+02  1.457367E-04 -1.231314E+02  9.891200E-01 -3.240295E+01 
4.317231E+02  9.886710E-01 -3.575432E+01  1.548034E-04 -1.257547E+02  1.462244E-04 -1.245550E+02  9.891632E-01 -3.240282E+01 
4.317262E+02  9.886554E-01 -3.575257E+01  1.529384E-04 -1.252153E+02  1.458210E-04 -1.251069E+02  9.891299E-01 -3.240454E+01 
4.317294E+02  9.887525E-01 -3.575602E+01  1.533735E-04 -1.258282E+02  1.551308E-04 -1.251586E+02  9.891547E-01 -3.241020E+01 
4.317325E+02  9.887123E-01 -3.576433E+01  1.659318E-04 -1.229767E+02  1.615649E-04 -1.258583E+02  9.891838E-01 -3.240687E+01 
4.317356E+02  9.887742E-01 -3.576373E+01  1.590139E-04 -1.272822E+02  1.626068E-04 -1.279086E+02  9.890903E-01 -3.241477E+01 
4.317388E+02  9.887759E-01 -3.576743E+01  1.665360E-04 -1.259173E+02  1.691023E-04 -1.254813E+02  9.890888E-01 -3.242196E+01 
4.317419E+02  9.886587E-01 -3.577482E+01  1.662930E-04 -1.253299E+02  1.600544E-04 -1.282597E+02  9.891234E-01 -3.241848E+01 
4.317450E+02  9.887290E-01 -3.577490E+01  1.746693E-04 -1.283326E+02  1.729783E-04 -1.251065E+02  9.892450E-01 -3.242895E+01 
4.317481E+02  9.887216E-01 -3.577918E+01  1.748258E-04 -1.266281E+02  1.722385E-04 -1.262479E+02  9.889977E-01 -3.243178E+01 
4.317513E+02  9.886534E-01 -3.578372E+01  1.862290E-04 -1.266967E+02  1.825692E-04 -1.257491E+02  9.891299E-01 -3.243605E+01 
4.317544E+02  9.885801E-01 -3.578925E+01  1.858767E-04 -1.292008E+02  1.818472E-04 -1.264951E+02  9.891216E-01 -3.244113E+01 
4.317575E+02  9.886963E-01 -3.578907E+01  1.904616E-04 -1.271949E+02  1.889408E-04 -1.272411E+02  9.890870E-01 -3.244649E+01 
4.317606E+02  9.887552E-01 -3.579730E+01  1.979767E-04 -1.259714E+02  1.976769E-04 -1.285949E+02  9.889603E-01 -3.244567E+01 
4.317638E+02  9.886408E-01 -3.580085E+01  1.963842E-04 -1.268480E+02  2.014236E-04 -1.266112E+02  9.889925E-01 -3.244935E+01 
4.317669E+02  9.886208E-01 -3.579909E+01  1.971014E-04 -1.273238E+02  1.976421E-04 -1.259499E+02  9.890165E-01 -3.245524E+01 
4.317700E+02  9.885278E-01 -3.579913E+01  1.995706E-04 -1.296385E+02  2.036122E-04 -1.266237E+02  9.890492E-01 -3.245951E+01 
4.317731E+02  9.886696E-01 -3.580260E+01  2.121493E-04 -1.280826E+02  2.170442E-04 -1.279822E+02  9.890337E-01 -3.246132E+01 
4.317763E+02  9.886454E-01 -3.581075E+01  2.148931E-04 -1.277536E+02  2.107672E-04 -1.278311E+02  9.890237E-01 -3.246282E+01 
4.317794E+02  9.886563E-01 -3.581330E+01  2.184569E-04 -1.303016E+02  2.142311E-04 -1.273825E+02  9.891430E-01 -3.247275E+01 
4.317825E+02  9.885729E-01 -3.581305E+01  2.222103E-04 -1.291298E+02  2.217619E-04 -1.279841E+02  9.889705E-01 -3.246910E+01 
4.317856E+02  9.886705E-01 -3.581667E+01  2.248911E-04 -1.279953E+02  2.218832E-04 -1.292613E+02  9.889868E-01 -3.247507E+01 
4.317887E+02  9.886417E-01 -3.582391E+01  2.374540E-04 -1.294839E+02  2.345497E-04 -1.295462E+02  9.890675E-01 -3.248594E+01 
4.317919E+02  9.886711E-01 -3.581644E+01  2.441365E-04 -1.285539E+02  2.352533E-04 -1.281130E+02  9.890204E-01 -3.248267E+01 
4.317950E+02  9.887517E-01 -3.582639E+01  2.419343E-04 -1.296891E+02  2.438419E-04 -1.292486E+02  9.890600E-01 -3.248437E+01 
4.317981E+02  9.886572E-01 -3.582925E+01  2.464743E-04 -1.288160E+02  2.461813E-04 -1.282250E+02  9.890173E-01 -3.249365E+01 
4.318013E+02  9.885601E-01 -3.583570E+01  2.537511E-04 -1.292586E+02  2.535920E-04 -1.288719E+02  9.890590E-01 -3.249470E+01 
4.318044E+02  9.886408E-01 -3.583835E+01  2.555196E-04 -1.286109E+02  2.534834E-04 -1.276081E+02  9.890794E-01 -3.250802E+01 
4.318075E+02  9.887607E-01 -3.584918E+01  2.635835E-04 -1.295101E+02  2.569619E-04 -1.295365E+02  9.889940E-01 -3.250640E+01 
4.318106E+02  9.886912E-01 -3.585367E+01  2.710483E-04 -1.311877E+02  2.668880E-04 -1.297779E+02  9.890798E-01 -3.250487E+01 
4.318138E+02  9.886703E-01 -3.585852E+01  2.752259E-04 -1.316528E+02  2.749596E-04 -1.313291E+02  9.890382E-01 -3.251574E+01 
4.318169E+02  9.885544E-01 -3.585710E+01  2.836211E-04 -1.290664E+02  2.831517E-04 -1.299321E+02  9.889952E-01 -3.251916E+01 
4.318200E+02  9.887238E-01 -3.586454E+01  2.881007E-04 -1.308028E+02  2.869077E-04 -1.301521E+02  9.890109E-01 -3.252085E+01 
4.318231E+02  9.886109E-01 -3.586913E+01  2.887979E-04 -1.305265E+02  2.931490E-04 -1.306878E+02  9.890891E-01 -3.252846E+01 
4.318263E+02  9.886846E-01 -3.587370E+01  2.915877E-04 -1.305964E+02  2.931534E-04 -1.300688E+02  9.889406E-01 -3.252834E+01 
4.318294E+02  9.885879E-01 -3.587294E+01  3.022003E-04 -1.318228E+02  3.008516E-04 -1.315976E+02  9.889816E-01 -3.252805E+01 
4.318325E+02  9.885721E-01 -3.587713E+01  3.119258E-04 -1.309857E+02  3.087222E-04 -1.322661E+02  9.890451E-01 -3.252821E+01 
4.318356E+02  9.885749E-01 -3.588622E+01  3.234112E-04 -1.317101E+02  3.195765E-04 -1.320186E+02  9.890426E-01 -3.254038E+01 
4.318388E+02  9.886299E-01 -3.588448E+01  3.256481E-04 -1.328590E+02  3.290610E-04 -1.305343E+02  9.888721E-01 -3.254315E+01 
4.318419E+02  9.885942E-01 -3.589580E+01  3.315714E-04 -1.323791E+02  3.321033E-04 -1.311095E+02  9.889107E-01 -3.254976E+01 
4.318450E+02  9.884862E-01 -3.589507E+01  3.412864E-04 -1.331110E+02  3.351975E-04 -1.331199E+02  9.889477E-01 -3.254306E+01 
4.318481E+02  9.884888E-01 -3.590278E+01  3.506352E-04 -1.323896E+02  3.391514E-04 -1.326970E+02  9.889101E-01 -3.255572E+01 
4.318512E+02  9.884757E-01 -3.590395E+01  3.532865E-04 -1.349072E+02  3.529671E-04 -1.320482E+02  9.888925E-01 -3.255722E+01 
4.318544E+02  9.885397E-01 -3.590743E+01  3.544306E-04 -1.339723E+02  3.574365E-04 -1.323110E+02  9.888826E-01 -3.256861E+01 
4.318575E+02  9.885159E-01 -3.591347E+01  3.662172E-04 -1.342077E+02  3.611588E-04 -1.326215E+02  9.889986E-01 -3.256555E+01 
4.318606E+02  9.884741E-01 -3.591954E+01  3.775787E-04 -1.344178E+02  3.738123E-04 -1.343861E+02  9.889802E-01 -3.257083E+01 
4.318638E+02  9.884137E-01 -3.592053E+01  3.808571E-04 -1.340722E+02  3.811497E-04 -1.331154E+02  9.888996E-01 -3.258018E+01 
4.318669E+02  9.885159E-01 -3.592483E+01  3.954902E-04 -1.348381E+02  3.903344E-04 -1.334533E+02  9.888312E-01 -3.258464E+01 
4.318700E+02  9.885490E-01 -3.592570E+01  3.975147E-04 -1.340390E+02  3.990456E-04 -1.339953E+02  9.889304E-01 -3.258006E+01 
4.318731E+02  9.883955E-01 -3.593092E+01  4.121527E-04 -1.344865E+02  4.020397E-04 -1.350559E+02  9.889150E-01 -3.258885E+01 
4.318763E+02  9.884402E-01 -3.593304E+01  4.171005E-04 -1.350198E+02  4.145631E-04 -1.348590E+02  9.888667E-01 -3.258886E+01 
4.318794E+02  9.884734E-01 -3.594081E+01  4.277333E-04 -1.352288E+02  4.265973E-04 -1.349925E+02  9.888118E-01 -3.259670E+01 
4.318825E+02  9.883347E-01 -3.594602E+01  4.383334E-04 -1.364155E+02  4.406510E-04 -1.355487E+02  9.889060E-01 -3.259759E+01 
4.318856E+02  9.885837E-01 -3.594553E+01  4.381230E-04 -1.358523E+02  4.508205E-04 -1.362981E+02  9.888801E-01 -3.260420E+01 
4.318888E+02  9.885853E-01 -3.594974E+01  4.540118E-04 -1.374446E+02  4.507263E-04 -1.363892E+02  9.888714E-01 -3.260527E+01 
4.318919E+02  9.884252E-01 -3.595309E+01  4.684015E-04 -1.373534E+02  4.656223E-04 -1.360577E+02  9.888426E-01 -3.261538E+01 
4.318950E+02  9.884182E-01 -3.596279E+01  4.765761E-04 -1.374198E+02  4.717865E-04 -1.368506E+02  9.888889E-01 -3.261644E+01 
4.318981E+02  9.883633E-01 -3.597051E+01  4.855818E-04 -1.379900E+02  4.798794E-04 -1.373776E+02  9.887925E-01 -3.261608E+01 
4.319013E+02  9.884250E-01 -3.596814E+01  5.052976E-04 -1.379083E+02  4.963654E-04 -1.376851E+02  9.887347E-01 -3.262417E+01 
4.319044E+02  9.884272E-01 -3.597417E+01  5.126465E-04 -1.385333E+02  5.098414E-04 -1.376431E+02  9.887983E-01 -3.263502E+01 
