! Matrix data file written by TouchstoneData, EPCOS AG
! FILENAME: "B3948_MB.s2p"
! COMMENT: "(B3948_MB.s2p)"
! INFO: nport=2, nfreq=1601
! DATE: "Mon Aug 12 15:21:09 2013"
! USER: "Lynn Zhu"
!
! port | pin | signal
! -----|-----|--------
!   1  |  2  |  IN
!   2  |  4  |  OUT
! --------------------
! 
# MHZ S RI R 50
! freq  reS11 imS11  reS21 imS21  reS12 imS12  reS22 imS22
843.6  -0.120557129383087 0.774042824842833  -0.00308569062420662 -0.00324079790152609  -0.00307509730216571 -0.00324176345020533  0.0190042816102505 0.799655497099218 
843.63125  -0.120058640837669 0.774227267720176  -0.00313563251892075 -0.00311520136892796  -0.00314171087323574 -0.00312056159600616  0.0195716805756092 0.799698813739464 
843.6625  -0.119438976049423 0.774392421510609  -0.00319160921601064 -0.0029801269993186  -0.00318386904753335 -0.00298967002891004  0.0201166104525328 0.799762363090668 
843.69375  -0.119057826697826 0.774548166097206  -0.00321779176202748 -0.00284531898796558  -0.00322542680094924 -0.00285291438922286  0.0205862671136856 0.799726256185354 
843.725  -0.11863961815834 0.774696964821905  -0.00324327029590542 -0.002713663270697  -0.00324821437811526 -0.00271351612173021  0.0210237894207239 0.799733691805463 
843.75625  -0.118089012801647 0.774799746130872  -0.00326280594484352 -0.00257983361370861  -0.00326904779620418 -0.00258276099339127  0.0215291455388069 0.799876663522752 
843.7875  -0.117600314319134 0.774942049571006  -0.00327104714416696 -0.00245405035093427  -0.00328895996596332 -0.00245875236578286  0.022039495408535 0.799794461296368 
843.81875  -0.116945452988148 0.775076667248255  -0.00326727036847317 -0.00233837589621544  -0.00327715342553337 -0.00234439969062805  0.0226166602224112 0.799895302017965 
843.85  -0.116467766463757 0.775140894454328  -0.00326887856854067 -0.00222805864177644  -0.00326827334925575 -0.00222293357364833  0.0232448019087315 0.799899076722424 
843.88125  -0.116053104400635 0.77522523214986  -0.00324321952763845 -0.00211300537921488  -0.00325655226851911 -0.00212067225947976  0.0235588010400534 0.799926850835347 
843.9125  -0.115451641380787 0.77533222926888  -0.00323493803393126 -0.00201943446882069  -0.00323671639536357 -0.00201490055769682  0.0241142027080059 0.799911310419044 
843.94375  -0.114989049732685 0.775343880755947  -0.00321576896908632 -0.00191560806706548  -0.00321994471222624 -0.00192704470828176  0.024616003036499 0.799850812851799 
843.975  -0.114350318908691 0.775514116276272  -0.00318771187752411 -0.00182410422712564  -0.00319989346943757 -0.00184220029041171  0.025255061686039 0.799900945985951 
844.00625  -0.113939791917801 0.77553401403705  -0.00316268339575817 -0.00173154007643461  -0.00317295749762247 -0.00174301641527563  0.0258477218449116 0.799914804203888 
844.0375  -0.113346040248871 0.775642969541433  -0.00315206559844597 -0.00166000227909535  -0.00315244941346664 -0.00166081672068685  0.0262754932045937 0.799898001899119 
844.06875  -0.112802542746067 0.775715772104932  -0.0031116769765875 -0.00157454400323331  -0.00310458601382689 -0.00158113648649305  0.026744868606329 0.799788915652759 
844.1  -0.112356074154377 0.775716688444344  -0.00308513416865079 -0.00149645446799695  -0.00308677914775799 -0.0014918566448614  0.0272142421454191 0.799796706285411 
844.13125  -0.111739493906498 0.775834358935203  -0.00304791286905792 -0.0014132671058178  -0.00306363902148992 -0.00143845821730793  0.02774010412395 0.799727203157481 
844.1625  -0.111290134489536 0.775854080529233  -0.00300516213134667 -0.00135793350636959  -0.00301404715408018 -0.00135360704734921  0.0283224582672119 0.79969869619966 
844.19375  -0.110683053731918 0.775907483311846  -0.00296988768272704 -0.00129196292255074  -0.00299276991956751 -0.00129019375890493  0.0287714917212725 0.799736317859742 
844.225  -0.110124453902245 0.775904978569538  -0.00293181703197276 -0.00122449430637062  -0.00293789289865508 -0.0012355922954157  0.0293399319052696 0.799731943855594 
844.25625  -0.109721757471561 0.775988635305963  -0.00289428361499835 -0.00117570697329938  -0.00289732589935801 -0.00117843027692288  0.0297531578689814 0.799756227617969 
844.2875  -0.10922297090292 0.775987498658278  -0.00285653760875599 -0.00112798006739467  -0.00285275629338376 -0.00112571951467544  0.0301683135330677 0.799760190827638 
844.31875  -0.108784861862659 0.776004308107998  -0.00281178068944718 -0.00108241615816951  -0.00281537709244019 -0.00108249497134239  0.0308027677237987 0.799701421991541 
844.35  -0.108113072812557 0.776024275074937  -0.00277121084856485 -0.00103289226535708  -0.00278306321451382 -0.0010383129119873  0.0313909128308296 0.799734586509918 
844.38125  -0.107618540525436 0.776041659609797  -0.00272884064497515 -0.000995042035356164  -0.00274310781023221 -0.000999128329567611  0.0319654531776905 0.799775006448682 
844.4125  -0.107226461172104 0.776075506779837  -0.00269622424666969 -0.000949554378166795  -0.00269600518646174 -0.000964704493526369  0.0323228426277637 0.799666796135353 
844.44375  -0.106799595057964 0.776101344104299  -0.00265436346502549 -0.000923949643038213  -0.00265211381092665 -0.000939184392336756  0.0327436178922653 0.799598583181678 
844.475  -0.106249913573265 0.77615980665382  -0.00262550923249305 -0.000894224212970585  -0.0026280849268246 -0.000895805365871638  0.0334290042519569 0.799617407821082 
844.50625  -0.105694882571697 0.776211543553651  -0.00259570563388243 -0.000875791360158473  -0.00259943358669014 -0.000879239174537361  0.03408208116889 0.799533675801036 
844.5375  -0.105143889784813 0.776252435822245  -0.00255879117541329 -0.000832590681966394  -0.00256026025598257 -0.000853137345984578  0.0346330627799034 0.799538096492405 
844.56875  -0.104731038212776 0.776273172762276  -0.00252024312698903 -0.000823998416308314  -0.00252844735126244 -0.000828373769763857  0.035047322511673 0.799522663071652 
844.6  -0.104313589632511 0.776277113685911  -0.0024831209491775 -0.000796306121628731  -0.00249783811123642 -0.000792401435319334  0.0353804379701614 0.799423437859843 
844.63125  -0.103877633810043 0.776274380948403  -0.00245402975012634 -0.000776499102357775  -0.00245547756002376 -0.000786348711699247  0.036014836281538 0.799408307741839 
844.6625  -0.10325114428997 0.776361171055686  -0.00242784035617113 -0.000776715285610408  -0.00243996066255011 -0.000761669944040477  0.0366415604948997 0.799407001667052 
844.69375  -0.102654159069061 0.77642110253492  -0.00240415921481865 -0.0007457549800165  -0.00241383531542206 -0.000756219145841897  0.0372302830219269 0.799343290406921 
844.725  -0.10227358341217 0.776481935925154  -0.00238458377866127 -0.000739943003281951  -0.00239694806648049 -0.00073687668191269  0.0375947877764702 0.799360283883094 
844.75625  -0.10190711170435 0.776482680190153  -0.00237751692487373 -0.000731228734366596  -0.00237024918168464 -0.00073222687933594  0.037947129458189 0.799309942851043 
844.7875  -0.101542383432388 0.776447080346172  -0.0023579315438746 -0.000709108426235616  -0.00236656470396629 -0.000709835265297443  0.0386586040258408 0.799292306161891 
844.81875  -0.100843399763107 0.776509905582307  -0.00234825321327409 -0.000692450965289026  -0.00235615080125175 -0.000707315048202872  0.0392641574144363 0.799248528901343 
844.85  -0.100276030600071 0.776627823948647  -0.00234411320368872 -0.000680859142448753  -0.00235060649160568 -0.000677061208989471  0.039801225066185 0.799272670529167 
844.88125  -0.0998277217149734 0.776663171336666  -0.00233227638476862 -0.000652219110634178  -0.00233104072032128 -0.000664882827550173  0.0402249060571194 0.799150144857923 
844.9125  -0.0994338318705559 0.776662907669329  -0.00232342246499261 -0.0006317212828435  -0.00233222034470775 -0.000630254275165498  0.0406197868287563 0.799078761153122 
844.94375  -0.0990377068519592 0.776699818487929  -0.00231734138717867 -0.000594113429542631  -0.00231527791809347 -0.00060274702263996  0.0412729494273663 0.799091384173347 
844.975  -0.0984290018677711 0.776823118736275  -0.00230954744127139 -0.000569862546399236  -0.00231848242552277 -0.000574866775423288  0.0418383739888668 0.799093854631051 
845.00625  -0.0978714302182198 0.776942248255976  -0.00229957319619806 -0.000530083605553955  -0.00229288643989771 -0.000530912890098989  0.0425357222557068 0.799105021670125 
845.0375  -0.0973630473017693 0.776959918323239  -0.00226832862412979 -0.000497977482154965  -0.00228358843730919 -0.000493086874485016  0.042943399399519 0.798938551460206 
845.06875  -0.0969458147883415 0.776955754574213  -0.00225966482033589 -0.000470924889668822  -0.00225586345438118 -0.000472655810881406  0.0432833023369312 0.798916068295471 
845.1  -0.096551924943924 0.776996851495496  -0.00221963433347413 -0.000442462682258338  -0.00223447489197438 -0.000433202221756801  0.0439117066562176 0.798842146140832 
845.13125  -0.0959922298789024 0.777042255075862  -0.00218876841874188 -0.000412487133871764  -0.00219777774642234 -0.000410518317949027  0.0444998890161514 0.798847488385053 
845.1625  -0.0953607782721519 0.777145890885866  -0.00215413456113806 -0.000381017889594659  -0.00216070242705229 -0.000383732665795833  0.0451981797814369 0.798779796764254 
845.19375  -0.0948304459452629 0.777195855902372  -0.00211959022379105 -0.000362331222277135  -0.00213235545126611 -0.000370330497389659  0.0455717109143734 0.798744959398853 
845.225  -0.0943816676735878 0.777214020676974  -0.00209041951342165 -0.000341380742611363  -0.00209979302549454 -0.000347220426192507  0.046003445982933 0.798678855061855 
845.25625  -0.0939513444900513 0.777296549486163  -0.00207103896903572 -0.00032968184677884  -0.00206898368900297 -0.000330636481521651  0.0465470291674137 0.798689218229406 
845.2875  -0.0934848338365555 0.777344184757665  -0.00204830650549159 -0.000312091258820146  -0.00204204220151051 -0.000314699136652052  0.0471153631806374 0.798608129647071 
845.31875  -0.0928415954113007 0.777389430589046  -0.00200684661756267 -0.0003110030957032  -0.00201779917292772 -0.000305376655887812  0.0477938652038574 0.798476040418803 
845.35  -0.0923477038741112 0.777497899730762  -0.00199326822274275 -0.000291192438453436  -0.00199266429934211 -0.000291698728688061  0.0482396222651005 0.798505437219646 
845.38125  -0.0917947813868523 0.777566317758539  -0.0019590896920367 -0.000285584974335507  -0.00197379694875949 -0.000284348177956417  0.0487164221704006 0.798323924863146 
845.4125  -0.0914449617266655 0.777478914890683  -0.00194113074354869 -0.000271015072939917  -0.0019480781074268 -0.000275943632004783  0.0493652410805225 0.798302802155811 
845.44375  -0.0908342972397804 0.777581582504685  -0.00190980504838677 -0.000262197339907289  -0.00192086319526313 -0.000269029638729989  0.0499857664108276 0.79830046310921 
845.475  -0.0902871415019035 0.777601910948897  -0.00188197800219443 -0.000245797331444919  -0.00188868869710331 -0.000254806916927919  0.0504760555922985 0.798198751999594 
845.50625  -0.0898842066526413 0.777687966356173  -0.00186650004156803 -0.000244193826802075  -0.00188070697917687 -0.000233380807912908  0.0509918332099915 0.798164956408301 
845.5375  -0.0893679484724998 0.77768520722694  -0.001845686683118 -0.000234813793213107  -0.00185816958265481 -0.000238183391047642  0.0514282546937466 0.798122847480415 
845.56875  -0.088853731751442 0.777748698717453  -0.0018204041309408 -0.000202940005692653  -0.0018323081431915 -0.000225365642108954  0.0520145632326603 0.798088995403505 
845.6  -0.0883175656199455 0.777834529868629  -0.00180451214957408 -0.000196789886103943  -0.00181055468605689 -0.00020102369308006  0.0526574924588203 0.797982540997824 
845.63125  -0.0878103673458099 0.777886279462867  -0.00178371089915882 -0.000193103405763395  -0.00178108190178275 -0.000187689685844816  0.053232166916132 0.797939260905452 
845.6625  -0.0872586145997047 0.777875355400344  -0.00174685695655721 -0.000167150123161264  -0.00175906415415734 -0.000177286448888481  0.0536537691950798 0.797824417617027 
845.69375  -0.0867666229605675 0.777862349135986  -0.00172042166972392 -0.000162772383191623  -0.00171903605609069 -0.000162950294907205  0.0541616417467594 0.797789684587719 
845.725  -0.0863326787948608 0.777954707866437  -0.00168883154901541 -0.000156943802721798  -0.00169552643117914 -0.000151054526213557  0.0546801462769508 0.797716367822327 
845.75625  -0.0858152210712433 0.777991176033335  -0.0016552411103393 -0.000156889713252895  -0.0016545214298243 -0.000156335750943981  0.0552952848374844 0.797679082718407 
845.7875  -0.0852881520986557 0.7780860954757  -0.0016252892737202 -0.000158761598868296  -0.0016325313511419 -0.000158028575242497  0.0557824969291687 0.797627600289119 
845.81875  -0.0846700072288513 0.778135236449004  -0.00160259858653826 -0.000159684859681874  -0.00160487492249596 -0.000152358450577594  0.0562711656093597 0.797543593173442 
845.85  -0.0840765237808228 0.778154642617028  -0.00157807804527453 -0.000149916479131207  -0.00158163178085636 -0.000155046465806663  0.0567758791148663 0.797545096134191 
845.88125  -0.0836501643061638 0.778199293196694  -0.00155075557859708 -0.000153526401845738  -0.00155789188871278 -0.000162695898325182  0.0573661774396896 0.797413251174163 
845.9125  -0.0831707343459129 0.778281742518049  -0.00153617307506209 -0.000153378234244883  -0.00153723053921875 -0.000154546840349212  0.0578616634011269 0.797335048013807 
845.94375  -0.082560770213604 0.778296979777282  -0.0015048352539747 -0.000149931773194112  -0.00150846812916422 -0.000149242448969744  0.0583885833621025 0.797340516344912 
845.975  -0.0819279402494431 0.778341878112213  -0.00147465078869386 -0.000146549355122261  -0.00149877207036746 -0.000161123040015809  0.0590062476694584 0.797252491260423 
846.00625  -0.0813493654131889 0.778393448568605  -0.00146415887897716 -0.00016031252744142  -0.00146929844819405 -0.000150092964759097  0.0595216900110245 0.797197826145976 
846.0375  -0.0808265656232834 0.778471431280736  -0.00144345707016764 -0.000149282597703859  -0.0014455163161256 -0.000163325457833707  0.0600809268653393 0.797210714239819 
846.06875  -0.080494299530983 0.778442121708666  -0.00141975427022308 -0.000146247039083391  -0.00141692235839194 -0.000155478875967674  0.0604115799069405 0.797109632113176 
846.1  -0.0798260644078255 0.778492492903365  -0.00138628340580428 -0.000157160393428057  -0.00140236576202041 -0.000154781300807372  0.061054851859808 0.797019931296266 
846.13125  -0.0792541801929474 0.778518795784639  -0.00136582112629858 -0.000158288472448476  -0.00137854245179982 -0.000157780916197226  0.0617458298802376 0.796983984981853 
846.1625  -0.0786130055785179 0.778500033764002  -0.00134787707066209 -0.000165459481650032  -0.00135358463199282 -0.000167639111168683  0.0622826106846333 0.796906446103702 
846.19375  -0.0781232863664627 0.778548121503108  -0.00132944468893783 -0.000164335346198641  -0.00132604354425884 -0.000171082851011306  0.0627000257372856 0.796913049365666 
846.225  -0.0777541548013687 0.77852629966768  -0.00129974264423003 -0.000178656875505112  -0.00131706617652247 -0.000170124185387976  0.0631333515048027 0.796829518762839 
846.25625  -0.0772155374288559 0.778572307740356  -0.00127722037420706 -0.000185701035661623  -0.00127437796678305 -0.000183113894308917  0.0637965202331543 0.796752459827137 
846.2875  -0.0766062662005424 0.778540939193937  -0.00125319631474654 -0.000185628639883362  -0.00127447496274478 -0.000191928193089552  0.0645472407341003 0.796723989702155 
846.31875  -0.0759500563144684 0.778612119711255  -0.0012349281789676 -0.00018778997764457  -0.00123629005683803 -0.000200453621800989  0.0650755316019058 0.796718735338372 
846.35  -0.0755175650119781 0.778585051933021  -0.00123010611166863 -0.000187829093192704  -0.00122015809708487 -0.000204830692382529  0.0655900090932846 0.796648669753488 
846.38125  -0.0750448778271675 0.778623132785195  -0.00119763701919 -0.000202110401005484  -0.00120863384688932 -0.00021821133850608  0.065994568169117 0.796509484459797 
846.4125  -0.0745954364538193 0.778583413306508  -0.00117494461892087 -0.000224294271902181  -0.00118031019236996 -0.000220958114368841  0.066629059612751 0.796564619200146 
846.44375  -0.073939137160778 0.778596592797425  -0.00115763664248175 -0.000221078706090339  -0.00115972328213133 -0.000231082129175775  0.0673943608999252 0.796467636847829 
846.475  -0.073219507932663 0.778653413657101  -0.00113856511815164 -0.000238292501308024  -0.00114912686365922 -0.000235650950344279  0.0679729655385017 0.796369241992758 
846.50625  -0.0728142559528351 0.778672007739118  -0.00111128308534705 -0.000250195560511202  -0.00112140804139264 -0.000252095516771078  0.0685697495937347 0.796297961027614 
846.5375  -0.0723646283149719 0.778616892632399  -0.00110408000499419 -0.000257400213740766  -0.00109194480677067 -0.000262718735029921  0.0690594166517258 0.796222160580185 
846.56875  -0.0718753188848495 0.778637913349868  -0.00107199196112383 -0.000272786419373006  -0.00108835710567361 -0.000274553138297051  0.0695516243577003 0.796108452391518 
846.6  -0.0713295564055443 0.77871154938002  -0.00105030264367184 -0.000286954455077648  -0.00105343331216792 -0.000284207810182124  0.070282518863678 0.796097320677106 
846.63125  -0.0706333890557289 0.778736065590916  -0.00103784589115961 -0.000302937347441912  -0.0010387720134061 -0.000309282419038936  0.0708798170089722 0.796061229742593 
846.6625  -0.0701195374131203 0.778767403345952  -0.00101709427054933 -0.000323969288729131  -0.00102315095472734 -0.000320388149702922  0.0713917016983032 0.796018605361363 
846.69375  -0.0696723982691765 0.778754117294629  -0.0010029429954348 -0.000347611319739371  -0.0010111606986929 -0.000344491127179936  0.0717868953943253 0.795857378675792 
846.725  -0.0692120492458344 0.778758706766261  -0.000983026767689762 -0.000368965731468052  -0.00098758614479055 -0.000362203514669091  0.0724044367671013 0.795775457263715 
846.75625  -0.0687156096100807 0.778827299237317  -0.000970724468770616 -0.000390991335734725  -0.000978547041082759 -0.000385422084946185  0.0730510428547859 0.795711106651434 
846.7875  -0.068004883825779 0.778813636824203  -0.000967392945812656 -0.000411411630921066  -0.000956816762516454 -0.000409749947721139  0.073580414056778 0.795577620134395 
846.81875  -0.067384734749794 0.778823628460721  -0.000948987201969799 -0.000438765797298402  -0.000955010717237771 -0.000425953330704942  0.0741759315133095 0.795543370586077 
846.85  -0.0669856891036034 0.778820147167487  -0.000947565128974342 -0.000467420148197562  -0.000939809841577219 -0.000466765399323776  0.0745803117752075 0.795459763239439 
846.88125  -0.0664336308836937 0.778805133867063  -0.000936795716724021 -0.00047984512639232  -0.000943935254388185 -0.00047477864427492  0.0751282498240471 0.795386741360032 
846.9125  -0.0659555718302727 0.778859029898298  -0.00094286202732109 -0.000498623237945139  -0.000951428381572071 -0.000511884281877428  0.0757519751787186 0.795300799710018 
846.94375  -0.0653282180428505 0.778946683178248  -0.000941426613745471 -0.000531310040969402  -0.000953634231070198 -0.000522378541063517  0.076369397342205 0.795260022560357 
846.975  -0.0647153481841087 0.778882763724314  -0.000948591858084363 -0.000551292789168656  -0.000944626292280356 -0.000555883510969579  0.0768451392650604 0.795200516207777 
847.00625  -0.0642027482390404 0.778874149275815  -0.000953129337111821 -0.000569694151636213  -0.00094866732811243 -0.000561374647077173  0.0772890895605087 0.795148102846893 
847.0375  -0.0637238621711731 0.778919742597414  -0.000953697621969217 -0.000586075882893056  -0.000963356889346007 -0.000583921209909022  0.077858991920948 0.795094043280616 
847.06875  -0.0632210895419121 0.778914232967442  -0.000963918793374734 -0.000599145365413278  -0.000965763726613239 -0.000597212871070951  0.0783847346901894 0.795049960135841 
