! Matrix data file written by TouchstoneData, EPCOS AG
! FILENAME: "B3942_MB.s2p"
! COMMENT: "B3942 un-matching wideband S-parameter"
! INFO: nport=2, nfreq=1601
! DATE: "Tue Nov 13 17:27:26 2012"
! USER: "Eluer Wang"
!
! port | pin | signal
! -----|-----|--------
!   1  |  1  |  in
!   2  |  5  |  out
! --------------------
! 
# MHZ S MA R 50
! freq  magS11 angS11  magS21 angS21  magS12 angS12  magS22 angS22
1.640000E+02  9.959450E-01 -2.502156E+01  4.536387E-04 1.103959E+02  4.509676E-04 1.109896E+02  9.911813E-01 -2.614205E+01 
1.640062E+02  9.959880E-01 -2.501979E+01  4.511174E-04 1.078236E+02  4.383772E-04 1.084323E+02  9.913522E-01 -2.613172E+01 
1.640125E+02  9.959976E-01 -2.502236E+01  4.398982E-04 1.045467E+02  4.377960E-04 1.044438E+02  9.914444E-01 -2.613558E+01 
1.640188E+02  9.960035E-01 -2.502487E+01  4.249042E-04 1.018281E+02  4.274347E-04 1.022446E+02  9.915228E-01 -2.613540E+01 
1.640250E+02  9.959690E-01 -2.502866E+01  4.165583E-04 9.947747E+01  4.186423E-04 9.905159E+01  9.916542E-01 -2.613594E+01 
1.640312E+02  9.959904E-01 -2.503125E+01  4.052675E-04 9.730948E+01  4.076235E-04 9.822486E+01  9.916504E-01 -2.613579E+01 
1.640375E+02  9.960810E-01 -2.503214E+01  3.913045E-04 9.518921E+01  3.973484E-04 9.615110E+01  9.917548E-01 -2.614035E+01 
1.640437E+02  9.960636E-01 -2.503557E+01  3.966055E-04 9.466292E+01  3.894279E-04 9.380730E+01  9.918577E-01 -2.614010E+01 
1.640500E+02  9.960217E-01 -2.503585E+01  3.780116E-04 9.178433E+01  3.799741E-04 9.269454E+01  9.919293E-01 -2.614440E+01 
1.640563E+02  9.960148E-01 -2.504141E+01  3.610714E-04 9.116951E+01  3.649934E-04 9.201048E+01  9.919156E-01 -2.614587E+01 
1.640625E+02  9.960341E-01 -2.504252E+01  3.586105E-04 8.979720E+01  3.591968E-04 8.992920E+01  9.919290E-01 -2.614677E+01 
1.640687E+02  9.959961E-01 -2.504128E+01  3.517635E-04 8.794691E+01  3.475168E-04 8.889130E+01  9.919875E-01 -2.614962E+01 
1.640750E+02  9.959911E-01 -2.504235E+01  3.447068E-04 8.766285E+01  3.410887E-04 8.933680E+01  9.920621E-01 -2.615082E+01 
1.640813E+02  9.960006E-01 -2.504728E+01  3.471030E-04 8.762397E+01  3.398262E-04 8.627293E+01  9.920552E-01 -2.615763E+01 
1.640875E+02  9.960597E-01 -2.504899E+01  3.284115E-04 8.426754E+01  3.220704E-04 8.652676E+01  9.920597E-01 -2.615990E+01 
1.640938E+02  9.959551E-01 -2.505022E+01  3.125718E-04 8.345384E+01  3.202708E-04 8.562035E+01  9.920760E-01 -2.616443E+01 
1.641000E+02  9.960582E-01 -2.504915E+01  3.157025E-04 8.377096E+01  3.127722E-04 8.545971E+01  9.920897E-01 -2.615970E+01 
1.641062E+02  9.960281E-01 -2.505176E+01  3.136735E-04 8.333008E+01  3.095213E-04 8.398433E+01  9.921248E-01 -2.616462E+01 
1.641125E+02  9.960688E-01 -2.505281E+01  3.084425E-04 8.324812E+01  2.980467E-04 8.292511E+01  9.922042E-01 -2.616472E+01 
1.641188E+02  9.960121E-01 -2.505677E+01  2.968594E-04 8.126864E+01  2.934955E-04 8.183669E+01  9.922160E-01 -2.616546E+01 
1.641250E+02  9.959827E-01 -2.505768E+01  2.895502E-04 8.219919E+01  2.854980E-04 8.293725E+01  9.921929E-01 -2.616895E+01 
1.641312E+02  9.960525E-01 -2.506027E+01  2.784050E-04 8.181513E+01  2.961030E-04 8.063099E+01  9.922013E-01 -2.617246E+01 
1.641375E+02  9.959610E-01 -2.506767E+01  2.802025E-04 8.029964E+01  2.839110E-04 8.093933E+01  9.922356E-01 -2.617342E+01 
1.641438E+02  9.959743E-01 -2.506532E+01  2.756582E-04 8.283878E+01  2.704543E-04 8.127133E+01  9.923185E-01 -2.617616E+01 
1.641500E+02  9.960931E-01 -2.506624E+01  2.664029E-04 8.164265E+01  2.676902E-04 8.257398E+01  9.922997E-01 -2.618000E+01 
1.641562E+02  9.960088E-01 -2.506858E+01  2.687223E-04 8.107102E+01  2.617358E-04 7.872292E+01  9.922153E-01 -2.618074E+01 
1.641625E+02  9.959362E-01 -2.507225E+01  2.600650E-04 8.020389E+01  2.510692E-04 8.070379E+01  9.922148E-01 -2.618481E+01 
1.641687E+02  9.959818E-01 -2.507499E+01  2.491156E-04 8.025744E+01  2.591250E-04 8.191159E+01  9.922816E-01 -2.618636E+01 
1.641750E+02  9.960062E-01 -2.507696E+01  2.416595E-04 7.949285E+01  2.491954E-04 7.960210E+01  9.923131E-01 -2.618766E+01 
1.641813E+02  9.959385E-01 -2.507640E+01  2.476898E-04 7.883522E+01  2.444777E-04 8.068480E+01  9.922478E-01 -2.619271E+01 
1.641875E+02  9.959258E-01 -2.507907E+01  2.398205E-04 8.094285E+01  2.379700E-04 7.997443E+01  9.923211E-01 -2.619435E+01 
1.641937E+02  9.958596E-01 -2.508402E+01  2.356019E-04 7.975788E+01  2.240695E-04 8.006801E+01  9.922182E-01 -2.619896E+01 
1.642000E+02  9.958373E-01 -2.508579E+01  2.231933E-04 8.025238E+01  2.246241E-04 8.156640E+01  9.922997E-01 -2.619833E+01 
1.642063E+02  9.958911E-01 -2.508643E+01  2.181363E-04 7.952519E+01  2.181112E-04 8.193697E+01  9.922843E-01 -2.620298E+01 
1.642125E+02  9.957946E-01 -2.508839E+01  2.244804E-04 7.963892E+01  2.172203E-04 7.846985E+01  9.923202E-01 -2.620281E+01 
1.642188E+02  9.958849E-01 -2.508715E+01  2.073274E-04 8.201981E+01  2.147730E-04 8.122037E+01  9.922849E-01 -2.620579E+01 
1.642250E+02  9.958956E-01 -2.509017E+01  2.121550E-04 8.017836E+01  2.033508E-04 8.133153E+01  9.921729E-01 -2.620790E+01 
1.642312E+02  9.957690E-01 -2.509431E+01  1.996264E-04 7.916244E+01  1.993086E-04 8.313466E+01  9.922080E-01 -2.621003E+01 
1.642375E+02  9.958113E-01 -2.509339E+01  1.973824E-04 8.241270E+01  1.987950E-04 8.232636E+01  9.922279E-01 -2.621273E+01 
1.642438E+02  9.957861E-01 -2.509944E+01  1.988474E-04 8.310832E+01  1.943294E-04 8.473403E+01  9.923293E-01 -2.621580E+01 
1.642500E+02  9.957318E-01 -2.509929E+01  1.918894E-04 8.337920E+01  1.941697E-04 8.591984E+01  9.922310E-01 -2.622140E+01 
1.642562E+02  9.957623E-01 -2.510214E+01  1.881091E-04 8.474361E+01  1.849526E-04 8.336820E+01  9.922424E-01 -2.621756E+01 
1.642625E+02  9.957125E-01 -2.510527E+01  1.783004E-04 8.916228E+01  1.851811E-04 8.735788E+01  9.921687E-01 -2.622085E+01 
1.642688E+02  9.956885E-01 -2.510715E+01  1.755377E-04 9.056861E+01  1.809832E-04 8.874997E+01  9.922248E-01 -2.622678E+01 
1.642750E+02  9.956893E-01 -2.511051E+01  1.757448E-04 8.925501E+01  1.822226E-04 9.036346E+01  9.922997E-01 -2.622387E+01 
1.642812E+02  9.956150E-01 -2.511449E+01  1.781396E-04 9.069093E+01  1.686518E-04 9.240742E+01  9.922364E-01 -2.622588E+01 
1.642875E+02  9.955974E-01 -2.511116E+01  1.762885E-04 9.240562E+01  1.746496E-04 9.420848E+01  9.921755E-01 -2.623044E+01 
1.642937E+02  9.955452E-01 -2.511647E+01  1.635692E-04 9.336693E+01  1.648855E-04 9.541217E+01  9.921383E-01 -2.623543E+01 
1.643000E+02  9.954607E-01 -2.511643E+01  1.658876E-04 9.447720E+01  1.648790E-04 9.789353E+01  9.921347E-01 -2.623371E+01 
1.643063E+02  9.954565E-01 -2.511583E+01  1.689105E-04 9.687207E+01  1.626109E-04 1.011766E+02  9.920740E-01 -2.623361E+01 
1.643125E+02  9.953676E-01 -2.511558E+01  1.585417E-04 9.807590E+01  1.734591E-04 9.891390E+01  9.920794E-01 -2.623937E+01 
1.643187E+02  9.953576E-01 -2.511733E+01  1.624755E-04 1.017606E+02  1.610925E-04 1.021118E+02  9.920665E-01 -2.623874E+01 
1.643250E+02  9.953395E-01 -2.512216E+01  1.513006E-04 1.033452E+02  1.489504E-04 1.017338E+02  9.920223E-01 -2.624502E+01 
1.643313E+02  9.952590E-01 -2.511702E+01  1.566970E-04 1.070657E+02  1.567219E-04 1.117162E+02  9.919601E-01 -2.624509E+01 
1.643375E+02  9.951511E-01 -2.511366E+01  1.629309E-04 1.146245E+02  1.600406E-04 1.136719E+02  9.919245E-01 -2.624628E+01 
1.643438E+02  9.951799E-01 -2.511762E+01  1.632808E-04 1.150603E+02  1.678690E-04 1.187196E+02  9.919007E-01 -2.624201E+01 
1.643500E+02  9.951316E-01 -2.511515E+01  1.746677E-04 1.224239E+02  1.711829E-04 1.234685E+02  9.918361E-01 -2.624814E+01 
1.643562E+02  9.950395E-01 -2.511449E+01  1.946954E-04 1.262158E+02  1.852142E-04 1.252062E+02  9.918230E-01 -2.624354E+01 
1.643625E+02  9.949211E-01 -2.511405E+01  2.044631E-04 1.285951E+02  1.974501E-04 1.284289E+02  9.917671E-01 -2.624795E+01 
1.643688E+02  9.948641E-01 -2.511554E+01  2.221917E-04 1.284062E+02  2.156680E-04 1.296014E+02  9.918288E-01 -2.624794E+01 
1.643750E+02  9.948862E-01 -2.510829E+01  2.391946E-04 1.301162E+02  2.340059E-04 1.302213E+02  9.917215E-01 -2.624440E+01 
1.643812E+02  9.948790E-01 -2.510549E+01  2.602140E-04 1.312460E+02  2.622254E-04 1.311713E+02  9.917183E-01 -2.624332E+01 
1.643875E+02  9.948310E-01 -2.510169E+01  2.786574E-04 1.293630E+02  2.884855E-04 1.290852E+02  9.917101E-01 -2.624344E+01 
1.643938E+02  9.948578E-01 -2.509604E+01  2.986214E-04 1.265830E+02  3.002363E-04 1.269353E+02  9.916133E-01 -2.624009E+01 
1.644000E+02  9.948954E-01 -2.509877E+01  3.191919E-04 1.255330E+02  3.176522E-04 1.255044E+02  9.916410E-01 -2.623865E+01 
1.644062E+02  9.949312E-01 -2.509359E+01  3.358828E-04 1.228659E+02  3.341919E-04 1.241106E+02  9.916437E-01 -2.623588E+01 
1.644125E+02  9.950553E-01 -2.508614E+01  3.458586E-04 1.213864E+02  3.567589E-04 1.204277E+02  9.916599E-01 -2.623627E+01 
1.644187E+02  9.950733E-01 -2.508547E+01  3.644527E-04 1.177965E+02  3.701605E-04 1.180574E+02  9.916807E-01 -2.623454E+01 
1.644250E+02  9.951090E-01 -2.508419E+01  3.718873E-04 1.155438E+02  3.836632E-04 1.154767E+02  9.916173E-01 -2.623352E+01 
1.644313E+02  9.951509E-01 -2.507947E+01  3.870917E-04 1.120480E+02  3.878337E-04 1.137732E+02  9.917088E-01 -2.622991E+01 
1.644375E+02  9.951581E-01 -2.508160E+01  3.984846E-04 1.108134E+02  3.981684E-04 1.107870E+02  9.917602E-01 -2.622841E+01 
1.644437E+02  9.952287E-01 -2.508122E+01  4.075224E-04 1.066653E+02  4.067400E-04 1.076685E+02  9.917439E-01 -2.623305E+01 
1.644500E+02  9.953090E-01 -2.507909E+01  4.144003E-04 1.064243E+02  4.039035E-04 1.053496E+02  9.918361E-01 -2.623504E+01 
1.644563E+02  9.954288E-01 -2.507884E+01  4.147641E-04 1.016866E+02  4.083913E-04 1.036320E+02  9.918370E-01 -2.623202E+01 
1.644625E+02  9.954437E-01 -2.507902E+01  4.140713E-04 1.000382E+02  4.097764E-04 1.009107E+02  9.918728E-01 -2.623096E+01 
1.644688E+02  9.954758E-01 -2.508365E+01  4.143682E-04 9.754726E+01  4.136723E-04 9.898780E+01  9.919461E-01 -2.623331E+01 
1.644750E+02  9.955005E-01 -2.508406E+01  4.019890E-04 9.625647E+01  4.045439E-04 9.685559E+01  9.919281E-01 -2.623290E+01 
1.644812E+02  9.955548E-01 -2.508394E+01  4.169051E-04 9.401636E+01  4.025613E-04 9.441279E+01  9.919835E-01 -2.623694E+01 
1.644875E+02  9.956215E-01 -2.508717E+01  4.001344E-04 9.187962E+01  4.081291E-04 9.307276E+01  9.919859E-01 -2.623886E+01 
1.644938E+02  9.956636E-01 -2.509175E+01  4.014419E-04 9.112827E+01  4.056049E-04 8.994682E+01  9.919242E-01 -2.624089E+01 
1.645000E+02  9.957047E-01 -2.509110E+01  3.913215E-04 8.815487E+01  3.898267E-04 9.045031E+01  9.920355E-01 -2.623943E+01 
1.645062E+02  9.956359E-01 -2.509771E+01  3.926870E-04 8.822331E+01  3.875796E-04 8.837844E+01  9.920715E-01 -2.624394E+01 
1.645125E+02  9.958126E-01 -2.509906E+01  3.858276E-04 8.555521E+01  3.805136E-04 8.663973E+01  9.921141E-01 -2.624230E+01 
1.645188E+02  9.958195E-01 -2.510259E+01  3.748823E-04 8.453001E+01  3.825042E-04 8.588599E+01  9.919889E-01 -2.624970E+01 
1.645250E+02  9.957722E-01 -2.510523E+01  3.689949E-04 8.631035E+01  3.699933E-04 8.522791E+01  9.921108E-01 -2.625049E+01 
1.645312E+02  9.957395E-01 -2.510843E+01  3.697887E-04 8.492492E+01  3.638493E-04 8.486445E+01  9.922001E-01 -2.625203E+01 
1.645375E+02  9.958583E-01 -2.511134E+01  3.616640E-04 8.424656E+01  3.641447E-04 8.374209E+01  9.921314E-01 -2.624799E+01 
1.645437E+02  9.958128E-01 -2.511524E+01  3.592733E-04 8.396633E+01  3.570648E-04 8.332845E+01  9.922332E-01 -2.624948E+01 
1.645500E+02  9.958050E-01 -2.511554E+01  3.578037E-04 8.193144E+01  3.513400E-04 8.383009E+01  9.922125E-01 -2.625742E+01 
1.645563E+02  9.958265E-01 -2.511714E+01  3.604638E-04 8.138217E+01  3.480337E-04 8.385151E+01  9.922283E-01 -2.626198E+01 
1.645625E+02  9.958657E-01 -2.512284E+01  3.529650E-04 8.114423E+01  3.478955E-04 8.087929E+01  9.921976E-01 -2.626038E+01 
1.645687E+02  9.958801E-01 -2.512164E+01  3.463376E-04 8.140924E+01  3.436374E-04 8.210320E+01  9.921921E-01 -2.626357E+01 
1.645750E+02  9.958916E-01 -2.512242E+01  3.370842E-04 8.030203E+01  3.417412E-04 8.043502E+01  9.922347E-01 -2.626397E+01 
1.645813E+02  9.958322E-01 -2.512483E+01  3.398300E-04 8.024805E+01  3.471668E-04 8.158933E+01  9.922232E-01 -2.626521E+01 
1.645875E+02  9.958942E-01 -2.512123E+01  3.378379E-04 7.930177E+01  3.374878E-04 8.084369E+01  9.921982E-01 -2.626941E+01 
1.645938E+02  9.959353E-01 -2.512671E+01  3.392847E-04 8.070680E+01  3.356005E-04 7.843993E+01  9.921517E-01 -2.627037E+01 
1.646000E+02  9.959174E-01 -2.513047E+01  3.332989E-04 8.018971E+01  3.380852E-04 8.100508E+01  9.922267E-01 -2.627515E+01 
1.646062E+02  9.959253E-01 -2.513426E+01  3.328520E-04 7.969022E+01  3.344649E-04 7.984143E+01  9.922768E-01 -2.627213E+01 
1.646125E+02  9.959442E-01 -2.513523E+01  3.282500E-04 7.820289E+01  3.270887E-04 7.747191E+01  9.923074E-01 -2.627114E+01 
1.646188E+02  9.958932E-01 -2.513613E+01  3.259395E-04 7.833436E+01  3.374419E-04 7.793596E+01  9.922134E-01 -2.627593E+01 
1.646250E+02  9.959578E-01 -2.514012E+01  3.340777E-04 7.685238E+01  3.308030E-04 7.850410E+01  9.923251E-01 -2.628335E+01 
1.646312E+02  9.959525E-01 -2.513838E+01  3.245021E-04 7.715392E+01  3.339257E-04 7.906363E+01  9.922144E-01 -2.628111E+01 
1.646375E+02  9.959031E-01 -2.514324E+01  3.278097E-04 7.686276E+01  3.230736E-04 7.821378E+01  9.922749E-01 -2.628364E+01 
1.646438E+02  9.959044E-01 -2.514460E+01  3.143797E-04 7.879787E+01  3.292549E-04 7.788816E+01  9.922745E-01 -2.628376E+01 
1.646500E+02  9.959338E-01 -2.515215E+01  3.217109E-04 7.644367E+01  3.236621E-04 7.657819E+01  9.922730E-01 -2.628449E+01 
1.646562E+02  9.958757E-01 -2.515165E+01  3.191265E-04 7.590727E+01  3.194738E-04 7.625635E+01  9.922489E-01 -2.628842E+01 
1.646625E+02  9.959385E-01 -2.515087E+01  3.189610E-04 7.743824E+01  3.235437E-04 7.666899E+01  9.922578E-01 -2.629234E+01 
1.646687E+02  9.959487E-01 -2.515051E+01  3.294109E-04 7.631586E+01  3.188594E-04 7.564997E+01  9.922948E-01 -2.628976E+01 
1.646750E+02  9.959696E-01 -2.515775E+01  3.187224E-04 7.586084E+01  3.239048E-04 7.672628E+01  9.922510E-01 -2.629621E+01 
1.646813E+02  9.959007E-01 -2.516305E+01  3.204641E-04 7.571987E+01  3.180730E-04 7.763140E+01  9.923120E-01 -2.629484E+01 
1.646875E+02  9.959860E-01 -2.515894E+01  3.146347E-04 7.631048E+01  3.201810E-04 7.648889E+01  9.923044E-01 -2.629521E+01 
1.646937E+02  9.959077E-01 -2.516109E+01  3.191053E-04 7.560851E+01  3.146488E-04 7.616171E+01  9.922347E-01 -2.629596E+01 
1.647000E+02  9.959287E-01 -2.516632E+01  3.103286E-04 7.466316E+01  3.114354E-04 7.511428E+01  9.922477E-01 -2.629789E+01 
1.647063E+02  9.958892E-01 -2.516659E+01  3.218488E-04 7.615061E+01  3.213408E-04 7.501596E+01  9.922735E-01 -2.629938E+01 
1.647125E+02  9.958958E-01 -2.517075E+01  3.158100E-04 7.397917E+01  3.174268E-04 7.515067E+01  9.922594E-01 -2.630463E+01 
1.647188E+02  9.959119E-01 -2.517090E+01  3.201441E-04 7.473159E+01  3.194618E-04 7.451006E+01  9.922515E-01 -2.630919E+01 
1.647250E+02  9.958503E-01 -2.517267E+01  3.156466E-04 7.452218E+01  3.257581E-04 7.547694E+01  9.922354E-01 -2.630453E+01 
1.647312E+02  9.959031E-01 -2.517389E+01  3.233699E-04 7.514428E+01  3.219479E-04 7.409410E+01  9.922728E-01 -2.631072E+01 
1.647375E+02  9.958593E-01 -2.517518E+01  3.196752E-04 7.230326E+01  3.183639E-04 7.343181E+01  9.922264E-01 -2.631146E+01 
1.647438E+02  9.957815E-01 -2.517856E+01  3.258343E-04 7.348844E+01  3.205337E-04 7.309953E+01  9.923110E-01 -2.631342E+01 
1.647500E+02  9.957853E-01 -2.518251E+01  3.269508E-04 7.254730E+01  3.206450E-04 7.168048E+01  9.922292E-01 -2.631196E+01 
1.647562E+02  9.957345E-01 -2.517927E+01  3.266672E-04 7.396040E+01  3.232153E-04 7.292046E+01  9.923053E-01 -2.631559E+01 
1.647625E+02  9.957908E-01 -2.518346E+01  3.363317E-04 7.218045E+01  3.143645E-04 7.230915E+01  9.922074E-01 -2.631551E+01 
1.647688E+02  9.956949E-01 -2.518545E+01  3.282797E-04 7.191583E+01  3.286367E-04 7.165425E+01  9.921918E-01 -2.631883E+01 
1.647750E+02  9.956689E-01 -2.518358E+01  3.304379E-04 7.054517E+01  3.287076E-04 7.201712E+01  9.922318E-01 -2.632386E+01 
1.647812E+02  9.957106E-01 -2.518408E+01  3.193621E-04 6.852860E+01  3.246999E-04 7.114867E+01  9.922922E-01 -2.631872E+01 
1.647875E+02  9.956603E-01 -2.518772E+01  3.271068E-04 6.911237E+01  3.277053E-04 6.948569E+01  9.922250E-01 -2.632050E+01 
1.647937E+02  9.957069E-01 -2.518435E+01  3.248576E-04 6.648307E+01  3.280821E-04 6.657581E+01  9.922863E-01 -2.632149E+01 
1.648000E+02  9.956794E-01 -2.518628E+01  3.291513E-04 6.587159E+01  3.306408E-04 6.816417E+01  9.922056E-01 -2.633297E+01 
1.648063E+02  9.956545E-01 -2.518557E+01  3.347354E-04 6.574812E+01  3.297938E-04 6.561861E+01  9.922999E-01 -2.632561E+01 
1.648125E+02  9.957053E-01 -2.518202E+01  3.283942E-04 6.435710E+01  3.219964E-04 6.556428E+01  9.922027E-01 -2.632879E+01 
1.648187E+02  9.956981E-01 -2.518333E+01  3.212157E-04 6.298763E+01  3.158182E-04 6.238399E+01  9.923152E-01 -2.633049E+01 
1.648250E+02  9.956129E-01 -2.518248E+01  3.118434E-04 6.105116E+01  3.134437E-04 6.291205E+01  9.923091E-01 -2.633438E+01 
1.648313E+02  9.956707E-01 -2.518703E+01  3.093030E-04 6.133329E+01  3.119315E-04 6.221665E+01  9.922659E-01 -2.633541E+01 
1.648375E+02  9.957227E-01 -2.518581E+01  3.045859E-04 6.246188E+01  3.107813E-04 6.159480E+01  9.924260E-01 -2.633526E+01 
1.648438E+02  9.956882E-01 -2.518288E+01  3.000354E-04 6.049846E+01  3.057870E-04 6.145822E+01  9.922418E-01 -2.633386E+01 
1.648500E+02  9.956985E-01 -2.518624E+01  2.876658E-04 6.070916E+01  2.921948E-04 5.935746E+01  9.923630E-01 -2.633802E+01 
1.648562E+02  9.956949E-01 -2.518733E+01  2.911333E-04 5.960841E+01  2.924139E-04 6.045869E+01  9.923227E-01 -2.633711E+01 
1.648625E+02  9.957846E-01 -2.519150E+01  2.903429E-04 6.042039E+01  2.889102E-04 6.003401E+01  9.923007E-01 -2.634043E+01 
1.648688E+02  9.958414E-01 -2.519082E+01  2.868691E-04 5.867208E+01  2.825439E-04 5.731030E+01  9.923790E-01 -2.634357E+01 
1.648750E+02  9.958441E-01 -2.519331E+01  2.772905E-04 5.795852E+01  2.753124E-04 5.910918E+01  9.923456E-01 -2.634462E+01 
1.648812E+02  9.958436E-01 -2.519636E+01  2.742051E-04 5.906690E+01  2.809297E-04 5.879308E+01  9.922937E-01 -2.634864E+01 
1.648875E+02  9.958395E-01 -2.519440E+01  2.700974E-04 5.936421E+01  2.704457E-04 5.950674E+01  9.923016E-01 -2.634691E+01 
1.648938E+02  9.958506E-01 -2.519760E+01  2.626671E-04 5.754325E+01  2.669519E-04 5.859396E+01  9.923343E-01 -2.635224E+01 
1.649000E+02  9.958687E-01 -2.519506E+01  2.675632E-04 5.878598E+01  2.653635E-04 5.960396E+01  9.923067E-01 -2.635230E+01 
1.649062E+02  9.959146E-01 -2.519849E+01  2.666676E-04 5.998971E+01  2.534264E-04 5.818875E+01  9.923003E-01 -2.635333E+01 
1.649125E+02  9.959676E-01 -2.519947E+01  2.566346E-04 5.704907E+01  2.608540E-04 5.924942E+01  9.922487E-01 -2.635691E+01 
1.649187E+02  9.959849E-01 -2.520056E+01  2.544934E-04 5.778113E+01  2.503499E-04 5.915203E+01  9.923073E-01 -2.635562E+01 
1.649250E+02  9.960036E-01 -2.520167E+01  2.549941E-04 5.836392E+01  2.622922E-04 5.982472E+01  9.923358E-01 -2.636117E+01 
1.649313E+02  9.960124E-01 -2.520572E+01  2.514197E-04 5.983344E+01  2.549337E-04 6.037519E+01  9.922597E-01 -2.636282E+01 
1.649375E+02  9.959206E-01 -2.520878E+01  2.517007E-04 5.947605E+01  2.418296E-04 5.808253E+01  9.922813E-01 -2.636720E+01 
1.649437E+02  9.959872E-01 -2.520660E+01  2.486738E-04 5.741016E+01  2.491452E-04 6.232598E+01  9.922388E-01 -2.636245E+01 
1.649500E+02  9.959852E-01 -2.521240E+01  2.388903E-04 5.978130E+01  2.506116E-04 5.954495E+01  9.922636E-01 -2.636663E+01 
1.649563E+02  9.960025E-01 -2.520763E+01  2.431346E-04 5.765914E+01  2.433070E-04 6.063856E+01  9.922655E-01 -2.636934E+01 
1.649625E+02  9.960183E-01 -2.521438E+01  2.439749E-04 5.828883E+01  2.387235E-04 5.906184E+01  9.922982E-01 -2.637445E+01 
1.649688E+02  9.959388E-01 -2.521613E+01  2.452049E-04 5.917212E+01  2.428478E-04 6.019113E+01  9.922141E-01 -2.637006E+01 
