! Matrix data file written by TouchstoneData, EPCOS AG
! FILENAME: "B3941_NB.s2p"
! COMMENT: "S-parameter B3941 wideband (unmatched)"
! INFO: nport=2, nfreq=1601
! DATE: "Mon Sep  5 16:36:04 2011"
! USER: "Eluer Wang"
!
! port | pin | signal
! -----|-----|--------
!   1  |  1  |  in
!   2  |  4  |  out
! --------------------
! 
# MHZ S MA R 50
! freq  magS11 angS11  magS21 angS21  magS12 angS12  magS22 angS22
8.639500E+02  9.310482E-01 -5.926379E+01  2.033297E-03 5.785901E+01  2.023184E-03 5.909872E+01  9.159152E-01 -5.592930E+01 
8.639563E+02  9.308984E-01 -5.927091E+01  1.915521E-03 5.753294E+01  1.916338E-03 5.843526E+01  9.161337E-01 -5.595340E+01 
8.639625E+02  9.310468E-01 -5.927511E+01  1.847274E-03 5.587760E+01  1.846823E-03 5.548206E+01  9.160813E-01 -5.594531E+01 
8.639688E+02  9.309397E-01 -5.928621E+01  1.759909E-03 5.486589E+01  1.750325E-03 5.513711E+01  9.160488E-01 -5.595007E+01 
8.639750E+02  9.308893E-01 -5.930920E+01  1.682629E-03 5.261044E+01  1.650268E-03 5.311152E+01  9.162020E-01 -5.596747E+01 
8.639813E+02  9.310052E-01 -5.930981E+01  1.612554E-03 5.181443E+01  1.604567E-03 5.249193E+01  9.161848E-01 -5.597202E+01 
8.639875E+02  9.309019E-01 -5.932028E+01  1.525529E-03 5.061178E+01  1.530726E-03 5.248576E+01  9.163554E-01 -5.604893E+01 
8.639938E+02  9.311377E-01 -5.932356E+01  1.468348E-03 5.018136E+01  1.472257E-03 5.072351E+01  9.163701E-01 -5.600027E+01 
8.640000E+02  9.314566E-01 -5.932426E+01  1.379563E-03 4.941681E+01  1.372898E-03 4.920273E+01  9.162343E-01 -5.601257E+01 
8.640063E+02  9.313329E-01 -5.933820E+01  1.315955E-03 4.802387E+01  1.332314E-03 4.818337E+01  9.160723E-01 -5.601574E+01 
8.640125E+02  9.314455E-01 -5.934307E+01  1.248882E-03 4.738509E+01  1.256279E-03 4.695914E+01  9.161826E-01 -5.602035E+01 
8.640188E+02  9.313122E-01 -5.934456E+01  1.197056E-03 4.497022E+01  1.206163E-03 4.434814E+01  9.162507E-01 -5.604085E+01 
8.640250E+02  9.312524E-01 -5.935525E+01  1.125358E-03 4.476566E+01  1.082180E-03 4.504442E+01  9.163967E-01 -5.605168E+01 
8.640312E+02  9.312894E-01 -5.937363E+01  1.043449E-03 4.351953E+01  1.073484E-03 4.463425E+01  9.167648E-01 -5.609047E+01 
8.640375E+02  9.313701E-01 -5.935959E+01  1.019796E-03 4.154525E+01  1.016040E-03 4.250722E+01  9.163752E-01 -5.608036E+01 
8.640438E+02  9.314032E-01 -5.939146E+01  9.390222E-04 4.124298E+01  9.716060E-04 4.059243E+01  9.164846E-01 -5.607482E+01 
8.640500E+02  9.313757E-01 -5.938671E+01  9.089964E-04 3.813316E+01  9.048378E-04 4.055011E+01  9.165742E-01 -5.608642E+01 
8.640563E+02  9.315554E-01 -5.938673E+01  8.467195E-04 4.007559E+01  8.471092E-04 3.901493E+01  9.164247E-01 -5.609883E+01 
8.640625E+02  9.313077E-01 -5.941884E+01  7.821403E-04 3.633827E+01  8.057571E-04 3.713958E+01  9.163439E-01 -5.609387E+01 
8.640688E+02  9.312906E-01 -5.942765E+01  7.737660E-04 3.464252E+01  7.705220E-04 3.488556E+01  9.164176E-01 -5.609843E+01 
8.640750E+02  9.314466E-01 -5.941803E+01  7.353233E-04 3.228005E+01  7.081054E-04 3.453534E+01  9.165379E-01 -5.611666E+01 
8.640813E+02  9.313970E-01 -5.944429E+01  6.602026E-04 2.910543E+01  6.590118E-04 3.303012E+01  9.163377E-01 -5.612898E+01 
8.640875E+02  9.313302E-01 -5.945655E+01  6.063709E-04 3.037126E+01  6.295397E-04 2.952822E+01  9.164282E-01 -5.612623E+01 
8.640938E+02  9.313985E-01 -5.944879E+01  6.025203E-04 2.695710E+01  5.658740E-04 3.014876E+01  9.164433E-01 -5.618779E+01 
8.641000E+02  9.314501E-01 -5.945278E+01  5.360907E-04 2.460509E+01  5.425025E-04 2.858314E+01  9.164858E-01 -5.614976E+01 
8.641063E+02  9.313486E-01 -5.946840E+01  5.469255E-04 2.229176E+01  5.159353E-04 2.170495E+01  9.165064E-01 -5.614901E+01 
8.641125E+02  9.313645E-01 -5.947690E+01  4.796423E-04 2.053467E+01  4.714811E-04 2.135343E+01  9.165525E-01 -5.616973E+01 
8.641188E+02  9.314876E-01 -5.946778E+01  4.356583E-04 1.869930E+01  4.288283E-04 1.800185E+01  9.163845E-01 -5.617080E+01 
8.641250E+02  9.311498E-01 -5.949300E+01  3.872655E-04 1.430649E+01  4.109082E-04 1.582355E+01  9.165269E-01 -5.619290E+01 
8.641313E+02  9.313554E-01 -5.949165E+01  4.186858E-04 1.359928E+01  3.977021E-04 6.434399E+00  9.164874E-01 -5.618169E+01 
8.641375E+02  9.314644E-01 -5.949409E+01  3.305478E-04 5.499067E+00  3.706948E-04 6.705629E+00  9.165054E-01 -5.620752E+01 
8.641438E+02  9.314192E-01 -5.950225E+01  3.276409E-04 5.382254E+00  3.391255E-04 2.838268E+00  9.164472E-01 -5.621729E+01 
8.641500E+02  9.314582E-01 -5.950046E+01  2.926861E-04 -3.712030E-01  2.929073E-04 -1.126046E+00  9.163523E-01 -5.622381E+01 
8.641562E+02  9.313411E-01 -5.952550E+01  2.764576E-04 -7.825718E+00  3.057205E-04 -7.235463E+00  9.163857E-01 -5.623410E+01 
8.641625E+02  9.314520E-01 -5.952629E+01  3.049421E-04 -1.163526E+01  2.448504E-04 -1.205727E+01  9.165184E-01 -5.630260E+01 
8.641688E+02  9.314195E-01 -5.952946E+01  2.758469E-04 -1.936556E+01  2.637313E-04 -1.432028E+01  9.164771E-01 -5.625375E+01 
8.641750E+02  9.315716E-01 -5.954489E+01  2.474759E-04 -2.628189E+01  2.375358E-04 -2.645540E+01  9.163803E-01 -5.625528E+01 
8.641813E+02  9.314847E-01 -5.953865E+01  2.630210E-04 -3.579123E+01  2.420142E-04 -2.843385E+01  9.164362E-01 -5.625950E+01 
8.641875E+02  9.313834E-01 -5.956244E+01  2.295541E-04 -3.694361E+01  2.547582E-04 -4.081597E+01  9.162836E-01 -5.627905E+01 
8.641938E+02  9.314038E-01 -5.956643E+01  2.199148E-04 -4.896237E+01  2.363984E-04 -4.631531E+01  9.165735E-01 -5.627644E+01 
8.642000E+02  9.314096E-01 -5.956024E+01  2.749158E-04 -5.541371E+01  2.617534E-04 -5.921160E+01  9.164090E-01 -5.628110E+01 
8.642063E+02  9.314282E-01 -5.956972E+01  2.358567E-04 -5.860007E+01  2.619165E-04 -6.026390E+01  9.166086E-01 -5.634878E+01 
8.642125E+02  9.309224E-01 -5.959040E+01  2.542911E-04 -6.681725E+01  2.440474E-04 -6.228470E+01  9.164473E-01 -5.630372E+01 
8.642188E+02  9.313529E-01 -5.959289E+01  2.636273E-04 -7.135921E+01  2.366906E-04 -7.003457E+01  9.163526E-01 -5.630489E+01 
8.642250E+02  9.312922E-01 -5.960381E+01  2.809887E-04 -7.291757E+01  2.900615E-04 -7.646253E+01  9.162107E-01 -5.631693E+01 
8.642313E+02  9.313094E-01 -5.959344E+01  2.910318E-04 -8.396828E+01  2.968445E-04 -7.724800E+01  9.164587E-01 -5.636113E+01 
8.642375E+02  9.313116E-01 -5.960318E+01  3.222489E-04 -8.656384E+01  2.696589E-04 -8.247891E+01  9.161064E-01 -5.633587E+01 
8.642438E+02  9.311444E-01 -5.962771E+01  3.123020E-04 -8.334453E+01  3.246121E-04 -9.138037E+01  9.162363E-01 -5.634787E+01 
8.642500E+02  9.312972E-01 -5.963627E+01  3.663001E-04 -8.681881E+01  3.445031E-04 -9.152877E+01  9.163232E-01 -5.633594E+01 
8.642563E+02  9.312401E-01 -5.963166E+01  3.654319E-04 -9.168876E+01  3.526777E-04 -9.155790E+01  9.160412E-01 -5.634043E+01 
8.642625E+02  9.311791E-01 -5.963978E+01  3.903517E-04 -9.146831E+01  3.829869E-04 -9.348835E+01  9.162775E-01 -5.635659E+01 
8.642688E+02  9.312637E-01 -5.964342E+01  4.089471E-04 -9.675855E+01  3.916957E-04 -9.677471E+01  9.159593E-01 -5.637310E+01 
8.642750E+02  9.313283E-01 -5.965983E+01  3.854652E-04 -9.846590E+01  4.095497E-04 -9.402999E+01  9.161304E-01 -5.643308E+01 
8.642812E+02  9.313456E-01 -5.965656E+01  3.875519E-04 -9.975441E+01  4.518620E-04 -9.812619E+01  9.160189E-01 -5.638070E+01 
8.642875E+02  9.313005E-01 -5.966579E+01  4.686976E-04 -1.013808E+02  4.417184E-04 -9.693579E+01  9.161542E-01 -5.640128E+01 
8.642938E+02  9.311508E-01 -5.967909E+01  4.384401E-04 -1.044747E+02  4.524257E-04 -1.024800E+02  9.162347E-01 -5.639187E+01 
8.643000E+02  9.311617E-01 -5.967981E+01  4.645250E-04 -1.058542E+02  4.693918E-04 -9.913512E+01  9.160968E-01 -5.640268E+01 
8.643063E+02  9.311953E-01 -5.969242E+01  4.479939E-04 -1.083943E+02  4.747594E-04 -1.036153E+02  9.160983E-01 -5.641558E+01 
8.643125E+02  9.311306E-01 -5.970139E+01  4.848879E-04 -1.045897E+02  4.911770E-04 -1.046938E+02  9.162315E-01 -5.643752E+01 
8.643188E+02  9.312417E-01 -5.969878E+01  5.216015E-04 -1.073149E+02  5.310020E-04 -1.065605E+02  9.162235E-01 -5.642974E+01 
8.643250E+02  9.309311E-01 -5.970318E+01  5.248612E-04 -1.092158E+02  5.030633E-04 -1.096361E+02  9.159995E-01 -5.645109E+01 
8.643313E+02  9.311061E-01 -5.971536E+01  5.388797E-04 -1.092141E+02  5.457624E-04 -1.102347E+02  9.159309E-01 -5.646013E+01 
8.643375E+02  9.310587E-01 -5.971072E+01  5.476969E-04 -1.091799E+02  5.540219E-04 -1.080954E+02  9.157970E-01 -5.646132E+01 
8.643438E+02  9.311520E-01 -5.972806E+01  5.652675E-04 -1.118736E+02  5.727644E-04 -1.107482E+02  9.158315E-01 -5.654351E+01 
8.643500E+02  9.311180E-01 -5.973705E+01  5.856367E-04 -1.136008E+02  5.574218E-04 -1.125174E+02  9.157961E-01 -5.648011E+01 
8.643563E+02  9.309872E-01 -5.974669E+01  5.882595E-04 -1.120323E+02  5.760006E-04 -1.106164E+02  9.158612E-01 -5.648132E+01 
8.643625E+02  9.310515E-01 -5.974543E+01  5.852553E-04 -1.130366E+02  5.891867E-04 -1.100712E+02  9.156446E-01 -5.649967E+01 
8.643688E+02  9.309088E-01 -5.975299E+01  6.019662E-04 -1.127541E+02  6.114521E-04 -1.123991E+02  9.159137E-01 -5.654879E+01 
8.643750E+02  9.310708E-01 -5.974899E+01  6.120139E-04 -1.126049E+02  6.247773E-04 -1.109509E+02  9.158533E-01 -5.651178E+01 
8.643813E+02  9.307790E-01 -5.976591E+01  6.366267E-04 -1.112891E+02  6.270489E-04 -1.127434E+02  9.157065E-01 -5.652443E+01 
8.643875E+02  9.307321E-01 -5.978973E+01  6.400875E-04 -1.173037E+02  6.398868E-04 -1.133953E+02  9.156976E-01 -5.651788E+01 
8.643938E+02  9.308614E-01 -5.978931E+01  6.746642E-04 -1.160131E+02  6.494182E-04 -1.141610E+02  9.155094E-01 -5.652309E+01 
8.644000E+02  9.308575E-01 -5.980025E+01  6.803747E-04 -1.136914E+02  6.594541E-04 -1.152715E+02  9.157050E-01 -5.653533E+01 
8.644062E+02  9.309865E-01 -5.981086E+01  6.853827E-04 -1.154561E+02  6.670186E-04 -1.131321E+02  9.155594E-01 -5.653688E+01 
8.644125E+02  9.308870E-01 -5.980211E+01  6.645200E-04 -1.141201E+02  6.847151E-04 -1.134087E+02  9.156144E-01 -5.655012E+01 
8.644188E+02  9.306047E-01 -5.982552E+01  7.198151E-04 -1.163074E+02  6.852525E-04 -1.155498E+02  9.157771E-01 -5.655572E+01 
8.644250E+02  9.308459E-01 -5.983022E+01  7.133648E-04 -1.182554E+02  7.147150E-04 -1.168725E+02  9.155142E-01 -5.657566E+01 
8.644313E+02  9.307874E-01 -5.981429E+01  7.268156E-04 -1.190972E+02  7.101210E-04 -1.156195E+02  9.155039E-01 -5.657649E+01 
8.644375E+02  9.307647E-01 -5.982607E+01  7.392039E-04 -1.168220E+02  7.096196E-04 -1.152672E+02  9.155004E-01 -5.657845E+01 
8.644438E+02  9.305981E-01 -5.984546E+01  7.183709E-04 -1.171336E+02  7.029258E-04 -1.166607E+02  9.155874E-01 -5.659742E+01 
8.644500E+02  9.307655E-01 -5.985964E+01  7.575765E-04 -1.166006E+02  7.224972E-04 -1.169368E+02  9.153662E-01 -5.659414E+01 
8.644563E+02  9.308971E-01 -5.986273E+01  7.330938E-04 -1.166345E+02  7.246929E-04 -1.163234E+02  9.154180E-01 -5.661695E+01 
8.644625E+02  9.307146E-01 -5.986426E+01  7.459563E-04 -1.174464E+02  7.390584E-04 -1.170353E+02  9.155134E-01 -5.666594E+01 
8.644688E+02  9.306115E-01 -5.987149E+01  7.686210E-04 -1.157950E+02  7.862595E-04 -1.163525E+02  9.154456E-01 -5.662055E+01 
8.644750E+02  9.308095E-01 -5.988217E+01  7.779648E-04 -1.170508E+02  7.582047E-04 -1.153380E+02  9.153768E-01 -5.664007E+01 
8.644813E+02  9.307188E-01 -5.988674E+01  7.800921E-04 -1.184505E+02  7.782296E-04 -1.172997E+02  9.155881E-01 -5.664449E+01 
8.644875E+02  9.306901E-01 -5.988762E+01  7.998666E-04 -1.163339E+02  7.778081E-04 -1.171434E+02  9.158472E-01 -5.668799E+01 
8.644938E+02  9.306893E-01 -5.989810E+01  8.084668E-04 -1.163412E+02  7.920142E-04 -1.158508E+02  9.154390E-01 -5.666326E+01 
8.645000E+02  9.303905E-01 -5.991850E+01  8.214746E-04 -1.170328E+02  8.038699E-04 -1.159700E+02  9.154198E-01 -5.666085E+01 
8.645063E+02  9.305713E-01 -5.991011E+01  7.788454E-04 -1.188475E+02  8.021315E-04 -1.187975E+02  9.152681E-01 -5.668004E+01 
8.645125E+02  9.305024E-01 -5.991640E+01  7.980930E-04 -1.178075E+02  8.032314E-04 -1.163761E+02  9.150778E-01 -5.667691E+01 
8.645188E+02  9.303300E-01 -5.992143E+01  7.905262E-04 -1.168920E+02  8.274379E-04 -1.152328E+02  9.151633E-01 -5.669697E+01 
8.645250E+02  9.307048E-01 -5.992457E+01  8.085069E-04 -1.161955E+02  7.963712E-04 -1.164857E+02  9.152071E-01 -5.668959E+01 
8.645312E+02  9.305801E-01 -5.994257E+01  7.845043E-04 -1.175723E+02  7.868722E-04 -1.164997E+02  9.149908E-01 -5.671507E+01 
8.645375E+02  9.305593E-01 -5.993592E+01  7.948978E-04 -1.151134E+02  7.930011E-04 -1.161705E+02  9.149271E-01 -5.672498E+01 
8.645438E+02  9.303364E-01 -5.994657E+01  8.308342E-04 -1.170781E+02  8.109323E-04 -1.166077E+02  9.152228E-01 -5.673270E+01 
8.645500E+02  9.301026E-01 -5.996320E+01  8.128507E-04 -1.167644E+02  8.359877E-04 -1.168598E+02  9.149179E-01 -5.673378E+01 
8.645563E+02  9.303233E-01 -5.996799E+01  8.065950E-04 -1.174912E+02  8.156000E-04 -1.139828E+02  9.149801E-01 -5.680955E+01 
8.645625E+02  9.303815E-01 -5.996743E+01  8.236227E-04 -1.142576E+02  8.059079E-04 -1.149828E+02  9.149714E-01 -5.675421E+01 
8.645688E+02  9.302578E-01 -5.998716E+01  8.379447E-04 -1.165043E+02  8.057345E-04 -1.144514E+02  9.149763E-01 -5.676122E+01 
8.645750E+02  9.304344E-01 -5.998315E+01  8.187945E-04 -1.150192E+02  8.332634E-04 -1.134759E+02  9.147765E-01 -5.677664E+01 
8.645813E+02  9.302937E-01 -5.999647E+01  8.515146E-04 -1.139698E+02  8.235564E-04 -1.135911E+02  9.151521E-01 -5.681937E+01 
8.645875E+02  9.301839E-01 -6.000225E+01  8.719553E-04 -1.161840E+02  8.302590E-04 -1.133818E+02  9.149818E-01 -5.677789E+01 
8.645938E+02  9.302844E-01 -6.000708E+01  8.588041E-04 -1.142953E+02  8.604057E-04 -1.131984E+02  9.146942E-01 -5.679298E+01 
8.646000E+02  9.300035E-01 -6.002547E+01  8.403859E-04 -1.147080E+02  8.334576E-04 -1.127254E+02  9.147382E-01 -5.680062E+01 
8.646063E+02  9.299621E-01 -6.004249E+01  8.588774E-04 -1.156404E+02  8.417134E-04 -1.116706E+02  9.149467E-01 -5.681370E+01 
8.646125E+02  9.300086E-01 -6.004170E+01  8.358963E-04 -1.144008E+02  8.193851E-04 -1.097276E+02  9.149092E-01 -5.681140E+01 
8.646188E+02  9.300951E-01 -6.004570E+01  8.579915E-04 -1.124049E+02  8.493339E-04 -1.118338E+02  9.145925E-01 -5.684211E+01 
8.646250E+02  9.302243E-01 -6.005159E+01  8.428972E-04 -1.113787E+02  8.595352E-04 -1.100777E+02  9.145777E-01 -5.683402E+01 
8.646313E+02  9.298509E-01 -6.005659E+01  8.697342E-04 -1.123087E+02  8.562310E-04 -1.110855E+02  9.146104E-01 -5.684900E+01 
8.646375E+02  9.299109E-01 -6.006856E+01  8.582227E-04 -1.098853E+02  8.296497E-04 -1.075953E+02  9.145719E-01 -5.687187E+01 
8.646438E+02  9.300426E-01 -6.005297E+01  8.485754E-04 -1.091010E+02  8.439476E-04 -1.109530E+02  9.143808E-01 -5.686946E+01 
8.646500E+02  9.297773E-01 -6.007847E+01  8.635121E-04 -1.104153E+02  8.437879E-04 -1.099352E+02  9.146350E-01 -5.691594E+01 
8.646562E+02  9.297459E-01 -6.010333E+01  8.476126E-04 -1.084653E+02  8.400792E-04 -1.078198E+02  9.143002E-01 -5.688019E+01 
8.646625E+02  9.297257E-01 -6.010486E+01  8.599585E-04 -1.064268E+02  8.270896E-04 -1.072865E+02  9.142981E-01 -5.689933E+01 
8.646688E+02  9.297259E-01 -6.011967E+01  8.455666E-04 -1.066017E+02  8.268627E-04 -1.045243E+02  9.144139E-01 -5.690348E+01 
8.646750E+02  9.298504E-01 -6.012043E+01  8.493998E-04 -1.058323E+02  8.697434E-04 -1.050400E+02  9.141836E-01 -5.696347E+01 
8.646813E+02  9.297350E-01 -6.013006E+01  8.496044E-04 -1.041184E+02  8.249069E-04 -1.036616E+02  9.142844E-01 -5.691586E+01 
8.646875E+02  9.297477E-01 -6.013777E+01  8.724388E-04 -1.019559E+02  8.562675E-04 -1.014977E+02  9.141241E-01 -5.692850E+01 
8.646938E+02  9.296679E-01 -6.013895E+01  8.499408E-04 -1.003217E+02  8.649062E-04 -1.016650E+02  9.140269E-01 -5.693836E+01 
8.647000E+02  9.296617E-01 -6.014113E+01  8.769296E-04 -9.960669E+01  8.528221E-04 -9.965459E+01  9.144621E-01 -5.698474E+01 
8.647063E+02  9.296347E-01 -6.016564E+01  8.718130E-04 -9.876616E+01  8.659864E-04 -9.755031E+01  9.141941E-01 -5.694564E+01 
8.647125E+02  9.295594E-01 -6.017416E+01  8.652614E-04 -9.665642E+01  8.758177E-04 -9.630270E+01  9.139410E-01 -5.696831E+01 
8.647188E+02  9.296326E-01 -6.017651E+01  8.440295E-04 -9.556333E+01  8.694397E-04 -9.545711E+01  9.140523E-01 -5.698253E+01 
8.647250E+02  9.296515E-01 -6.018081E+01  8.771559E-04 -9.553030E+01  8.651355E-04 -9.457963E+01  9.138651E-01 -5.699000E+01 
8.647313E+02  9.295042E-01 -6.019712E+01  9.041163E-04 -9.548498E+01  8.740979E-04 -9.163535E+01  9.138190E-01 -5.700193E+01 
8.647375E+02  9.294696E-01 -6.020717E+01  9.031179E-04 -9.089129E+01  8.886571E-04 -9.031883E+01  9.138887E-01 -5.700065E+01 
8.647438E+02  9.293723E-01 -6.020929E+01  9.065135E-04 -9.136263E+01  9.507361E-04 -8.969058E+01  9.138725E-01 -5.700692E+01 
8.647500E+02  9.293040E-01 -6.022668E+01  8.429925E-04 -9.419190E+01  9.115811E-04 -8.662770E+01  9.137358E-01 -5.702529E+01 
8.647563E+02  9.292372E-01 -6.022936E+01  9.498425E-04 -8.775933E+01  9.366952E-04 -8.533622E+01  9.137412E-01 -5.702688E+01 
8.647625E+02  9.291549E-01 -6.023309E+01  9.778216E-04 -8.380213E+01  9.363062E-04 -8.321229E+01  9.138316E-01 -5.703544E+01 
8.647688E+02  9.289697E-01 -6.026220E+01  9.975194E-04 -8.186826E+01  9.451741E-04 -8.270673E+01  9.136352E-01 -5.705420E+01 
8.647750E+02  9.291056E-01 -6.027370E+01  1.229240E-03 -7.162650E+01  1.041814E-03 -8.014390E+01  9.136028E-01 -5.705736E+01 
8.647812E+02  9.289237E-01 -6.027419E+01  1.011902E-03 -7.819683E+01  1.033933E-03 -7.930443E+01  9.134643E-01 -5.707523E+01 
8.647875E+02  9.290678E-01 -6.027169E+01  1.067998E-03 -7.571718E+01  1.040982E-03 -7.618241E+01  9.134819E-01 -5.706584E+01 
8.647938E+02  9.288649E-01 -6.029149E+01  1.107182E-03 -7.461382E+01  1.086074E-03 -7.412952E+01  9.133335E-01 -5.709503E+01 
8.648000E+02  9.288904E-01 -6.028704E+01  1.126449E-03 -7.250053E+01  1.107030E-03 -7.200217E+01  9.133068E-01 -5.709771E+01 
8.648063E+02  9.288847E-01 -6.030489E+01  1.144492E-03 -7.170530E+01  1.181631E-03 -7.270678E+01  9.133890E-01 -5.710907E+01 
8.648125E+02  9.287394E-01 -6.031460E+01  1.205900E-03 -6.890549E+01  1.199149E-03 -6.948008E+01  9.131223E-01 -5.713426E+01 
8.648188E+02  9.287566E-01 -6.031625E+01  1.246232E-03 -6.941175E+01  1.276323E-03 -6.875368E+01  9.131156E-01 -5.719495E+01 
8.648250E+02  9.287024E-01 -6.031858E+01  1.305882E-03 -6.701165E+01  1.316826E-03 -6.716908E+01  9.129514E-01 -5.715218E+01 
8.648313E+02  9.283222E-01 -6.033267E+01  1.381975E-03 -6.660605E+01  1.376879E-03 -6.546119E+01  9.128273E-01 -5.716944E+01 
8.648375E+02  9.282766E-01 -6.033934E+01  1.435451E-03 -6.520259E+01  1.456654E-03 -6.430322E+01  9.127186E-01 -5.716681E+01 
8.648438E+02  9.280207E-01 -6.035853E+01  1.522100E-03 -6.317353E+01  1.522088E-03 -6.341464E+01  9.126345E-01 -5.723939E+01 
8.648500E+02  9.280818E-01 -6.036239E+01  1.577688E-03 -6.384607E+01  1.590199E-03 -6.321226E+01  9.125899E-01 -5.718447E+01 
8.648563E+02  9.280619E-01 -6.037076E+01  1.674790E-03 -6.285974E+01  1.658263E-03 -6.147416E+01  9.124229E-01 -5.719113E+01 
8.648625E+02  9.279508E-01 -6.037914E+01  1.756372E-03 -6.216465E+01  1.750756E-03 -6.226050E+01  9.121753E-01 -5.719655E+01 
8.648688E+02  9.277930E-01 -6.039511E+01  1.837055E-03 -6.251967E+01  1.862319E-03 -6.044964E+01  9.121378E-01 -5.727074E+01 
8.648750E+02  9.277170E-01 -6.038798E+01  1.971134E-03 -6.130645E+01  1.947030E-03 -6.165437E+01  9.120376E-01 -5.723167E+01 
8.648813E+02  9.277877E-01 -6.041172E+01  2.059738E-03 -6.152664E+01  2.071901E-03 -6.065385E+01  9.118876E-01 -5.723332E+01 
8.648875E+02  9.274580E-01 -6.041248E+01  2.156152E-03 -6.173469E+01  2.140378E-03 -6.114169E+01  9.118032E-01 -5.724052E+01 
8.648938E+02  9.273280E-01 -6.043019E+01  2.306481E-03 -6.183417E+01  2.281104E-03 -6.127315E+01  9.118662E-01 -5.729225E+01 
8.649000E+02  9.270575E-01 -6.042291E+01  2.405524E-03 -6.255358E+01  2.434807E-03 -6.175583E+01  9.114914E-01 -5.726865E+01 
8.649062E+02  9.271476E-01 -6.042477E+01  2.570008E-03 -6.259439E+01  2.550909E-03 -6.260911E+01  9.112100E-01 -5.726281E+01 
8.649125E+02  9.268352E-01 -6.042324E+01  2.693931E-03 -6.329604E+01  2.683216E-03 -6.318942E+01  9.109954E-01 -5.728134E+01 
