! Matrix data file written by TouchstoneData, EPCOS AG
! FILENAME: "newformat_AB71A.PCB2.UM.NB.s2p"
! COMMENT: "(AB71A.PCB2.UM.NB.s2p)"
! INFO: nport=2, nfreq=1601
! DATE: "Mon Jan 13 17:11:51 2014"
! USER: "Lynn Zhu"
!
! port | pin | signal
! -----|-----|--------
!   1  |  1  |  IN
!   2  |  4  |  OUT
! --------------------
! 
# MHZ S MA R 50
! freq  magS11 angS11  magS21 angS21  magS12 angS12  magS22 angS22
9.164200E+02  9.020396E-01 -6.522715E+01  5.456271E-03 1.709674E+02  5.448027E-03 1.709913E+02  9.050312E-01 -5.788229E+01 
9.164262E+02  9.020623E-01 -6.523447E+01  5.506757E-03 1.704793E+02  5.493120E-03 1.704349E+02  9.048815E-01 -5.790040E+01 
9.164325E+02  9.019978E-01 -6.524939E+01  5.540478E-03 1.698500E+02  5.523317E-03 1.699129E+02  9.048265E-01 -5.791054E+01 
9.164387E+02  9.019601E-01 -6.525254E+01  5.576461E-03 1.693497E+02  5.568997E-03 1.693498E+02  9.047947E-01 -5.791171E+01 
9.164450E+02  9.018785E-01 -6.525612E+01  5.609877E-03 1.688380E+02  5.606732E-03 1.688130E+02  9.046629E-01 -5.790722E+01 
9.164512E+02  9.017227E-01 -6.525945E+01  5.656183E-03 1.681836E+02  5.645877E-03 1.682648E+02  9.046328E-01 -5.790722E+01 
9.164575E+02  9.016215E-01 -6.526117E+01  5.685180E-03 1.676750E+02  5.687252E-03 1.676088E+02  9.044707E-01 -5.792034E+01 
9.164638E+02  9.016236E-01 -6.527637E+01  5.734393E-03 1.670248E+02  5.725636E-03 1.669702E+02  9.043345E-01 -5.793617E+01 
9.164700E+02  9.015141E-01 -6.527806E+01  5.784222E-03 1.663829E+02  5.764729E-03 1.664158E+02  9.042770E-01 -5.793423E+01 
9.164762E+02  9.014460E-01 -6.528397E+01  5.825546E-03 1.658213E+02  5.819083E-03 1.658193E+02  9.041975E-01 -5.793764E+01 
9.164825E+02  9.013024E-01 -6.528425E+01  5.864981E-03 1.651480E+02  5.861892E-03 1.651436E+02  9.040913E-01 -5.793764E+01 
9.164887E+02  9.011903E-01 -6.528563E+01  5.914975E-03 1.644163E+02  5.907796E-03 1.643525E+02  9.040205E-01 -5.793974E+01 
9.164950E+02  9.010788E-01 -6.529617E+01  5.959810E-03 1.636454E+02  5.960069E-03 1.636670E+02  9.039012E-01 -5.795412E+01 
9.165012E+02  9.010202E-01 -6.530367E+01  6.013142E-03 1.628856E+02  6.007571E-03 1.629414E+02  9.037440E-01 -5.795702E+01 
9.165075E+02  9.009371E-01 -6.530793E+01  6.065801E-03 1.620833E+02  6.052616E-03 1.620765E+02  9.036483E-01 -5.796345E+01 
9.165137E+02  9.008083E-01 -6.530856E+01  6.115510E-03 1.613025E+02  6.104232E-03 1.612986E+02  9.035478E-01 -5.796205E+01 
9.165200E+02  9.007089E-01 -6.530742E+01  6.177350E-03 1.604270E+02  6.153969E-03 1.604803E+02  9.035047E-01 -5.795552E+01 
9.165263E+02  9.005553E-01 -6.531380E+01  6.216266E-03 1.596467E+02  6.207988E-03 1.595667E+02  9.033279E-01 -5.796620E+01 
9.165325E+02  9.003960E-01 -6.532553E+01  6.273011E-03 1.586745E+02  6.258655E-03 1.586431E+02  9.032049E-01 -5.797090E+01 
9.165387E+02  9.003352E-01 -6.532872E+01  6.316668E-03 1.577482E+02  6.309097E-03 1.577724E+02  9.031121E-01 -5.798019E+01 
9.165450E+02  9.002442E-01 -6.532678E+01  6.383034E-03 1.567893E+02  6.363493E-03 1.568671E+02  9.029577E-01 -5.797772E+01 
9.165512E+02  9.000266E-01 -6.532283E+01  6.437949E-03 1.557528E+02  6.424806E-03 1.558161E+02  9.028108E-01 -5.797127E+01 
9.165575E+02  8.998908E-01 -6.532034E+01  6.489590E-03 1.546878E+02  6.476909E-03 1.547768E+02  9.026439E-01 -5.796668E+01 
9.165637E+02  8.998446E-01 -6.532953E+01  6.541164E-03 1.536629E+02  6.532350E-03 1.537173E+02  9.025885E-01 -5.798169E+01 
9.165700E+02  8.996652E-01 -6.533470E+01  6.601611E-03 1.525394E+02  6.591425E-03 1.525784E+02  9.023995E-01 -5.799254E+01 
9.165762E+02  8.995094E-01 -6.533767E+01  6.658559E-03 1.513764E+02  6.647801E-03 1.514010E+02  9.021710E-01 -5.798555E+01 
9.165825E+02  8.994190E-01 -6.533394E+01  6.710581E-03 1.502144E+02  6.701510E-03 1.501783E+02  9.021520E-01 -5.797455E+01 
9.165888E+02  8.992374E-01 -6.531958E+01  6.775896E-03 1.489997E+02  6.758407E-03 1.489450E+02  9.019774E-01 -5.797684E+01 
9.165950E+02  8.990968E-01 -6.531958E+01  6.824338E-03 1.476629E+02  6.816966E-03 1.476460E+02  9.018091E-01 -5.797842E+01 
9.166012E+02  8.989794E-01 -6.533589E+01  6.885861E-03 1.462978E+02  6.868865E-03 1.463076E+02  9.017295E-01 -5.799203E+01 
9.166075E+02  8.987684E-01 -6.533613E+01  6.922836E-03 1.448746E+02  6.915209E-03 1.449479E+02  9.015670E-01 -5.798074E+01 
9.166137E+02  8.985894E-01 -6.532425E+01  6.977890E-03 1.434525E+02  6.963549E-03 1.435138E+02  9.013560E-01 -5.796958E+01 
9.166200E+02  8.985516E-01 -6.530324E+01  7.020043E-03 1.420005E+02  7.008028E-03 1.419856E+02  9.012568E-01 -5.796178E+01 
9.166262E+02  8.983783E-01 -6.530305E+01  7.060123E-03 1.404261E+02  7.050681E-03 1.404501E+02  9.011212E-01 -5.796365E+01 
9.166325E+02  8.982695E-01 -6.531412E+01  7.110289E-03 1.388104E+02  7.092226E-03 1.388140E+02  9.009850E-01 -5.796775E+01 
9.166387E+02  8.982284E-01 -6.531328E+01  7.139741E-03 1.372571E+02  7.131885E-03 1.372771E+02  9.008478E-01 -5.796108E+01 
9.166450E+02  8.980844E-01 -6.530385E+01  7.167237E-03 1.355495E+02  7.162989E-03 1.355391E+02  9.008029E-01 -5.794808E+01 
9.166513E+02  8.978755E-01 -6.528034E+01  7.195256E-03 1.338273E+02  7.189407E-03 1.337952E+02  9.006375E-01 -5.794992E+01 
9.166575E+02  8.978229E-01 -6.529395E+01  7.217037E-03 1.320266E+02  7.206066E-03 1.320923E+02  9.005062E-01 -5.793755E+01 
9.166637E+02  8.976900E-01 -6.527523E+01  7.238450E-03 1.301296E+02  7.226747E-03 1.302072E+02  9.004763E-01 -5.790819E+01 
9.166700E+02  8.976407E-01 -6.526260E+01  7.248092E-03 1.283227E+02  7.237897E-03 1.283147E+02  9.003978E-01 -5.790050E+01 
9.166762E+02  8.974943E-01 -6.525173E+01  7.245317E-03 1.264406E+02  7.231761E-03 1.263732E+02  9.003489E-01 -5.790238E+01 
9.166825E+02  8.975144E-01 -6.524908E+01  7.248240E-03 1.244193E+02  7.230400E-03 1.243975E+02  9.003210E-01 -5.790179E+01 
9.166887E+02  8.975346E-01 -6.525207E+01  7.228309E-03 1.224340E+02  7.221826E-03 1.225073E+02  9.002798E-01 -5.789148E+01 
9.166950E+02  8.974778E-01 -6.523112E+01  7.208232E-03 1.204758E+02  7.198136E-03 1.204511E+02  9.002673E-01 -5.787510E+01 
9.167012E+02  8.974526E-01 -6.520657E+01  7.174357E-03 1.183705E+02  7.166344E-03 1.183953E+02  9.002494E-01 -5.785138E+01 
9.167075E+02  8.975157E-01 -6.519456E+01  7.134221E-03 1.163262E+02  7.123071E-03 1.163163E+02  9.002812E-01 -5.784371E+01 
9.167138E+02  8.975854E-01 -6.519273E+01  7.082716E-03 1.141953E+02  7.076099E-03 1.142369E+02  9.003519E-01 -5.784693E+01 
9.167200E+02  8.976298E-01 -6.519289E+01  7.033977E-03 1.120999E+02  7.016070E-03 1.119821E+02  9.004000E-01 -5.784596E+01 
9.167262E+02  8.977685E-01 -6.517465E+01  6.956816E-03 1.099715E+02  6.956828E-03 1.099341E+02  9.004629E-01 -5.782768E+01 
9.167325E+02  8.977815E-01 -6.515601E+01  6.885420E-03 1.078302E+02  6.880382E-03 1.078325E+02  9.005899E-01 -5.780533E+01 
9.167387E+02  8.979103E-01 -6.515298E+01  6.791961E-03 1.056453E+02  6.792405E-03 1.056806E+02  9.006924E-01 -5.779437E+01 
9.167450E+02  8.980176E-01 -6.514160E+01  6.708751E-03 1.035509E+02  6.702773E-03 1.035106E+02  9.008955E-01 -5.779437E+01 
9.167512E+02  8.981293E-01 -6.514677E+01  6.613163E-03 1.014542E+02  6.607879E-03 1.014608E+02  9.010954E-01 -5.779336E+01 
9.167575E+02  8.983533E-01 -6.513375E+01  6.506046E-03 9.942044E+01  6.494964E-03 9.937324E+01  9.011599E-01 -5.778377E+01 
9.167637E+02  8.984941E-01 -6.512592E+01  6.389223E-03 9.728671E+01  6.376910E-03 9.716427E+01  9.013120E-01 -5.777063E+01 
9.167700E+02  8.986971E-01 -6.511977E+01  6.263608E-03 9.513173E+01  6.262043E-03 9.519194E+01  9.014484E-01 -5.776372E+01 
9.167763E+02  8.988884E-01 -6.511280E+01  6.144577E-03 9.303134E+01  6.144364E-03 9.308319E+01  9.016191E-01 -5.776489E+01 
9.167825E+02  8.990690E-01 -6.511922E+01  6.011089E-03 9.106013E+01  6.011938E-03 9.106936E+01  9.018836E-01 -5.776823E+01 
9.167887E+02  8.993518E-01 -6.511579E+01  5.880538E-03 8.905615E+01  5.867318E-03 8.899675E+01  9.020155E-01 -5.776547E+01 
9.167950E+02  8.994545E-01 -6.511597E+01  5.747132E-03 8.711074E+01  5.736694E-03 8.708418E+01  9.022580E-01 -5.776536E+01 
9.168012E+02  8.996520E-01 -6.511047E+01  5.599216E-03 8.521405E+01  5.603440E-03 8.516747E+01  9.024285E-01 -5.775449E+01 
9.168075E+02  8.999502E-01 -6.510928E+01  5.455176E-03 8.330264E+01  5.455365E-03 8.344137E+01  9.026737E-01 -5.775812E+01 
9.168137E+02  9.001105E-01 -6.511782E+01  5.320676E-03 8.144823E+01  5.309689E-03 8.158344E+01  9.028283E-01 -5.775843E+01 
9.168200E+02  9.002028E-01 -6.512560E+01  5.179505E-03 7.979375E+01  5.173800E-03 7.966937E+01  9.029564E-01 -5.776926E+01 
9.168262E+02  9.004248E-01 -6.512884E+01  5.029371E-03 7.800412E+01  5.033446E-03 7.803565E+01  9.031980E-01 -5.777772E+01 
9.168325E+02  9.006211E-01 -6.513096E+01  4.892401E-03 7.624378E+01  4.883877E-03 7.628171E+01  9.034270E-01 -5.777596E+01 
9.168388E+02  9.008035E-01 -6.513169E+01  4.755292E-03 7.460991E+01  4.740076E-03 7.464444E+01  9.035883E-01 -5.777729E+01 
9.168450E+02  9.009344E-01 -6.513717E+01  4.599665E-03 7.299972E+01  4.599670E-03 7.309798E+01  9.037052E-01 -5.777722E+01 
9.168512E+02  9.011324E-01 -6.515453E+01  4.467354E-03 7.145951E+01  4.459162E-03 7.143790E+01  9.038965E-01 -5.780602E+01 
9.168575E+02  9.012580E-01 -6.516068E+01  4.329772E-03 6.995989E+01  4.325595E-03 6.998524E+01  9.040805E-01 -5.781100E+01 
9.168637E+02  9.014155E-01 -6.517320E+01  4.197558E-03 6.856505E+01  4.188779E-03 6.851602E+01  9.042679E-01 -5.781260E+01 
9.168700E+02  9.016141E-01 -6.517255E+01  4.063602E-03 6.711891E+01  4.073641E-03 6.719256E+01  9.043732E-01 -5.781867E+01 
9.168762E+02  9.016842E-01 -6.517504E+01  3.938553E-03 6.564927E+01  3.940277E-03 6.572520E+01  9.044352E-01 -5.781753E+01 
9.168825E+02  9.018072E-01 -6.518867E+01  3.816397E-03 6.451431E+01  3.810247E-03 6.443399E+01  9.046250E-01 -5.784391E+01 
9.168887E+02  9.019325E-01 -6.520498E+01  3.688991E-03 6.313699E+01  3.680689E-03 6.311404E+01  9.047421E-01 -5.785749E+01 
9.168950E+02  9.020588E-01 -6.521861E+01  3.571733E-03 6.200423E+01  3.563274E-03 6.184056E+01  9.048530E-01 -5.786134E+01 
9.169013E+02  9.021591E-01 -6.521932E+01  3.451529E-03 6.071195E+01  3.446576E-03 6.058338E+01  9.049948E-01 -5.786323E+01 
9.169075E+02  9.022273E-01 -6.522027E+01  3.335213E-03 5.953999E+01  3.336863E-03 5.937425E+01  9.050039E-01 -5.786309E+01 
9.169137E+02  9.022891E-01 -6.523420E+01  3.227184E-03 5.832367E+01  3.228736E-03 5.832156E+01  9.050687E-01 -5.789386E+01 
9.169200E+02  9.024881E-01 -6.525337E+01  3.116776E-03 5.713552E+01  3.125169E-03 5.712218E+01  9.052036E-01 -5.790846E+01 
9.169262E+02  9.024852E-01 -6.526946E+01  3.018568E-03 5.600985E+01  3.013896E-03 5.607814E+01  9.053213E-01 -5.791145E+01 
9.169325E+02  9.025236E-01 -6.527022E+01  2.924386E-03 5.495012E+01  2.915534E-03 5.495115E+01  9.052984E-01 -5.791242E+01 
9.169387E+02  9.025826E-01 -6.526682E+01  2.826287E-03 5.408375E+01  2.825060E-03 5.382641E+01  9.053998E-01 -5.790941E+01 
9.169450E+02  9.026309E-01 -6.528006E+01  2.720995E-03 5.305457E+01  2.729374E-03 5.303837E+01  9.054564E-01 -5.794001E+01 
9.169512E+02  9.026633E-01 -6.530101E+01  2.630620E-03 5.194379E+01  2.635445E-03 5.217723E+01  9.055483E-01 -5.795753E+01 
9.169575E+02  9.028057E-01 -6.532557E+01  2.547106E-03 5.103029E+01  2.546398E-03 5.108850E+01  9.056694E-01 -5.796425E+01 
9.169638E+02  9.027974E-01 -6.532506E+01  2.458559E-03 5.000534E+01  2.455411E-03 5.001384E+01  9.055777E-01 -5.796970E+01 
9.169700E+02  9.028699E-01 -6.532406E+01  2.374387E-03 4.917797E+01  2.377555E-03 4.922864E+01  9.056036E-01 -5.796453E+01 
9.169762E+02  9.028586E-01 -6.532871E+01  2.301046E-03 4.835606E+01  2.291079E-03 4.833050E+01  9.056645E-01 -5.798503E+01 
9.169825E+02  9.029100E-01 -6.535018E+01  2.230484E-03 4.740709E+01  2.219428E-03 4.734663E+01  9.057522E-01 -5.800450E+01 
9.169887E+02  9.029628E-01 -6.537285E+01  2.150132E-03 4.652885E+01  2.150900E-03 4.666424E+01  9.057840E-01 -5.801857E+01 
9.169950E+02  9.030283E-01 -6.537641E+01  2.069472E-03 4.567835E+01  2.074470E-03 4.567243E+01  9.057812E-01 -5.801831E+01 
9.170012E+02  9.030381E-01 -6.537723E+01  2.000364E-03 4.493944E+01  2.002833E-03 4.485042E+01  9.058819E-01 -5.801590E+01 
9.170075E+02  9.030386E-01 -6.538072E+01  1.935464E-03 4.429248E+01  1.936438E-03 4.389495E+01  9.058597E-01 -5.802984E+01 
9.170137E+02  9.030652E-01 -6.539895E+01  1.867424E-03 4.326353E+01  1.859963E-03 4.325806E+01  9.058655E-01 -5.804986E+01 
9.170200E+02  9.031182E-01 -6.541572E+01  1.805666E-03 4.252107E+01  1.799651E-03 4.235034E+01  9.058802E-01 -5.807039E+01 
9.170263E+02  9.031378E-01 -6.542591E+01  1.741605E-03 4.167090E+01  1.747420E-03 4.133519E+01  9.058330E-01 -5.807080E+01 
9.170325E+02  9.030609E-01 -6.542148E+01  1.686738E-03 4.085877E+01  1.677827E-03 4.102036E+01  9.059001E-01 -5.807283E+01 
9.170387E+02  9.030455E-01 -6.543038E+01  1.619126E-03 3.994711E+01  1.625898E-03 4.015386E+01  9.059161E-01 -5.808216E+01 
9.170450E+02  9.030169E-01 -6.543836E+01  1.567921E-03 3.892685E+01  1.567482E-03 3.910980E+01  9.058721E-01 -5.809200E+01 
9.170512E+02  9.030650E-01 -6.545738E+01  1.513076E-03 3.861867E+01  1.507367E-03 3.868221E+01  9.058703E-01 -5.811451E+01 
9.170575E+02  9.030536E-01 -6.546858E+01  1.459413E-03 3.746678E+01  1.463072E-03 3.753923E+01  9.059735E-01 -5.812540E+01 
9.170637E+02  9.031082E-01 -6.547019E+01  1.413243E-03 3.677107E+01  1.413778E-03 3.640651E+01  9.059485E-01 -5.812136E+01 
9.170700E+02  9.030825E-01 -6.547702E+01  1.362020E-03 3.619697E+01  1.364504E-03 3.584124E+01  9.059053E-01 -5.812742E+01 
9.170762E+02  9.030889E-01 -6.547877E+01  1.321193E-03 3.506058E+01  1.327194E-03 3.555614E+01  9.058936E-01 -5.814207E+01 
9.170825E+02  9.031391E-01 -6.549890E+01  1.274936E-03 3.459106E+01  1.276049E-03 3.439507E+01  9.059015E-01 -5.815447E+01 
9.170888E+02  9.030682E-01 -6.551803E+01  1.223718E-03 3.365986E+01  1.223785E-03 3.381944E+01  9.059201E-01 -5.816792E+01 
9.170950E+02  9.030836E-01 -6.552388E+01  1.175794E-03 3.274416E+01  1.180189E-03 3.284785E+01  9.058992E-01 -5.817646E+01 
9.171012E+02  9.031085E-01 -6.552218E+01  1.141911E-03 3.184770E+01  1.136642E-03 3.201828E+01  9.059017E-01 -5.817194E+01 
9.171075E+02  9.030241E-01 -6.552894E+01  1.106181E-03 3.116063E+01  1.091487E-03 3.084338E+01  9.058536E-01 -5.817824E+01 
9.171137E+02  9.030845E-01 -6.554662E+01  1.062266E-03 3.008402E+01  1.049987E-03 2.993704E+01  9.058588E-01 -5.819720E+01 
9.171200E+02  9.031448E-01 -6.556415E+01  1.020665E-03 2.915681E+01  1.024941E-03 2.938284E+01  9.059056E-01 -5.821947E+01 
9.171262E+02  9.030817E-01 -6.557394E+01  9.881515E-04 2.821847E+01  9.942692E-04 2.874745E+01  9.058565E-01 -5.822176E+01 
9.171325E+02  9.030482E-01 -6.557318E+01  9.500497E-04 2.772964E+01  9.506201E-04 2.745577E+01  9.058407E-01 -5.822216E+01 
9.171387E+02  9.030395E-01 -6.556610E+01  9.137000E-04 2.634453E+01  9.162086E-04 2.657695E+01  9.058135E-01 -5.822428E+01 
9.171450E+02  9.030312E-01 -6.558488E+01  8.827254E-04 2.571985E+01  8.816234E-04 2.581448E+01  9.058633E-01 -5.824277E+01 
9.171513E+02  9.030214E-01 -6.560882E+01  8.489934E-04 2.429317E+01  8.523037E-04 2.423060E+01  9.058493E-01 -5.826608E+01 
9.171575E+02  9.030094E-01 -6.561687E+01  8.103466E-04 2.297678E+01  8.186937E-04 2.333872E+01  9.057753E-01 -5.826374E+01 
9.171637E+02  9.029380E-01 -6.561854E+01  7.842510E-04 2.237616E+01  7.838146E-04 2.289300E+01  9.057792E-01 -5.826181E+01 
9.171700E+02  9.029607E-01 -6.561210E+01  7.578176E-04 2.121847E+01  7.538314E-04 2.147077E+01  9.057514E-01 -5.826284E+01 
9.171762E+02  9.029370E-01 -6.562640E+01  7.307951E-04 2.040467E+01  7.300018E-04 2.037558E+01  9.057215E-01 -5.827855E+01 
9.171825E+02  9.029721E-01 -6.564734E+01  7.136218E-04 1.871632E+01  6.979820E-04 1.911071E+01  9.057480E-01 -5.830331E+01 
9.171887E+02  9.030538E-01 -6.566101E+01  6.799931E-04 1.779831E+01  6.749339E-04 1.791397E+01  9.057785E-01 -5.830789E+01 
9.171950E+02  9.029258E-01 -6.566535E+01  6.502296E-04 1.655887E+01  6.556941E-04 1.740983E+01  9.057157E-01 -5.830184E+01 
9.172012E+02  9.028853E-01 -6.566187E+01  6.240072E-04 1.624565E+01  6.302100E-04 1.566045E+01  9.056438E-01 -5.830334E+01 
9.172075E+02  9.028771E-01 -6.566970E+01  6.018057E-04 1.399379E+01  6.027585E-04 1.467803E+01  9.056787E-01 -5.831768E+01 
9.172138E+02  9.029168E-01 -6.568580E+01  5.800822E-04 1.207883E+01  5.781429E-04 1.225307E+01  9.057188E-01 -5.834105E+01 
9.172200E+02  9.029497E-01 -6.570073E+01  5.549712E-04 1.052178E+01  5.496216E-04 1.110417E+01  9.056526E-01 -5.835388E+01 
9.172262E+02  9.028409E-01 -6.570457E+01  5.378994E-04 9.689466E+00  5.340335E-04 8.830558E+00  9.056837E-01 -5.835171E+01 
9.172325E+02  9.028250E-01 -6.569794E+01  5.187899E-04 7.972694E+00  5.167281E-04 8.346964E+00  9.056643E-01 -5.835383E+01 
9.172387E+02  9.026945E-01 -6.571432E+01  4.969397E-04 7.808201E+00  4.936352E-04 6.556402E+00  9.055442E-01 -5.835846E+01 
9.172450E+02  9.027647E-01 -6.572160E+01  4.875994E-04 4.259397E+00  4.821709E-04 5.497155E+00  9.055689E-01 -5.838089E+01 
9.172512E+02  9.027533E-01 -6.573973E+01  4.585364E-04 3.109530E+00  4.608463E-04 3.007693E+00  9.055520E-01 -5.839868E+01 
9.172575E+02  9.027457E-01 -6.574697E+01  4.429721E-04 7.168639E-01  4.464757E-04 1.465443E+00  9.055181E-01 -5.839825E+01 
9.172637E+02  9.027510E-01 -6.574487E+01  4.269081E-04 -1.807545E+00  4.311876E-04 -6.898654E-01  9.054583E-01 -5.840045E+01 
9.172700E+02  9.026655E-01 -6.576275E+01  4.051864E-04 -3.380644E+00  4.091657E-04 -2.748630E+00  9.054606E-01 -5.840053E+01 
9.172763E+02  9.026559E-01 -6.576054E+01  3.966378E-04 -5.273612E+00  3.987327E-04 -5.620458E+00  9.055046E-01 -5.842114E+01 
9.172825E+02  9.026504E-01 -6.577958E+01  3.774563E-04 -8.516530E+00  3.766071E-04 -8.047580E+00  9.054162E-01 -5.843564E+01 
9.172887E+02  9.026425E-01 -6.579183E+01  3.752785E-04 -1.171908E+01  3.811999E-04 -1.031571E+01  9.053676E-01 -5.844135E+01 
9.172950E+02  9.026155E-01 -6.578750E+01  3.699239E-04 -1.327709E+01  3.678715E-04 -1.223732E+01  9.053649E-01 -5.844118E+01 
9.173012E+02  9.025666E-01 -6.579923E+01  3.490851E-04 -1.542350E+01  3.592469E-04 -1.486869E+01  9.053345E-01 -5.844365E+01 
9.173075E+02  9.025434E-01 -6.579875E+01  3.435788E-04 -1.713221E+01  3.480097E-04 -1.674854E+01  9.052816E-01 -5.845626E+01 
9.173137E+02  9.025584E-01 -6.581498E+01  3.315471E-04 -2.000388E+01  3.357451E-04 -2.037390E+01  9.052998E-01 -5.846446E+01 
9.173200E+02  9.024919E-01 -6.582920E+01  3.274663E-04 -2.195185E+01  3.197387E-04 -2.104410E+01  9.052535E-01 -5.848876E+01 
9.173262E+02  9.024429E-01 -6.583316E+01  3.187083E-04 -2.589140E+01  3.237515E-04 -2.478151E+01  9.052234E-01 -5.848668E+01 
9.173325E+02  9.024355E-01 -6.584342E+01  3.152151E-04 -2.817438E+01  3.120460E-04 -2.874588E+01  9.051901E-01 -5.848923E+01 
9.173388E+02  9.024283E-01 -6.584212E+01  3.012457E-04 -2.969273E+01  3.112794E-04 -3.077612E+01  9.051630E-01 -5.849863E+01 
9.173450E+02  9.023377E-01 -6.585766E+01  3.090401E-04 -3.502675E+01  3.034852E-04 -3.381272E+01  9.051166E-01 -5.850750E+01 
9.173512E+02  9.023610E-01 -6.587014E+01  3.076260E-04 -3.726569E+01  2.989032E-04 -3.677655E+01  9.050642E-01 -5.852337E+01 
9.173575E+02  9.023531E-01 -6.588459E+01  3.045487E-04 -3.960431E+01  3.048040E-04 -4.027153E+01  9.051218E-01 -5.852994E+01 
9.173637E+02  9.023221E-01 -6.588742E+01  2.917626E-04 -4.365378E+01  2.898309E-04 -4.129246E+01  9.050679E-01 -5.853863E+01 
9.173700E+02  9.022905E-01 -6.588728E+01  2.956902E-04 -4.511664E+01  3.004550E-04 -4.545119E+01  9.049902E-01 -5.853693E+01 
9.173762E+02  9.023053E-01 -6.589182E+01  2.962147E-04 -4.833754E+01  2.914202E-04 -4.787396E+01  9.049273E-01 -5.853672E+01 
9.173825E+02  9.022468E-01 -6.590631E+01  3.018619E-04 -5.122994E+01  2.993132E-04 -5.002677E+01  9.049008E-01 -5.856000E+01 
9.173887E+02  9.022991E-01 -6.592619E+01  3.053617E-04 -5.335726E+01  2.956599E-04 -5.250211E+01  9.049487E-01 -5.857180E+01 
