! Matrix data file written by TouchstoneData, EPCOS AG
! FILENAME: "B3941_WB.s2p"
! COMMENT: "S-parameter B3941 narrowband (unmatched)"
! INFO: nport=2, nfreq=1601
! DATE: "Mon Sep  5 16:41:16 2011"
! USER: "Eluer Wang"
!
! port | pin | signal
! -----|-----|--------
!   1  |  1  |  in
!   2  |  4  |  out
! --------------------
! 
# MHZ S MA R 50
! freq  magS11 angS11  magS21 angS21  magS12 angS12  magS22 angS22
8.189500E+02  9.446805E-01 -5.324978E+01  8.725964E-04 -7.761827E+01  8.712903E-04 -7.502408E+01  9.304449E-01 -5.139753E+01 
8.190125E+02  9.442841E-01 -5.327102E+01  8.643091E-04 -7.496147E+01  8.746622E-04 -7.623844E+01  9.306366E-01 -5.139384E+01 
8.190750E+02  9.448846E-01 -5.326831E+01  8.456012E-04 -7.721348E+01  8.156997E-04 -7.733603E+01  9.304914E-01 -5.139205E+01 
8.191375E+02  9.444118E-01 -5.326466E+01  8.510218E-04 -7.862877E+01  8.343443E-04 -7.835751E+01  9.304613E-01 -5.138919E+01 
8.192000E+02  9.444097E-01 -5.326581E+01  8.325722E-04 -7.999410E+01  8.097329E-04 -7.912833E+01  9.307919E-01 -5.139404E+01 
8.192625E+02  9.445507E-01 -5.326435E+01  8.383718E-04 -7.986371E+01  8.231686E-04 -7.788987E+01  9.304475E-01 -5.140899E+01 
8.193250E+02  9.444680E-01 -5.328574E+01  8.102758E-04 -8.061775E+01  7.878372E-04 -7.875798E+01  9.303207E-01 -5.141145E+01 
8.193875E+02  9.442460E-01 -5.328318E+01  7.933536E-04 -8.033329E+01  8.032056E-04 -8.158141E+01  9.306145E-01 -5.141730E+01 
8.194500E+02  9.447322E-01 -5.328420E+01  7.958034E-04 -8.201442E+01  7.759849E-04 -8.226598E+01  9.306287E-01 -5.146906E+01 
8.195125E+02  9.444362E-01 -5.329065E+01  7.925364E-04 -8.185295E+01  7.650656E-04 -8.245591E+01  9.305416E-01 -5.142936E+01 
8.195750E+02  9.444562E-01 -5.328068E+01  7.722787E-04 -8.330599E+01  7.753381E-04 -8.210399E+01  9.306053E-01 -5.144670E+01 
8.196375E+02  9.445801E-01 -5.328767E+01  7.595286E-04 -8.164356E+01  7.530186E-04 -8.118489E+01  9.304449E-01 -5.144105E+01 
8.197000E+02  9.443252E-01 -5.330211E+01  7.509696E-04 -8.345405E+01  7.440811E-04 -8.046976E+01  9.304674E-01 -5.143756E+01 
8.197625E+02  9.445646E-01 -5.329979E+01  7.462321E-04 -8.252461E+01  7.149621E-04 -8.378729E+01  9.303667E-01 -5.150958E+01 
8.198250E+02  9.446474E-01 -5.329540E+01  7.121019E-04 -8.038002E+01  7.137887E-04 -7.875820E+01  9.304872E-01 -5.143614E+01 
8.198875E+02  9.443477E-01 -5.331934E+01  7.154405E-04 -8.185450E+01  7.078152E-04 -8.032760E+01  9.303825E-01 -5.145435E+01 
8.199500E+02  9.442381E-01 -5.331314E+01  6.878043E-04 -8.212545E+01  7.180971E-04 -8.139490E+01  9.302850E-01 -5.146288E+01 
8.200125E+02  9.445322E-01 -5.331636E+01  6.804853E-04 -7.991098E+01  6.673126E-04 -7.779529E+01  9.304122E-01 -5.145418E+01 
8.200750E+02  9.442687E-01 -5.332237E+01  6.976293E-04 -8.223450E+01  6.683707E-04 -7.608413E+01  9.308528E-01 -5.150183E+01 
8.201375E+02  9.444669E-01 -5.332600E+01  6.659072E-04 -8.224536E+01  6.949084E-04 -7.657030E+01  9.302915E-01 -5.147994E+01 
8.202000E+02  9.444286E-01 -5.332560E+01  6.746578E-04 -7.839537E+01  6.556693E-04 -7.937825E+01  9.303524E-01 -5.148082E+01 
8.202625E+02  9.444512E-01 -5.334364E+01  6.454843E-04 -7.916686E+01  6.739383E-04 -7.724234E+01  9.304989E-01 -5.146679E+01 
8.203250E+02  9.442540E-01 -5.333790E+01  6.919774E-04 -7.831916E+01  6.735967E-04 -7.649646E+01  9.304805E-01 -5.148869E+01 
8.203875E+02  9.444137E-01 -5.334771E+01  6.541489E-04 -7.747445E+01  6.445804E-04 -7.607723E+01  9.302793E-01 -5.148453E+01 
8.204500E+02  9.442793E-01 -5.334437E+01  6.633626E-04 -7.457404E+01  6.592561E-04 -7.667471E+01  9.306455E-01 -5.154674E+01 
8.205125E+02  9.445232E-01 -5.334427E+01  6.649829E-04 -7.487946E+01  6.409753E-04 -7.426869E+01  9.302680E-01 -5.150070E+01 
8.205750E+02  9.445630E-01 -5.335183E+01  6.666331E-04 -7.512363E+01  6.279371E-04 -7.384418E+01  9.303585E-01 -5.150688E+01 
8.206375E+02  9.444980E-01 -5.336303E+01  6.385691E-04 -7.615936E+01  6.265045E-04 -7.628693E+01  9.303697E-01 -5.150317E+01 
8.207000E+02  9.444871E-01 -5.335998E+01  6.384976E-04 -7.357572E+01  6.223314E-04 -7.319994E+01  9.301236E-01 -5.151031E+01 
8.207625E+02  9.443340E-01 -5.337521E+01  6.286761E-04 -7.338535E+01  6.261303E-04 -7.013019E+01  9.305171E-01 -5.150724E+01 
8.208250E+02  9.443156E-01 -5.338113E+01  6.808226E-04 -7.200381E+01  6.252983E-04 -7.191662E+01  9.306337E-01 -5.156666E+01 
8.208875E+02  9.443954E-01 -5.336684E+01  6.554859E-04 -7.179849E+01  6.325845E-04 -7.024112E+01  9.304934E-01 -5.153136E+01 
8.209500E+02  9.443047E-01 -5.337971E+01  6.546680E-04 -6.975533E+01  6.407806E-04 -7.171791E+01  9.301798E-01 -5.152764E+01 
8.210125E+02  9.445117E-01 -5.338211E+01  6.707044E-04 -7.029515E+01  6.498442E-04 -7.203278E+01  9.304666E-01 -5.152331E+01 
8.210750E+02  9.443601E-01 -5.339504E+01  6.374793E-04 -6.954188E+01  6.670646E-04 -6.759467E+01  9.303518E-01 -5.154251E+01 
8.211375E+02  9.445522E-01 -5.339298E+01  6.547295E-04 -7.225932E+01  6.443700E-04 -6.870298E+01  9.302532E-01 -5.155114E+01 
8.212000E+02  9.443502E-01 -5.339315E+01  6.642537E-04 -7.105322E+01  6.579799E-04 -6.940192E+01  9.307833E-01 -5.158178E+01 
8.212625E+02  9.443402E-01 -5.340637E+01  6.698999E-04 -6.949853E+01  6.616246E-04 -6.666389E+01  9.302426E-01 -5.156072E+01 
8.213250E+02  9.443200E-01 -5.340298E+01  6.475389E-04 -6.957130E+01  6.612212E-04 -6.908381E+01  9.303094E-01 -5.157034E+01 
8.213875E+02  9.444323E-01 -5.341476E+01  6.895028E-04 -6.800480E+01  6.823554E-04 -6.698478E+01  9.303605E-01 -5.156907E+01 
8.214500E+02  9.445769E-01 -5.341270E+01  6.624495E-04 -6.980018E+01  6.815591E-04 -6.650157E+01  9.302826E-01 -5.156799E+01 
8.215125E+02  9.441651E-01 -5.341935E+01  6.743295E-04 -6.915238E+01  6.627228E-04 -6.651612E+01  9.303763E-01 -5.157809E+01 
8.215750E+02  9.446104E-01 -5.343119E+01  6.862523E-04 -6.551628E+01  6.731382E-04 -6.550609E+01  9.302428E-01 -5.159575E+01 
8.216375E+02  9.444818E-01 -5.343296E+01  6.910022E-04 -6.690449E+01  6.882435E-04 -6.598671E+01  9.301623E-01 -5.158735E+01 
8.217000E+02  9.442110E-01 -5.343476E+01  6.819396E-04 -6.659077E+01  6.685651E-04 -6.669627E+01  9.304700E-01 -5.163036E+01 
8.217625E+02  9.445764E-01 -5.344069E+01  7.004382E-04 -6.967752E+01  6.970842E-04 -6.533180E+01  9.303471E-01 -5.159998E+01 
8.218250E+02  9.442662E-01 -5.342866E+01  6.685570E-04 -6.559160E+01  7.164248E-04 -6.381785E+01  9.303256E-01 -5.160149E+01 
8.218875E+02  9.441813E-01 -5.344638E+01  7.242608E-04 -6.300515E+01  6.884760E-04 -6.766707E+01  9.300901E-01 -5.159873E+01 
8.219500E+02  9.444019E-01 -5.345367E+01  7.165811E-04 -6.510102E+01  7.097518E-04 -6.450994E+01  9.301807E-01 -5.160272E+01 
8.220125E+02  9.443908E-01 -5.345981E+01  7.377911E-04 -6.504159E+01  6.707351E-04 -6.643961E+01  9.301936E-01 -5.161186E+01 
8.220750E+02  9.443100E-01 -5.346288E+01  7.322883E-04 -6.414953E+01  7.355604E-04 -6.436598E+01  9.301404E-01 -5.161990E+01 
8.221375E+02  9.443217E-01 -5.345946E+01  7.308252E-04 -6.687723E+01  7.378818E-04 -6.708311E+01  9.299652E-01 -5.163227E+01 
8.222000E+02  9.440440E-01 -5.346708E+01  7.197740E-04 -6.622331E+01  7.597592E-04 -6.527524E+01  9.301859E-01 -5.163103E+01 
8.222625E+02  9.444623E-01 -5.347367E+01  7.393228E-04 -6.491791E+01  7.374751E-04 -6.507091E+01  9.301894E-01 -5.163406E+01 
8.223250E+02  9.444086E-01 -5.347872E+01  7.447958E-04 -6.441053E+01  7.440365E-04 -6.458772E+01  9.301400E-01 -5.164309E+01 
8.223875E+02  9.441910E-01 -5.348808E+01  7.536030E-04 -6.894420E+01  7.477021E-04 -6.575267E+01  9.302294E-01 -5.163411E+01 
8.224500E+02  9.442162E-01 -5.348799E+01  7.508971E-04 -6.582280E+01  7.645410E-04 -6.640707E+01  9.301429E-01 -5.164788E+01 
8.225125E+02  9.441380E-01 -5.349278E+01  7.575138E-04 -6.671363E+01  7.748381E-04 -6.298044E+01  9.300318E-01 -5.166532E+01 
8.225750E+02  9.442610E-01 -5.348934E+01  7.245623E-04 -6.451692E+01  7.767702E-04 -6.382758E+01  9.300701E-01 -5.165872E+01 
8.226375E+02  9.442221E-01 -5.348998E+01  7.464981E-04 -6.731981E+01  7.450042E-04 -6.407293E+01  9.300786E-01 -5.167286E+01 
8.227000E+02  9.441285E-01 -5.351375E+01  7.585707E-04 -6.713075E+01  7.548316E-04 -6.717524E+01  9.300428E-01 -5.167526E+01 
8.227625E+02  9.442950E-01 -5.350523E+01  7.659049E-04 -6.456240E+01  7.807985E-04 -6.797158E+01  9.300553E-01 -5.167047E+01 
8.228250E+02  9.443862E-01 -5.352813E+01  7.736536E-04 -6.608623E+01  7.764298E-04 -6.356277E+01  9.302911E-01 -5.170362E+01 
8.228875E+02  9.442960E-01 -5.351138E+01  7.512621E-04 -6.795019E+01  7.893020E-04 -6.501057E+01  9.299550E-01 -5.168712E+01 
8.229500E+02  9.442596E-01 -5.353174E+01  7.718695E-04 -6.885472E+01  7.620452E-04 -6.526758E+01  9.299432E-01 -5.168368E+01 
8.230125E+02  9.440696E-01 -5.353079E+01  7.699870E-04 -6.695140E+01  7.824431E-04 -6.428970E+01  9.300149E-01 -5.170717E+01 
8.230750E+02  9.439321E-01 -5.354325E+01  7.812044E-04 -6.801063E+01  7.962450E-04 -6.835608E+01  9.299117E-01 -5.170270E+01 
8.231375E+02  9.440045E-01 -5.354133E+01  7.748415E-04 -6.878485E+01  7.666775E-04 -6.459921E+01  9.300748E-01 -5.169848E+01 
8.232000E+02  9.441029E-01 -5.353120E+01  7.734030E-04 -6.838019E+01  7.705956E-04 -6.755955E+01  9.298389E-01 -5.171686E+01 
8.232625E+02  9.440850E-01 -5.355185E+01  7.891477E-04 -6.617876E+01  7.680567E-04 -6.450858E+01  9.298712E-01 -5.169999E+01 
8.233250E+02  9.440996E-01 -5.354375E+01  7.707200E-04 -6.504642E+01  7.604178E-04 -6.437859E+01  9.299124E-01 -5.173282E+01 
8.233875E+02  9.439930E-01 -5.355740E+01  7.826935E-04 -6.767099E+01  7.894860E-04 -6.614152E+01  9.297649E-01 -5.172849E+01 
8.234500E+02  9.440866E-01 -5.355229E+01  7.689024E-04 -6.671151E+01  7.876387E-04 -6.645167E+01  9.299295E-01 -5.172976E+01 
8.235125E+02  9.441817E-01 -5.355359E+01  7.788786E-04 -6.653573E+01  7.732915E-04 -6.514008E+01  9.300895E-01 -5.173683E+01 
8.235750E+02  9.440574E-01 -5.355279E+01  7.980096E-04 -6.633689E+01  8.305424E-04 -6.583001E+01  9.297061E-01 -5.174883E+01 
8.236375E+02  9.442888E-01 -5.356881E+01  8.016968E-04 -6.563834E+01  7.934168E-04 -6.469057E+01  9.299586E-01 -5.172246E+01 
8.237000E+02  9.442027E-01 -5.357540E+01  8.098934E-04 -6.491666E+01  8.051637E-04 -6.506697E+01  9.297130E-01 -5.174314E+01 
8.237625E+02  9.442535E-01 -5.358700E+01  7.938030E-04 -6.477368E+01  7.694181E-04 -6.610231E+01  9.300196E-01 -5.177601E+01 
8.238250E+02  9.440300E-01 -5.358238E+01  8.183048E-04 -6.485164E+01  7.995607E-04 -6.578519E+01  9.298618E-01 -5.175567E+01 
8.238875E+02  9.442153E-01 -5.358325E+01  7.988925E-04 -6.581534E+01  7.735840E-04 -6.389323E+01  9.297884E-01 -5.176951E+01 
8.239500E+02  9.441345E-01 -5.359109E+01  8.058131E-04 -6.430553E+01  7.962115E-04 -6.462774E+01  9.296908E-01 -5.176651E+01 
8.240125E+02  9.438905E-01 -5.359286E+01  8.328801E-04 -6.484525E+01  8.034238E-04 -6.394165E+01  9.297824E-01 -5.177887E+01 
8.240750E+02  9.441511E-01 -5.358651E+01  8.148035E-04 -6.489379E+01  8.111348E-04 -6.467260E+01  9.296210E-01 -5.177932E+01 
8.241375E+02  9.440074E-01 -5.361312E+01  8.121050E-04 -6.515886E+01  8.196899E-04 -6.366813E+01  9.295498E-01 -5.178293E+01 
8.242000E+02  9.439043E-01 -5.360063E+01  8.218152E-04 -6.414832E+01  8.125765E-04 -6.422980E+01  9.296541E-01 -5.178983E+01 
8.242625E+02  9.440133E-01 -5.361233E+01  8.253434E-04 -6.523345E+01  8.367741E-04 -6.377630E+01  9.297016E-01 -5.178990E+01 
8.243250E+02  9.438879E-01 -5.362304E+01  8.384603E-04 -6.208048E+01  8.212785E-04 -6.392634E+01  9.295863E-01 -5.180621E+01 
8.243875E+02  9.438712E-01 -5.362285E+01  8.601873E-04 -6.382574E+01  8.286996E-04 -6.340624E+01  9.294357E-01 -5.181276E+01 
8.244500E+02  9.440542E-01 -5.362716E+01  8.756048E-04 -6.374591E+01  8.606456E-04 -6.426179E+01  9.295112E-01 -5.181100E+01 
8.245125E+02  9.439707E-01 -5.363342E+01  8.503484E-04 -6.516932E+01  8.791231E-04 -6.393656E+01  9.298094E-01 -5.181620E+01 
8.245750E+02  9.440695E-01 -5.363766E+01  8.697696E-04 -6.526511E+01  8.554780E-04 -6.268840E+01  9.294280E-01 -5.182280E+01 
8.246375E+02  9.438890E-01 -5.363526E+01  8.633681E-04 -6.567273E+01  8.781589E-04 -6.519687E+01  9.292813E-01 -5.181567E+01 
8.247000E+02  9.439220E-01 -5.364536E+01  8.702772E-04 -6.364390E+01  8.749158E-04 -6.336981E+01  9.294675E-01 -5.182704E+01 
8.247625E+02  9.437931E-01 -5.364438E+01  8.869715E-04 -6.615037E+01  9.146526E-04 -6.397580E+01  9.293690E-01 -5.183647E+01 
8.248250E+02  9.437552E-01 -5.365759E+01  8.898664E-04 -6.320554E+01  8.920001E-04 -6.385446E+01  9.294587E-01 -5.183316E+01 
8.248875E+02  9.437653E-01 -5.365406E+01  9.103344E-04 -6.557335E+01  8.897784E-04 -6.274137E+01  9.294665E-01 -5.183533E+01 
8.249500E+02  9.436100E-01 -5.365888E+01  9.269645E-04 -6.680366E+01  9.140835E-04 -6.561900E+01  9.293695E-01 -5.185172E+01 
8.250125E+02  9.437423E-01 -5.367607E+01  8.914067E-04 -6.474336E+01  9.286920E-04 -6.583155E+01  9.292313E-01 -5.185025E+01 
8.250750E+02  9.437193E-01 -5.366211E+01  9.264709E-04 -6.775130E+01  9.328989E-04 -6.571497E+01  9.294190E-01 -5.185596E+01 
8.251375E+02  9.437960E-01 -5.367400E+01  9.204127E-04 -6.609683E+01  9.647281E-04 -6.651995E+01  9.293351E-01 -5.186093E+01 
8.252000E+02  9.437128E-01 -5.367458E+01  9.544181E-04 -6.746204E+01  9.453467E-04 -6.678044E+01  9.293717E-01 -5.186963E+01 
8.252625E+02  9.438331E-01 -5.367722E+01  9.440610E-04 -6.787838E+01  9.216035E-04 -6.610533E+01  9.294948E-01 -5.186488E+01 
8.253250E+02  9.437442E-01 -5.367862E+01  9.358608E-04 -6.679636E+01  9.645401E-04 -6.761009E+01  9.291408E-01 -5.188038E+01 
8.253875E+02  9.438115E-01 -5.368911E+01  9.732791E-04 -7.010001E+01  9.555938E-04 -6.849457E+01  9.290452E-01 -5.188017E+01 
8.254500E+02  9.438803E-01 -5.369205E+01  9.671584E-04 -6.878898E+01  9.547735E-04 -6.717158E+01  9.293782E-01 -5.188797E+01 
8.255125E+02  9.435557E-01 -5.370080E+01  9.747449E-04 -6.732891E+01  9.408763E-04 -6.889381E+01  9.289802E-01 -5.189799E+01 
8.255750E+02  9.435836E-01 -5.371420E+01  9.745028E-04 -7.026741E+01  9.640421E-04 -6.930578E+01  9.291397E-01 -5.189768E+01 
8.256375E+02  9.435352E-01 -5.370808E+01  9.663941E-04 -6.909040E+01  9.687563E-04 -6.761048E+01  9.290500E-01 -5.190457E+01 
8.257000E+02  9.436261E-01 -5.370962E+01  9.934739E-04 -7.070317E+01  9.894434E-04 -6.941585E+01  9.290917E-01 -5.191128E+01 
8.257625E+02  9.435695E-01 -5.372376E+01  1.006994E-03 -7.248904E+01  9.937559E-04 -7.012719E+01  9.291651E-01 -5.190854E+01 
8.258250E+02  9.435914E-01 -5.371710E+01  1.004300E-03 -7.148091E+01  1.000454E-03 -7.204871E+01  9.290685E-01 -5.191497E+01 
8.258875E+02  9.436085E-01 -5.372574E+01  1.011797E-03 -7.309061E+01  9.966102E-04 -7.037518E+01  9.289964E-01 -5.191333E+01 
8.259500E+02  9.435913E-01 -5.373054E+01  1.012704E-03 -7.378937E+01  1.019469E-03 -7.196718E+01  9.291353E-01 -5.192572E+01 
8.260125E+02  9.436757E-01 -5.372842E+01  1.048056E-03 -7.506374E+01  1.020166E-03 -7.237224E+01  9.290058E-01 -5.193460E+01 
8.260750E+02  9.435024E-01 -5.374026E+01  1.038136E-03 -7.492869E+01  9.912837E-04 -7.345619E+01  9.289098E-01 -5.192609E+01 
8.261375E+02  9.436544E-01 -5.374087E+01  1.050074E-03 -7.615953E+01  1.055057E-03 -7.435097E+01  9.289251E-01 -5.193343E+01 
8.262000E+02  9.435646E-01 -5.374407E+01  1.020888E-03 -7.512430E+01  1.051131E-03 -7.413634E+01  9.291737E-01 -5.194152E+01 
8.262625E+02  9.435350E-01 -5.374852E+01  1.009008E-03 -7.669852E+01  1.035175E-03 -7.604267E+01  9.288157E-01 -5.193889E+01 
8.263250E+02  9.435647E-01 -5.375624E+01  1.044345E-03 -7.699943E+01  1.024541E-03 -7.669451E+01  9.290076E-01 -5.194920E+01 
8.263875E+02  9.435956E-01 -5.374939E+01  1.030482E-03 -7.899444E+01  1.035886E-03 -7.638427E+01  9.287471E-01 -5.195097E+01 
8.264500E+02  9.435156E-01 -5.377102E+01  1.011613E-03 -7.930402E+01  1.001848E-03 -7.988458E+01  9.289928E-01 -5.194738E+01 
8.265125E+02  9.435260E-01 -5.377138E+01  1.000676E-03 -8.091844E+01  1.013922E-03 -8.024393E+01  9.292272E-01 -5.195927E+01 
8.265750E+02  9.433440E-01 -5.376691E+01  9.940591E-04 -8.179045E+01  1.028822E-03 -8.041422E+01  9.287411E-01 -5.197180E+01 
8.266375E+02  9.434152E-01 -5.377165E+01  9.992722E-04 -8.273384E+01  9.772157E-04 -8.138551E+01  9.287407E-01 -5.197327E+01 
8.267000E+02  9.433649E-01 -5.377130E+01  1.006464E-03 -8.462255E+01  1.002143E-03 -8.258436E+01  9.288576E-01 -5.197653E+01 
8.267625E+02  9.435638E-01 -5.377544E+01  9.789901E-04 -8.554660E+01  9.816769E-04 -8.101348E+01  9.287955E-01 -5.198231E+01 
8.268250E+02  9.433249E-01 -5.378571E+01  9.685746E-04 -8.572525E+01  9.886711E-04 -8.397296E+01  9.288684E-01 -5.198043E+01 
8.268875E+02  9.433707E-01 -5.378766E+01  9.333275E-04 -8.556848E+01  9.710153E-04 -8.473508E+01  9.288108E-01 -5.199771E+01 
8.269500E+02  9.433491E-01 -5.378449E+01  9.435670E-04 -8.773954E+01  9.449376E-04 -8.644873E+01  9.286523E-01 -5.200393E+01 
8.270125E+02  9.432749E-01 -5.379573E+01  9.108267E-04 -8.771169E+01  9.211013E-04 -8.600961E+01  9.292654E-01 -5.205381E+01 
8.270750E+02  9.433970E-01 -5.379230E+01  9.055626E-04 -8.903865E+01  9.024101E-04 -8.703918E+01  9.287749E-01 -5.205079E+01 
8.271375E+02  9.433781E-01 -5.380676E+01  9.014639E-04 -8.916046E+01  8.984419E-04 -8.830686E+01  9.289912E-01 -5.203599E+01 
8.272000E+02  9.434182E-01 -5.381055E+01  8.747787E-04 -9.011532E+01  8.880901E-04 -8.905151E+01  9.289314E-01 -5.205133E+01 
8.272625E+02  9.434799E-01 -5.380901E+01  8.711766E-04 -8.956934E+01  8.811120E-04 -8.898834E+01  9.285823E-01 -5.200880E+01 
8.273250E+02  9.431675E-01 -5.381643E+01  8.235022E-04 -9.002368E+01  8.453865E-04 -8.810860E+01  9.287506E-01 -5.201701E+01 
8.273875E+02  9.432444E-01 -5.380851E+01  7.995669E-04 -8.919909E+01  8.273548E-04 -8.902108E+01  9.286828E-01 -5.202436E+01 
8.274500E+02  9.432190E-01 -5.383199E+01  8.132042E-04 -8.903487E+01  8.064937E-04 -8.794388E+01  9.285694E-01 -5.202440E+01 
8.275125E+02  9.433017E-01 -5.383577E+01  7.978365E-04 -9.016950E+01  7.666758E-04 -8.467081E+01  9.287997E-01 -5.203106E+01 
8.275750E+02  9.433474E-01 -5.382452E+01  7.519673E-04 -8.946585E+01  7.709717E-04 -8.692128E+01  9.286882E-01 -5.203528E+01 
8.276375E+02  9.432840E-01 -5.383210E+01  7.215472E-04 -8.584863E+01  7.527843E-04 -8.647906E+01  9.284565E-01 -5.203953E+01 
8.277000E+02  9.431468E-01 -5.382963E+01  7.245181E-04 -8.830714E+01  7.487455E-04 -8.375953E+01  9.286500E-01 -5.204605E+01 
8.277625E+02  9.430617E-01 -5.383159E+01  7.140423E-04 -8.571081E+01  7.083241E-04 -8.673279E+01  9.285964E-01 -5.205217E+01 
8.278250E+02  9.432807E-01 -5.384465E+01  6.925875E-04 -8.651999E+01  7.089872E-04 -8.651340E+01  9.284046E-01 -5.204663E+01 
8.278875E+02  9.431159E-01 -5.386695E+01  7.011149E-04 -8.342921E+01  6.878101E-04 -8.235255E+01  9.287087E-01 -5.205190E+01 
8.279500E+02  9.432537E-01 -5.384706E+01  6.872797E-04 -8.149024E+01  6.805786E-04 -8.277864E+01  9.283289E-01 -5.205673E+01 
8.280125E+02  9.434164E-01 -5.385677E+01  6.704081E-04 -8.143562E+01  6.857167E-04 -7.967270E+01  9.284749E-01 -5.205679E+01 
8.280750E+02  9.430179E-01 -5.386401E+01  6.772274E-04 -8.053662E+01  6.817506E-04 -7.933306E+01  9.285571E-01 -5.206687E+01 
8.281375E+02  9.433139E-01 -5.386054E+01  6.476323E-04 -7.831393E+01  6.312793E-04 -7.835666E+01  9.283139E-01 -5.207056E+01 
8.282000E+02  9.434069E-01 -5.386667E+01  6.318932E-04 -7.611147E+01  7.033750E-04 -7.636416E+01  9.286083E-01 -5.207172E+01 
8.282625E+02  9.434184E-01 -5.385330E+01  6.603432E-04 -7.710815E+01  6.594886E-04 -7.427814E+01  9.284399E-01 -5.207157E+01 
8.283250E+02  9.432714E-01 -5.387125E+01  6.484235E-04 -7.668852E+01  6.621102E-04 -7.548205E+01  9.284032E-01 -5.208423E+01 
8.283875E+02  9.430928E-01 -5.387623E+01  6.773717E-04 -7.425180E+01  6.880031E-04 -7.270054E+01  9.285414E-01 -5.209883E+01 
8.284500E+02  9.432819E-01 -5.387692E+01  6.479411E-04 -7.293274E+01  6.819596E-04 -7.059678E+01  9.282899E-01 -5.209525E+01 
8.285125E+02  9.432181E-01 -5.389988E+01  6.737125E-04 -6.958423E+01  6.624690E-04 -6.876055E+01  9.285187E-01 -5.209314E+01 
8.285750E+02  9.431750E-01 -5.389388E+01  6.650675E-04 -7.024291E+01  6.713705E-04 -6.833653E+01  9.286634E-01 -5.216133E+01 
