! Matrix data file written by TouchstoneData, EPCOS AG
! FILENAME: "B3948_NB.s2p"
! COMMENT: "(B3948_NB.s2p)"
! INFO: nport=2, nfreq=1601
! DATE: "Mon Aug 12 15:21:25 2013"
! USER: "Lynn Zhu"
!
! port | pin | signal
! -----|-----|--------
!   1  |  2  |  IN
!   2  |  4  |  OUT
! --------------------
! 
# MHZ S RI R 50
! freq  reS11 imS11  reS21 imS21  reS12 imS12  reS22 imS22
866.1  0.530393898487091 0.519220498595296  -0.00151667646696632 -0.000289132702164352  -0.00149594989747792 -0.000287110160570592  0.616227209568024 0.471278522183062 
866.103125  0.530881524085999 0.518804706107048  -0.00147511000822068 -0.000312639691401273  -0.00147085658536849 -0.000309454451780766  0.616624116897583 0.470770401039591 
866.10625  0.53137618303299 0.51825694952116  -0.00144808242787476 -0.000343508116202429  -0.00143384898148042 -0.000344722386216745  0.61700826883316 0.470182845228197 
866.109375  0.531886875629425 0.517635123574033  -0.0014099281827108 -0.000357027049176395  -0.00140460414290445 -0.000353860697941855  0.617454349994659 0.469608413667812 
866.1125  0.532350480556488 0.517192165667987  -0.00138233146188739 -0.000379402772523463  -0.00137457990081267 -0.000379015255020931  0.617816507816315 0.469163315864908 
866.115625  0.532783567905426 0.516658073177324  -0.00135541262926443 -0.000392875110264867  -0.00134753421188852 -0.00040396858821623  0.61815881729126 0.468666028850432 
866.11875  0.533170223236084 0.516199865893466  -0.00131699440443101 -0.000421539210947231  -0.00131449144290591 -0.00043338697287254  0.618408620357513 0.468245478213222 
866.121875  0.533640205860138 0.515639191649681  -0.00128599972987663 -0.000439008901594207  -0.00127501610347635 -0.000442629941971973  0.61888974905014 0.467536302065842 
866.125  0.534254014492035 0.515004247767732  -0.00125973248829016 -0.000462655734736472  -0.00124576421070596 -0.000456953304819763  0.619318962097168 0.466988903007337 
866.128125  0.534720301628113 0.514473612305777  -0.0012293787593094 -0.000479610462207347  -0.00121666986810111 -0.000476076675113291  0.619678854942322 0.466480666449605 
866.13125  0.535072863101959 0.513984483387792  -0.00119282814584819 -0.000501397007610649  -0.0011830205362877 -0.000499744492117316  0.62002968788147 0.466025295768121 
866.134375  0.535444796085358 0.513539314578273  -0.00116043910363437 -0.000522215501405299  -0.0011566169411215 -0.000521566718816757  0.620321094989777 0.465572680635287 
866.1375  0.536008775234222 0.513021298249327  -0.00113493175903663 -0.000539667322300375  -0.00112380769335447 -0.000543061934877187  0.620814323425293 0.464939716591604 
866.140625  0.536619067192078 0.512345203019903  -0.00109487359222692 -0.000558182364329696  -0.00109316846315689 -0.000560838030651212  0.621235549449921 0.464297136325595 
866.14375  0.537023782730103 0.51172446056973  -0.00107789377376011 -0.000578485487494618  -0.00106870468685744 -0.000582606997340918  0.621621191501617 0.463768949206886 
866.146875  0.537485361099243 0.511270511097749  -0.00103263454573135 -0.000601694569922984  -0.00102665726051944 -0.000603462161961943  0.621973037719727 0.463313164503415 
866.15  0.537839591503143 0.510849658554509  -0.00101242126204312 -0.000620253151282668  -0.00099681234690932 -0.000619597791228443  0.622314989566803 0.462792067936207 
866.153125  0.538322627544403 0.510315167514441  -0.000972954588635468 -0.000637612713035196  -0.000957593450653329 -0.000637432734947652  0.622710466384888 0.46219425890143 
866.15625  0.538993835449219 0.50962451902499  -0.000945271007348082 -0.000655351555906236  -0.000940811354537175 -0.000653727096505463  0.623205959796906 0.461531487219362 
866.159375  0.539475381374359 0.508998342007836  -0.000911074314268395 -0.0006679852376692  -0.000903154791661601 -0.000664487131871283  0.623543798923492 0.460993360766862 
866.1625  0.539862513542175 0.508489942932542  -0.000886532717815693 -0.000692219997290522  -0.000871578813723757 -0.000683295074850321  0.623897969722748 0.460522050896263 
866.165625  0.540273725986481 0.50801479209345  -0.000855240066270946 -0.000710426247678697  -0.000848245684257046 -0.000710826832801104  0.624105393886566 0.460140516784994 
866.16875  0.540732800960541 0.507534392801215  -0.000812579409159377 -0.000717858842108399  -0.00081455407806126 -0.00072813278529793  0.624667465686798 0.459468559584679 
866.171875  0.541329443454742 0.506858211419427  -0.000794055282941738 -0.000740417221095413  -0.000780862697226197 -0.000735690700821579  0.625093460083008 0.458782806837679 
866.175  0.541833281517029 0.506190559938665  -0.000754295957062627 -0.000752841646317393  -0.000749698409107229 -0.000762431009206921  0.625475287437439 0.458204066826987 
866.178125  0.542312860488892 0.505650144839992  -0.000716499012808847 -0.00077010813402012  -0.00070545801411485 -0.000760406896006316  0.625772774219513 0.457771593026282 
866.18125  0.542690813541412 0.505109188098574  -0.000694800120815204 -0.000791691185440868  -0.000687930810264783 -0.000780930160544813  0.626093626022339 0.457306668403884 
866.184375  0.543172478675842 0.504580096552756  -0.00065980147758394 -0.000797856191638857  -0.000660110812992156 -0.000797065440565348  0.626392126083374 0.45667255260855 
866.1875  0.543657839298248 0.503953509798591  -0.000628245491895839 -0.00081486371345818  -0.000620798039780043 -0.00080434005940333  0.626920938491821 0.456019046633223 
866.190625  0.544222056865692 0.503315151289964  -0.000601163059191093 -0.000821284775156528  -0.000585272700013757 -0.00082309718709439  0.627391815185547 0.455422986965068 
866.19375  0.544723570346832 0.502744816940034  -0.000567797969281379 -0.00083626079140231  -0.000564094999170005 -0.000825364142656326  0.627626776695251 0.454944889345682 
866.196875  0.545115947723389 0.50219988462934  -0.000535111391325985 -0.000844183494336903  -0.000524075986707717 -0.000850331969559193  0.627883851528168 0.454446452124615 
866.2  0.545577108860016 0.501625894901184  -0.000497984505461049 -0.000868134724441916  -0.000499547212676296 -0.000853594217915088  0.62833845615387 0.453873333027008 
866.203125  0.545991480350494 0.50106428756683  -0.000463218143109696 -0.000868803821504116  -0.000463889664618186 -0.000874218239914626  0.62887167930603 0.453188281802292 
866.20625  0.546600818634033 0.500327266727915  -0.000438943032555515 -0.000876273668836802  -0.00042768772474318 -0.000873975630383939  0.629219770431519 0.452563083314169 
866.209375  0.547148466110229 0.499678739422546  -0.000412525374075789 -0.000892692652996629  -0.000403468206284992 -0.000888050242792815  0.629518330097198 0.452028635155358 
866.2125  0.547606289386749 0.499178519044675  -0.000366765484742414 -0.000908745743799955  -0.000364295517441587 -0.000891070754732937  0.629923939704895 0.451520520722061 
866.215625  0.54802268743515 0.498575880731836  -0.000338909108429361 -0.00090558227384463  -0.000334263995796183 -0.000897554971743375  0.630262672901154 0.450940702178667 
866.21875  0.548468828201294 0.498010794523663  -0.000307461964488055 -0.000912702409550548  -0.000299675258423071 -0.000906608183868229  0.63072657585144 0.450278629192424 
866.221875  0.549049437046051 0.497246954373806  -0.0002714234525982 -0.000920573424082249  -0.000268335632669391 -0.000920428137760609  0.631180047988892 0.449608719045055 
866.225  0.549505531787872 0.496661559233409  -0.000239436766586297 -0.000915894284844398  -0.000233805355355931 -0.00091828010044992  0.631544411182404 0.448960739549607 
866.228125  0.550007224082947 0.496148343195344  -0.000203539030216082 -0.000923009123653173  -0.000199995113443272 -0.000914026750251651  0.631870210170746 0.448467233803155 
866.23125  0.550511479377747 0.495443669494406  -0.00016634828475114 -0.000928277324419469  -0.000170089107132107 -0.000927024055272341  0.632191956043243 0.447806399080608 
866.234375  0.550936579704285 0.49488824291389  -0.000131907043518753 -0.000927722605410963  -0.000131586712510591 -0.000931560120079666  0.632638812065125 0.44722651333973 
866.2375  0.551476120948792 0.494198676487644  -9.63711165421721e-05 -0.000925944128539413  -9.19949809904169e-05 -0.000933934352360666  0.632995426654816 0.446592481282888 
866.240625  0.552012085914612 0.493514735312939  -6.57237856513374e-05 -0.000930891430471092  -5.69392856450832e-05 -0.000929312838707119  0.633485615253448 0.445837206741387 
866.24375  0.552405834197998 0.492948182796719  -2.59145355498058e-05 -0.000937016913667321  -2.33808590999665e-05 -0.000931462331209332  0.633761525154114 0.44534940704175 
866.246875  0.553000569343567 0.492221137245459  5.93022574229602e-06 -0.000925708271097392  1.7060197211797e-05 -0.000923418905586004  0.634124457836151 0.444690248882812 
866.25  0.553330302238464 0.491668481393082  5.28812918101364e-05 -0.000911797862499952  5.33264013664699e-05 -0.000915425422135741  0.634436547756195 0.44417968725327 
866.253125  0.554007947444916 0.490898192965971  8.15496710856879e-05 -0.000916993536520749  9.36582414146884e-05 -0.000914063886739314  0.634978711605072 0.443421514348495 
866.25625  0.554474174976349 0.490216404579789  0.000126550372719833 -0.000902433588635176  0.000116683355552281 -0.000896127487067133  0.635411977767944 0.442757070757857 
866.259375  0.555008590221405 0.489536676910442  0.000156962268641486 -0.000891441712155938  0.000168635263958754 -0.000893856689799577  0.635716199874878 0.442111588740985 
866.2625  0.555426120758057 0.488950527494777  0.000203533006230561 -0.000883786822669208  0.000202071931410572 -0.000878428225405514  0.6360684633255 0.441468489114431 
866.265625  0.555821776390076 0.488366714176226  0.000241858595580706 -0.000874737801495939  0.000254230299348599 -0.000854909245390445  0.636363983154297 0.44097742915538 
866.26875  0.556392312049866 0.48759298646409  0.000283877374079088 -0.000863575260154903  0.000285909258098572 -0.000855999474879354  0.636841297149658 0.440073012096646 
866.271875  0.556947708129883 0.486846808492193  0.00032937988806481 -0.000841971370391548  0.000327787744260807 -0.000830923672765493  0.637328445911407 0.439422104245373 
866.275  0.557452917098999 0.486121461692045  0.000365593496073947 -0.000823147769551724  0.000372185661976896 -0.000812543090432882  0.637673079967499 0.438832157552741 
866.278125  0.557879686355591 0.485551267591877  0.00041184602867616 -0.000806274707429111  0.000420657254975569 -0.000792830542195588  0.637875080108643 0.438315737736264 
866.28125  0.558333039283752 0.484783980507214  0.000460415974914714 -0.000790561665780842  0.000467394962115853 -0.00076992524554953  0.638416528701782 0.437418283828535 
866.284375  0.558868825435638 0.484051729802126  0.00051626157144142 -0.000757163797970861  0.000513969754020653 -0.000741931260563433  0.63887894153595 0.43675843828524 
866.2875  0.559347093105316 0.483345956313597  0.000554600097459193 -0.000733240507543087  0.000570098556279123 -0.000704036036040634  0.639174580574036 0.436224881232921 
866.290625  0.55977189540863 0.482724935673283  0.000616842983694133 -0.000703155703376979  0.000614537918007811 -0.000687766296323389  0.639521360397339 0.43553406982758 
866.29375  0.56027889251709 0.481984146651495  0.000666473002780067 -0.000662979669868946  0.000674824079407143 -0.000653752824291587  0.639857530593872 0.434919032449177 
866.296875  0.560896217823029 0.48120208988741  0.000725451386604263 -0.000631631468422711  0.000725334859832779 -0.000619850412476808  0.640409886837006 0.43393418113123 
866.3  0.561360776424408 0.480436482284998  0.000779504315093885 -0.000591309857554734  0.000780458238436103 -0.000578979437705129  0.640831649303436 0.433285259178511 
866.303125  0.561881005764008 0.479691169816685  0.000833566923713572 -0.000553844147361815  0.000838313882051965 -0.00053595268400386  0.641101896762848 0.432606928191511 
866.30625  0.562212705612183 0.479008486088485  0.000892505626564695 -0.000508182449266315  0.000903073492479089 -0.000484579417388886  0.641447842121124 0.432030523235941 
866.309375  0.562680006027222 0.478297110824493  0.000965173232566302 -0.000454978027846664  0.00095893303200985 -0.000440927193267271  0.641774654388428 0.431364111707663 
866.3125  0.563221871852875 0.477414460987112  0.00103056285528885 -0.000402243138523772  0.0010312475859752 -0.000392382789868861  0.642300009727478 0.430476093738586 
866.315625  0.563760757446289 0.476636855416064  0.0011006863166885 -0.00035565800499171  0.00110577434718944 -0.000344075204338878  0.642664134502411 0.429639898534393 
866.31875  0.564272880554199 0.475804575964511  0.00117280436473795 -0.000293760152999312  0.00117270356436826 -0.000268282165052369  0.642967522144318 0.429026005584312 
866.321875  0.564686238765717 0.475143719087342  0.00124960233630723 -0.000224265342694707  0.00125495261761759 -0.000205140560865402  0.643179595470428 0.428407485569145 
866.325  0.565093457698822 0.474360673040284  0.00133222846868047 -0.000161660849698819  0.00132918366036031 -0.00013530213618651  0.643518805503845 0.427746457875846 
866.328125  0.565602362155914 0.47346456286914  0.00142135332883652 -9.24139021662995e-05  0.00142256902109839 -6.57909695291892e-05  0.644018113613129 0.426772823255049 
866.33125  0.566092371940613 0.472656336237507  0.00151096092410049 -1.11566505438532e-05  0.00151960890631234 2.00385911739431e-05  0.644449174404144 0.425963818717736 
866.334375  0.56658947467804 0.471715254135041  0.00160349049699467 6.06592257099692e-05  0.00161262175368865 9.77042363956571e-05  0.644749939441681 0.42529134761025 
866.3375  0.566985905170441 0.471003924473538  0.00170740424573388 0.000147726474096999  0.00171614304562252 0.000178669084561989  0.645081341266632 0.42462878268822 
866.340625  0.567318558692932 0.470270963238859  0.00181614014702092 0.000244160211877897  0.00183601548619762 0.00026943240663968  0.645302295684814 0.423968548598433 
866.34375  0.567831695079803 0.469357516648903  0.00193561260338402 0.00033386197173968  0.00193840841547366 0.000374965427909046  0.645720064640045 0.423015420290963 
866.346875  0.568291068077087 0.468424521194333  0.0020553477630004 0.000435952038969845  0.00207061644816372 0.000471965147880837  0.646117448806763 0.422113632745273 
866.35  0.568802654743195 0.467399394091173  0.00218964413926069 0.000538779597263783  0.00219996946942386 0.000581422180403024  0.64648425579071 0.421343545913534 
866.353125  0.56905597448349 0.466750059972152  0.00233644564070784 0.000642962229903787  0.00235136219101287 0.000697111070621759  0.646620750427246 0.42059108016508 
866.35625  0.569466114044189 0.465798328304413  0.00248768175839101 0.000758669397328049  0.00249644334381689 0.000817099178675562  0.646907448768616 0.41995711693205 
866.359375  0.569801032543182 0.46498804405181  0.00265629872514102 0.000886654073838145  0.00266431477699443 0.000937636650633067  0.647278189659119 0.418958643676619 
866.3625  0.570205509662628 0.463970365918163  0.00283264243895242 0.00100930430926382  0.00284783989521549 0.00106661301106215  0.647578060626984 0.418090298688846 
866.365625  0.570615768432617 0.462916724390506  0.00302410106272521 0.00113546790089458  0.0030397671300957 0.00120499124750495  0.647908806800842 0.417225245527073 
866.36875  0.570963203907013 0.462061794134097  0.00322732844146832 0.00127671286463738  0.00325163238836621 0.00133814080618322  0.64807915687561 0.41654047195622 
866.371875  0.571207940578461 0.461207389581824  0.00345476137657743 0.00141400541178882  0.00347848139115007 0.00147969787940383  0.648256957530975 0.415701126490891 
866.375  0.571504294872284 0.46026475408529  0.00368571053595811 0.00154805753845722  0.0037133327979753 0.0016229854663834  0.648457407951355 0.414815492003852 
866.378125  0.571780025959015 0.459279686864089  0.00395867802289133 0.0016945619136095  0.00398886262485846 0.00176765816286206  0.64874142408371 0.413946213636307 
866.38125  0.572140455245972 0.458165325201326  0.00423185966312061 0.00183780933730304  0.00427642955950706 0.00191681447904557  0.649004101753235 0.412983177636778 
866.384375  0.572356045246124 0.45728853405631  0.00453657127771141 0.00198492361232638  0.00457671520355886 0.0020635302644223  0.649079084396362 0.412246995356768 
866.3875  0.572513461112976 0.456382446118067  0.00485870785582016 0.00212536193430424  0.00491237387154747 0.00219912687316537  0.649180710315704 0.411408031095355 
866.390625  0.572701156139374 0.455376743437257  0.00522798543410946 0.00225663767196238  0.00527341600427913 0.00234468234702945  0.649299442768097 0.410510143047502 
866.39375  0.572785496711731 0.454404767199292  0.00561446327555917 0.00240044319070876  0.00566474866191546 0.00247893598861992  0.64945787191391 0.409690870087728 
866.396875  0.572971761226654 0.453355533278927  0.00601955011048648 0.00251943664625287  0.0060844968697386 0.00259985402226448  0.649592518806458 0.408789792173871 
866.4  0.573052585124969 0.45245139766615  0.00647173821646283 0.0026294260751456  0.00653539571428087 0.00270967837423086  0.649610817432404 0.407933421464712 
866.403125  0.573038756847382 0.451474530956857  0.00693798952613324 0.0027201974298805  0.00701954828718221 0.00281142862513661  0.649655103683472 0.407201286412536 
866.40625  0.572993695735931 0.4505997714363  0.00746119354586884 0.00279634562321007  0.00753598114016961 0.0028776815161109  0.649605631828308 0.406405284827834 
866.409375  0.572889864444733 0.449753481304732  0.00800296291921458 0.0028384099714458  0.00808354131887139 0.00292485160753131  0.649522244930267 0.405660799725459 
866.4125  0.572876691818237 0.448833890301193  0.00857264763953622 0.00285917660221457  0.00867329915981011 0.00293241161853075  0.649496018886566 0.404822828688136 
866.415625  0.572754204273224 0.447991905591939  0.00918873888693444 0.00282759149558842  0.00928181059005098 0.00290801329538226  0.649399638175964 0.404021271727745 
866.41875  0.572678983211517 0.447164308329455  0.00982268796653222 0.00276310020126402  0.00992742857574889 0.00283278501592577  0.649392426013947 0.403376640171244 
866.421875  0.572380065917969 0.446499437125276  0.0104745360569034 0.00265938835218549  0.0105897925209302 0.00271687493659556  0.649219930171967 0.402717365660641 
866.425  0.572141528129578 0.445818869853953  0.0111623287797695 0.00249454053118825  0.011274226938004 0.00254064192995429  0.649018704891205 0.402242756918954 
866.428125  0.571953773498535 0.445216786952436  0.0118563748042406 0.00225460273213685  0.0119641036882689 0.00231096777133644  0.648995637893677 0.401550806343348 
866.43125  0.57171505689621 0.444619809517663  0.0125532620406437 0.00197896314784884  0.0126706977281558 0.00201087770983577  0.648829936981201 0.401051121532265 
866.434375  0.571468412876129 0.444113136491151  0.0132525992283457 0.00161824037786573  0.0133633395257035 0.00164767843671143  0.648736536502838 0.400589933106107 
866.4375  0.57121866941452 0.443750168222784  0.0139414133492255 0.00119868549518287  0.0140480035163595 0.00121821742504835  0.648552358150482 0.40025764531668 
866.440625  0.570931077003479 0.44343883310629  0.0145992483702677 0.000714522320777178  0.014712647213918 0.000720471027307212  0.648408114910126 0.399973360753094 
866.44375  0.570667862892151 0.443344398712491  0.0152433631649202 0.00015569684910588  0.0153420239824341 0.000152913693455048  0.648370444774628 0.399694601869376 
866.446875  0.570626080036163 0.443096097016369  0.0158377358571963 -0.00046764244325459  0.015922193356724 -0.000472781015560031  0.648400723934174 0.399390497810087 
866.45  0.57058322429657 0.44281898788697  0.0163721194780932 -0.00113711599260569  0.0164610831158856 -0.00114846043288708  0.648492515087128 0.399135371480146 
866.453125  0.570508062839508 0.442828535267083  0.0168627776491617 -0.00187340669799596  0.0169472945044189 -0.00187704619020224  0.64852112531662 0.399022284745704 
