! Matrix data file written by TouchstoneData, EPCOS AG
! FILENAME: "B3942_NB.s2p"
! COMMENT: "B3942 un-matching S-parameter"
! INFO: nport=2, nfreq=1601
! DATE: "Tue Nov 13 17:27:18 2012"
! USER: "Eluer Wang"
!
! port | pin | signal
! -----|-----|--------
!   1  |  1  |  in
!   2  |  5  |  out
! --------------------
! 
# MHZ S MA R 50
! freq  magS11 angS11  magS21 angS21  magS12 angS12  magS22 angS22
1.685000E+02  9.957551E-01 -2.683301E+01  8.458371E-04 6.401087E+01  8.459089E-04 6.465670E+01  9.923108E-01 -2.806048E+01 
1.685012E+02  9.958663E-01 -2.683655E+01  8.589884E-04 6.349194E+01  8.532131E-04 6.385102E+01  9.922316E-01 -2.806226E+01 
1.685025E+02  9.958692E-01 -2.684029E+01  8.660640E-04 6.302665E+01  8.573269E-04 6.430516E+01  9.921723E-01 -2.806619E+01 
1.685037E+02  9.959233E-01 -2.684714E+01  8.715583E-04 6.306502E+01  8.695652E-04 6.383251E+01  9.922836E-01 -2.806678E+01 
1.685050E+02  9.959422E-01 -2.684745E+01  8.806440E-04 6.272091E+01  8.712221E-04 6.377094E+01  9.922734E-01 -2.806506E+01 
1.685062E+02  9.959791E-01 -2.684751E+01  8.892429E-04 6.297334E+01  8.804250E-04 6.328683E+01  9.922510E-01 -2.807484E+01 
1.685075E+02  9.958971E-01 -2.685136E+01  8.858799E-04 6.212791E+01  8.889415E-04 6.264555E+01  9.923168E-01 -2.807181E+01 
1.685087E+02  9.959171E-01 -2.685654E+01  8.922349E-04 6.268324E+01  8.910880E-04 6.277579E+01  9.922737E-01 -2.807882E+01 
1.685100E+02  9.959229E-01 -2.685571E+01  9.052338E-04 6.170656E+01  8.967847E-04 6.232426E+01  9.922611E-01 -2.808026E+01 
1.685112E+02  9.959342E-01 -2.685788E+01  9.208910E-04 6.162117E+01  9.089757E-04 6.205929E+01  9.923039E-01 -2.808120E+01 
1.685125E+02  9.959665E-01 -2.686368E+01  9.250887E-04 6.148612E+01  9.202044E-04 6.154844E+01  9.923614E-01 -2.808651E+01 
1.685137E+02  9.959205E-01 -2.686913E+01  9.346341E-04 6.081452E+01  9.238481E-04 6.114975E+01  9.922619E-01 -2.808571E+01 
1.685150E+02  9.959098E-01 -2.686868E+01  9.502534E-04 6.064377E+01  9.447027E-04 6.102065E+01  9.922836E-01 -2.809085E+01 
1.685163E+02  9.959493E-01 -2.687435E+01  9.530028E-04 6.014949E+01  9.459420E-04 6.077276E+01  9.923493E-01 -2.808979E+01 
1.685175E+02  9.959253E-01 -2.687706E+01  9.612628E-04 6.028246E+01  9.514588E-04 6.051883E+01  9.922152E-01 -2.809935E+01 
1.685188E+02  9.959071E-01 -2.688293E+01  9.769683E-04 5.994390E+01  9.723833E-04 6.043871E+01  9.922094E-01 -2.809941E+01 
1.685200E+02  9.959455E-01 -2.688256E+01  9.849094E-04 5.949298E+01  9.792430E-04 6.026056E+01  9.922296E-01 -2.810042E+01 
1.685213E+02  9.958550E-01 -2.689124E+01  9.950070E-04 5.953878E+01  9.946933E-04 5.978708E+01  9.922372E-01 -2.810609E+01 
1.685225E+02  9.959230E-01 -2.689079E+01  1.005217E-03 5.880866E+01  1.008808E-03 5.932466E+01  9.921537E-01 -2.810811E+01 
1.685238E+02  9.959324E-01 -2.689975E+01  1.017768E-03 5.874914E+01  1.018903E-03 5.933252E+01  9.922948E-01 -2.810894E+01 
1.685250E+02  9.959226E-01 -2.689913E+01  1.028337E-03 5.841236E+01  1.020325E-03 5.848410E+01  9.922481E-01 -2.811432E+01 
1.685263E+02  9.958284E-01 -2.690009E+01  1.050310E-03 5.836939E+01  1.048366E-03 5.850202E+01  9.921988E-01 -2.811579E+01 
1.685275E+02  9.959206E-01 -2.690665E+01  1.062940E-03 5.789551E+01  1.059211E-03 5.811226E+01  9.922334E-01 -2.812187E+01 
1.685288E+02  9.959037E-01 -2.690833E+01  1.082321E-03 5.771564E+01  1.072676E-03 5.793838E+01  9.922251E-01 -2.812269E+01 
1.685300E+02  9.957646E-01 -2.691490E+01  1.096412E-03 5.721150E+01  1.089384E-03 5.741183E+01  9.921601E-01 -2.813125E+01 
1.685312E+02  9.958812E-01 -2.691601E+01  1.108077E-03 5.700552E+01  1.113111E-03 5.757074E+01  9.922964E-01 -2.812929E+01 
1.685325E+02  9.958861E-01 -2.692292E+01  1.132960E-03 5.648528E+01  1.128930E-03 5.697394E+01  9.922473E-01 -2.813310E+01 
1.685337E+02  9.957879E-01 -2.692456E+01  1.153551E-03 5.613990E+01  1.138067E-03 5.585457E+01  9.921609E-01 -2.813643E+01 
1.685350E+02  9.957024E-01 -2.692795E+01  1.165268E-03 5.581224E+01  1.167182E-03 5.647609E+01  9.920624E-01 -2.814781E+01 
1.685362E+02  9.957320E-01 -2.693609E+01  1.193475E-03 5.520779E+01  1.186857E-03 5.560445E+01  9.921492E-01 -2.814312E+01 
1.685375E+02  9.958238E-01 -2.694072E+01  1.202789E-03 5.477062E+01  1.207205E-03 5.512945E+01  9.921311E-01 -2.814680E+01 
1.685387E+02  9.957188E-01 -2.693997E+01  1.226812E-03 5.425832E+01  1.234948E-03 5.497259E+01  9.921929E-01 -2.815155E+01 
1.685400E+02  9.956901E-01 -2.694369E+01  1.254942E-03 5.370633E+01  1.250143E-03 5.450079E+01  9.921761E-01 -2.815267E+01 
1.685412E+02  9.956152E-01 -2.695116E+01  1.280126E-03 5.336755E+01  1.267888E-03 5.348918E+01  9.922071E-01 -2.815906E+01 
1.685425E+02  9.956413E-01 -2.695575E+01  1.312179E-03 5.316897E+01  1.297196E-03 5.300575E+01  9.921212E-01 -2.816411E+01 
1.685437E+02  9.957107E-01 -2.695710E+01  1.337570E-03 5.230108E+01  1.329002E-03 5.237156E+01  9.921271E-01 -2.817145E+01 
1.685450E+02  9.956538E-01 -2.696353E+01  1.367649E-03 5.149853E+01  1.351998E-03 5.220474E+01  9.920455E-01 -2.816892E+01 
1.685462E+02  9.956586E-01 -2.696909E+01  1.393061E-03 5.085471E+01  1.382521E-03 5.130392E+01  9.920782E-01 -2.817227E+01 
1.685475E+02  9.955676E-01 -2.697391E+01  1.432111E-03 5.019394E+01  1.426997E-03 5.055570E+01  9.920729E-01 -2.817727E+01 
1.685488E+02  9.955596E-01 -2.698055E+01  1.464027E-03 4.958695E+01  1.455445E-03 4.997305E+01  9.920560E-01 -2.818307E+01 
1.685500E+02  9.954618E-01 -2.698725E+01  1.503617E-03 4.869812E+01  1.500719E-03 4.913930E+01  9.920899E-01 -2.818427E+01 
1.685513E+02  9.953352E-01 -2.698835E+01  1.545542E-03 4.785081E+01  1.544112E-03 4.832912E+01  9.920746E-01 -2.818395E+01 
1.685525E+02  9.954353E-01 -2.698926E+01  1.588272E-03 4.681862E+01  1.574627E-03 4.750347E+01  9.920286E-01 -2.819368E+01 
1.685538E+02  9.953462E-01 -2.700069E+01  1.631992E-03 4.584225E+01  1.621486E-03 4.621615E+01  9.920739E-01 -2.819599E+01 
1.685550E+02  9.953689E-01 -2.700457E+01  1.672541E-03 4.501711E+01  1.671062E-03 4.526502E+01  9.919512E-01 -2.820374E+01 
1.685563E+02  9.952639E-01 -2.701294E+01  1.732728E-03 4.373238E+01  1.725955E-03 4.382196E+01  9.918781E-01 -2.820854E+01 
1.685575E+02  9.952307E-01 -2.702068E+01  1.784935E-03 4.256387E+01  1.782565E-03 4.292849E+01  9.918130E-01 -2.821362E+01 
1.685588E+02  9.950330E-01 -2.702451E+01  1.836577E-03 4.122318E+01  1.841975E-03 4.176905E+01  9.917999E-01 -2.821503E+01 
1.685600E+02  9.949663E-01 -2.703001E+01  1.899746E-03 3.980169E+01  1.898411E-03 4.011073E+01  9.917068E-01 -2.821776E+01 
1.685613E+02  9.948453E-01 -2.703332E+01  1.970202E-03 3.798595E+01  1.966369E-03 3.869937E+01  9.917866E-01 -2.822053E+01 
1.685625E+02  9.946785E-01 -2.704240E+01  2.040907E-03 3.623441E+01  2.031221E-03 3.673911E+01  9.916625E-01 -2.822799E+01 
1.685637E+02  9.946024E-01 -2.704709E+01  2.110468E-03 3.465082E+01  2.101261E-03 3.460821E+01  9.915608E-01 -2.823462E+01 
1.685650E+02  9.944403E-01 -2.704890E+01  2.191668E-03 3.235968E+01  2.177324E-03 3.291226E+01  9.915419E-01 -2.823458E+01 
1.685662E+02  9.942217E-01 -2.705231E+01  2.269455E-03 3.012997E+01  2.253301E-03 3.055591E+01  9.914867E-01 -2.823826E+01 
1.685675E+02  9.940544E-01 -2.705966E+01  2.352407E-03 2.765378E+01  2.336555E-03 2.808313E+01  9.913796E-01 -2.824051E+01 
1.685687E+02  9.938769E-01 -2.706133E+01  2.433276E-03 2.493117E+01  2.428285E-03 2.542283E+01  9.912230E-01 -2.824215E+01 
1.685700E+02  9.936110E-01 -2.706196E+01  2.533440E-03 2.197782E+01  2.511292E-03 2.238615E+01  9.911819E-01 -2.825012E+01 
1.685712E+02  9.933412E-01 -2.705874E+01  2.606231E-03 1.887742E+01  2.594407E-03 1.905879E+01  9.910235E-01 -2.824764E+01 
1.685725E+02  9.931852E-01 -2.705727E+01  2.680455E-03 1.526554E+01  2.674652E-03 1.550341E+01  9.910027E-01 -2.824979E+01 
1.685737E+02  9.928929E-01 -2.705367E+01  2.759845E-03 1.140978E+01  2.735672E-03 1.185799E+01  9.908616E-01 -2.825130E+01 
1.685750E+02  9.926277E-01 -2.704331E+01  2.814380E-03 7.361500E+00  2.794715E-03 7.799560E+00  9.907935E-01 -2.825005E+01 
1.685762E+02  9.924443E-01 -2.703464E+01  2.856967E-03 3.083436E+00  2.845019E-03 3.683311E+00  9.905655E-01 -2.824438E+01 
1.685775E+02  9.922419E-01 -2.702459E+01  2.891363E-03 -1.197894E+00  2.870124E-03 -7.618792E-01  9.905821E-01 -2.824454E+01 
1.685788E+02  9.920948E-01 -2.700748E+01  2.903794E-03 -5.605691E+00  2.883076E-03 -5.295058E+00  9.904973E-01 -2.823405E+01 
1.685800E+02  9.919637E-01 -2.699083E+01  2.889029E-03 -1.022387E+01  2.880614E-03 -9.970187E+00  9.904327E-01 -2.823096E+01 
1.685813E+02  9.918759E-01 -2.697127E+01  2.874074E-03 -1.502831E+01  2.856920E-03 -1.456385E+01  9.903905E-01 -2.823273E+01 
1.685825E+02  9.919209E-01 -2.695631E+01  2.812134E-03 -1.954702E+01  2.805615E-03 -1.926620E+01  9.904309E-01 -2.821644E+01 
1.685838E+02  9.920527E-01 -2.693563E+01  2.751521E-03 -2.391223E+01  2.740490E-03 -2.343484E+01  9.903958E-01 -2.821054E+01 
1.685850E+02  9.921340E-01 -2.692154E+01  2.671729E-03 -2.841365E+01  2.656700E-03 -2.792916E+01  9.905413E-01 -2.821016E+01 
1.685863E+02  9.923758E-01 -2.691101E+01  2.579619E-03 -3.251865E+01  2.560912E-03 -3.186764E+01  9.905303E-01 -2.820188E+01 
1.685875E+02  9.925400E-01 -2.689966E+01  2.474914E-03 -3.609992E+01  2.466247E-03 -3.573083E+01  9.906026E-01 -2.820517E+01 
1.685888E+02  9.927712E-01 -2.689121E+01  2.367780E-03 -3.976796E+01  2.351294E-03 -3.940935E+01  9.906857E-01 -2.820046E+01 
1.685900E+02  9.929395E-01 -2.688412E+01  2.254479E-03 -4.331927E+01  2.241794E-03 -4.264541E+01  9.907729E-01 -2.820084E+01 
1.685913E+02  9.931258E-01 -2.688516E+01  2.139263E-03 -4.608775E+01  2.123943E-03 -4.545379E+01  9.908445E-01 -2.820090E+01 
1.685925E+02  9.933590E-01 -2.688075E+01  2.021099E-03 -4.886395E+01  2.013184E-03 -4.823216E+01  9.910170E-01 -2.820109E+01 
1.685938E+02  9.934976E-01 -2.687901E+01  1.924196E-03 -5.079243E+01  1.908134E-03 -5.059662E+01  9.910990E-01 -2.820801E+01 
1.685950E+02  9.937768E-01 -2.687852E+01  1.804918E-03 -5.286759E+01  1.797002E-03 -5.247429E+01  9.910645E-01 -2.820626E+01 
1.685962E+02  9.938610E-01 -2.688259E+01  1.711685E-03 -5.467419E+01  1.707511E-03 -5.441615E+01  9.911746E-01 -2.820712E+01 
1.685975E+02  9.940794E-01 -2.688519E+01  1.625867E-03 -5.617041E+01  1.614869E-03 -5.612213E+01  9.913057E-01 -2.821281E+01 
1.685987E+02  9.942935E-01 -2.689415E+01  1.541782E-03 -5.746429E+01  1.523201E-03 -5.711296E+01  9.913466E-01 -2.821524E+01 
1.686000E+02  9.943531E-01 -2.689179E+01  1.448145E-03 -5.832921E+01  1.448200E-03 -5.795546E+01  9.914183E-01 -2.822162E+01 
1.686012E+02  9.944850E-01 -2.689810E+01  1.381618E-03 -5.954471E+01  1.377678E-03 -5.875044E+01  9.914967E-01 -2.822901E+01 
1.686025E+02  9.946230E-01 -2.690447E+01  1.316384E-03 -5.936540E+01  1.300356E-03 -5.966570E+01  9.914831E-01 -2.822767E+01 
1.686037E+02  9.946555E-01 -2.690560E+01  1.244926E-03 -5.997554E+01  1.232997E-03 -5.975784E+01  9.915011E-01 -2.823269E+01 
1.686050E+02  9.947405E-01 -2.691404E+01  1.176459E-03 -6.056644E+01  1.175584E-03 -6.040320E+01  9.914807E-01 -2.823508E+01 
1.686062E+02  9.948808E-01 -2.691994E+01  1.126388E-03 -6.029616E+01  1.119527E-03 -5.990984E+01  9.915675E-01 -2.823692E+01 
1.686075E+02  9.948969E-01 -2.692081E+01  1.079504E-03 -6.066980E+01  1.072985E-03 -6.055190E+01  9.915362E-01 -2.824671E+01 
1.686087E+02  9.949528E-01 -2.693409E+01  1.031324E-03 -6.006621E+01  1.026339E-03 -5.943372E+01  9.916149E-01 -2.824942E+01 
1.686100E+02  9.949994E-01 -2.693253E+01  9.926832E-04 -5.986718E+01  9.761513E-04 -5.926415E+01  9.916006E-01 -2.825391E+01 
1.686113E+02  9.950592E-01 -2.694037E+01  9.480999E-04 -5.950690E+01  9.363176E-04 -5.891367E+01  9.916227E-01 -2.825716E+01 
1.686125E+02  9.951224E-01 -2.694402E+01  9.054721E-04 -5.827205E+01  9.002953E-04 -5.777201E+01  9.916522E-01 -2.826321E+01 
1.686138E+02  9.951877E-01 -2.695116E+01  8.704630E-04 -5.777429E+01  8.633867E-04 -5.689686E+01  9.916602E-01 -2.826581E+01 
1.686150E+02  9.951466E-01 -2.695503E+01  8.405807E-04 -5.657092E+01  8.422831E-04 -5.652378E+01  9.916407E-01 -2.827009E+01 
1.686163E+02  9.951774E-01 -2.695692E+01  8.186364E-04 -5.532289E+01  8.112829E-04 -5.575250E+01  9.916420E-01 -2.827764E+01 
1.686175E+02  9.951862E-01 -2.696467E+01  7.862970E-04 -5.412988E+01  7.876494E-04 -5.367231E+01  9.916449E-01 -2.828280E+01 
1.686188E+02  9.952506E-01 -2.696938E+01  7.707462E-04 -5.318697E+01  7.582190E-04 -5.299941E+01  9.916208E-01 -2.828939E+01 
1.686200E+02  9.952722E-01 -2.697875E+01  7.467963E-04 -5.147628E+01  7.404818E-04 -5.118920E+01  9.917093E-01 -2.829101E+01 
1.686213E+02  9.953181E-01 -2.697891E+01  7.280819E-04 -4.980716E+01  7.238306E-04 -4.934661E+01  9.917215E-01 -2.829276E+01 
1.686225E+02  9.952952E-01 -2.698818E+01  7.089128E-04 -4.822950E+01  7.188511E-04 -4.801101E+01  9.915729E-01 -2.830058E+01 
1.686238E+02  9.952503E-01 -2.699290E+01  7.064815E-04 -4.595793E+01  7.056636E-04 -4.597642E+01  9.916268E-01 -2.830755E+01 
1.686250E+02  9.953687E-01 -2.699292E+01  6.982685E-04 -4.385153E+01  6.922799E-04 -4.475244E+01  9.916276E-01 -2.831361E+01 
1.686262E+02  9.954163E-01 -2.700084E+01  6.860209E-04 -4.315189E+01  6.802480E-04 -4.230692E+01  9.916311E-01 -2.831321E+01 
1.686275E+02  9.953503E-01 -2.700726E+01  6.891014E-04 -4.061930E+01  6.812482E-04 -4.077168E+01  9.916056E-01 -2.832087E+01 
1.686287E+02  9.953738E-01 -2.700758E+01  6.790471E-04 -3.949770E+01  6.750203E-04 -3.864006E+01  9.916181E-01 -2.832692E+01 
1.686300E+02  9.953522E-01 -2.701571E+01  6.788818E-04 -3.684301E+01  6.821214E-04 -3.716784E+01  9.915832E-01 -2.833186E+01 
1.686312E+02  9.954275E-01 -2.701693E+01  6.867057E-04 -3.490318E+01  6.790226E-04 -3.438793E+01  9.915714E-01 -2.833658E+01 
1.686325E+02  9.954707E-01 -2.701836E+01  6.965797E-04 -3.328666E+01  6.825609E-04 -3.300133E+01  9.915637E-01 -2.833877E+01 
1.686337E+02  9.954567E-01 -2.702659E+01  6.989710E-04 -3.161296E+01  7.014596E-04 -3.127288E+01  9.915001E-01 -2.834147E+01 
1.686350E+02  9.953766E-01 -2.702919E+01  7.086393E-04 -2.930810E+01  7.124210E-04 -2.876876E+01  9.915401E-01 -2.835292E+01 
1.686362E+02  9.953558E-01 -2.703070E+01  7.203551E-04 -2.803277E+01  7.155917E-04 -2.800908E+01  9.915169E-01 -2.835373E+01 
1.686375E+02  9.953426E-01 -2.703513E+01  7.398121E-04 -2.643521E+01  7.361793E-04 -2.615701E+01  9.914129E-01 -2.836008E+01 
1.686387E+02  9.954366E-01 -2.704121E+01  7.563890E-04 -2.465032E+01  7.520271E-04 -2.394628E+01  9.915313E-01 -2.836057E+01 
1.686400E+02  9.953245E-01 -2.704767E+01  7.799376E-04 -2.353609E+01  7.740544E-04 -2.252140E+01  9.914343E-01 -2.836781E+01 
1.686413E+02  9.953679E-01 -2.705218E+01  8.039039E-04 -2.200637E+01  8.034117E-04 -2.176763E+01  9.913350E-01 -2.837452E+01 
1.686425E+02  9.953284E-01 -2.705533E+01  8.239908E-04 -2.052942E+01  8.235044E-04 -2.103156E+01  9.912603E-01 -2.838074E+01 
1.686438E+02  9.953461E-01 -2.705978E+01  8.483205E-04 -1.989984E+01  8.491354E-04 -1.966222E+01  9.912840E-01 -2.838439E+01 
1.686450E+02  9.952560E-01 -2.706387E+01  8.803688E-04 -1.883953E+01  8.774283E-04 -1.882478E+01  9.912112E-01 -2.838737E+01 
1.686463E+02  9.953795E-01 -2.706716E+01  9.155577E-04 -1.805451E+01  9.135300E-04 -1.814260E+01  9.910741E-01 -2.839352E+01 
1.686475E+02  9.953031E-01 -2.707044E+01  9.490437E-04 -1.798070E+01  9.503188E-04 -1.723296E+01  9.911065E-01 -2.839986E+01 
1.686488E+02  9.952502E-01 -2.707584E+01  9.986382E-04 -1.671657E+01  9.828871E-04 -1.678023E+01  9.910609E-01 -2.840527E+01 
1.686500E+02  9.952626E-01 -2.708405E+01  1.024476E-03 -1.686932E+01  1.025160E-03 -1.645029E+01  9.910199E-01 -2.841088E+01 
1.686513E+02  9.952179E-01 -2.708231E+01  1.067605E-03 -1.604554E+01  1.070275E-03 -1.609549E+01  9.909835E-01 -2.841822E+01 
1.686525E+02  9.951785E-01 -2.708565E+01  1.122056E-03 -1.613958E+01  1.116739E-03 -1.613840E+01  9.909431E-01 -2.842353E+01 
1.686538E+02  9.951587E-01 -2.708997E+01  1.174728E-03 -1.643128E+01  1.168217E-03 -1.599453E+01  9.908011E-01 -2.842627E+01 
1.686550E+02  9.951667E-01 -2.709336E+01  1.232374E-03 -1.644586E+01  1.222173E-03 -1.612865E+01  9.906821E-01 -2.842919E+01 
1.686562E+02  9.951281E-01 -2.709762E+01  1.294163E-03 -1.688201E+01  1.278610E-03 -1.632096E+01  9.906163E-01 -2.843665E+01 
1.686575E+02  9.950342E-01 -2.710253E+01  1.348621E-03 -1.741748E+01  1.343025E-03 -1.700264E+01  9.905597E-01 -2.843983E+01 
1.686587E+02  9.950609E-01 -2.710690E+01  1.422880E-03 -1.834352E+01  1.406844E-03 -1.790779E+01  9.903944E-01 -2.844368E+01 
1.686600E+02  9.949905E-01 -2.710668E+01  1.480116E-03 -1.844552E+01  1.480504E-03 -1.850217E+01  9.902739E-01 -2.844895E+01 
1.686612E+02  9.949727E-01 -2.710907E+01  1.556703E-03 -1.994743E+01  1.552171E-03 -1.931498E+01  9.901793E-01 -2.844938E+01 
1.686625E+02  9.949457E-01 -2.711290E+01  1.639586E-03 -2.123357E+01  1.630841E-03 -2.048986E+01  9.900352E-01 -2.845174E+01 
1.686637E+02  9.948867E-01 -2.711300E+01  1.714901E-03 -2.254991E+01  1.708857E-03 -2.205834E+01  9.898540E-01 -2.845646E+01 
1.686650E+02  9.948210E-01 -2.711738E+01  1.799808E-03 -2.391773E+01  1.797388E-03 -2.349454E+01  9.898327E-01 -2.845260E+01 
1.686662E+02  9.947645E-01 -2.711147E+01  1.891702E-03 -2.589056E+01  1.879307E-03 -2.550541E+01  9.896898E-01 -2.845465E+01 
1.686675E+02  9.947574E-01 -2.711355E+01  1.979354E-03 -2.765106E+01  1.967731E-03 -2.739621E+01  9.894384E-01 -2.845106E+01 
1.686687E+02  9.946823E-01 -2.711657E+01  2.068889E-03 -2.998598E+01  2.065984E-03 -2.947748E+01  9.893323E-01 -2.845166E+01 
1.686700E+02  9.946303E-01 -2.711787E+01  2.156630E-03 -3.253700E+01  2.148117E-03 -3.184290E+01  9.892080E-01 -2.844621E+01 
1.686712E+02  9.945309E-01 -2.711760E+01  2.252047E-03 -3.471658E+01  2.240246E-03 -3.444309E+01  9.889338E-01 -2.844255E+01 
1.686725E+02  9.945520E-01 -2.712040E+01  2.340613E-03 -3.761178E+01  2.329356E-03 -3.733661E+01  9.888530E-01 -2.843682E+01 
1.686738E+02  9.945762E-01 -2.711391E+01  2.425533E-03 -4.043921E+01  2.416907E-03 -4.009856E+01  9.886866E-01 -2.843017E+01 
1.686750E+02  9.945246E-01 -2.711283E+01  2.515614E-03 -4.370254E+01  2.494273E-03 -4.322805E+01  9.884745E-01 -2.842164E+01 
1.686763E+02  9.944154E-01 -2.711044E+01  2.576155E-03 -4.695895E+01  2.557235E-03 -4.662719E+01  9.885014E-01 -2.841073E+01 
1.686775E+02  9.944472E-01 -2.711034E+01  2.635777E-03 -5.030882E+01  2.624028E-03 -4.990269E+01  9.884257E-01 -2.840257E+01 
1.686788E+02  9.945431E-01 -2.710420E+01  2.690465E-03 -5.353742E+01  2.673544E-03 -5.314541E+01  9.884196E-01 -2.838840E+01 
1.686800E+02  9.946472E-01 -2.710458E+01  2.732390E-03 -5.697989E+01  2.712490E-03 -5.657247E+01  9.884485E-01 -2.837688E+01 
1.686813E+02  9.946286E-01 -2.710335E+01  2.759671E-03 -6.039972E+01  2.740741E-03 -5.999800E+01  9.884713E-01 -2.836693E+01 
1.686825E+02  9.946221E-01 -2.710303E+01  2.765770E-03 -6.381360E+01  2.748994E-03 -6.342573E+01  9.885856E-01 -2.835720E+01 
1.686838E+02  9.947212E-01 -2.710387E+01  2.773002E-03 -6.703566E+01  2.759879E-03 -6.665565E+01  9.886079E-01 -2.834958E+01 
1.686850E+02  9.947557E-01 -2.710069E+01  2.776083E-03 -7.021048E+01  2.761422E-03 -6.989365E+01  9.888525E-01 -2.834161E+01 
1.686863E+02  9.949134E-01 -2.710867E+01  2.761757E-03 -7.348885E+01  2.751355E-03 -7.300540E+01  9.889975E-01 -2.833339E+01 
1.686875E+02  9.949806E-01 -2.710733E+01  2.738464E-03 -7.644022E+01  2.714283E-03 -7.589597E+01  9.890151E-01 -2.833198E+01 
1.686887E+02  9.950391E-01 -2.710699E+01  2.711141E-03 -7.916704E+01  2.696828E-03 -7.883920E+01  9.892558E-01 -2.832798E+01 
1.686900E+02  9.951678E-01 -2.710504E+01  2.676152E-03 -8.181071E+01  2.661971E-03 -8.128880E+01  9.893963E-01 -2.832466E+01 
1.686912E+02  9.952007E-01 -2.711058E+01  2.632726E-03 -8.427513E+01  2.621952E-03 -8.389522E+01  9.896715E-01 -2.832307E+01 
1.686925E+02  9.953490E-01 -2.711542E+01  2.601221E-03 -8.674141E+01  2.576061E-03 -8.612723E+01  9.897583E-01 -2.832726E+01 
