! Matrix data file written by TouchstoneData, EPCOS AG
! FILENAME: "newformat_AB71A.PCB2.UM.MB.s2p"
! COMMENT: "(AB71A.PCB2.UM.MB.s2p)"
! INFO: nport=2, nfreq=1601
! DATE: "Mon Jan 13 17:13:54 2014"
! USER: "Lynn Zhu"
!
! port | pin | signal
! -----|-----|--------
!   1  |  1  |  IN
!   2  |  4  |  OUT
! --------------------
! 
# MHZ S MA R 50
! freq  magS11 angS11  magS21 angS21  magS12 angS12  magS22 angS22
8.964200E+02  9.145907E-01 -6.179989E+01  3.129024E-04 -1.281554E+02  3.097622E-04 -1.260490E+02  9.184291E-01 -5.462922E+01 
8.964512E+02  9.147046E-01 -6.180510E+01  3.117320E-04 -1.257596E+02  2.972271E-04 -1.277739E+02  9.184176E-01 -5.464220E+01 
8.964825E+02  9.146561E-01 -6.181320E+01  3.094186E-04 -1.282418E+02  2.914202E-04 -1.266622E+02  9.185399E-01 -5.465262E+01 
8.965137E+02  9.146917E-01 -6.182713E+01  2.994033E-04 -1.286486E+02  3.095639E-04 -1.281122E+02  9.185463E-01 -5.465110E+01 
8.965450E+02  9.146844E-01 -6.181869E+01  2.977185E-04 -1.306934E+02  2.938211E-04 -1.293759E+02  9.185288E-01 -5.464562E+01 
8.965762E+02  9.146646E-01 -6.181154E+01  3.022284E-04 -1.305705E+02  2.961222E-04 -1.312164E+02  9.184715E-01 -5.464186E+01 
8.966075E+02  9.146164E-01 -6.181863E+01  2.912733E-04 -1.306655E+02  2.948704E-04 -1.311902E+02  9.184180E-01 -5.464752E+01 
8.966387E+02  9.146950E-01 -6.182228E+01  2.901423E-04 -1.299630E+02  2.846216E-04 -1.319738E+02  9.184322E-01 -5.465829E+01 
8.966700E+02  9.146639E-01 -6.183760E+01  2.778364E-04 -1.319476E+02  2.787885E-04 -1.326016E+02  9.184296E-01 -5.466380E+01 
8.967012E+02  9.146530E-01 -6.183069E+01  2.891524E-04 -1.328586E+02  2.751945E-04 -1.326276E+02  9.184269E-01 -5.465873E+01 
8.967325E+02  9.146310E-01 -6.183287E+01  2.759810E-04 -1.348954E+02  2.729994E-04 -1.332574E+02  9.183637E-01 -5.465716E+01 
8.967637E+02  9.146501E-01 -6.183098E+01  2.668611E-04 -1.358368E+02  2.687852E-04 -1.342110E+02  9.183282E-01 -5.466113E+01 
8.967950E+02  9.146072E-01 -6.183157E+01  2.688051E-04 -1.365167E+02  2.733086E-04 -1.376710E+02  9.184153E-01 -5.466678E+01 
8.968262E+02  9.146558E-01 -6.184106E+01  2.639442E-04 -1.376993E+02  2.611145E-04 -1.385216E+02  9.183740E-01 -5.466746E+01 
8.968575E+02  9.146089E-01 -6.184445E+01  2.614093E-04 -1.369737E+02  2.545537E-04 -1.395276E+02  9.183662E-01 -5.467329E+01 
8.968887E+02  9.145593E-01 -6.184529E+01  2.430897E-04 -1.387512E+02  2.652167E-04 -1.381540E+02  9.183535E-01 -5.466958E+01 
8.969200E+02  9.145167E-01 -6.184177E+01  2.480006E-04 -1.392652E+02  2.440093E-04 -1.399531E+02  9.183248E-01 -5.467086E+01 
8.969512E+02  9.144644E-01 -6.183949E+01  2.494383E-04 -1.413894E+02  2.428100E-04 -1.413805E+02  9.182264E-01 -5.467181E+01 
8.969825E+02  9.146063E-01 -6.184779E+01  2.409221E-04 -1.413963E+02  2.455726E-04 -1.425998E+02  9.182492E-01 -5.466834E+01 
8.970137E+02  9.145191E-01 -6.185751E+01  2.408353E-04 -1.457851E+02  2.440307E-04 -1.446626E+02  9.182790E-01 -5.468344E+01 
8.970450E+02  9.145338E-01 -6.185818E+01  2.262518E-04 -1.435007E+02  2.268872E-04 -1.457695E+02  9.182756E-01 -5.468479E+01 
8.970762E+02  9.144509E-01 -6.185794E+01  2.172131E-04 -1.449207E+02  2.209462E-04 -1.473089E+02  9.182338E-01 -5.467755E+01 
8.971075E+02  9.145081E-01 -6.185930E+01  2.243246E-04 -1.491701E+02  2.085959E-04 -1.489306E+02  9.182033E-01 -5.468066E+01 
8.971387E+02  9.144751E-01 -6.185889E+01  2.125851E-04 -1.515960E+02  2.051437E-04 -1.465536E+02  9.181677E-01 -5.468761E+01 
8.971700E+02  9.145055E-01 -6.186346E+01  2.016856E-04 -1.509259E+02  2.057424E-04 -1.506608E+02  9.181595E-01 -5.469656E+01 
8.972012E+02  9.144581E-01 -6.187456E+01  1.920392E-04 -1.517150E+02  1.908237E-04 -1.522954E+02  9.181589E-01 -5.469863E+01 
8.972325E+02  9.143857E-01 -6.187435E+01  1.879451E-04 -1.491946E+02  1.849207E-04 -1.526471E+02  9.180968E-01 -5.469343E+01 
8.972637E+02  9.143675E-01 -6.186705E+01  1.708891E-04 -1.510465E+02  1.810912E-04 -1.546162E+02  9.181427E-01 -5.468381E+01 
8.972950E+02  9.143668E-01 -6.185994E+01  1.696732E-04 -1.567236E+02  1.633308E-04 -1.528123E+02  9.180999E-01 -5.469038E+01 
8.973262E+02  9.144139E-01 -6.187154E+01  1.644051E-04 -1.544964E+02  1.601959E-04 -1.562173E+02  9.181274E-01 -5.470622E+01 
8.973575E+02  9.143732E-01 -6.188437E+01  1.560291E-04 -1.546612E+02  1.577809E-04 -1.593310E+02  9.180490E-01 -5.470732E+01 
8.973887E+02  9.143535E-01 -6.188455E+01  1.537329E-04 -1.599439E+02  1.402782E-04 -1.570143E+02  9.180832E-01 -5.470139E+01 
8.974200E+02  9.143578E-01 -6.187348E+01  1.358722E-04 -1.602226E+02  1.325639E-04 -1.582050E+02  9.179534E-01 -5.469818E+01 
8.974512E+02  9.142787E-01 -6.187247E+01  1.244061E-04 -1.615818E+02  1.205115E-04 -1.619447E+02  9.179866E-01 -5.469421E+01 
8.974825E+02  9.143713E-01 -6.188081E+01  1.244248E-04 -1.596937E+02  1.174869E-04 -1.588147E+02  9.179991E-01 -5.470955E+01 
8.975137E+02  9.143334E-01 -6.189177E+01  1.043021E-04 -1.626806E+02  1.037720E-04 -1.650703E+02  9.180214E-01 -5.471696E+01 
8.975450E+02  9.143100E-01 -6.189741E+01  8.919172E-05 -1.616878E+02  9.643813E-05 -1.663692E+02  9.179761E-01 -5.471389E+01 
8.975762E+02  9.142615E-01 -6.188733E+01  7.621085E-05 -1.652773E+02  7.966418E-05 -1.644440E+02  9.178808E-01 -5.470072E+01 
8.976075E+02  9.142785E-01 -6.188431E+01  6.637682E-05 -1.730977E+02  6.937298E-05 -1.721189E+02  9.179169E-01 -5.469491E+01 
8.976387E+02  9.142992E-01 -6.188862E+01  5.934383E-05 -1.654503E+02  5.612344E-05 -1.690571E+02  9.179332E-01 -5.471614E+01 
8.976700E+02  9.142920E-01 -6.189985E+01  5.590739E-05 -1.617645E+02  5.011250E-05 -1.654196E+02  9.179410E-01 -5.472571E+01 
8.977012E+02  9.142210E-01 -6.190676E+01  4.016759E-05 -1.771857E+02  3.527394E-05 -1.606774E+02  9.178539E-01 -5.472032E+01 
8.977325E+02  9.142484E-01 -6.190160E+01  2.516421E-05 -1.441212E+02  2.668736E-05 1.777052E+02  9.178920E-01 -5.470781E+01 
8.977637E+02  9.142755E-01 -6.189718E+01  2.385580E-05 -1.408303E+02  8.865466E-06 -1.622330E+02  9.178335E-01 -5.470528E+01 
8.977950E+02  9.141935E-01 -6.189676E+01  1.392664E-06 -1.666772E+02  1.137780E-05 -1.616345E+02  9.178360E-01 -5.472148E+01 
8.978262E+02  9.142736E-01 -6.190881E+01  5.507136E-06 2.591134E+01  8.415559E-06 -3.952307E+01  9.178237E-01 -5.473389E+01 
8.978575E+02  9.142440E-01 -6.192165E+01  1.064276E-05 -2.620195E+01  2.509641E-05 -2.944897E+01  9.178609E-01 -5.473698E+01 
8.978887E+02  9.142037E-01 -6.191567E+01  2.247719E-05 -2.477068E+01  3.395042E-05 -9.261893E+00  9.177512E-01 -5.472026E+01 
8.979200E+02  9.141477E-01 -6.190552E+01  3.698205E-05 -1.884987E+01  4.586429E-05 -1.222271E+01  9.177929E-01 -5.471742E+01 
8.979512E+02  9.142158E-01 -6.190719E+01  5.442171E-05 -1.678758E+01  5.367606E-05 -1.429597E+01  9.177498E-01 -5.472426E+01 
8.979825E+02  9.142134E-01 -6.192175E+01  5.741659E-05 -1.849888E+01  5.360299E-05 -2.848984E+01  9.178123E-01 -5.473261E+01 
8.980137E+02  9.141962E-01 -6.192629E+01  6.689423E-05 -1.929284E+01  7.945697E-05 -1.924845E+01  9.177215E-01 -5.474309E+01 
8.980450E+02  9.142085E-01 -6.192725E+01  9.215279E-05 -2.203762E+01  7.431024E-05 -2.188134E+01  9.176761E-01 -5.473239E+01 
8.980762E+02  9.141770E-01 -6.192241E+01  9.959921E-05 -2.667992E+01  9.732103E-05 -2.393127E+01  9.177489E-01 -5.472991E+01 
8.981075E+02  9.141354E-01 -6.192245E+01  1.096781E-04 -2.744534E+01  1.065935E-04 -2.550429E+01  9.177684E-01 -5.473283E+01 
8.981387E+02  9.141722E-01 -6.193009E+01  1.188127E-04 -2.124314E+01  1.173899E-04 -2.418480E+01  9.177325E-01 -5.474899E+01 
8.981700E+02  9.140742E-01 -6.194196E+01  1.323513E-04 -2.558572E+01  1.216333E-04 -2.572365E+01  9.177023E-01 -5.474900E+01 
8.982012E+02  9.141623E-01 -6.194174E+01  1.347815E-04 -3.052628E+01  1.379453E-04 -2.773743E+01  9.177457E-01 -5.475608E+01 
8.982325E+02  9.141420E-01 -6.193844E+01  1.530971E-04 -3.088410E+01  1.504529E-04 -2.566491E+01  9.176604E-01 -5.474690E+01 
8.982637E+02  9.140826E-01 -6.194286E+01  1.557511E-04 -2.730942E+01  1.537121E-04 -2.878233E+01  9.176665E-01 -5.473828E+01 
8.982950E+02  9.140869E-01 -6.194052E+01  1.628708E-04 -3.132308E+01  1.746316E-04 -3.257312E+01  9.177475E-01 -5.475913E+01 
8.983262E+02  9.141580E-01 -6.195444E+01  1.721157E-04 -3.275029E+01  1.755377E-04 -3.588928E+01  9.177316E-01 -5.476315E+01 
8.983575E+02  9.141577E-01 -6.196157E+01  1.866359E-04 -3.380052E+01  1.784082E-04 -3.281043E+01  9.177480E-01 -5.476313E+01 
8.983887E+02  9.140424E-01 -6.195702E+01  2.000965E-04 -3.570260E+01  1.868393E-04 -3.167572E+01  9.177287E-01 -5.476860E+01 
8.984200E+02  9.140846E-01 -6.196013E+01  1.960638E-04 -3.484798E+01  2.063066E-04 -3.278987E+01  9.177682E-01 -5.476221E+01 
8.984512E+02  9.141558E-01 -6.196337E+01  2.038116E-04 -3.504350E+01  2.100718E-04 -3.936415E+01  9.178215E-01 -5.476996E+01 
8.984825E+02  9.141662E-01 -6.196965E+01  2.181886E-04 -3.926268E+01  2.225746E-04 -3.732919E+01  9.177145E-01 -5.477560E+01 
8.985137E+02  9.141078E-01 -6.197471E+01  2.292825E-04 -3.967206E+01  2.173590E-04 -4.081578E+01  9.177226E-01 -5.478673E+01 
8.985450E+02  9.141004E-01 -6.197448E+01  2.275664E-04 -4.116346E+01  2.411797E-04 -4.033528E+01  9.177102E-01 -5.478722E+01 
8.985762E+02  9.141362E-01 -6.197490E+01  2.534059E-04 -4.207676E+01  2.453698E-04 -4.088368E+01  9.178098E-01 -5.477898E+01 
8.986075E+02  9.140945E-01 -6.197294E+01  2.454239E-04 -4.212376E+01  2.541737E-04 -4.367651E+01  9.177054E-01 -5.478184E+01 
8.986387E+02  9.140087E-01 -6.197831E+01  2.533143E-04 -4.231300E+01  2.563587E-04 -4.425972E+01  9.177176E-01 -5.477986E+01 
8.986700E+02  9.140812E-01 -6.198299E+01  2.664911E-04 -4.704329E+01  2.656926E-04 -4.529340E+01  9.177801E-01 -5.480355E+01 
8.987012E+02  9.141402E-01 -6.199111E+01  2.650251E-04 -4.635025E+01  2.618274E-04 -4.649805E+01  9.177831E-01 -5.479850E+01 
8.987325E+02  9.140629E-01 -6.199397E+01  2.682343E-04 -4.629332E+01  2.755536E-04 -4.876668E+01  9.177092E-01 -5.479459E+01 
8.987637E+02  9.140936E-01 -6.199039E+01  2.759255E-04 -5.047451E+01  2.762028E-04 -4.965913E+01  9.177588E-01 -5.479672E+01 
8.987950E+02  9.140951E-01 -6.199042E+01  2.895728E-04 -5.006880E+01  2.869537E-04 -5.003041E+01  9.177027E-01 -5.479606E+01 
8.988262E+02  9.140249E-01 -6.199929E+01  2.945095E-04 -5.235081E+01  2.952861E-04 -5.092152E+01  9.177212E-01 -5.481381E+01 
8.988575E+02  9.140440E-01 -6.200707E+01  2.911573E-04 -5.451180E+01  2.955369E-04 -5.282961E+01  9.177148E-01 -5.480365E+01 
8.988887E+02  9.139814E-01 -6.200161E+01  3.031025E-04 -5.394935E+01  3.091408E-04 -5.484357E+01  9.177109E-01 -5.480053E+01 
8.989200E+02  9.140105E-01 -6.200263E+01  3.026754E-04 -5.581625E+01  2.975963E-04 -5.484439E+01  9.177775E-01 -5.480254E+01 
8.989512E+02  9.140985E-01 -6.200708E+01  3.029338E-04 -5.666249E+01  3.014571E-04 -5.579517E+01  9.177227E-01 -5.481724E+01 
8.989825E+02  9.140258E-01 -6.202140E+01  3.093890E-04 -5.793080E+01  3.108850E-04 -5.698145E+01  9.177022E-01 -5.483280E+01 
8.990137E+02  9.140815E-01 -6.202392E+01  3.209576E-04 -5.889486E+01  3.089076E-04 -5.916316E+01  9.176489E-01 -5.482462E+01 
8.990450E+02  9.140095E-01 -6.201897E+01  3.130108E-04 -5.994864E+01  3.150809E-04 -5.864150E+01  9.177050E-01 -5.481328E+01 
8.990762E+02  9.140651E-01 -6.202099E+01  3.173909E-04 -5.847714E+01  3.270653E-04 -6.046483E+01  9.176510E-01 -5.482128E+01 
8.991075E+02  9.140334E-01 -6.202264E+01  3.160108E-04 -6.155673E+01  3.222845E-04 -5.975074E+01  9.177165E-01 -5.482801E+01 
8.991387E+02  9.139839E-01 -6.202701E+01  3.235812E-04 -6.183077E+01  3.243566E-04 -6.280748E+01  9.177831E-01 -5.483971E+01 
8.991700E+02  9.140744E-01 -6.203525E+01  3.276731E-04 -6.159083E+01  3.298203E-04 -6.306985E+01  9.177715E-01 -5.483553E+01 
8.992012E+02  9.140387E-01 -6.203931E+01  3.234745E-04 -6.478311E+01  3.262692E-04 -6.350033E+01  9.176733E-01 -5.483165E+01 
8.992325E+02  9.140950E-01 -6.203625E+01  3.320266E-04 -6.474704E+01  3.329656E-04 -6.359440E+01  9.177522E-01 -5.483255E+01 
8.992637E+02  9.140101E-01 -6.203539E+01  3.385074E-04 -6.374376E+01  3.319842E-04 -6.363364E+01  9.177273E-01 -5.483287E+01 
8.992950E+02  9.141429E-01 -6.204376E+01  3.388107E-04 -6.492091E+01  3.320601E-04 -6.346955E+01  9.177123E-01 -5.484447E+01 
8.993262E+02  9.140189E-01 -6.203912E+01  3.378309E-04 -6.526578E+01  3.312591E-04 -6.564269E+01  9.177217E-01 -5.485245E+01 
8.993575E+02  9.140045E-01 -6.205607E+01  3.367998E-04 -6.759259E+01  3.353222E-04 -6.647345E+01  9.177369E-01 -5.484746E+01 
8.993887E+02  9.140274E-01 -6.205338E+01  3.465409E-04 -6.674814E+01  3.269099E-04 -6.713551E+01  9.176892E-01 -5.484664E+01 
8.994200E+02  9.140043E-01 -6.204902E+01  3.432487E-04 -6.716686E+01  3.379577E-04 -6.828745E+01  9.176761E-01 -5.484440E+01 
8.994512E+02  9.140820E-01 -6.206061E+01  3.484050E-04 -6.781326E+01  3.428738E-04 -6.746464E+01  9.176379E-01 -5.485938E+01 
8.994825E+02  9.140199E-01 -6.206277E+01  3.358783E-04 -6.784703E+01  3.386960E-04 -6.854156E+01  9.176982E-01 -5.485992E+01 
8.995137E+02  9.140591E-01 -6.207414E+01  3.515315E-04 -6.919539E+01  3.404706E-04 -6.807623E+01  9.177509E-01 -5.486308E+01 
8.995450E+02  9.141297E-01 -6.207373E+01  3.475526E-04 -6.836958E+01  3.494624E-04 -6.978617E+01  9.177598E-01 -5.486446E+01 
8.995762E+02  9.140359E-01 -6.207002E+01  3.401369E-04 -6.875101E+01  3.489156E-04 -6.972534E+01  9.177295E-01 -5.485817E+01 
8.996075E+02  9.140344E-01 -6.207055E+01  3.534090E-04 -7.023445E+01  3.478248E-04 -7.112433E+01  9.177289E-01 -5.486217E+01 
8.996387E+02  9.140581E-01 -6.207697E+01  3.553104E-04 -7.157417E+01  3.590584E-04 -6.975218E+01  9.177392E-01 -5.487007E+01 
8.996700E+02  9.141148E-01 -6.209251E+01  3.556782E-04 -7.023608E+01  3.572409E-04 -6.922074E+01  9.177023E-01 -5.488402E+01 
8.997012E+02  9.141189E-01 -6.209160E+01  3.519477E-04 -7.010995E+01  3.607359E-04 -7.155385E+01  9.176849E-01 -5.487900E+01 
8.997325E+02  9.140437E-01 -6.209295E+01  3.616475E-04 -7.216431E+01  3.518198E-04 -7.057091E+01  9.177074E-01 -5.487171E+01 
8.997637E+02  9.140623E-01 -6.208767E+01  3.755033E-04 -7.183026E+01  3.611480E-04 -7.104328E+01  9.176440E-01 -5.486543E+01 
8.997950E+02  9.140047E-01 -6.208968E+01  3.636194E-04 -7.090577E+01  3.621245E-04 -7.255696E+01  9.176567E-01 -5.487940E+01 
8.998262E+02  9.140638E-01 -6.210755E+01  3.728630E-04 -7.291279E+01  3.585724E-04 -7.359907E+01  9.176879E-01 -5.489436E+01 
8.998575E+02  9.140725E-01 -6.210875E+01  3.701696E-04 -7.302944E+01  3.593554E-04 -7.292071E+01  9.176938E-01 -5.489350E+01 
8.998887E+02  9.140352E-01 -6.211029E+01  3.704158E-04 -7.333725E+01  3.736166E-04 -7.510052E+01  9.176684E-01 -5.488276E+01 
8.999200E+02  9.140631E-01 -6.210426E+01  3.715316E-04 -7.327132E+01  3.719822E-04 -7.347849E+01  9.177171E-01 -5.488295E+01 
8.999512E+02  9.140407E-01 -6.210056E+01  3.744371E-04 -7.423032E+01  3.724054E-04 -7.504585E+01  9.177264E-01 -5.488924E+01 
8.999825E+02  9.141599E-01 -6.212013E+01  3.780034E-04 -7.501074E+01  3.644316E-04 -7.458138E+01  9.176787E-01 -5.490612E+01 
9.000137E+02  9.140718E-01 -6.212432E+01  3.728015E-04 -7.467517E+01  3.763246E-04 -7.413327E+01  9.176854E-01 -5.490850E+01 
9.000450E+02  9.140738E-01 -6.213045E+01  3.832429E-04 -7.610690E+01  3.792889E-04 -7.519587E+01  9.177488E-01 -5.489717E+01 
9.000762E+02  9.140267E-01 -6.211538E+01  3.819459E-04 -7.726658E+01  3.841006E-04 -7.684744E+01  9.176355E-01 -5.489832E+01 
9.001075E+02  9.140088E-01 -6.212471E+01  3.769403E-04 -7.671430E+01  3.869666E-04 -7.646606E+01  9.176815E-01 -5.490661E+01 
9.001387E+02  9.140114E-01 -6.213615E+01  3.890063E-04 -7.830276E+01  3.826758E-04 -7.823927E+01  9.177087E-01 -5.492249E+01 
9.001700E+02  9.140854E-01 -6.214520E+01  3.896279E-04 -7.820121E+01  3.910475E-04 -7.734703E+01  9.176938E-01 -5.491408E+01 
9.002012E+02  9.140350E-01 -6.214069E+01  3.865964E-04 -7.792978E+01  4.000391E-04 -7.773477E+01  9.175823E-01 -5.491025E+01 
9.002325E+02  9.140379E-01 -6.213685E+01  3.844548E-04 -7.952060E+01  3.913039E-04 -7.746376E+01  9.176392E-01 -5.491248E+01 
9.002637E+02  9.139599E-01 -6.213878E+01  3.969530E-04 -7.919437E+01  3.942776E-04 -7.944942E+01  9.177027E-01 -5.491923E+01 
9.002950E+02  9.139390E-01 -6.215527E+01  3.977819E-04 -8.064559E+01  3.957442E-04 -8.109884E+01  9.176295E-01 -5.492816E+01 
9.003262E+02  9.139676E-01 -6.215452E+01  3.983287E-04 -7.988279E+01  3.990082E-04 -8.087991E+01  9.176793E-01 -5.492740E+01 
9.003575E+02  9.140807E-01 -6.216299E+01  3.932105E-04 -8.218481E+01  4.001263E-04 -8.119925E+01  9.176597E-01 -5.492815E+01 
9.003887E+02  9.140496E-01 -6.215662E+01  3.954486E-04 -8.145252E+01  3.959720E-04 -8.233908E+01  9.176431E-01 -5.492530E+01 
9.004200E+02  9.139743E-01 -6.215705E+01  4.036780E-04 -8.349099E+01  3.992717E-04 -8.204127E+01  9.176778E-01 -5.492460E+01 
9.004512E+02  9.140460E-01 -6.216336E+01  4.112418E-04 -8.337994E+01  4.088066E-04 -8.274325E+01  9.176536E-01 -5.493349E+01 
9.004825E+02  9.140144E-01 -6.217288E+01  3.971572E-04 -8.407774E+01  4.103128E-04 -8.372129E+01  9.176385E-01 -5.493938E+01 
9.005137E+02  9.140156E-01 -6.217341E+01  4.062878E-04 -8.497253E+01  4.010887E-04 -8.365832E+01  9.176393E-01 -5.494160E+01 
9.005450E+02  9.139922E-01 -6.217682E+01  4.010217E-04 -8.468030E+01  4.028567E-04 -8.389788E+01  9.176586E-01 -5.494091E+01 
9.005762E+02  9.139824E-01 -6.217425E+01  4.048593E-04 -8.587370E+01  4.035316E-04 -8.577984E+01  9.176221E-01 -5.493785E+01 
9.006075E+02  9.140347E-01 -6.217779E+01  4.022884E-04 -8.605310E+01  4.065282E-04 -8.668325E+01  9.176109E-01 -5.494240E+01 
9.006387E+02  9.140140E-01 -6.219164E+01  4.083069E-04 -8.854503E+01  4.119709E-04 -8.858272E+01  9.176066E-01 -5.494812E+01 
9.006700E+02  9.140428E-01 -6.219552E+01  4.059441E-04 -8.779246E+01  4.056475E-04 -8.686242E+01  9.176515E-01 -5.495859E+01 
9.007012E+02  9.139662E-01 -6.219266E+01  4.094583E-04 -8.824678E+01  4.082971E-04 -8.830176E+01  9.174908E-01 -5.495208E+01 
9.007325E+02  9.138684E-01 -6.220265E+01  4.086560E-04 -8.825836E+01  4.088469E-04 -8.905051E+01  9.176015E-01 -5.495268E+01 
9.007637E+02  9.139664E-01 -6.219620E+01  4.073532E-04 -8.865150E+01  4.137971E-04 -8.949650E+01  9.176220E-01 -5.495732E+01 
9.007950E+02  9.140153E-01 -6.219895E+01  4.183222E-04 -9.044735E+01  4.038230E-04 -9.088644E+01  9.176283E-01 -5.494757E+01 
9.008262E+02  9.139134E-01 -6.219947E+01  4.098939E-04 -9.110961E+01  4.012538E-04 -9.173385E+01  9.175861E-01 -5.495854E+01 
9.008575E+02  9.139239E-01 -6.221009E+01  4.065719E-04 -9.159540E+01  3.977950E-04 -9.136971E+01  9.176687E-01 -5.496667E+01 
9.008887E+02  9.139372E-01 -6.222100E+01  4.067663E-04 -9.316109E+01  4.042847E-04 -9.173782E+01  9.175499E-01 -5.496625E+01 
9.009200E+02  9.139090E-01 -6.221629E+01  4.058467E-04 -9.297180E+01  4.042884E-04 -9.332992E+01  9.176571E-01 -5.497118E+01 
9.009512E+02  9.139169E-01 -6.221636E+01  4.065087E-04 -9.377840E+01  3.987981E-04 -9.347099E+01  9.176136E-01 -5.496938E+01 
9.009825E+02  9.139641E-01 -6.221947E+01  3.970881E-04 -9.417439E+01  4.041386E-04 -9.568942E+01  9.176126E-01 -5.497187E+01 
9.010137E+02  9.140242E-01 -6.222369E+01  4.067488E-04 -9.515719E+01  4.005266E-04 -9.454723E+01  9.176369E-01 -5.498323E+01 
9.010450E+02  9.140442E-01 -6.223262E+01  3.904742E-04 -9.578496E+01  3.952063E-04 -9.560422E+01  9.176080E-01 -5.498852E+01 
9.010762E+02  9.139004E-01 -6.223576E+01  3.983351E-04 -9.656304E+01  3.964166E-04 -9.580797E+01  9.176661E-01 -5.499723E+01 
9.011075E+02  9.138907E-01 -6.223436E+01  3.864104E-04 -9.738190E+01  3.900007E-04 -9.707985E+01  9.176509E-01 -5.499139E+01 
9.011387E+02  9.138700E-01 -6.223799E+01  3.927188E-04 -9.782086E+01  3.792872E-04 -9.801440E+01  9.176451E-01 -5.499232E+01 
9.011700E+02  9.138811E-01 -6.223141E+01  3.813728E-04 -9.745917E+01  3.863262E-04 -9.699298E+01  9.175910E-01 -5.500196E+01 
9.012012E+02  9.138685E-01 -6.224216E+01  3.883417E-04 -9.797623E+01  3.825279E-04 -9.789238E+01  9.176242E-01 -5.500889E+01 
