! Matrix data file written by TouchstoneData, EPCOS AG
! FILENAME: "B3961_WB.s2p"
! COMMENT: "(LU38B_MB.s2p) EPCOS AG 02.07.2010 10:45:05"
! INFO: nport=2, nfreq=1601
! DATE: "Wed Feb  1 14:30:13 2012"
! USER: "Wilfried Schott"
!
! port | pin | signal
! -----|-----|--------
!   1  |  1  |  IN
!   2  |  3  |  OUT
! --------------------
! 
# MHZ S MA R 50
! freq  magS11 angS11  magS21 angS21  magS12 angS12  magS22 angS22
2.900000E+02  9.917606E-01 -2.107323E+01  1.079085E-04 6.999091E+01  9.851559E-05 6.913300E+01  9.889608E-01 -2.077358E+01 
2.900312E+02  9.918970E-01 -2.107378E+01  9.004434E-05 6.454834E+01  9.882963E-05 6.791848E+01  9.889464E-01 -2.077475E+01 
2.900625E+02  9.919428E-01 -2.107144E+01  1.065549E-04 6.477347E+01  9.556315E-05 5.846411E+01  9.888927E-01 -2.078555E+01 
2.900938E+02  9.917658E-01 -2.106748E+01  1.158788E-04 5.971669E+01  1.058690E-04 7.984542E+01  9.888899E-01 -2.078393E+01 
2.901250E+02  9.919794E-01 -2.107327E+01  1.150333E-04 6.561074E+01  9.853451E-05 7.677215E+01  9.888604E-01 -2.079346E+01 
2.901562E+02  9.920492E-01 -2.107822E+01  8.706045E-05 7.226874E+01  1.075864E-04 6.265258E+01  9.889773E-01 -2.079624E+01 
2.901875E+02  9.919528E-01 -2.108439E+01  8.591256E-05 6.230008E+01  1.031030E-04 5.504603E+01  9.889946E-01 -2.079260E+01 
2.902188E+02  9.920814E-01 -2.108406E+01  1.150391E-04 6.637637E+01  1.075506E-04 7.240843E+01  9.890311E-01 -2.079615E+01 
2.902500E+02  9.918894E-01 -2.108443E+01  9.097434E-05 5.725607E+01  7.519549E-05 6.554391E+01  9.889652E-01 -2.080141E+01 
2.902812E+02  9.919670E-01 -2.109772E+01  9.842629E-05 7.519072E+01  7.752455E-05 7.499094E+01  9.891762E-01 -2.080463E+01 
2.903125E+02  9.919901E-01 -2.109838E+01  9.976807E-05 6.552841E+01  1.020017E-04 8.591562E+01  9.890325E-01 -2.081069E+01 
2.903438E+02  9.919848E-01 -2.109628E+01  9.311964E-05 6.886222E+01  9.763539E-05 6.463339E+01  9.889612E-01 -2.080741E+01 
2.903750E+02  9.920242E-01 -2.109832E+01  6.673929E-05 6.922573E+01  9.646700E-05 7.110048E+01  9.890630E-01 -2.080099E+01 
2.904062E+02  9.921393E-01 -2.110613E+01  7.778124E-05 6.176830E+01  8.364363E-05 6.420742E+01  9.889720E-01 -2.081681E+01 
2.904375E+02  9.920994E-01 -2.109992E+01  1.038251E-04 7.713845E+01  9.225227E-05 6.809220E+01  9.889613E-01 -2.082233E+01 
2.904688E+02  9.920395E-01 -2.110413E+01  7.886269E-05 6.961183E+01  9.930477E-05 7.556575E+01  9.891040E-01 -2.082870E+01 
2.905000E+02  9.920865E-01 -2.111097E+01  1.045191E-04 6.749475E+01  9.936140E-05 6.761423E+01  9.890603E-01 -2.082390E+01 
2.905312E+02  9.920738E-01 -2.111022E+01  9.824412E-05 8.423313E+01  8.412472E-05 7.554871E+01  9.890382E-01 -2.082464E+01 
2.905625E+02  9.920793E-01 -2.112281E+01  1.023421E-04 6.934050E+01  8.237777E-05 6.974159E+01  9.889527E-01 -2.082423E+01 
2.905938E+02  9.920201E-01 -2.111131E+01  1.004086E-04 7.256484E+01  8.288276E-05 6.646714E+01  9.890458E-01 -2.084044E+01 
2.906250E+02  9.919754E-01 -2.111854E+01  8.567951E-05 6.645075E+01  8.965539E-05 7.261208E+01  9.892133E-01 -2.084327E+01 
2.906562E+02  9.920304E-01 -2.112566E+01  9.453268E-05 6.481767E+01  8.348634E-05 6.854574E+01  9.889898E-01 -2.084451E+01 
2.906875E+02  9.920957E-01 -2.111937E+01  9.978798E-05 6.530002E+01  9.568906E-05 6.695581E+01  9.890838E-01 -2.084870E+01 
2.907188E+02  9.921007E-01 -2.113344E+01  1.018552E-04 6.304778E+01  8.895753E-05 7.196486E+01  9.890797E-01 -2.084931E+01 
2.907500E+02  9.922330E-01 -2.113247E+01  6.853025E-05 7.396944E+01  8.156188E-05 6.926991E+01  9.891282E-01 -2.084882E+01 
2.907812E+02  9.922136E-01 -2.114031E+01  9.233604E-05 6.975140E+01  8.992304E-05 7.373843E+01  9.890450E-01 -2.085567E+01 
2.908125E+02  9.921885E-01 -2.114611E+01  8.458254E-05 6.776252E+01  8.720430E-05 7.864825E+01  9.891905E-01 -2.085990E+01 
2.908438E+02  9.921600E-01 -2.114365E+01  9.586777E-05 6.554173E+01  8.739859E-05 7.334596E+01  9.890257E-01 -2.086308E+01 
2.908750E+02  9.922526E-01 -2.113750E+01  9.018321E-05 6.085630E+01  7.647579E-05 7.530496E+01  9.891753E-01 -2.086312E+01 
2.909062E+02  9.922244E-01 -2.115269E+01  6.743036E-05 7.222717E+01  7.400197E-05 7.413175E+01  9.891190E-01 -2.086090E+01 
2.909375E+02  9.921525E-01 -2.115358E+01  8.111129E-05 8.200258E+01  6.858188E-05 7.281950E+01  9.891386E-01 -2.087018E+01 
2.909688E+02  9.922671E-01 -2.115959E+01  1.068301E-04 7.967601E+01  8.580814E-05 7.540562E+01  9.889905E-01 -2.087109E+01 
2.910000E+02  9.921943E-01 -2.115152E+01  9.554432E-05 6.063506E+01  8.881217E-05 7.041184E+01  9.889761E-01 -2.087336E+01 
2.910312E+02  9.922204E-01 -2.116715E+01  9.733880E-05 6.651564E+01  6.487679E-05 6.698511E+01  9.890145E-01 -2.086950E+01 
2.910625E+02  9.921133E-01 -2.116447E+01  9.079581E-05 7.472051E+01  9.654228E-05 7.041435E+01  9.890380E-01 -2.088970E+01 
2.910938E+02  9.922583E-01 -2.116063E+01  1.106457E-04 6.644617E+01  8.152526E-05 7.448980E+01  9.890049E-01 -2.089610E+01 
2.911250E+02  9.921580E-01 -2.115705E+01  1.012942E-04 7.930607E+01  8.762532E-05 7.906064E+01  9.891340E-01 -2.088060E+01 
2.911562E+02  9.922614E-01 -2.117123E+01  9.833900E-05 7.638458E+01  8.830436E-05 6.839607E+01  9.890591E-01 -2.089289E+01 
2.911875E+02  9.923055E-01 -2.117762E+01  8.649136E-05 6.082251E+01  9.052555E-05 8.359404E+01  9.891170E-01 -2.089545E+01 
2.912188E+02  9.922636E-01 -2.118148E+01  9.011968E-05 5.900086E+01  8.342679E-05 7.177008E+01  9.891444E-01 -2.090820E+01 
2.912500E+02  9.921345E-01 -2.117884E+01  1.108862E-04 7.132425E+01  9.814868E-05 7.095155E+01  9.892663E-01 -2.090077E+01 
2.912812E+02  9.921639E-01 -2.118430E+01  1.043883E-04 5.740329E+01  1.068698E-04 8.328459E+01  9.890841E-01 -2.090165E+01 
2.913125E+02  9.921195E-01 -2.118452E+01  8.307650E-05 7.543389E+01  9.601713E-05 7.572218E+01  9.891125E-01 -2.090896E+01 
2.913438E+02  9.924116E-01 -2.118485E+01  9.029056E-05 6.662770E+01  9.657529E-05 6.464153E+01  9.891215E-01 -2.090369E+01 
2.913750E+02  9.923344E-01 -2.118595E+01  1.225954E-04 6.622906E+01  8.420041E-05 6.227225E+01  9.891628E-01 -2.091750E+01 
2.914062E+02  9.924026E-01 -2.119429E+01  8.204732E-05 7.613434E+01  8.523358E-05 6.483598E+01  9.891194E-01 -2.091821E+01 
2.914375E+02  9.924266E-01 -2.119408E+01  1.085104E-04 6.451635E+01  8.317539E-05 6.473848E+01  9.890523E-01 -2.091640E+01 
2.914688E+02  9.923081E-01 -2.119826E+01  8.548516E-05 6.822642E+01  9.061735E-05 6.166350E+01  9.890087E-01 -2.092000E+01 
2.915000E+02  9.921393E-01 -2.120578E+01  9.986074E-05 6.293617E+01  9.364915E-05 6.368440E+01  9.891737E-01 -2.092422E+01 
2.915312E+02  9.923076E-01 -2.120605E+01  1.083419E-04 6.692179E+01  1.168593E-04 6.648057E+01  9.890451E-01 -2.092434E+01 
2.915625E+02  9.922168E-01 -2.120169E+01  9.960315E-05 5.825925E+01  8.447411E-05 6.835793E+01  9.890488E-01 -2.093402E+01 
2.915938E+02  9.923042E-01 -2.120517E+01  1.147637E-04 6.638063E+01  1.032650E-04 5.459445E+01  9.890727E-01 -2.093740E+01 
2.916250E+02  9.922330E-01 -2.121685E+01  9.663377E-05 7.056193E+01  9.896269E-05 7.382993E+01  9.890843E-01 -2.093856E+01 
2.916562E+02  9.921638E-01 -2.120662E+01  9.549450E-05 5.019484E+01  8.781446E-05 6.781932E+01  9.890326E-01 -2.094491E+01 
2.916875E+02  9.923919E-01 -2.121522E+01  9.664125E-05 5.302209E+01  8.284849E-05 6.846822E+01  9.891058E-01 -2.094610E+01 
2.917188E+02  9.921489E-01 -2.121517E+01  9.795394E-05 6.008639E+01  7.819478E-05 5.865270E+01  9.890043E-01 -2.094817E+01 
2.917500E+02  9.922300E-01 -2.122518E+01  7.819875E-05 5.883559E+01  8.209339E-05 6.334299E+01  9.890301E-01 -2.094019E+01 
2.917812E+02  9.922820E-01 -2.122040E+01  1.146965E-04 4.842727E+01  6.813632E-05 5.435381E+01  9.890107E-01 -2.095697E+01 
2.918125E+02  9.922600E-01 -2.123012E+01  8.640446E-05 4.924110E+01  8.534023E-05 5.976556E+01  9.891276E-01 -2.095597E+01 
2.918438E+02  9.924107E-01 -2.123225E+01  7.976607E-05 6.900102E+01  6.875005E-05 5.110309E+01  9.890705E-01 -2.095726E+01 
2.918750E+02  9.924633E-01 -2.124069E+01  6.550920E-05 6.662501E+01  6.003334E-05 4.949810E+01  9.889599E-01 -2.096090E+01 
2.919062E+02  9.923321E-01 -2.123499E+01  8.847045E-05 5.729193E+01  7.447657E-05 5.809782E+01  9.891162E-01 -2.096693E+01 
2.919375E+02  9.922483E-01 -2.123980E+01  7.654702E-05 4.784697E+01  7.904653E-05 6.229533E+01  9.891912E-01 -2.096642E+01 
2.919688E+02  9.923673E-01 -2.124611E+01  5.995263E-05 5.864997E+01  9.006347E-05 5.085343E+01  9.891620E-01 -2.096978E+01 
2.920000E+02  9.923557E-01 -2.124516E+01  8.800650E-05 5.528947E+01  7.529505E-05 5.632846E+01  9.892411E-01 -2.097699E+01 
2.920312E+02  9.923251E-01 -2.124860E+01  8.667770E-05 7.035433E+01  6.694995E-05 6.323677E+01  9.890897E-01 -2.098512E+01 
2.920625E+02  9.924045E-01 -2.125551E+01  6.786324E-05 5.835997E+01  8.270611E-05 7.219276E+01  9.890542E-01 -2.097764E+01 
2.920938E+02  9.922527E-01 -2.125123E+01  6.412956E-05 7.564922E+01  4.969778E-05 7.144922E+01  9.891261E-01 -2.098739E+01 
2.921250E+02  9.922838E-01 -2.124965E+01  6.863381E-05 7.694827E+01  5.802064E-05 6.086045E+01  9.889792E-01 -2.098272E+01 
2.921562E+02  9.925181E-01 -2.125862E+01  5.790917E-05 7.552792E+01  5.625911E-05 7.849093E+01  9.889095E-01 -2.098569E+01 
2.921875E+02  9.924461E-01 -2.125515E+01  7.366396E-05 6.496691E+01  7.684272E-05 6.983596E+01  9.891800E-01 -2.098084E+01 
2.922188E+02  9.922725E-01 -2.126385E+01  7.838957E-05 6.089969E+01  4.684399E-05 7.174647E+01  9.890326E-01 -2.099308E+01 
2.922500E+02  9.923468E-01 -2.126430E+01  7.736149E-05 6.217143E+01  6.967715E-05 7.171095E+01  9.891454E-01 -2.099413E+01 
2.922812E+02  9.924494E-01 -2.127016E+01  7.460085E-05 7.487318E+01  4.938575E-05 8.651614E+01  9.891593E-01 -2.100493E+01 
2.923125E+02  9.923798E-01 -2.126944E+01  5.125813E-05 6.720521E+01  4.094980E-05 6.939577E+01  9.891822E-01 -2.099949E+01 
2.923438E+02  9.924771E-01 -2.126876E+01  6.946699E-05 9.199000E+01  4.177347E-05 9.002431E+01  9.890437E-01 -2.101420E+01 
2.923750E+02  9.924159E-01 -2.126929E+01  5.345510E-05 8.538318E+01  4.127744E-05 7.513102E+01  9.892533E-01 -2.100725E+01 
2.924062E+02  9.922885E-01 -2.128814E+01  7.009166E-05 8.163521E+01  4.969745E-05 7.627828E+01  9.892375E-01 -2.101549E+01 
2.924375E+02  9.922401E-01 -2.128476E+01  5.229006E-05 6.420091E+01  5.040753E-05 7.271773E+01  9.892080E-01 -2.101558E+01 
2.924688E+02  9.923149E-01 -2.127842E+01  4.687601E-05 8.050860E+01  6.409676E-05 7.924060E+01  9.891349E-01 -2.101729E+01 
2.925000E+02  9.923158E-01 -2.128101E+01  5.077877E-05 9.553013E+01  5.566289E-05 1.069995E+02  9.891568E-01 -2.102871E+01 
2.925312E+02  9.923523E-01 -2.128803E+01  4.714994E-05 7.879417E+01  4.734896E-05 1.011557E+02  9.891469E-01 -2.102267E+01 
2.925625E+02  9.921941E-01 -2.129649E+01  6.527565E-05 9.254632E+01  5.077881E-05 1.013873E+02  9.892475E-01 -2.102321E+01 
2.925938E+02  9.922352E-01 -2.129377E+01  5.411769E-05 9.301647E+01  5.488522E-05 1.114049E+02  9.892987E-01 -2.102664E+01 
2.926250E+02  9.921820E-01 -2.129231E+01  6.768323E-05 1.138048E+02  4.597943E-05 1.062216E+02  9.892364E-01 -2.103845E+01 
2.926562E+02  9.923312E-01 -2.130363E+01  6.131153E-05 1.096132E+02  6.755908E-05 1.139590E+02  9.891578E-01 -2.104080E+01 
2.926875E+02  9.922697E-01 -2.130377E+01  6.096629E-05 1.021819E+02  5.430364E-05 9.599523E+01  9.893350E-01 -2.104830E+01 
2.927188E+02  9.921257E-01 -2.131452E+01  3.475561E-05 1.243877E+02  6.486802E-05 1.021738E+02  9.894347E-01 -2.105229E+01 
2.927500E+02  9.921707E-01 -2.130369E+01  6.012439E-05 1.187239E+02  6.837360E-05 1.115744E+02  9.893020E-01 -2.104808E+01 
2.927812E+02  9.924939E-01 -2.131964E+01  7.883976E-05 9.721299E+01  6.483409E-05 1.049193E+02  9.892909E-01 -2.105391E+01 
2.928125E+02  9.921584E-01 -2.131496E+01  7.156700E-05 1.116203E+02  7.002984E-05 1.077561E+02  9.892411E-01 -2.105081E+01 
2.928438E+02  9.920959E-01 -2.132059E+01  7.190584E-05 9.365275E+01  7.999305E-05 1.010255E+02  9.890669E-01 -2.105466E+01 
2.928750E+02  9.922558E-01 -2.132226E+01  9.994604E-05 9.014445E+01  8.377283E-05 1.079883E+02  9.892218E-01 -2.105111E+01 
2.929062E+02  9.922273E-01 -2.132561E+01  9.977753E-05 1.067538E+02  8.347560E-05 1.052504E+02  9.893113E-01 -2.106155E+01 
2.929375E+02  9.921104E-01 -2.133261E+01  7.603551E-05 1.082716E+02  7.216325E-05 1.066580E+02  9.891612E-01 -2.106384E+01 
2.929688E+02  9.918742E-01 -2.132752E+01  8.983474E-05 1.131980E+02  7.069757E-05 1.128981E+02  9.892923E-01 -2.106991E+01 
2.930000E+02  9.920926E-01 -2.132313E+01  7.875034E-05 1.069945E+02  9.470535E-05 1.088646E+02  9.892125E-01 -2.106788E+01 
2.930312E+02  9.920297E-01 -2.132253E+01  1.028147E-04 9.606411E+01  8.268015E-05 9.756775E+01  9.890875E-01 -2.106457E+01 
2.930625E+02  9.921144E-01 -2.133563E+01  8.164553E-05 9.410797E+01  8.458595E-05 1.046706E+02  9.893660E-01 -2.107635E+01 
2.930938E+02  9.921628E-01 -2.133822E+01  9.371610E-05 1.019162E+02  8.731461E-05 1.024849E+02  9.893810E-01 -2.108053E+01 
2.931250E+02  9.921261E-01 -2.134361E+01  1.088886E-04 1.126667E+02  9.215134E-05 1.026797E+02  9.894387E-01 -2.107884E+01 
2.931562E+02  9.921565E-01 -2.133885E+01  1.088793E-04 1.026366E+02  8.915598E-05 1.068186E+02  9.893201E-01 -2.107542E+01 
2.931875E+02  9.919943E-01 -2.134228E+01  1.016769E-04 1.111873E+02  9.840037E-05 1.017859E+02  9.892992E-01 -2.108530E+01 
2.932188E+02  9.919653E-01 -2.134612E+01  1.074749E-04 1.082141E+02  8.587001E-05 1.093173E+02  9.895070E-01 -2.108834E+01 
2.932500E+02  9.919625E-01 -2.135418E+01  1.145346E-04 1.008669E+02  8.697309E-05 1.076295E+02  9.893340E-01 -2.109382E+01 
2.932812E+02  9.919950E-01 -2.135261E+01  9.494934E-05 9.828745E+01  1.102702E-04 1.005081E+02  9.894417E-01 -2.109668E+01 
2.933125E+02  9.919395E-01 -2.134940E+01  1.237078E-04 1.104530E+02  9.310840E-05 1.051340E+02  9.892736E-01 -2.110895E+01 
2.933438E+02  9.920159E-01 -2.135769E+01  1.153627E-04 1.105697E+02  1.161362E-04 1.033184E+02  9.892815E-01 -2.110346E+01 
2.933750E+02  9.918728E-01 -2.135675E+01  1.345405E-04 1.038643E+02  1.140607E-04 9.907196E+01  9.892807E-01 -2.110182E+01 
2.934062E+02  9.919656E-01 -2.136265E+01  1.132842E-04 9.986522E+01  1.106186E-04 9.998171E+01  9.893184E-01 -2.110849E+01 
2.934375E+02  9.920825E-01 -2.136364E+01  1.316285E-04 9.797377E+01  1.321480E-04 9.454521E+01  9.894569E-01 -2.110327E+01 
2.934688E+02  9.919220E-01 -2.137125E+01  1.289751E-04 1.027071E+02  1.131004E-04 1.050810E+02  9.893973E-01 -2.111519E+01 
2.935000E+02  9.920665E-01 -2.137082E+01  1.407554E-04 9.324722E+01  1.360368E-04 9.813978E+01  9.895264E-01 -2.111169E+01 
2.935312E+02  9.918162E-01 -2.138298E+01  1.251385E-04 8.724981E+01  1.110308E-04 8.660341E+01  9.895359E-01 -2.112226E+01 
2.935625E+02  9.919038E-01 -2.137758E+01  1.292270E-04 9.671335E+01  1.454931E-04 9.844304E+01  9.896261E-01 -2.111953E+01 
2.935938E+02  9.919181E-01 -2.138208E+01  1.187733E-04 9.650802E+01  1.331559E-04 8.932348E+01  9.894672E-01 -2.111702E+01 
2.936250E+02  9.918595E-01 -2.138966E+01  1.382683E-04 9.189721E+01  1.261245E-04 8.955036E+01  9.895199E-01 -2.112213E+01 
2.936562E+02  9.920081E-01 -2.138450E+01  1.549932E-04 8.831668E+01  1.451151E-04 8.465176E+01  9.893993E-01 -2.113204E+01 
2.936875E+02  9.919469E-01 -2.138934E+01  1.302131E-04 8.200316E+01  1.472206E-04 8.041717E+01  9.893833E-01 -2.112958E+01 
2.937188E+02  9.919095E-01 -2.139382E+01  1.577436E-04 8.931725E+01  1.272701E-04 8.011380E+01  9.894643E-01 -2.113536E+01 
2.937500E+02  9.918726E-01 -2.139164E+01  1.279866E-04 8.724237E+01  1.267959E-04 8.333002E+01  9.894422E-01 -2.113339E+01 
2.937812E+02  9.918764E-01 -2.139461E+01  1.367507E-04 7.135933E+01  1.397427E-04 8.488225E+01  9.895532E-01 -2.112950E+01 
2.938125E+02  9.916849E-01 -2.139937E+01  1.442712E-04 8.100212E+01  1.278655E-04 7.678343E+01  9.895384E-01 -2.113910E+01 
2.938438E+02  9.916620E-01 -2.140083E+01  1.322714E-04 8.358062E+01  1.247514E-04 7.188200E+01  9.895028E-01 -2.113772E+01 
2.938750E+02  9.918815E-01 -2.140253E+01  1.347171E-04 7.832898E+01  1.172760E-04 7.708314E+01  9.895689E-01 -2.114909E+01 
2.939062E+02  9.918018E-01 -2.140338E+01  1.301190E-04 7.821250E+01  1.103774E-04 8.292093E+01  9.895861E-01 -2.115254E+01 
2.939375E+02  9.918258E-01 -2.140983E+01  1.324285E-04 8.200353E+01  1.210245E-04 8.158281E+01  9.896883E-01 -2.115375E+01 
2.939688E+02  9.917062E-01 -2.140814E+01  1.114378E-04 7.191381E+01  1.292334E-04 7.170718E+01  9.896651E-01 -2.114654E+01 
2.940000E+02  9.916907E-01 -2.141170E+01  1.565551E-04 7.295369E+01  1.318313E-04 7.441631E+01  9.895579E-01 -2.116124E+01 
2.940312E+02  9.916418E-01 -2.141771E+01  1.269681E-04 7.085147E+01  1.285429E-04 7.969838E+01  9.895631E-01 -2.116665E+01 
2.940625E+02  9.915539E-01 -2.142553E+01  1.275142E-04 7.630388E+01  1.186125E-04 7.547755E+01  9.895936E-01 -2.117227E+01 
2.940938E+02  9.914941E-01 -2.141742E+01  1.243562E-04 7.070404E+01  1.232826E-04 7.611009E+01  9.895560E-01 -2.116634E+01 
2.941250E+02  9.915639E-01 -2.142093E+01  1.248895E-04 7.111240E+01  1.088555E-04 7.829169E+01  9.894532E-01 -2.117001E+01 
2.941562E+02  9.917405E-01 -2.142997E+01  1.530827E-04 7.922574E+01  1.043720E-04 7.472350E+01  9.896083E-01 -2.117047E+01 
2.941875E+02  9.915415E-01 -2.143114E+01  1.201733E-04 7.012065E+01  1.198868E-04 6.953092E+01  9.896820E-01 -2.117455E+01 
2.942188E+02  9.915623E-01 -2.142523E+01  1.242529E-04 6.827338E+01  1.227521E-04 6.650859E+01  9.895697E-01 -2.118028E+01 
2.942500E+02  9.915245E-01 -2.143240E+01  1.376904E-04 6.767091E+01  1.268350E-04 6.608970E+01  9.894639E-01 -2.117886E+01 
2.942812E+02  9.915252E-01 -2.142631E+01  1.410101E-04 7.240087E+01  1.083026E-04 6.727184E+01  9.895748E-01 -2.118843E+01 
2.943125E+02  9.915918E-01 -2.143576E+01  1.267575E-04 6.459801E+01  1.218208E-04 7.666055E+01  9.894514E-01 -2.118900E+01 
2.943438E+02  9.915686E-01 -2.143652E+01  1.184871E-04 6.124690E+01  1.152721E-04 7.484638E+01  9.896401E-01 -2.118614E+01 
2.943750E+02  9.914952E-01 -2.144585E+01  1.142712E-04 6.377915E+01  1.279003E-04 6.770014E+01  9.894612E-01 -2.118656E+01 
2.944062E+02  9.913971E-01 -2.143407E+01  1.213720E-04 6.938757E+01  1.264715E-04 6.643832E+01  9.896314E-01 -2.118739E+01 
2.944375E+02  9.913754E-01 -2.144205E+01  1.195294E-04 6.939315E+01  1.128650E-04 6.743633E+01  9.896123E-01 -2.119603E+01 
2.944688E+02  9.913431E-01 -2.144644E+01  1.373473E-04 6.238984E+01  1.165322E-04 6.123943E+01  9.895638E-01 -2.118713E+01 
2.945000E+02  9.914325E-01 -2.144012E+01  1.452391E-04 6.085018E+01  1.263654E-04 5.833866E+01  9.895192E-01 -2.118627E+01 
2.945312E+02  9.912751E-01 -2.144370E+01  1.098670E-04 5.643820E+01  1.253502E-04 5.689508E+01  9.896497E-01 -2.119000E+01 
2.945625E+02  9.913254E-01 -2.144865E+01  1.228556E-04 5.671363E+01  9.424278E-05 5.923205E+01  9.897220E-01 -2.119468E+01 
2.945938E+02  9.915137E-01 -2.143962E+01  1.211589E-04 6.160256E+01  1.050791E-04 5.524489E+01  9.896776E-01 -2.118878E+01 
2.946250E+02  9.913157E-01 -2.145050E+01  1.361984E-04 5.394950E+01  1.127210E-04 6.004395E+01  9.898320E-01 -2.119364E+01 
2.946562E+02  9.915027E-01 -2.145208E+01  1.157448E-04 5.706757E+01  1.011218E-04 5.831816E+01  9.897703E-01 -2.119976E+01 
2.946875E+02  9.913227E-01 -2.144862E+01  1.181517E-04 5.146297E+01  9.443736E-05 4.925778E+01  9.898494E-01 -2.120142E+01 
2.947188E+02  9.913767E-01 -2.144448E+01  1.072363E-04 5.683976E+01  1.076423E-04 5.862089E+01  9.897528E-01 -2.120746E+01 
2.947500E+02  9.913790E-01 -2.145865E+01  9.133392E-05 6.172183E+01  9.489775E-05 5.013208E+01  9.897554E-01 -2.120201E+01 
2.947812E+02  9.914268E-01 -2.146254E+01  9.860264E-05 6.254600E+01  9.332332E-05 5.274614E+01  9.898785E-01 -2.121216E+01 
2.948125E+02  9.914395E-01 -2.146277E+01  8.837053E-05 4.846814E+01  8.577140E-05 5.818809E+01  9.897010E-01 -2.121375E+01 
2.948438E+02  9.913041E-01 -2.146033E+01  1.071003E-04 4.999790E+01  1.026024E-04 5.483064E+01  9.897644E-01 -2.122127E+01 
2.948750E+02  9.913623E-01 -2.146280E+01  1.150252E-04 5.413876E+01  8.057879E-05 4.808442E+01  9.899193E-01 -2.122150E+01 
