! Matrix data file written by TouchstoneData, EPCOS AG
! FILENAME: "B3961_NB.s2p"
! COMMENT: "(LU38B_NB.s2p) EPCOS AG 02.07.2010 10:44:17"
! INFO: nport=2, nfreq=1601
! DATE: "Wed Feb  1 14:29:33 2012"
! USER: "Wilfried Schott"
!
! port | pin | signal
! -----|-----|--------
!   1  |  1  |  IN
!   2  |  3  |  OUT
! --------------------
! 
# MHZ S MA R 50
! freq  magS11 angS11  magS21 angS21  magS12 angS12  magS22 angS22
3.125000E+02  9.895826E-01 -2.352628E+01  1.131705E-04 8.582840E+01  7.401793E-05 9.047810E+01  9.885940E-01 -2.317015E+01 
3.125031E+02  9.895261E-01 -2.353418E+01  1.070724E-04 9.591943E+01  9.476916E-05 9.789880E+01  9.884702E-01 -2.316420E+01 
3.125063E+02  9.895700E-01 -2.353221E+01  9.043641E-05 8.099392E+01  6.511848E-05 8.012967E+01  9.883950E-01 -2.316451E+01 
3.125094E+02  9.894965E-01 -2.354333E+01  7.819631E-05 1.001568E+02  8.137296E-05 7.979088E+01  9.883992E-01 -2.315735E+01 
3.125125E+02  9.895384E-01 -2.354031E+01  7.554099E-05 9.005785E+01  8.658075E-05 1.013163E+02  9.887093E-01 -2.316927E+01 
3.125156E+02  9.897659E-01 -2.353315E+01  9.605328E-05 8.709259E+01  8.090685E-05 8.540352E+01  9.885711E-01 -2.316561E+01 
3.125188E+02  9.897431E-01 -2.353261E+01  8.950061E-05 1.052776E+02  7.317538E-05 9.659994E+01  9.886527E-01 -2.316876E+01 
3.125219E+02  9.896566E-01 -2.353753E+01  7.326441E-05 9.005899E+01  7.822655E-05 9.121453E+01  9.886619E-01 -2.317120E+01 
3.125250E+02  9.897415E-01 -2.354204E+01  7.425999E-05 1.079030E+02  7.405762E-05 8.800198E+01  9.885183E-01 -2.316271E+01 
3.125281E+02  9.898246E-01 -2.352806E+01  6.847921E-05 8.248382E+01  7.196135E-05 7.925160E+01  9.883654E-01 -2.317405E+01 
3.125312E+02  9.896360E-01 -2.354537E+01  6.402292E-05 7.555020E+01  6.619453E-05 8.153121E+01  9.886778E-01 -2.317509E+01 
3.125344E+02  9.898033E-01 -2.354146E+01  7.741462E-05 7.769536E+01  6.733940E-05 8.859433E+01  9.885585E-01 -2.318409E+01 
3.125375E+02  9.898745E-01 -2.354659E+01  6.110168E-05 8.427772E+01  6.387456E-05 8.160560E+01  9.885438E-01 -2.318586E+01 
3.125406E+02  9.895562E-01 -2.353998E+01  8.080778E-05 8.455675E+01  7.881307E-05 9.377151E+01  9.887187E-01 -2.318708E+01 
3.125437E+02  9.897239E-01 -2.354551E+01  5.759106E-05 1.078614E+02  6.043643E-05 7.948817E+01  9.885310E-01 -2.319412E+01 
3.125469E+02  9.897224E-01 -2.355321E+01  5.589100E-05 9.568823E+01  8.117614E-05 7.877155E+01  9.886313E-01 -2.318403E+01 
3.125500E+02  9.897985E-01 -2.354861E+01  7.554873E-05 8.328418E+01  7.993045E-05 9.627403E+01  9.886574E-01 -2.318814E+01 
3.125531E+02  9.896045E-01 -2.355534E+01  7.883092E-05 8.486440E+01  7.190633E-05 9.931646E+01  9.886147E-01 -2.319343E+01 
3.125562E+02  9.897478E-01 -2.354797E+01  4.793441E-05 9.117607E+01  6.710284E-05 1.001229E+02  9.885978E-01 -2.318956E+01 
3.125594E+02  9.897190E-01 -2.354926E+01  7.275872E-05 6.970094E+01  6.855909E-05 9.073388E+01  9.884458E-01 -2.319759E+01 
3.125625E+02  9.897408E-01 -2.355157E+01  5.263240E-05 6.812497E+01  5.918331E-05 1.039771E+02  9.886575E-01 -2.319574E+01 
3.125656E+02  9.895979E-01 -2.355852E+01  9.124300E-05 8.481052E+01  8.483324E-05 9.232106E+01  9.886557E-01 -2.318643E+01 
3.125688E+02  9.896473E-01 -2.355242E+01  8.647314E-05 8.418844E+01  5.317527E-05 9.513301E+01  9.886657E-01 -2.319588E+01 
3.125719E+02  9.897384E-01 -2.355811E+01  8.655902E-05 7.721611E+01  4.804617E-05 1.134367E+02  9.886695E-01 -2.319310E+01 
3.125750E+02  9.895776E-01 -2.355549E+01  5.934082E-05 8.319314E+01  7.016482E-05 1.018216E+02  9.886033E-01 -2.320027E+01 
3.125781E+02  9.896432E-01 -2.356443E+01  6.182644E-05 9.224567E+01  5.875424E-05 8.588702E+01  9.885270E-01 -2.319834E+01 
3.125813E+02  9.897574E-01 -2.356822E+01  6.878119E-05 8.169382E+01  5.393266E-05 6.283188E+01  9.885923E-01 -2.320974E+01 
3.125844E+02  9.897542E-01 -2.356554E+01  6.648869E-05 4.648901E+01  5.108406E-05 8.345094E+01  9.885296E-01 -2.321118E+01 
3.125875E+02  9.897542E-01 -2.357002E+01  5.411517E-05 6.632479E+01  5.217844E-05 8.496197E+01  9.884974E-01 -2.321303E+01 
3.125906E+02  9.898655E-01 -2.356042E+01  5.154878E-05 4.884585E+01  5.398715E-05 1.007353E+02  9.886161E-01 -2.321190E+01 
3.125938E+02  9.897975E-01 -2.358008E+01  5.729748E-05 7.801680E+01  5.975123E-05 1.002479E+02  9.883881E-01 -2.320393E+01 
3.125969E+02  9.897340E-01 -2.357089E+01  5.450023E-05 7.288220E+01  3.828019E-05 1.103570E+02  9.885012E-01 -2.322243E+01 
3.126000E+02  9.895336E-01 -2.357419E+01  5.030231E-05 8.355402E+01  5.821036E-05 9.912750E+01  9.885489E-01 -2.322238E+01 
3.126031E+02  9.896978E-01 -2.357709E+01  6.047374E-05 9.386126E+01  6.142380E-05 9.272924E+01  9.885152E-01 -2.321996E+01 
3.126062E+02  9.896583E-01 -2.356986E+01  3.977558E-05 6.813749E+01  6.003735E-05 1.052193E+02  9.884862E-01 -2.321916E+01 
3.126094E+02  9.898299E-01 -2.357889E+01  3.973171E-05 9.584928E+01  5.918033E-05 8.954626E+01  9.886826E-01 -2.322593E+01 
3.126125E+02  9.897592E-01 -2.358240E+01  8.758411E-05 1.124121E+02  3.917646E-05 9.631082E+01  9.885084E-01 -2.322086E+01 
3.126156E+02  9.897619E-01 -2.358583E+01  4.483506E-05 9.724432E+01  5.205441E-05 1.156936E+02  9.886261E-01 -2.321972E+01 
3.126187E+02  9.896644E-01 -2.358287E+01  3.432959E-05 8.295218E+01  5.252127E-05 9.244465E+01  9.885504E-01 -2.323322E+01 
3.126219E+02  9.896617E-01 -2.358093E+01  3.570822E-05 1.045199E+02  2.836153E-05 8.643165E+01  9.885596E-01 -2.322742E+01 
3.126250E+02  9.897369E-01 -2.358855E+01  5.249069E-05 8.888455E+01  5.014342E-05 9.696937E+01  9.886391E-01 -2.322323E+01 
3.126281E+02  9.897005E-01 -2.359195E+01  6.002395E-05 7.341031E+01  4.055480E-05 9.108917E+01  9.886996E-01 -2.323095E+01 
3.126313E+02  9.899068E-01 -2.359041E+01  5.806847E-05 7.555475E+01  4.671876E-05 7.785769E+01  9.885544E-01 -2.323017E+01 
3.126344E+02  9.897330E-01 -2.358747E+01  5.761766E-05 8.849757E+01  4.563275E-05 1.022817E+02  9.882719E-01 -2.323620E+01 
3.126375E+02  9.896404E-01 -2.360650E+01  6.545273E-05 9.077864E+01  4.010627E-05 7.647227E+01  9.885070E-01 -2.324228E+01 
3.126406E+02  9.896862E-01 -2.360230E+01  4.366204E-05 8.279536E+01  4.082707E-05 1.050076E+02  9.884450E-01 -2.324435E+01 
3.126438E+02  9.898437E-01 -2.361079E+01  4.816950E-05 1.189774E+02  2.348000E-05 8.524111E+01  9.884987E-01 -2.324338E+01 
3.126469E+02  9.897079E-01 -2.359580E+01  2.867137E-05 7.931076E+01  4.279797E-05 8.502029E+01  9.885627E-01 -2.323908E+01 
3.126500E+02  9.898085E-01 -2.359582E+01  3.807805E-05 1.049684E+02  2.153060E-05 9.596825E+01  9.886175E-01 -2.324433E+01 
3.126531E+02  9.897569E-01 -2.360313E+01  2.716786E-05 7.792372E+01  2.964041E-05 1.026456E+02  9.884655E-01 -2.324729E+01 
3.126562E+02  9.898712E-01 -2.360857E+01  3.588071E-05 1.139723E+02  4.256416E-05 1.076021E+02  9.885291E-01 -2.325393E+01 
3.126594E+02  9.898173E-01 -2.361092E+01  3.275254E-05 7.356071E+01  2.801465E-05 1.093155E+02  9.885927E-01 -2.324929E+01 
3.126625E+02  9.897586E-01 -2.360153E+01  6.358233E-05 6.849285E+01  3.013412E-05 9.240996E+01  9.884600E-01 -2.324890E+01 
3.126656E+02  9.896849E-01 -2.361649E+01  4.284149E-05 1.040181E+02  4.255050E-05 1.159421E+02  9.885142E-01 -2.325192E+01 
3.126687E+02  9.898123E-01 -2.361127E+01  4.694666E-05 9.289284E+01  2.420529E-05 7.784431E+01  9.885904E-01 -2.324935E+01 
3.126719E+02  9.898569E-01 -2.361691E+01  1.081818E-05 -1.626964E+02  3.115233E-05 9.453148E+01  9.886421E-01 -2.326154E+01 
3.126750E+02  9.899064E-01 -2.361146E+01  3.898911E-05 8.751005E+01  2.525713E-05 1.033718E+02  9.884568E-01 -2.326260E+01 
3.126781E+02  9.897215E-01 -2.363136E+01  5.178089E-05 8.927515E+01  6.163703E-05 8.761795E+01  9.887597E-01 -2.326466E+01 
3.126812E+02  9.896140E-01 -2.361781E+01  2.216475E-05 6.748299E+01  2.420352E-05 1.450533E+02  9.886124E-01 -2.326559E+01 
3.126844E+02  9.897811E-01 -2.360888E+01  2.636622E-05 1.189889E+02  3.846368E-05 9.337141E+01  9.885069E-01 -2.327159E+01 
3.126875E+02  9.897490E-01 -2.361870E+01  4.846867E-05 8.656949E+01  4.573964E-05 8.777508E+01  9.884451E-01 -2.326729E+01 
3.126906E+02  9.898070E-01 -2.362671E+01  2.943648E-05 1.142448E+02  3.364438E-05 9.576450E+01  9.887259E-01 -2.327446E+01 
3.126938E+02  9.898196E-01 -2.362831E+01  4.872869E-05 9.741976E+01  3.288261E-05 1.154041E+02  9.885596E-01 -2.326962E+01 
3.126969E+02  9.897340E-01 -2.362306E+01  2.896162E-05 9.414804E+01  4.444467E-05 8.142460E+01  9.886528E-01 -2.327500E+01 
3.127000E+02  9.897920E-01 -2.363006E+01  4.062622E-05 1.011235E+02  4.056555E-05 1.260304E+02  9.884212E-01 -2.327882E+01 
3.127031E+02  9.896729E-01 -2.363345E+01  2.856323E-05 1.183361E+02  2.922594E-05 8.290437E+01  9.885857E-01 -2.327631E+01 
3.127063E+02  9.896321E-01 -2.362691E+01  3.919511E-05 4.584784E+01  2.414273E-05 1.101780E+02  9.885011E-01 -2.327153E+01 
3.127094E+02  9.897160E-01 -2.363402E+01  2.872524E-05 9.922515E+01  4.823218E-05 8.518503E+01  9.885133E-01 -2.327800E+01 
3.127125E+02  9.896616E-01 -2.363375E+01  3.125435E-05 1.099283E+02  8.081941E-06 1.378452E+02  9.886647E-01 -2.328001E+01 
3.127156E+02  9.897844E-01 -2.363202E+01  3.041373E-05 3.788397E+01  3.574048E-05 6.704445E+01  9.886562E-01 -2.328467E+01 
3.127188E+02  9.898371E-01 -2.362767E+01  6.332185E-06 5.757518E+01  3.052063E-05 1.293961E+02  9.883215E-01 -2.328000E+01 
3.127219E+02  9.898598E-01 -2.363203E+01  1.525483E-05 1.337201E+02  1.717671E-05 1.045423E+02  9.886524E-01 -2.328695E+01 
3.127250E+02  9.898031E-01 -2.363994E+01  2.509569E-05 -1.329137E+02  2.155256E-05 1.004036E+02  9.887882E-01 -2.329245E+01 
3.127281E+02  9.896826E-01 -2.366677E+01  4.483050E-05 9.724211E+01  2.847027E-05 9.855632E+01  9.883075E-01 -2.329385E+01 
3.127312E+02  9.898225E-01 -2.364840E+01  1.386408E-05 1.042063E+02  3.216256E-05 1.421826E+02  9.884909E-01 -2.329638E+01 
3.127344E+02  9.896341E-01 -2.363972E+01  3.487831E-05 8.093341E+01  1.766652E-05 6.710968E+01  9.883409E-01 -2.329051E+01 
3.127375E+02  9.896584E-01 -2.364542E+01  2.978649E-05 7.033128E+01  1.418794E-05 1.181610E+02  9.885512E-01 -2.330121E+01 
3.127406E+02  9.896917E-01 -2.364852E+01  2.131574E-05 4.453243E+01  1.130724E-05 2.363789E+01  9.885763E-01 -2.329265E+01 
3.127437E+02  9.898681E-01 -2.365670E+01  4.030681E-05 1.000639E+02  1.715935E-05 1.033529E+02  9.882684E-01 -2.329825E+01 
3.127469E+02  9.898834E-01 -2.365674E+01  2.282368E-05 1.065829E+02  2.278463E-05 1.272145E+02  9.884801E-01 -2.330073E+01 
3.127500E+02  9.896353E-01 -2.365730E+01  3.975414E-05 6.930579E+01  9.429357E-06 -1.615169E+02  9.883891E-01 -2.329934E+01 
3.127531E+02  9.897589E-01 -2.366968E+01  2.131912E-05 1.403476E+02  2.491866E-05 5.296728E+01  9.885366E-01 -2.329998E+01 
3.127563E+02  9.898225E-01 -2.366033E+01  1.253163E-05 1.010507E+02  8.411064E-06 5.975567E+01  9.885861E-01 -2.330876E+01 
3.127594E+02  9.898012E-01 -2.366508E+01  2.512441E-05 8.872031E+01  1.949041E-05 1.146761E+02  9.884882E-01 -2.330544E+01 
3.127625E+02  9.898480E-01 -2.365647E+01  2.286391E-05 3.532521E+01  3.225137E-06 -1.189746E+02  9.884880E-01 -2.330614E+01 
3.127656E+02  9.895887E-01 -2.366200E+01  2.672451E-05 7.992161E+01  2.644003E-05 1.504886E+02  9.886745E-01 -2.331084E+01 
3.127688E+02  9.897506E-01 -2.366343E+01  2.708534E-05 4.813271E+01  6.360847E-06 1.541844E+02  9.884732E-01 -2.331149E+01 
3.127719E+02  9.898449E-01 -2.366086E+01  2.756442E-05 5.831782E+01  1.762684E-05 1.227948E+02  9.884717E-01 -2.332210E+01 
3.127750E+02  9.897754E-01 -2.367827E+01  2.207352E-05 7.945498E+01  1.314093E-05 1.354425E+02  9.886408E-01 -2.331915E+01 
3.127781E+02  9.895976E-01 -2.367462E+01  2.852255E-05 6.929538E+01  1.285823E-05 7.670575E+01  9.885489E-01 -2.331484E+01 
3.127812E+02  9.897553E-01 -2.367517E+01  2.236653E-05 6.079326E+01  2.554291E-05 3.618142E+01  9.886137E-01 -2.333051E+01 
3.127844E+02  9.896373E-01 -2.368078E+01  3.420158E-05 1.198895E+02  2.596340E-05 -1.571205E+02  9.884901E-01 -2.331785E+01 
3.127875E+02  9.897463E-01 -2.367721E+01  2.702904E-05 1.516866E+02  9.116427E-06 1.486988E+02  9.884642E-01 -2.333002E+01 
3.127906E+02  9.898985E-01 -2.368677E+01  1.336761E-05 1.608909E+02  2.352938E-05 1.018724E+02  9.885334E-01 -2.333054E+01 
3.127937E+02  9.897753E-01 -2.368035E+01  1.259652E-05 -2.488448E+01  2.814896E-05 1.046387E+02  9.885001E-01 -2.333278E+01 
3.127969E+02  9.896337E-01 -2.368101E+01  4.286326E-05 8.298468E+01  1.821139E-05 9.019979E+01  9.886479E-01 -2.333240E+01 
3.128000E+02  9.899019E-01 -2.369586E+01  1.568132E-05 1.387144E+02  2.384038E-05 1.278643E+02  9.884861E-01 -2.333636E+01 
3.128031E+02  9.897831E-01 -2.368028E+01  3.536611E-05 8.656854E+01  1.745868E-05 1.090156E+02  9.884782E-01 -2.333376E+01 
3.128062E+02  9.895024E-01 -2.368310E+01  5.052439E-05 8.928934E+01  5.885865E-06 6.118830E+01  9.885272E-01 -2.333082E+01 
3.128094E+02  9.897431E-01 -2.369704E+01  1.668136E-05 3.944996E+01  1.698973E-05 9.771890E+01  9.883586E-01 -2.332635E+01 
3.128125E+02  9.898310E-01 -2.368953E+01  8.252826E-06 -9.699384E+01  1.265686E-05 1.173394E+02  9.885868E-01 -2.334022E+01 
3.128156E+02  9.897853E-01 -2.369260E+01  1.848818E-05 4.613435E+01  4.324161E-06 4.875120E+01  9.885662E-01 -2.334202E+01 
3.128188E+02  9.897375E-01 -2.369764E+01  3.222882E-05 1.062611E+02  2.372995E-05 2.180920E+01  9.885028E-01 -2.334216E+01 
3.128219E+02  9.898756E-01 -2.368852E+01  1.979233E-05 1.702402E+02  4.010885E-05 1.000008E+02  9.884634E-01 -2.334990E+01 
3.128250E+02  9.897270E-01 -2.369928E+01  2.089593E-05 1.182561E+02  1.033255E-05 2.543957E+01  9.884217E-01 -2.334918E+01 
3.128281E+02  9.898695E-01 -2.370960E+01  2.424721E-05 -1.654884E+02  2.702089E-05 8.436503E+01  9.885367E-01 -2.334384E+01 
3.128313E+02  9.897423E-01 -2.369734E+01  1.245153E-05 -1.743825E+02  1.697814E-05 1.195866E+02  9.884096E-01 -2.335070E+01 
3.128344E+02  9.895436E-01 -2.370024E+01  1.049306E-05 1.113507E+02  6.778401E-06 -1.519925E+02  9.886032E-01 -2.335207E+01 
3.128375E+02  9.897459E-01 -2.370160E+01  2.359909E-05 1.146310E+02  8.398940E-06 1.081491E+02  9.885016E-01 -2.335699E+01 
3.128406E+02  9.897841E-01 -2.371157E+01  1.918640E-05 9.052628E+01  8.306275E-06 -1.013421E+02  9.885552E-01 -2.335457E+01 
3.128438E+02  9.896873E-01 -2.372370E+01  3.139655E-05 1.329968E+02  1.842409E-05 -1.786336E+02  9.885292E-01 -2.335735E+01 
3.128469E+02  9.898162E-01 -2.370481E+01  6.257127E-06 -2.289382E+01  6.126077E-06 -1.294631E+02  9.885903E-01 -2.335934E+01 
3.128500E+02  9.896325E-01 -2.371763E+01  2.917345E-05 1.521399E+02  2.171177E-05 -3.710088E+01  9.887170E-01 -2.337271E+01 
3.128531E+02  9.897799E-01 -2.372259E+01  1.243470E-05 1.156968E+02  1.897487E-05 -1.050140E+02  9.885446E-01 -2.336462E+01 
3.128562E+02  9.897423E-01 -2.371866E+01  2.183928E-05 -1.194019E+02  1.704292E-05 1.304753E+02  9.885473E-01 -2.336273E+01 
3.128594E+02  9.897595E-01 -2.370712E+01  2.084898E-05 1.730519E+02  2.366740E-05 1.480773E+02  9.884183E-01 -2.337191E+01 
3.128625E+02  9.897482E-01 -2.373637E+01  5.979231E-06 1.244764E+02  2.259361E-05 -1.301791E+02  9.885295E-01 -2.337251E+01 
3.128656E+02  9.897638E-01 -2.372614E+01  1.371289E-05 3.337684E+01  5.944365E-06 6.962599E+01  9.885822E-01 -2.336989E+01 
3.128687E+02  9.898088E-01 -2.372328E+01  1.316460E-05 -1.093009E+02  1.800133E-05 1.163793E+02  9.885249E-01 -2.337035E+01 
3.128719E+02  9.897655E-01 -2.371969E+01  1.450891E-05 7.013915E+01  1.446082E-05 1.023972E+02  9.885072E-01 -2.336871E+01 
3.128750E+02  9.897375E-01 -2.372517E+01  8.191552E-06 1.192319E+02  4.925193E-06 1.618575E+02  9.884793E-01 -2.338155E+01 
3.128781E+02  9.897426E-01 -2.373774E+01  1.925147E-05 1.441321E+02  1.293741E-05 -1.652841E+02  9.884585E-01 -2.338693E+01 
3.128813E+02  9.897987E-01 -2.374499E+01  1.470579E-05 1.691141E+02  9.440825E-06 -1.005150E+02  9.884572E-01 -2.338245E+01 
3.128844E+02  9.898121E-01 -2.373036E+01  9.899770E-06 -1.342931E+02  3.664515E-06 1.122284E+02  9.885179E-01 -2.338338E+01 
3.128875E+02  9.898077E-01 -2.373727E+01  8.649274E-06 1.685498E+02  1.754471E-05 -1.697197E+02  9.885607E-01 -2.338918E+01 
3.128906E+02  9.895791E-01 -2.374610E+01  1.600291E-05 -6.959349E+01  1.273532E-05 -1.615602E+02  9.885495E-01 -2.338459E+01 
3.128938E+02  9.898229E-01 -2.374886E+01  6.030098E-06 1.435790E+02  1.240800E-05 -9.446860E+01  9.884321E-01 -2.339034E+01 
3.128969E+02  9.896091E-01 -2.374509E+01  2.811092E-05 -7.341454E+01  9.787734E-06 5.254745E+01  9.882972E-01 -2.338779E+01 
3.129000E+02  9.896457E-01 -2.374460E+01  2.066662E-05 8.757493E+01  1.097479E-05 -1.268701E+02  9.883538E-01 -2.339476E+01 
3.129031E+02  9.896080E-01 -2.374584E+01  1.509038E-05 -9.502950E+01  2.973385E-05 1.316115E+02  9.883167E-01 -2.340275E+01 
3.129062E+02  9.895282E-01 -2.375147E+01  1.459291E-05 1.749544E+02  2.790847E-05 -1.171064E+02  9.883421E-01 -2.340308E+01 
3.129094E+02  9.897670E-01 -2.374776E+01  8.410057E-06 -6.443418E+01  9.007708E-06 1.728867E+02  9.884958E-01 -2.339737E+01 
3.129125E+02  9.897955E-01 -2.375154E+01  2.144517E-05 1.404546E+01  1.373774E-05 1.678904E+02  9.885611E-01 -2.340253E+01 
3.129156E+02  9.897765E-01 -2.376501E+01  1.896710E-05 1.367011E+02  2.543120E-05 -6.909233E+01  9.883077E-01 -2.340400E+01 
3.129187E+02  9.897022E-01 -2.375464E+01  2.124999E-05 1.590240E+02  3.390642E-05 -1.239981E+02  9.884475E-01 -2.339919E+01 
3.129219E+02  9.897565E-01 -2.376185E+01  3.369968E-05 -6.949907E+01  2.782547E-05 -9.301869E+01  9.884027E-01 -2.341437E+01 
3.129250E+02  9.897002E-01 -2.375655E+01  1.099020E-05 3.358713E+00  3.431441E-05 -1.491744E+02  9.883613E-01 -2.341106E+01 
3.129281E+02  9.896398E-01 -2.376372E+01  6.130697E-06 1.761085E+01  2.835736E-05 -1.676289E+02  9.885370E-01 -2.342160E+01 
3.129312E+02  9.897709E-01 -2.376583E+01  2.432849E-05 1.570045E+02  2.229164E-05 -1.432081E+02  9.884982E-01 -2.342065E+01 
3.129344E+02  9.897667E-01 -2.376488E+01  9.420571E-06 1.748891E+02  8.216438E-06 -1.600155E+02  9.883569E-01 -2.342040E+01 
3.129375E+02  9.897328E-01 -2.376930E+01  2.413858E-05 1.041426E+01  5.874417E-06 -1.751865E+02  9.884319E-01 -2.341508E+01 
3.129406E+02  9.896030E-01 -2.377819E+01  1.406073E-05 -1.734035E+02  2.498899E-05 -1.193550E+02  9.885962E-01 -2.342238E+01 
3.129438E+02  9.897894E-01 -2.377494E+01  2.459115E-05 -5.423391E+01  1.740862E-05 -1.173188E+02  9.883834E-01 -2.341718E+01 
3.129469E+02  9.896204E-01 -2.377968E+01  3.085102E-05 -1.212639E+02  1.343572E-05 -1.616491E+02  9.885462E-01 -2.342863E+01 
3.129500E+02  9.897582E-01 -2.377493E+01  3.667158E-05 1.617952E+02  1.753415E-05 -1.448790E+02  9.885074E-01 -2.342367E+01 
3.129531E+02  9.897804E-01 -2.378371E+01  2.292955E-05 -5.311319E+01  1.951225E-05 6.278675E+01  9.884073E-01 -2.342993E+01 
3.129563E+02  9.897671E-01 -2.378083E+01  1.190607E-05 -1.472121E+02  1.359684E-05 -1.499926E+02  9.883202E-01 -2.343142E+01 
3.129594E+02  9.896676E-01 -2.379871E+01  2.286053E-05 -4.315089E+01  1.673178E-05 -9.193791E+01  9.883246E-01 -2.343527E+01 
3.129625E+02  9.897458E-01 -2.379401E+01  2.510942E-05 -1.064830E+02  1.230709E-05 -2.438673E+01  9.883791E-01 -2.343761E+01 
3.129656E+02  9.896390E-01 -2.378281E+01  3.105228E-05 -1.079387E+02  2.254080E-05 -9.190440E+01  9.883612E-01 -2.343141E+01 
3.129688E+02  9.898457E-01 -2.379172E+01  1.269720E-05 -3.916619E+01  2.324604E-05 -1.349096E+02  9.885286E-01 -2.344426E+01 
3.129719E+02  9.895561E-01 -2.379792E+01  2.003755E-05 -1.263507E+02  2.072655E-05 -1.491887E+02  9.884575E-01 -2.344121E+01 
3.129750E+02  9.896133E-01 -2.380623E+01  3.890401E-06 7.667867E+01  3.075038E-05 -1.300446E+02  9.883639E-01 -2.343718E+01 
3.129781E+02  9.896094E-01 -2.379898E+01  7.048120E-06 -7.878775E+01  1.604081E-05 -1.081493E+02  9.883606E-01 -2.344603E+01 
3.129812E+02  9.897000E-01 -2.379959E+01  1.732097E-05 -6.695572E+01  1.057556E-05 -1.250048E+02  9.884196E-01 -2.345000E+01 
3.129844E+02  9.896776E-01 -2.380352E+01  1.101849E-05 -4.626159E+01  3.376252E-05 -1.617687E+02  9.883889E-01 -2.344296E+01 
3.129875E+02  9.896525E-01 -2.380728E+01  3.067586E-05 -1.207855E+02  2.078223E-05 -1.541084E+02  9.884170E-01 -2.345286E+01 
