! Matrix data file written by TouchstoneData, EPCOS AG
! FILENAME: "B3962/LU83A_NB.s2p"
! COMMENT: "PINNING 1/4; PORTEX 1=103PS; 2=189.5PS;  6 O"
! INFO: nport=2, nfreq=1601
! DATE: "Tue Oct  6 17:00:34 2009"
! USER: "Aleksander Breg"
!
! port | pin | signal
! -----|-----|--------
!   1  |  1  |  IN
!   2  |  4  |  OUT
! --------------------
! 
# MHZ S MA R 50
! freq  magS11 angS11  magS21 angS21  magS12 angS12  magS22 angS22
8.633500E+02  9.511812E-01 -6.050690E+01  5.554314E-03 5.264961E+01  5.516375E-03 5.305548E+01  9.361622E-01 -6.953388E+01 
8.633563E+02  9.514853E-01 -6.052615E+01  5.462352E-03 5.209008E+01  5.423786E-03 5.252192E+01  9.363462E-01 -6.953103E+01 
8.633625E+02  9.515023E-01 -6.053576E+01  5.363105E-03 5.153356E+01  5.332842E-03 5.198881E+01  9.363654E-01 -6.954918E+01 
8.633687E+02  9.515571E-01 -6.053782E+01  5.277315E-03 5.097624E+01  5.247024E-03 5.145388E+01  9.363950E-01 -6.955122E+01 
8.633750E+02  9.517173E-01 -6.054546E+01  5.181698E-03 5.062123E+01  5.160072E-03 5.089588E+01  9.366279E-01 -6.954797E+01 
8.633813E+02  9.517243E-01 -6.055897E+01  5.110581E-03 4.998189E+01  5.075538E-03 5.045470E+01  9.365245E-01 -6.957523E+01 
8.633875E+02  9.518717E-01 -6.057119E+01  5.034231E-03 4.962433E+01  4.992969E-03 5.002410E+01  9.367584E-01 -6.958068E+01 
8.633938E+02  9.518351E-01 -6.058134E+01  4.948884E-03 4.918170E+01  4.923261E-03 4.948571E+01  9.367447E-01 -6.958008E+01 
8.634000E+02  9.517641E-01 -6.058241E+01  4.881194E-03 4.866860E+01  4.842061E-03 4.911548E+01  9.366902E-01 -6.959736E+01 
8.634062E+02  9.519442E-01 -6.059794E+01  4.812281E-03 4.817749E+01  4.770883E-03 4.864695E+01  9.368731E-01 -6.960755E+01 
8.634125E+02  9.520212E-01 -6.060951E+01  4.747738E-03 4.784920E+01  4.703117E-03 4.827890E+01  9.367698E-01 -6.961549E+01 
8.634188E+02  9.521123E-01 -6.061211E+01  4.679617E-03 4.741400E+01  4.642707E-03 4.798620E+01  9.367946E-01 -6.962462E+01 
8.634250E+02  9.518622E-01 -6.061490E+01  4.607256E-03 4.705933E+01  4.585763E-03 4.753958E+01  9.370002E-01 -6.963099E+01 
8.634312E+02  9.520982E-01 -6.063778E+01  4.542947E-03 4.668147E+01  4.511192E-03 4.720645E+01  9.371050E-01 -6.963739E+01 
8.634375E+02  9.521710E-01 -6.064693E+01  4.493831E-03 4.641089E+01  4.461432E-03 4.665662E+01  9.370449E-01 -6.965345E+01 
8.634438E+02  9.521998E-01 -6.064696E+01  4.431676E-03 4.597872E+01  4.402106E-03 4.630991E+01  9.372128E-01 -6.966445E+01 
8.634500E+02  9.521420E-01 -6.065782E+01  4.381279E-03 4.562892E+01  4.346632E-03 4.604507E+01  9.373026E-01 -6.966818E+01 
8.634563E+02  9.521772E-01 -6.066353E+01  4.319906E-03 4.529754E+01  4.293379E-03 4.568331E+01  9.370892E-01 -6.968086E+01 
8.634625E+02  9.521600E-01 -6.066367E+01  4.270098E-03 4.499897E+01  4.239743E-03 4.546422E+01  9.373534E-01 -6.966840E+01 
8.634688E+02  9.521904E-01 -6.069493E+01  4.222408E-03 4.462767E+01  4.195633E-03 4.512158E+01  9.372798E-01 -6.970709E+01 
8.634750E+02  9.521884E-01 -6.069737E+01  4.169012E-03 4.434745E+01  4.143446E-03 4.483012E+01  9.373076E-01 -6.970049E+01 
8.634813E+02  9.522706E-01 -6.069137E+01  4.122574E-03 4.404521E+01  4.103408E-03 4.460125E+01  9.373328E-01 -6.970730E+01 
8.634875E+02  9.523173E-01 -6.070056E+01  4.073764E-03 4.381672E+01  4.055156E-03 4.408131E+01  9.374437E-01 -6.971604E+01 
8.634937E+02  9.523945E-01 -6.071726E+01  4.034463E-03 4.349673E+01  4.009477E-03 4.386466E+01  9.372960E-01 -6.972427E+01 
8.635000E+02  9.525276E-01 -6.073542E+01  3.979813E-03 4.323575E+01  3.967557E-03 4.366775E+01  9.373959E-01 -6.973005E+01 
8.635063E+02  9.523049E-01 -6.072647E+01  3.953381E-03 4.290465E+01  3.923386E-03 4.335644E+01  9.372566E-01 -6.973283E+01 
8.635125E+02  9.523009E-01 -6.073988E+01  3.908254E-03 4.269914E+01  3.887244E-03 4.309023E+01  9.372101E-01 -6.975250E+01 
8.635188E+02  9.522924E-01 -6.075415E+01  3.867800E-03 4.229948E+01  3.841287E-03 4.281914E+01  9.374278E-01 -6.975474E+01 
8.635250E+02  9.523421E-01 -6.075788E+01  3.832220E-03 4.228453E+01  3.809652E-03 4.254934E+01  9.373374E-01 -6.975981E+01 
8.635312E+02  9.524418E-01 -6.074419E+01  3.801901E-03 4.194139E+01  3.766871E-03 4.236014E+01  9.374225E-01 -6.977010E+01 
8.635375E+02  9.524673E-01 -6.076586E+01  3.754136E-03 4.178228E+01  3.736005E-03 4.208058E+01  9.372876E-01 -6.977250E+01 
8.635438E+02  9.524269E-01 -6.078324E+01  3.719724E-03 4.142213E+01  3.708557E-03 4.181249E+01  9.374892E-01 -6.977840E+01 
8.635500E+02  9.524108E-01 -6.078880E+01  3.689154E-03 4.118688E+01  3.667037E-03 4.167400E+01  9.375447E-01 -6.978203E+01 
8.635562E+02  9.523983E-01 -6.079729E+01  3.660614E-03 4.095449E+01  3.638939E-03 4.134383E+01  9.372489E-01 -6.980581E+01 
8.635625E+02  9.526232E-01 -6.081024E+01  3.636258E-03 4.072609E+01  3.612213E-03 4.123087E+01  9.374949E-01 -6.979823E+01 
8.635688E+02  9.525882E-01 -6.082118E+01  3.600984E-03 4.055574E+01  3.580705E-03 4.095870E+01  9.375513E-01 -6.980846E+01 
8.635750E+02  9.524175E-01 -6.082948E+01  3.572032E-03 4.039679E+01  3.557627E-03 4.074552E+01  9.374132E-01 -6.981323E+01 
8.635813E+02  9.526404E-01 -6.082548E+01  3.548945E-03 4.000731E+01  3.519326E-03 4.056460E+01  9.374323E-01 -6.983071E+01 
8.635875E+02  9.526341E-01 -6.083006E+01  3.529863E-03 3.985600E+01  3.506034E-03 4.020763E+01  9.375350E-01 -6.984122E+01 
8.635938E+02  9.525930E-01 -6.084740E+01  3.496204E-03 3.953800E+01  3.477826E-03 4.006563E+01  9.375095E-01 -6.984890E+01 
8.636000E+02  9.524887E-01 -6.084737E+01  3.470985E-03 3.941202E+01  3.451097E-03 3.975846E+01  9.374950E-01 -6.986097E+01 
8.636063E+02  9.524488E-01 -6.086818E+01  3.446912E-03 3.922958E+01  3.427595E-03 3.968376E+01  9.374235E-01 -6.986636E+01 
8.636125E+02  9.525680E-01 -6.086578E+01  3.425992E-03 3.900878E+01  3.405610E-03 3.947123E+01  9.373936E-01 -6.986600E+01 
8.636187E+02  9.526611E-01 -6.089085E+01  3.406091E-03 3.888231E+01  3.385649E-03 3.918095E+01  9.375140E-01 -6.988932E+01 
8.636250E+02  9.525990E-01 -6.088754E+01  3.384516E-03 3.862343E+01  3.365971E-03 3.903443E+01  9.375540E-01 -6.988119E+01 
8.636313E+02  9.527047E-01 -6.089934E+01  3.366673E-03 3.841452E+01  3.347136E-03 3.881325E+01  9.374084E-01 -6.989845E+01 
8.636375E+02  9.526215E-01 -6.091286E+01  3.349225E-03 3.816602E+01  3.326910E-03 3.850587E+01  9.375669E-01 -6.988812E+01 
8.636438E+02  9.525527E-01 -6.091617E+01  3.323264E-03 3.800192E+01  3.311282E-03 3.827049E+01  9.373979E-01 -6.991151E+01 
8.636500E+02  9.524949E-01 -6.092465E+01  3.304151E-03 3.772501E+01  3.292203E-03 3.821094E+01  9.375857E-01 -6.990883E+01 
8.636562E+02  9.524057E-01 -6.093642E+01  3.298031E-03 3.756033E+01  3.277014E-03 3.779351E+01  9.375166E-01 -6.993178E+01 
8.636625E+02  9.526051E-01 -6.094325E+01  3.278590E-03 3.735637E+01  3.262215E-03 3.768214E+01  9.375223E-01 -6.991907E+01 
8.636688E+02  9.525002E-01 -6.095811E+01  3.267747E-03 3.714024E+01  3.250928E-03 3.749859E+01  9.374482E-01 -6.993490E+01 
8.636750E+02  9.525206E-01 -6.095984E+01  3.256952E-03 3.684640E+01  3.227078E-03 3.734119E+01  9.374975E-01 -6.995079E+01 
8.636812E+02  9.525031E-01 -6.096573E+01  3.236539E-03 3.658136E+01  3.221709E-03 3.711362E+01  9.374560E-01 -6.996017E+01 
8.636875E+02  9.525952E-01 -6.098437E+01  3.232843E-03 3.637176E+01  3.208748E-03 3.692299E+01  9.376638E-01 -6.996274E+01 
8.636938E+02  9.527379E-01 -6.098129E+01  3.223902E-03 3.618837E+01  3.195803E-03 3.666053E+01  9.376964E-01 -6.998006E+01 
8.637000E+02  9.525662E-01 -6.100072E+01  3.211407E-03 3.589427E+01  3.191792E-03 3.627271E+01  9.374550E-01 -6.998700E+01 
8.637063E+02  9.525659E-01 -6.100275E+01  3.202997E-03 3.568849E+01  3.180532E-03 3.606323E+01  9.374964E-01 -6.999268E+01 
8.637125E+02  9.525688E-01 -6.101256E+01  3.191236E-03 3.538333E+01  3.168468E-03 3.580867E+01  9.375521E-01 -6.999532E+01 
8.637188E+02  9.525956E-01 -6.103587E+01  3.180515E-03 3.525649E+01  3.166263E-03 3.549202E+01  9.375158E-01 -7.000989E+01 
8.637250E+02  9.526083E-01 -6.103231E+01  3.176846E-03 3.486432E+01  3.160695E-03 3.529786E+01  9.374827E-01 -7.001656E+01 
8.637313E+02  9.526833E-01 -6.103610E+01  3.175526E-03 3.459363E+01  3.151648E-03 3.493613E+01  9.376191E-01 -7.001681E+01 
8.637375E+02  9.526376E-01 -6.104795E+01  3.167340E-03 3.444105E+01  3.152321E-03 3.464640E+01  9.376250E-01 -7.002238E+01 
8.637437E+02  9.526519E-01 -6.105280E+01  3.164143E-03 3.407096E+01  3.139990E-03 3.442548E+01  9.376546E-01 -7.003612E+01 
8.637500E+02  9.525483E-01 -6.106852E+01  3.163913E-03 3.371833E+01  3.141584E-03 3.415339E+01  9.375119E-01 -7.004342E+01 
8.637563E+02  9.526967E-01 -6.107647E+01  3.162100E-03 3.340383E+01  3.139316E-03 3.372264E+01  9.375073E-01 -7.006553E+01 
8.637625E+02  9.525936E-01 -6.108873E+01  3.163797E-03 3.303421E+01  3.140414E-03 3.362199E+01  9.373830E-01 -7.006771E+01 
8.637688E+02  9.524743E-01 -6.109234E+01  3.157787E-03 3.273991E+01  3.140956E-03 3.311081E+01  9.374317E-01 -7.007130E+01 
8.637750E+02  9.525454E-01 -6.111388E+01  3.162118E-03 3.242217E+01  3.138812E-03 3.268789E+01  9.374386E-01 -7.008888E+01 
8.637812E+02  9.523358E-01 -6.110832E+01  3.162105E-03 3.201852E+01  3.144779E-03 3.234500E+01  9.375629E-01 -7.010168E+01 
8.637875E+02  9.522392E-01 -6.113198E+01  3.168127E-03 3.159630E+01  3.151566E-03 3.200616E+01  9.373945E-01 -7.010304E+01 
8.637938E+02  9.524457E-01 -6.113119E+01  3.177606E-03 3.115699E+01  3.154116E-03 3.159658E+01  9.375963E-01 -7.011154E+01 
8.638000E+02  9.524563E-01 -6.114471E+01  3.170634E-03 3.057281E+01  3.158537E-03 3.113739E+01  9.373052E-01 -7.012353E+01 
8.638062E+02  9.523134E-01 -6.115458E+01  3.189421E-03 3.019925E+01  3.169099E-03 3.062391E+01  9.372152E-01 -7.012335E+01 
8.638125E+02  9.522797E-01 -6.115928E+01  3.193487E-03 2.975736E+01  3.171968E-03 3.017623E+01  9.372190E-01 -7.013916E+01 
8.638188E+02  9.522878E-01 -6.117064E+01  3.201380E-03 2.923195E+01  3.187328E-03 2.971284E+01  9.372744E-01 -7.012469E+01 
8.638250E+02  9.522154E-01 -6.116500E+01  3.211586E-03 2.863354E+01  3.191044E-03 2.902309E+01  9.372056E-01 -7.015280E+01 
8.638313E+02  9.521284E-01 -6.116782E+01  3.223006E-03 2.799111E+01  3.206243E-03 2.842686E+01  9.372328E-01 -7.014355E+01 
8.638375E+02  9.522560E-01 -6.119371E+01  3.234366E-03 2.736713E+01  3.217440E-03 2.780160E+01  9.371645E-01 -7.015664E+01 
8.638438E+02  9.522921E-01 -6.119362E+01  3.248195E-03 2.671630E+01  3.227688E-03 2.706858E+01  9.370975E-01 -7.016001E+01 
8.638500E+02  9.521607E-01 -6.121504E+01  3.269519E-03 2.601950E+01  3.239489E-03 2.649336E+01  9.370543E-01 -7.017549E+01 
8.638563E+02  9.520550E-01 -6.122297E+01  3.283485E-03 2.528359E+01  3.258361E-03 2.566809E+01  9.369890E-01 -7.018640E+01 
8.638625E+02  9.519846E-01 -6.124317E+01  3.298810E-03 2.439630E+01  3.282714E-03 2.471517E+01  9.368556E-01 -7.020376E+01 
8.638687E+02  9.520897E-01 -6.124649E+01  3.314597E-03 2.352555E+01  3.298702E-03 2.394796E+01  9.367285E-01 -7.020281E+01 
8.638750E+02  9.520029E-01 -6.125287E+01  3.337475E-03 2.258564E+01  3.314614E-03 2.289477E+01  9.368399E-01 -7.022996E+01 
8.638813E+02  9.519226E-01 -6.125806E+01  3.358629E-03 2.160476E+01  3.331670E-03 2.200776E+01  9.367564E-01 -7.022357E+01 
8.638875E+02  9.518102E-01 -6.128154E+01  3.381285E-03 2.040656E+01  3.357067E-03 2.097641E+01  9.367766E-01 -7.023107E+01 
8.638938E+02  9.518382E-01 -6.127511E+01  3.403786E-03 1.926878E+01  3.372349E-03 1.976820E+01  9.364252E-01 -7.024485E+01 
8.639000E+02  9.516028E-01 -6.129782E+01  3.428429E-03 1.793204E+01  3.402579E-03 1.848256E+01  9.364334E-01 -7.025251E+01 
8.639062E+02  9.516049E-01 -6.130902E+01  3.447965E-03 1.664392E+01  3.425088E-03 1.705875E+01  9.362294E-01 -7.025734E+01 
8.639125E+02  9.516270E-01 -6.131312E+01  3.467436E-03 1.519620E+01  3.443718E-03 1.562676E+01  9.361982E-01 -7.026683E+01 
8.639188E+02  9.515865E-01 -6.133607E+01  3.485034E-03 1.368057E+01  3.459417E-03 1.408111E+01  9.362066E-01 -7.028264E+01 
8.639250E+02  9.513597E-01 -6.134075E+01  3.498528E-03 1.193372E+01  3.477012E-03 1.238273E+01  9.359957E-01 -7.028571E+01 
8.639312E+02  9.511146E-01 -6.135269E+01  3.518404E-03 1.018543E+01  3.492535E-03 1.061444E+01  9.358538E-01 -7.029160E+01 
8.639375E+02  9.509910E-01 -6.135213E+01  3.532440E-03 8.213750E+00  3.510367E-03 8.548672E+00  9.358688E-01 -7.028660E+01 
8.639438E+02  9.508965E-01 -6.136211E+01  3.542557E-03 6.196082E+00  3.523768E-03 6.665039E+00  9.355589E-01 -7.031127E+01 
8.639500E+02  9.508725E-01 -6.135338E+01  3.545525E-03 4.131767E+00  3.528203E-03 4.447781E+00  9.355881E-01 -7.029821E+01 
8.639563E+02  9.504936E-01 -6.137150E+01  3.536866E-03 1.718824E+00  3.525287E-03 2.059987E+00  9.354387E-01 -7.031206E+01 
8.639625E+02  9.504376E-01 -6.136162E+01  3.537427E-03 -7.092460E-01  3.510639E-03 -2.730423E-01  9.354569E-01 -7.030239E+01 
8.639688E+02  9.502822E-01 -6.137158E+01  3.513699E-03 -3.310369E+00  3.494522E-03 -2.834653E+00  9.352202E-01 -7.031372E+01 
8.639750E+02  9.501225E-01 -6.138151E+01  3.490520E-03 -5.961310E+00  3.469387E-03 -5.741188E+00  9.352527E-01 -7.031596E+01 
8.639813E+02  9.501259E-01 -6.137730E+01  3.448458E-03 -8.855243E+00  3.424797E-03 -8.448215E+00  9.350069E-01 -7.031625E+01 
8.639875E+02  9.498166E-01 -6.137904E+01  3.397737E-03 -1.171054E+01  3.381850E-03 -1.136703E+01  9.348423E-01 -7.031863E+01 
8.639937E+02  9.497733E-01 -6.138295E+01  3.339738E-03 -1.476458E+01  3.320576E-03 -1.433902E+01  9.347851E-01 -7.031046E+01 
8.640000E+02  9.498881E-01 -6.138483E+01  3.264732E-03 -1.774791E+01  3.242682E-03 -1.733744E+01  9.344997E-01 -7.031066E+01 
8.640063E+02  9.495807E-01 -6.137792E+01  3.183130E-03 -2.080164E+01  3.156930E-03 -2.033060E+01  9.346380E-01 -7.030480E+01 
8.640125E+02  9.493930E-01 -6.137512E+01  3.082519E-03 -2.375058E+01  3.065514E-03 -2.345336E+01  9.344992E-01 -7.030469E+01 
8.640188E+02  9.494073E-01 -6.137204E+01  2.978855E-03 -2.691911E+01  2.955601E-03 -2.647609E+01  9.346060E-01 -7.030638E+01 
8.640250E+02  9.493938E-01 -6.136951E+01  2.860558E-03 -2.983141E+01  2.841357E-03 -2.946158E+01  9.345952E-01 -7.031123E+01 
8.640312E+02  9.494593E-01 -6.136718E+01  2.740810E-03 -3.267905E+01  2.722926E-03 -3.230703E+01  9.344635E-01 -7.029870E+01 
8.640375E+02  9.495143E-01 -6.137076E+01  2.612305E-03 -3.556566E+01  2.594753E-03 -3.517475E+01  9.346839E-01 -7.030659E+01 
8.640438E+02  9.495158E-01 -6.137693E+01  2.488502E-03 -3.825154E+01  2.468064E-03 -3.764351E+01  9.348442E-01 -7.028531E+01 
8.640500E+02  9.494486E-01 -6.137659E+01  2.354868E-03 -4.074339E+01  2.342158E-03 -4.039877E+01  9.347643E-01 -7.029309E+01 
8.640562E+02  9.496943E-01 -6.135813E+01  2.221188E-03 -4.309672E+01  2.207807E-03 -4.258261E+01  9.349768E-01 -7.027808E+01 
8.640625E+02  9.496216E-01 -6.136940E+01  2.092464E-03 -4.534634E+01  2.080758E-03 -4.508682E+01  9.349803E-01 -7.029948E+01 
8.640688E+02  9.498246E-01 -6.136514E+01  1.968704E-03 -4.761244E+01  1.953488E-03 -4.701986E+01  9.353339E-01 -7.029564E+01 
8.640750E+02  9.495894E-01 -6.137234E+01  1.841541E-03 -4.948951E+01  1.827119E-03 -4.905971E+01  9.352290E-01 -7.030132E+01 
8.640813E+02  9.498141E-01 -6.137817E+01  1.723534E-03 -5.120687E+01  1.716749E-03 -5.072678E+01  9.351456E-01 -7.030625E+01 
8.640875E+02  9.500700E-01 -6.137214E+01  1.614726E-03 -5.266293E+01  1.601995E-03 -5.232830E+01  9.352892E-01 -7.030702E+01 
8.640938E+02  9.502008E-01 -6.140306E+01  1.502280E-03 -5.427504E+01  1.495068E-03 -5.415397E+01  9.353473E-01 -7.032007E+01 
8.641000E+02  9.500815E-01 -6.140672E+01  1.403726E-03 -5.570230E+01  1.391647E-03 -5.523924E+01  9.354464E-01 -7.031788E+01 
8.641063E+02  9.502728E-01 -6.141696E+01  1.310338E-03 -5.686876E+01  1.301897E-03 -5.670109E+01  9.355947E-01 -7.032681E+01 
8.641125E+02  9.503792E-01 -6.141628E+01  1.220090E-03 -5.799310E+01  1.203756E-03 -5.750270E+01  9.355938E-01 -7.033137E+01 
8.641187E+02  9.502643E-01 -6.142330E+01  1.131932E-03 -5.925919E+01  1.115167E-03 -5.883701E+01  9.357758E-01 -7.034317E+01 
8.641250E+02  9.503209E-01 -6.143722E+01  1.048323E-03 -6.007780E+01  1.041719E-03 -5.959171E+01  9.358663E-01 -7.034507E+01 
8.641313E+02  9.503175E-01 -6.143805E+01  9.729164E-04 -6.083996E+01  9.633327E-04 -6.052366E+01  9.358835E-01 -7.035720E+01 
8.641375E+02  9.503796E-01 -6.144378E+01  8.914785E-04 -6.181455E+01  8.973872E-04 -6.114068E+01  9.359477E-01 -7.036058E+01 
8.641438E+02  9.505608E-01 -6.144995E+01  8.300908E-04 -6.285797E+01  8.248175E-04 -6.204760E+01  9.361064E-01 -7.037697E+01 
8.641500E+02  9.505244E-01 -6.145511E+01  7.697779E-04 -6.318020E+01  7.662899E-04 -6.239638E+01  9.360686E-01 -7.038066E+01 
8.641562E+02  9.506229E-01 -6.146021E+01  7.105666E-04 -6.367395E+01  7.022802E-04 -6.338782E+01  9.363299E-01 -7.039326E+01 
8.641625E+02  9.504707E-01 -6.147847E+01  6.539574E-04 -6.426705E+01  6.470784E-04 -6.405702E+01  9.360264E-01 -7.040058E+01 
8.641688E+02  9.503658E-01 -6.148306E+01  5.959859E-04 -6.476351E+01  5.884167E-04 -6.523153E+01  9.362079E-01 -7.041251E+01 
8.641750E+02  9.506587E-01 -6.148930E+01  5.452809E-04 -6.604176E+01  5.346691E-04 -6.475517E+01  9.359412E-01 -7.041294E+01 
8.641812E+02  9.506887E-01 -6.149940E+01  5.011712E-04 -6.705245E+01  4.949174E-04 -6.659731E+01  9.362356E-01 -7.042801E+01 
8.641875E+02  9.506489E-01 -6.151235E+01  4.548829E-04 -6.707654E+01  4.460797E-04 -6.763598E+01  9.362048E-01 -7.044718E+01 
8.641938E+02  9.506151E-01 -6.151671E+01  4.055890E-04 -6.792336E+01  4.071187E-04 -6.790357E+01  9.362491E-01 -7.044915E+01 
8.642000E+02  9.505908E-01 -6.153470E+01  3.700263E-04 -6.818093E+01  3.646624E-04 -6.874243E+01  9.363077E-01 -7.045256E+01 
8.642063E+02  9.506119E-01 -6.154053E+01  3.281322E-04 -7.150498E+01  3.335189E-04 -7.015041E+01  9.360373E-01 -7.045995E+01 
8.642125E+02  9.506893E-01 -6.155154E+01  2.912794E-04 -7.228772E+01  2.900876E-04 -7.113815E+01  9.362736E-01 -7.046751E+01 
8.642188E+02  9.507462E-01 -6.154133E+01  2.621613E-04 -7.440423E+01  2.586421E-04 -7.364842E+01  9.363618E-01 -7.046093E+01 
8.642250E+02  9.508640E-01 -6.156208E+01  2.307408E-04 -7.719648E+01  2.276815E-04 -7.655381E+01  9.363670E-01 -7.048201E+01 
8.642313E+02  9.506789E-01 -6.156036E+01  1.936629E-04 -8.087750E+01  1.917446E-04 -7.929210E+01  9.361325E-01 -7.050065E+01 
8.642375E+02  9.508064E-01 -6.157689E+01  1.674198E-04 -8.656135E+01  1.645307E-04 -8.582732E+01  9.364352E-01 -7.050434E+01 
8.642437E+02  9.507766E-01 -6.158335E+01  1.393156E-04 -9.319946E+01  1.340925E-04 -9.345046E+01  9.362001E-01 -7.051427E+01 
8.642500E+02  9.506733E-01 -6.159998E+01  1.191696E-04 -1.038679E+02  1.189422E-04 -1.023080E+02  9.362855E-01 -7.051959E+01 
8.642563E+02  9.508079E-01 -6.161836E+01  1.000367E-04 -1.146179E+02  1.014274E-04 -1.128690E+02  9.361837E-01 -7.053475E+01 
8.642625E+02  9.507820E-01 -6.163194E+01  9.288064E-05 -1.324296E+02  9.281493E-05 -1.282896E+02  9.362452E-01 -7.054292E+01 
8.642688E+02  9.509816E-01 -6.163405E+01  9.002499E-05 -1.480428E+02  9.414317E-05 -1.514552E+02  9.362927E-01 -7.055788E+01 
8.642750E+02  9.507446E-01 -6.164891E+01  1.046078E-04 -1.621816E+02  1.061504E-04 -1.638332E+02  9.362818E-01 -7.056547E+01 
8.642812E+02  9.508003E-01 -6.166388E+01  1.187670E-04 -1.775552E+02  1.210981E-04 -1.760315E+02  9.362325E-01 -7.058026E+01 
8.642875E+02  9.507958E-01 -6.166019E+01  1.368156E-04 1.767959E+02  1.440049E-04 1.745521E+02  9.362630E-01 -7.057956E+01 
8.642938E+02  9.507640E-01 -6.167494E+01  1.646138E-04 1.696024E+02  1.590183E-04 1.702103E+02  9.362985E-01 -7.060063E+01 
8.643000E+02  9.507813E-01 -6.168044E+01  1.867235E-04 1.645625E+02  1.825926E-04 1.643361E+02  9.364015E-01 -7.059274E+01 
8.643062E+02  9.507827E-01 -6.169141E+01  2.082404E-04 1.610959E+02  2.117338E-04 1.632487E+02  9.362630E-01 -7.060205E+01 
8.643125E+02  9.505894E-01 -6.171462E+01  2.335891E-04 1.605149E+02  2.384757E-04 1.595203E+02  9.363406E-01 -7.061870E+01 
8.643188E+02  9.506598E-01 -6.172287E+01  2.631035E-04 1.574608E+02  2.636582E-04 1.588654E+02  9.364206E-01 -7.063211E+01 
