! Matrix data file written by TouchstoneData, EPCOS AG
! FILENAME: "B3960_WB.s2p"
! COMMENT: "PINNING 1/4; PORTEX 1=103PS; 2=189.5PS; 23 F"
! INFO: nport=2, nfreq=1601
! DATE: "Wed Feb  1 13:55:12 2012"
! USER: "Wilfried Schott"
!
! port | pin | signal
! -----|-----|--------
!   1  |  1  |  IN
!   2  |  4  |  OUT
! --------------------
! 
# MHZ S MA R 50
! freq  magS11 angS11  magS21 angS21  magS12 angS12  magS22 angS22
4.089200E+02  9.854815E-01 -2.798053E+01  3.746706E-04 6.427584E+01  3.792589E-04 6.446922E+01  9.809602E-01 -3.431049E+01 
4.089513E+02  9.856004E-01 -2.796997E+01  3.825733E-04 6.469436E+01  3.812416E-04 6.394346E+01  9.809593E-01 -3.431582E+01 
4.089825E+02  9.851515E-01 -2.798666E+01  3.853723E-04 6.494344E+01  3.795151E-04 6.458784E+01  9.811154E-01 -3.431685E+01 
4.090138E+02  9.854045E-01 -2.798413E+01  3.756047E-04 6.432754E+01  3.786877E-04 6.488137E+01  9.809302E-01 -3.430302E+01 
4.090450E+02  9.852970E-01 -2.798270E+01  3.785717E-04 6.412546E+01  3.835098E-04 6.528985E+01  9.808340E-01 -3.431589E+01 
4.090763E+02  9.854173E-01 -2.798403E+01  3.794490E-04 6.554427E+01  3.789719E-04 6.588439E+01  9.807958E-01 -3.432065E+01 
4.091075E+02  9.853355E-01 -2.800914E+01  3.861838E-04 6.564509E+01  3.800819E-04 6.582342E+01  9.808944E-01 -3.433970E+01 
4.091388E+02  9.851646E-01 -2.798180E+01  3.820037E-04 6.522441E+01  3.800047E-04 6.569497E+01  9.810988E-01 -3.433575E+01 
4.091700E+02  9.853939E-01 -2.800379E+01  3.793371E-04 6.620212E+01  3.821407E-04 6.595170E+01  9.810965E-01 -3.433502E+01 
4.092013E+02  9.853710E-01 -2.800560E+01  3.841249E-04 6.639920E+01  3.824562E-04 6.571274E+01  9.807661E-01 -3.432823E+01 
4.092325E+02  9.855576E-01 -2.799058E+01  3.842704E-04 6.614250E+01  3.832788E-04 6.648848E+01  9.810252E-01 -3.433960E+01 
4.092638E+02  9.851866E-01 -2.801417E+01  3.810139E-04 6.683509E+01  3.775739E-04 6.674976E+01  9.808787E-01 -3.434283E+01 
4.092950E+02  9.852061E-01 -2.799867E+01  3.831517E-04 6.707360E+01  3.778975E-04 6.715489E+01  9.808503E-01 -3.435240E+01 
4.093263E+02  9.853259E-01 -2.799709E+01  3.865093E-04 6.644767E+01  3.775658E-04 6.679489E+01  9.810466E-01 -3.434392E+01 
4.093575E+02  9.852387E-01 -2.800379E+01  3.841355E-04 6.700164E+01  3.794448E-04 6.732297E+01  9.810103E-01 -3.435388E+01 
4.093888E+02  9.853955E-01 -2.801096E+01  3.909987E-04 6.829340E+01  3.757300E-04 6.808546E+01  9.810580E-01 -3.436467E+01 
4.094200E+02  9.853735E-01 -2.802647E+01  3.853547E-04 6.805057E+01  3.798600E-04 6.956222E+01  9.809057E-01 -3.435216E+01 
4.094513E+02  9.851833E-01 -2.801457E+01  3.881094E-04 6.854734E+01  3.794604E-04 6.939954E+01  9.810278E-01 -3.435486E+01 
4.094825E+02  9.850815E-01 -2.800981E+01  3.892553E-04 7.000786E+01  3.829296E-04 6.946244E+01  9.807992E-01 -3.436062E+01 
4.095138E+02  9.855198E-01 -2.801101E+01  3.892265E-04 7.046663E+01  3.804951E-04 6.997686E+01  9.808663E-01 -3.436709E+01 
4.095450E+02  9.853394E-01 -2.800625E+01  3.971669E-04 7.062452E+01  3.823738E-04 7.067996E+01  9.808012E-01 -3.436816E+01 
4.095763E+02  9.853196E-01 -2.802347E+01  3.859336E-04 7.072122E+01  3.841265E-04 7.085344E+01  9.807645E-01 -3.436095E+01 
4.096075E+02  9.853375E-01 -2.802601E+01  3.891269E-04 7.128318E+01  3.911673E-04 7.112167E+01  9.810448E-01 -3.437585E+01 
4.096388E+02  9.851987E-01 -2.802255E+01  3.894487E-04 7.182355E+01  3.869526E-04 7.149697E+01  9.806813E-01 -3.438180E+01 
4.096700E+02  9.853282E-01 -2.803106E+01  3.962559E-04 7.278097E+01  3.945423E-04 7.224495E+01  9.810476E-01 -3.436645E+01 
4.097013E+02  9.854179E-01 -2.804100E+01  3.974029E-04 7.275028E+01  3.970899E-04 7.288837E+01  9.808070E-01 -3.439120E+01 
4.097325E+02  9.854258E-01 -2.803489E+01  4.016272E-04 7.218230E+01  4.028679E-04 7.402413E+01  9.806849E-01 -3.438195E+01 
4.097638E+02  9.850869E-01 -2.802926E+01  4.057283E-04 7.351142E+01  4.014333E-04 7.499850E+01  9.812353E-01 -3.439206E+01 
4.097950E+02  9.850945E-01 -2.804145E+01  4.080548E-04 7.447680E+01  4.087593E-04 7.442291E+01  9.810231E-01 -3.438121E+01 
4.098263E+02  9.854290E-01 -2.803891E+01  4.108823E-04 7.414098E+01  4.111272E-04 7.444400E+01  9.808884E-01 -3.438306E+01 
4.098575E+02  9.851802E-01 -2.804566E+01  4.213492E-04 7.510794E+01  4.133725E-04 7.506854E+01  9.807668E-01 -3.438804E+01 
4.098888E+02  9.851563E-01 -2.805279E+01  4.223511E-04 7.573404E+01  4.164360E-04 7.483256E+01  9.808078E-01 -3.439340E+01 
4.099200E+02  9.854611E-01 -2.805471E+01  4.342742E-04 7.629647E+01  4.292072E-04 7.611184E+01  9.808341E-01 -3.438383E+01 
4.099513E+02  9.853957E-01 -2.804059E+01  4.368400E-04 7.547364E+01  4.291600E-04 7.681526E+01  9.808851E-01 -3.440330E+01 
4.099825E+02  9.854434E-01 -2.805571E+01  4.430260E-04 7.590685E+01  4.413742E-04 7.613762E+01  9.808012E-01 -3.440844E+01 
4.100138E+02  9.850460E-01 -2.805886E+01  4.474578E-04 7.698195E+01  4.457536E-04 7.706349E+01  9.810406E-01 -3.441030E+01 
4.100450E+02  9.853097E-01 -2.805423E+01  4.558211E-04 7.645221E+01  4.548057E-04 7.652752E+01  9.807849E-01 -3.439854E+01 
4.100763E+02  9.851436E-01 -2.805444E+01  4.624559E-04 7.830858E+01  4.602180E-04 7.765294E+01  9.808783E-01 -3.441078E+01 
4.101075E+02  9.852412E-01 -2.806644E+01  4.723260E-04 7.753355E+01  4.668320E-04 7.666012E+01  9.807580E-01 -3.442445E+01 
4.101388E+02  9.851239E-01 -2.806499E+01  4.722107E-04 7.695472E+01  4.815763E-04 7.665765E+01  9.807103E-01 -3.443504E+01 
4.101700E+02  9.848436E-01 -2.805414E+01  4.880755E-04 7.673995E+01  4.921298E-04 7.650297E+01  9.810472E-01 -3.441999E+01 
4.102013E+02  9.853399E-01 -2.806537E+01  5.004335E-04 7.682788E+01  4.972614E-04 7.645581E+01  9.807454E-01 -3.443202E+01 
4.102325E+02  9.852349E-01 -2.805757E+01  5.062205E-04 7.647432E+01  5.003166E-04 7.528663E+01  9.804643E-01 -3.443221E+01 
4.102638E+02  9.849249E-01 -2.806397E+01  5.159965E-04 7.580776E+01  5.055950E-04 7.534841E+01  9.806725E-01 -3.443304E+01 
4.102950E+02  9.853345E-01 -2.808804E+01  5.245780E-04 7.538872E+01  5.218762E-04 7.500318E+01  9.807368E-01 -3.442531E+01 
4.103263E+02  9.850151E-01 -2.808891E+01  5.352489E-04 7.455273E+01  5.306401E-04 7.466657E+01  9.805755E-01 -3.443583E+01 
4.103575E+02  9.849757E-01 -2.807519E+01  5.424104E-04 7.387093E+01  5.378767E-04 7.335364E+01  9.806395E-01 -3.443180E+01 
4.103888E+02  9.849130E-01 -2.807949E+01  5.485699E-04 7.385928E+01  5.509194E-04 7.318349E+01  9.805985E-01 -3.443374E+01 
4.104200E+02  9.851488E-01 -2.806987E+01  5.567549E-04 7.271288E+01  5.493109E-04 7.281643E+01  9.807032E-01 -3.443854E+01 
4.104513E+02  9.854603E-01 -2.809177E+01  5.615892E-04 7.176046E+01  5.563060E-04 7.148224E+01  9.809853E-01 -3.443903E+01 
4.104825E+02  9.849448E-01 -2.809036E+01  5.685947E-04 7.079824E+01  5.659681E-04 7.077549E+01  9.806227E-01 -3.446880E+01 
4.105138E+02  9.852649E-01 -2.809360E+01  5.760535E-04 7.018225E+01  5.742409E-04 7.020264E+01  9.808707E-01 -3.444506E+01 
4.105450E+02  9.848732E-01 -2.809162E+01  5.766995E-04 6.918753E+01  5.744787E-04 6.908178E+01  9.805145E-01 -3.445451E+01 
4.105763E+02  9.851220E-01 -2.810288E+01  5.912253E-04 6.837816E+01  5.869425E-04 6.845236E+01  9.810383E-01 -3.446612E+01 
4.106075E+02  9.851606E-01 -2.809661E+01  5.919011E-04 6.720644E+01  5.896640E-04 6.677019E+01  9.809680E-01 -3.445147E+01 
4.106388E+02  9.849687E-01 -2.811193E+01  6.004386E-04 6.627532E+01  5.973348E-04 6.613188E+01  9.809764E-01 -3.446628E+01 
4.106700E+02  9.850537E-01 -2.809820E+01  6.014237E-04 6.442872E+01  5.967114E-04 6.469091E+01  9.806318E-01 -3.446168E+01 
4.107013E+02  9.849458E-01 -2.809104E+01  6.058131E-04 6.364209E+01  5.961688E-04 6.367600E+01  9.805234E-01 -3.446458E+01 
4.107325E+02  9.854030E-01 -2.810068E+01  6.075188E-04 6.205875E+01  6.037310E-04 6.214718E+01  9.805539E-01 -3.445923E+01 
4.107638E+02  9.850507E-01 -2.811692E+01  6.155317E-04 6.123307E+01  6.091381E-04 6.157598E+01  9.805071E-01 -3.449550E+01 
4.107950E+02  9.852426E-01 -2.811216E+01  6.060039E-04 5.957502E+01  6.052926E-04 5.991052E+01  9.806795E-01 -3.447607E+01 
4.108263E+02  9.847428E-01 -2.809941E+01  6.090825E-04 5.886646E+01  6.029360E-04 5.847017E+01  9.803617E-01 -3.448198E+01 
4.108575E+02  9.852294E-01 -2.810297E+01  6.083498E-04 5.753602E+01  6.027111E-04 5.694693E+01  9.808352E-01 -3.446758E+01 
4.108888E+02  9.850777E-01 -2.811097E+01  6.002293E-04 5.599773E+01  5.972571E-04 5.515108E+01  9.803905E-01 -3.449184E+01 
4.109200E+02  9.851645E-01 -2.811818E+01  5.961965E-04 5.475150E+01  5.910610E-04 5.491990E+01  9.807502E-01 -3.449382E+01 
4.109513E+02  9.851212E-01 -2.812025E+01  5.889425E-04 5.367904E+01  5.887950E-04 5.334435E+01  9.806204E-01 -3.449408E+01 
4.109825E+02  9.847835E-01 -2.812818E+01  5.824196E-04 5.289990E+01  5.790625E-04 5.227863E+01  9.805767E-01 -3.448991E+01 
4.110138E+02  9.853196E-01 -2.813377E+01  5.777100E-04 5.130308E+01  5.733136E-04 5.163576E+01  9.803133E-01 -3.448857E+01 
4.110450E+02  9.849368E-01 -2.812569E+01  5.694212E-04 5.008774E+01  5.645598E-04 5.024886E+01  9.807341E-01 -3.449246E+01 
4.110763E+02  9.852059E-01 -2.813817E+01  5.618687E-04 4.936249E+01  5.565642E-04 4.935101E+01  9.807879E-01 -3.449530E+01 
4.111075E+02  9.849094E-01 -2.813931E+01  5.575540E-04 4.845715E+01  5.505600E-04 4.894337E+01  9.804281E-01 -3.452391E+01 
4.111388E+02  9.850434E-01 -2.814259E+01  5.428507E-04 4.820031E+01  5.401049E-04 4.817278E+01  9.805834E-01 -3.451461E+01 
4.111700E+02  9.850327E-01 -2.813159E+01  5.354552E-04 4.731425E+01  5.331195E-04 4.703090E+01  9.805968E-01 -3.450132E+01 
4.112013E+02  9.849408E-01 -2.814406E+01  5.201138E-04 4.725697E+01  5.149616E-04 4.728371E+01  9.809412E-01 -3.450359E+01 
4.112325E+02  9.850567E-01 -2.813363E+01  5.103906E-04 4.687609E+01  5.066846E-04 4.668631E+01  9.808070E-01 -3.451293E+01 
4.112638E+02  9.849412E-01 -2.814055E+01  5.057628E-04 4.630807E+01  5.003322E-04 4.622105E+01  9.803003E-01 -3.453049E+01 
4.112950E+02  9.852064E-01 -2.813302E+01  4.911226E-04 4.597292E+01  4.925302E-04 4.516976E+01  9.805826E-01 -3.450951E+01 
4.113263E+02  9.851397E-01 -2.814258E+01  4.848573E-04 4.594985E+01  4.797944E-04 4.614159E+01  9.804417E-01 -3.452653E+01 
4.113575E+02  9.851989E-01 -2.814066E+01  4.792866E-04 4.592881E+01  4.713043E-04 4.523134E+01  9.809286E-01 -3.452186E+01 
4.113888E+02  9.849665E-01 -2.814414E+01  4.623112E-04 4.585316E+01  4.664643E-04 4.476415E+01  9.808075E-01 -3.453277E+01 
4.114200E+02  9.848949E-01 -2.815396E+01  4.564151E-04 4.538351E+01  4.562935E-04 4.575328E+01  9.806127E-01 -3.453340E+01 
4.114513E+02  9.851723E-01 -2.816459E+01  4.559059E-04 4.519026E+01  4.507002E-04 4.624985E+01  9.807351E-01 -3.452775E+01 
4.114825E+02  9.852807E-01 -2.816276E+01  4.412265E-04 4.636998E+01  4.351030E-04 4.623790E+01  9.806461E-01 -3.454206E+01 
4.115138E+02  9.850391E-01 -2.816032E+01  4.349635E-04 4.585755E+01  4.373669E-04 4.591768E+01  9.808731E-01 -3.452962E+01 
4.115450E+02  9.853087E-01 -2.816189E+01  4.336012E-04 4.641104E+01  4.283106E-04 4.680650E+01  9.805937E-01 -3.455519E+01 
4.115763E+02  9.848019E-01 -2.817536E+01  4.268782E-04 4.669070E+01  4.209770E-04 4.765348E+01  9.804565E-01 -3.454095E+01 
4.116075E+02  9.851130E-01 -2.816954E+01  4.153993E-04 4.790103E+01  4.143587E-04 4.710911E+01  9.803838E-01 -3.456718E+01 
4.116388E+02  9.852366E-01 -2.816829E+01  4.144196E-04 4.789299E+01  4.137170E-04 4.780649E+01  9.804721E-01 -3.454386E+01 
4.116700E+02  9.851474E-01 -2.817182E+01  4.081307E-04 4.762879E+01  4.070884E-04 4.861068E+01  9.807432E-01 -3.454678E+01 
4.117013E+02  9.850717E-01 -2.816508E+01  3.991316E-04 4.870721E+01  4.017968E-04 4.840840E+01  9.807281E-01 -3.455574E+01 
4.117325E+02  9.852277E-01 -2.817569E+01  4.040655E-04 4.950639E+01  3.933955E-04 4.973457E+01  9.808261E-01 -3.456035E+01 
4.117638E+02  9.853379E-01 -2.816249E+01  3.949572E-04 4.871299E+01  3.925951E-04 4.964566E+01  9.805067E-01 -3.456618E+01 
4.117950E+02  9.851913E-01 -2.818532E+01  3.954705E-04 5.073994E+01  3.881680E-04 5.003217E+01  9.804703E-01 -3.457382E+01 
4.118263E+02  9.851371E-01 -2.818725E+01  3.867903E-04 5.049410E+01  3.918872E-04 5.211906E+01  9.806144E-01 -3.456672E+01 
4.118575E+02  9.850456E-01 -2.819800E+01  3.858707E-04 5.182830E+01  3.849489E-04 5.167176E+01  9.807639E-01 -3.458260E+01 
4.118888E+02  9.851162E-01 -2.818885E+01  3.848680E-04 5.222190E+01  3.852031E-04 5.223803E+01  9.808946E-01 -3.457044E+01 
4.119200E+02  9.846431E-01 -2.818385E+01  3.811379E-04 5.427900E+01  3.832039E-04 5.352638E+01  9.804745E-01 -3.458431E+01 
4.119513E+02  9.854392E-01 -2.819066E+01  3.790966E-04 5.469106E+01  3.821199E-04 5.432387E+01  9.806829E-01 -3.458052E+01 
4.119825E+02  9.852166E-01 -2.819169E+01  3.827981E-04 5.438632E+01  3.802766E-04 5.488327E+01  9.807282E-01 -3.456859E+01 
4.120138E+02  9.850980E-01 -2.820434E+01  3.805353E-04 5.465565E+01  3.845179E-04 5.568631E+01  9.807963E-01 -3.459611E+01 
4.120450E+02  9.851636E-01 -2.820411E+01  3.790368E-04 5.574786E+01  3.838660E-04 5.602395E+01  9.807731E-01 -3.458279E+01 
4.120763E+02  9.851179E-01 -2.821018E+01  3.854041E-04 5.621727E+01  3.876118E-04 5.673326E+01  9.805411E-01 -3.459374E+01 
4.121075E+02  9.852615E-01 -2.820666E+01  3.919717E-04 5.676102E+01  3.798354E-04 5.640209E+01  9.809577E-01 -3.458537E+01 
4.121388E+02  9.853606E-01 -2.819583E+01  3.851707E-04 5.734212E+01  3.902661E-04 5.799289E+01  9.806627E-01 -3.458956E+01 
4.121700E+02  9.850344E-01 -2.821344E+01  3.874302E-04 5.736167E+01  3.885140E-04 5.728539E+01  9.809617E-01 -3.460915E+01 
4.122013E+02  9.851555E-01 -2.821614E+01  3.908891E-04 5.808076E+01  3.909886E-04 5.756048E+01  9.804100E-01 -3.460882E+01 
4.122325E+02  9.853109E-01 -2.821430E+01  3.859785E-04 5.881092E+01  3.824568E-04 5.815878E+01  9.806484E-01 -3.462971E+01 
4.122638E+02  9.850610E-01 -2.821819E+01  3.965115E-04 5.842159E+01  3.924934E-04 5.813264E+01  9.807347E-01 -3.461492E+01 
4.122950E+02  9.853941E-01 -2.821709E+01  3.948042E-04 5.874713E+01  3.857523E-04 5.854177E+01  9.807055E-01 -3.461969E+01 
4.123263E+02  9.851141E-01 -2.822817E+01  3.903414E-04 5.927106E+01  3.846400E-04 5.812190E+01  9.806724E-01 -3.462492E+01 
4.123575E+02  9.850414E-01 -2.821519E+01  3.922518E-04 5.898858E+01  3.866812E-04 5.898229E+01  9.803684E-01 -3.463731E+01 
4.123888E+02  9.849643E-01 -2.822067E+01  3.919995E-04 5.983330E+01  3.904505E-04 5.827695E+01  9.806985E-01 -3.462514E+01 
4.124200E+02  9.849193E-01 -2.823750E+01  3.895411E-04 5.896627E+01  3.933403E-04 5.882229E+01  9.807526E-01 -3.461944E+01 
4.124513E+02  9.851190E-01 -2.823136E+01  3.949992E-04 5.881718E+01  3.861199E-04 5.923019E+01  9.807818E-01 -3.462316E+01 
4.124825E+02  9.853330E-01 -2.824834E+01  3.929136E-04 5.910404E+01  3.865455E-04 5.962412E+01  9.806878E-01 -3.462565E+01 
4.125138E+02  9.852146E-01 -2.824026E+01  3.918624E-04 6.006218E+01  3.843383E-04 5.974049E+01  9.808034E-01 -3.464590E+01 
4.125450E+02  9.852248E-01 -2.822677E+01  3.807296E-04 5.925571E+01  3.861857E-04 5.981664E+01  9.803994E-01 -3.462708E+01 
4.125763E+02  9.848926E-01 -2.824541E+01  3.897809E-04 6.132738E+01  3.866286E-04 6.091071E+01  9.805152E-01 -3.464136E+01 
4.126075E+02  9.850012E-01 -2.825024E+01  3.857322E-04 6.072158E+01  3.865173E-04 6.042866E+01  9.808061E-01 -3.464592E+01 
4.126388E+02  9.852559E-01 -2.824708E+01  3.919742E-04 5.972928E+01  3.807419E-04 6.052586E+01  9.807463E-01 -3.465429E+01 
4.126700E+02  9.851130E-01 -2.824726E+01  3.909473E-04 6.015643E+01  3.880808E-04 6.048977E+01  9.808578E-01 -3.464902E+01 
4.127013E+02  9.849384E-01 -2.827035E+01  3.906276E-04 6.097887E+01  3.879205E-04 6.159884E+01  9.808759E-01 -3.465166E+01 
4.127325E+02  9.851903E-01 -2.826134E+01  3.901274E-04 6.099467E+01  3.896765E-04 6.157383E+01  9.806203E-01 -3.465654E+01 
4.127638E+02  9.851144E-01 -2.826406E+01  3.886797E-04 6.191940E+01  3.845896E-04 6.199737E+01  9.806198E-01 -3.464716E+01 
4.127950E+02  9.852270E-01 -2.826904E+01  3.901399E-04 6.273768E+01  3.832942E-04 6.323234E+01  9.805764E-01 -3.468194E+01 
4.128263E+02  9.853807E-01 -2.825219E+01  3.921255E-04 6.264574E+01  3.871010E-04 6.303144E+01  9.805413E-01 -3.466326E+01 
4.128575E+02  9.849933E-01 -2.827511E+01  3.964594E-04 6.267504E+01  3.886489E-04 6.215658E+01  9.804249E-01 -3.467691E+01 
4.128888E+02  9.850134E-01 -2.827047E+01  3.919766E-04 6.328868E+01  3.923752E-04 6.324956E+01  9.807557E-01 -3.467514E+01 
4.129200E+02  9.852251E-01 -2.827679E+01  3.918680E-04 6.389845E+01  3.878076E-04 6.338947E+01  9.808145E-01 -3.467511E+01 
4.129513E+02  9.853241E-01 -2.828196E+01  3.934208E-04 6.363816E+01  3.945332E-04 6.352521E+01  9.807446E-01 -3.466940E+01 
4.129825E+02  9.851366E-01 -2.829357E+01  3.944936E-04 6.375969E+01  3.993280E-04 6.352532E+01  9.804400E-01 -3.468809E+01 
4.130138E+02  9.849434E-01 -2.828292E+01  3.957163E-04 6.477844E+01  3.960181E-04 6.439401E+01  9.806398E-01 -3.469014E+01 
4.130450E+02  9.850042E-01 -2.827260E+01  3.967824E-04 6.488631E+01  3.982095E-04 6.411966E+01  9.806005E-01 -3.467689E+01 
4.130763E+02  9.852958E-01 -2.828099E+01  4.076116E-04 6.370415E+01  4.030842E-04 6.414673E+01  9.808346E-01 -3.468605E+01 
4.131075E+02  9.851907E-01 -2.829077E+01  4.052381E-04 6.485128E+01  4.059530E-04 6.435243E+01  9.808218E-01 -3.468194E+01 
4.131388E+02  9.850056E-01 -2.829872E+01  4.099276E-04 6.487723E+01  4.042595E-04 6.506458E+01  9.807134E-01 -3.469981E+01 
4.131700E+02  9.852276E-01 -2.828164E+01  4.118384E-04 6.515498E+01  4.051336E-04 6.453175E+01  9.805432E-01 -3.468852E+01 
4.132013E+02  9.848936E-01 -2.829415E+01  4.099579E-04 6.491421E+01  4.129955E-04 6.466048E+01  9.806646E-01 -3.469558E+01 
4.132325E+02  9.852189E-01 -2.831454E+01  4.131635E-04 6.383940E+01  4.091524E-04 6.581001E+01  9.809006E-01 -3.470843E+01 
4.132638E+02  9.851145E-01 -2.829914E+01  4.176113E-04 6.409340E+01  4.169835E-04 6.454938E+01  9.809187E-01 -3.471652E+01 
4.132950E+02  9.848110E-01 -2.830461E+01  4.193046E-04 6.502278E+01  4.163102E-04 6.491217E+01  9.805012E-01 -3.471036E+01 
4.133263E+02  9.850958E-01 -2.830967E+01  4.211026E-04 6.381353E+01  4.196749E-04 6.536993E+01  9.806658E-01 -3.471506E+01 
4.133575E+02  9.851623E-01 -2.830561E+01  4.213791E-04 6.501560E+01  4.193035E-04 6.450402E+01  9.805952E-01 -3.473328E+01 
4.133888E+02  9.852917E-01 -2.830234E+01  4.172968E-04 6.448889E+01  4.182376E-04 6.406642E+01  9.807322E-01 -3.470326E+01 
4.134200E+02  9.850227E-01 -2.830956E+01  4.217554E-04 6.430401E+01  4.223546E-04 6.462890E+01  9.805410E-01 -3.473624E+01 
4.134513E+02  9.846829E-01 -2.831376E+01  4.252684E-04 6.426239E+01  4.165686E-04 6.476300E+01  9.806614E-01 -3.473043E+01 
4.134825E+02  9.850238E-01 -2.832159E+01  4.288598E-04 6.380329E+01  4.190135E-04 6.418332E+01  9.805834E-01 -3.472376E+01 
4.135138E+02  9.851167E-01 -2.832136E+01  4.277728E-04 6.426697E+01  4.268830E-04 6.403438E+01  9.804349E-01 -3.475083E+01 
4.135450E+02  9.853098E-01 -2.832633E+01  4.281582E-04 6.427513E+01  4.233790E-04 6.312274E+01  9.806446E-01 -3.473372E+01 
4.135763E+02  9.850010E-01 -2.833021E+01  4.290041E-04 6.391079E+01  4.233775E-04 6.336170E+01  9.807639E-01 -3.472866E+01 
4.136075E+02  9.852749E-01 -2.831879E+01  4.250828E-04 6.339839E+01  4.274768E-04 6.369868E+01  9.805987E-01 -3.475099E+01 
4.136388E+02  9.848187E-01 -2.834484E+01  4.246004E-04 6.301664E+01  4.226641E-04 6.319790E+01  9.807735E-01 -3.473987E+01 
4.136700E+02  9.851557E-01 -2.832884E+01  4.289023E-04 6.335696E+01  4.233556E-04 6.350745E+01  9.805929E-01 -3.475165E+01 
4.137013E+02  9.848852E-01 -2.833789E+01  4.264573E-04 6.313328E+01  4.244240E-04 6.335176E+01  9.807864E-01 -3.477116E+01 
4.137325E+02  9.849318E-01 -2.835763E+01  4.242680E-04 6.243216E+01  4.210229E-04 6.275143E+01  9.805800E-01 -3.475854E+01 
4.137638E+02  9.849071E-01 -2.833860E+01  4.244952E-04 6.217064E+01  4.226661E-04 6.287350E+01  9.807832E-01 -3.475757E+01 
4.137950E+02  9.852843E-01 -2.833935E+01  4.277000E-04 6.198677E+01  4.221134E-04 6.301964E+01  9.806500E-01 -3.475716E+01 
