! Matrix data file written by TouchstoneData, EPCOS AG
! FILENAME: "B3962/LU83A_WB.s2p"
! COMMENT: "PINNING 1/4; PORTEX 1=103PS; 2=189.5PS;  6 O"
! INFO: nport=2, nfreq=1601
! DATE: "Wed Oct  7 09:23:46 2009"
! USER: "Aleksander Breg"
!
! port | pin | signal
! -----|-----|--------
!   1  |  1  |  IN
!   2  |  4  |  OUT
! --------------------
! 
# MHZ S MA R 50
! freq  magS11 angS11  magS21 angS21  magS12 angS12  magS22 angS22
8.183500E+02  9.591751E-01 -5.471511E+01  3.439366E-04 -1.638224E+02  3.421535E-04 -1.642512E+02  9.438717E-01 -6.457314E+01 
8.184125E+02  9.592235E-01 -5.472637E+01  3.417533E-04 -1.660668E+02  3.345450E-04 -1.656247E+02  9.438462E-01 -6.460349E+01 
8.184750E+02  9.588246E-01 -5.474581E+01  3.270947E-04 -1.671602E+02  3.296917E-04 -1.663414E+02  9.437077E-01 -6.459118E+01 
8.185375E+02  9.588873E-01 -5.473212E+01  3.216748E-04 -1.681987E+02  3.241053E-04 -1.683403E+02  9.439821E-01 -6.461247E+01 
8.186000E+02  9.590049E-01 -5.475319E+01  3.153723E-04 -1.691473E+02  3.075605E-04 -1.699758E+02  9.436998E-01 -6.461909E+01 
8.186625E+02  9.589817E-01 -5.474343E+01  3.004178E-04 -1.708499E+02  3.058002E-04 -1.699272E+02  9.440327E-01 -6.461466E+01 
8.187250E+02  9.588866E-01 -5.475479E+01  2.913806E-04 -1.710386E+02  2.925824E-04 -1.710540E+02  9.436641E-01 -6.462754E+01 
8.187875E+02  9.590874E-01 -5.477149E+01  2.869016E-04 -1.720108E+02  2.792717E-04 -1.702349E+02  9.438866E-01 -6.463539E+01 
8.188500E+02  9.589762E-01 -5.475876E+01  2.781254E-04 -1.706512E+02  2.735052E-04 -1.719755E+02  9.438517E-01 -6.462027E+01 
8.189125E+02  9.590654E-01 -5.475964E+01  2.678453E-04 -1.732025E+02  2.669699E-04 -1.698087E+02  9.438325E-01 -6.465310E+01 
8.189750E+02  9.591106E-01 -5.477252E+01  2.571195E-04 -1.721939E+02  2.603976E-04 -1.708706E+02  9.435856E-01 -6.463669E+01 
8.190375E+02  9.589457E-01 -5.478862E+01  2.501450E-04 -1.718466E+02  2.514449E-04 -1.733887E+02  9.437260E-01 -6.463167E+01 
8.191000E+02  9.589257E-01 -5.478250E+01  2.398467E-04 -1.722359E+02  2.398184E-04 -1.727949E+02  9.440383E-01 -6.463245E+01 
8.191625E+02  9.589929E-01 -5.478466E+01  2.290432E-04 -1.729570E+02  2.315203E-04 -1.733035E+02  9.436171E-01 -6.465020E+01 
8.192250E+02  9.589807E-01 -5.479168E+01  2.180763E-04 -1.727662E+02  2.174303E-04 -1.726291E+02  9.434938E-01 -6.466230E+01 
8.192875E+02  9.589889E-01 -5.479550E+01  2.070092E-04 -1.707710E+02  2.112656E-04 -1.714453E+02  9.438171E-01 -6.464900E+01 
8.193500E+02  9.589868E-01 -5.480314E+01  1.976895E-04 -1.724887E+02  1.942669E-04 -1.705982E+02  9.435334E-01 -6.466076E+01 
8.194125E+02  9.588184E-01 -5.480880E+01  1.848003E-04 -1.671217E+02  1.842904E-04 -1.692615E+02  9.436972E-01 -6.468306E+01 
8.194750E+02  9.590301E-01 -5.480054E+01  1.761016E-04 -1.655266E+02  1.740489E-04 -1.676815E+02  9.436791E-01 -6.467710E+01 
8.195375E+02  9.589785E-01 -5.482324E+01  1.715917E-04 -1.634651E+02  1.633916E-04 -1.618412E+02  9.433270E-01 -6.467364E+01 
8.196000E+02  9.588185E-01 -5.481941E+01  1.613151E-04 -1.606122E+02  1.658174E-04 -1.605046E+02  9.433783E-01 -6.467571E+01 
8.196625E+02  9.589836E-01 -5.482100E+01  1.561877E-04 -1.558756E+02  1.615619E-04 -1.566735E+02  9.438467E-01 -6.466591E+01 
8.197250E+02  9.590691E-01 -5.482764E+01  1.661190E-04 -1.532009E+02  1.550327E-04 -1.519806E+02  9.434639E-01 -6.469888E+01 
8.197875E+02  9.588365E-01 -5.482923E+01  1.573754E-04 -1.502769E+02  1.562947E-04 -1.504348E+02  9.437588E-01 -6.467013E+01 
8.198500E+02  9.589942E-01 -5.483793E+01  1.514358E-04 -1.459768E+02  1.543924E-04 -1.485601E+02  9.434063E-01 -6.469012E+01 
8.199125E+02  9.589611E-01 -5.482549E+01  1.466711E-04 -1.427488E+02  1.535757E-04 -1.441025E+02  9.434563E-01 -6.469939E+01 
8.199750E+02  9.589624E-01 -5.484109E+01  1.478517E-04 -1.396677E+02  1.519998E-04 -1.391832E+02  9.433285E-01 -6.469676E+01 
8.200375E+02  9.589969E-01 -5.485765E+01  1.548672E-04 -1.351562E+02  1.553659E-04 -1.340674E+02  9.433877E-01 -6.469827E+01 
8.201000E+02  9.590608E-01 -5.485191E+01  1.604193E-04 -1.303771E+02  1.574187E-04 -1.301282E+02  9.435265E-01 -6.473328E+01 
8.201625E+02  9.588757E-01 -5.485661E+01  1.623837E-04 -1.249971E+02  1.665493E-04 -1.274492E+02  9.435473E-01 -6.471366E+01 
8.202250E+02  9.588352E-01 -5.485525E+01  1.742398E-04 -1.240549E+02  1.752270E-04 -1.221090E+02  9.434972E-01 -6.471340E+01 
8.202875E+02  9.589513E-01 -5.486882E+01  1.830215E-04 -1.194040E+02  1.791471E-04 -1.194159E+02  9.433403E-01 -6.470905E+01 
8.203500E+02  9.592555E-01 -5.486565E+01  1.944071E-04 -1.188937E+02  1.916266E-04 -1.185699E+02  9.435292E-01 -6.472582E+01 
8.204125E+02  9.591162E-01 -5.487812E+01  2.124167E-04 -1.153699E+02  2.065431E-04 -1.178395E+02  9.433152E-01 -6.473377E+01 
8.204750E+02  9.588189E-01 -5.487440E+01  2.229093E-04 -1.152917E+02  2.210966E-04 -1.153260E+02  9.438493E-01 -6.471098E+01 
8.205375E+02  9.589828E-01 -5.487719E+01  2.386452E-04 -1.160349E+02  2.322033E-04 -1.152112E+02  9.434097E-01 -6.473258E+01 
8.206000E+02  9.589796E-01 -5.488683E+01  2.544580E-04 -1.152211E+02  2.418752E-04 -1.144634E+02  9.433400E-01 -6.472412E+01 
8.206625E+02  9.590460E-01 -5.489508E+01  2.611147E-04 -1.145421E+02  2.633675E-04 -1.163232E+02  9.435700E-01 -6.473007E+01 
8.207250E+02  9.589557E-01 -5.490123E+01  2.766813E-04 -1.158725E+02  2.718509E-04 -1.161785E+02  9.434762E-01 -6.474978E+01 
8.207875E+02  9.588891E-01 -5.488306E+01  2.943521E-04 -1.170963E+02  2.978024E-04 -1.170741E+02  9.434095E-01 -6.474434E+01 
8.208500E+02  9.590319E-01 -5.490171E+01  3.032237E-04 -1.172543E+02  3.022759E-04 -1.171662E+02  9.434129E-01 -6.474467E+01 
8.209125E+02  9.589669E-01 -5.491261E+01  3.233459E-04 -1.179887E+02  3.164770E-04 -1.186426E+02  9.435811E-01 -6.475911E+01 
8.209750E+02  9.589027E-01 -5.490432E+01  3.334756E-04 -1.193009E+02  3.352533E-04 -1.193281E+02  9.437245E-01 -6.473828E+01 
8.210375E+02  9.588296E-01 -5.492951E+01  3.468115E-04 -1.202841E+02  3.467133E-04 -1.208452E+02  9.433064E-01 -6.475087E+01 
8.211000E+02  9.588569E-01 -5.491720E+01  3.597991E-04 -1.214659E+02  3.651235E-04 -1.220000E+02  9.431640E-01 -6.476166E+01 
8.211625E+02  9.589820E-01 -5.493330E+01  3.682265E-04 -1.243346E+02  3.709962E-04 -1.242523E+02  9.435117E-01 -6.474917E+01 
8.212250E+02  9.591087E-01 -5.492294E+01  3.750441E-04 -1.266605E+02  3.812351E-04 -1.260027E+02  9.434533E-01 -6.476464E+01 
8.212875E+02  9.589310E-01 -5.492812E+01  3.825040E-04 -1.278301E+02  3.864462E-04 -1.273471E+02  9.433789E-01 -6.477515E+01 
8.213500E+02  9.590171E-01 -5.495365E+01  3.901387E-04 -1.294050E+02  3.916867E-04 -1.295613E+02  9.432266E-01 -6.478166E+01 
8.214125E+02  9.591091E-01 -5.495542E+01  3.944051E-04 -1.318695E+02  3.953122E-04 -1.322574E+02  9.434290E-01 -6.479135E+01 
8.214750E+02  9.592169E-01 -5.494807E+01  3.881852E-04 -1.335810E+02  3.927338E-04 -1.344016E+02  9.435357E-01 -6.478127E+01 
8.215375E+02  9.589516E-01 -5.496506E+01  3.967578E-04 -1.358942E+02  3.981070E-04 -1.361445E+02  9.434712E-01 -6.479143E+01 
8.216000E+02  9.589679E-01 -5.495741E+01  4.008725E-04 -1.374861E+02  3.955216E-04 -1.376040E+02  9.433932E-01 -6.480952E+01 
8.216625E+02  9.592038E-01 -5.496670E+01  3.973522E-04 -1.395555E+02  3.998569E-04 -1.399431E+02  9.435267E-01 -6.479472E+01 
8.217250E+02  9.591486E-01 -5.495676E+01  3.931499E-04 -1.409199E+02  3.916255E-04 -1.408224E+02  9.435529E-01 -6.479676E+01 
8.217875E+02  9.589581E-01 -5.497923E+01  3.883165E-04 -1.415845E+02  3.844006E-04 -1.426750E+02  9.434241E-01 -6.481381E+01 
8.218500E+02  9.591062E-01 -5.498720E+01  3.843880E-04 -1.432008E+02  3.857421E-04 -1.433911E+02  9.434349E-01 -6.482554E+01 
8.219125E+02  9.588412E-01 -5.498932E+01  3.781737E-04 -1.437119E+02  3.827167E-04 -1.434013E+02  9.435984E-01 -6.481428E+01 
8.219750E+02  9.590622E-01 -5.498101E+01  3.729124E-04 -1.441165E+02  3.816669E-04 -1.440001E+02  9.436564E-01 -6.481423E+01 
8.220375E+02  9.591343E-01 -5.500319E+01  3.760833E-04 -1.457160E+02  3.773340E-04 -1.452693E+02  9.434388E-01 -6.482400E+01 
8.221000E+02  9.588853E-01 -5.500010E+01  3.720334E-04 -1.456786E+02  3.739818E-04 -1.458947E+02  9.433327E-01 -6.483069E+01 
8.221625E+02  9.590933E-01 -5.500051E+01  3.604417E-04 -1.459341E+02  3.707935E-04 -1.472304E+02  9.435085E-01 -6.484699E+01 
8.222250E+02  9.591714E-01 -5.500867E+01  3.611948E-04 -1.472596E+02  3.643738E-04 -1.463996E+02  9.435152E-01 -6.484273E+01 
8.222875E+02  9.587453E-01 -5.501530E+01  3.564230E-04 -1.468660E+02  3.583896E-04 -1.459419E+02  9.435667E-01 -6.483614E+01 
8.223500E+02  9.591544E-01 -5.501708E+01  3.556125E-04 -1.481022E+02  3.554362E-04 -1.464918E+02  9.433827E-01 -6.484297E+01 
8.224125E+02  9.590501E-01 -5.502537E+01  3.503200E-04 -1.475773E+02  3.537053E-04 -1.471359E+02  9.434386E-01 -6.485211E+01 
8.224750E+02  9.592325E-01 -5.502885E+01  3.516408E-04 -1.476942E+02  3.508032E-04 -1.478603E+02  9.434746E-01 -6.484799E+01 
8.225375E+02  9.590144E-01 -5.504563E+01  3.530804E-04 -1.477759E+02  3.514663E-04 -1.477926E+02  9.435562E-01 -6.485023E+01 
8.226000E+02  9.591510E-01 -5.503269E+01  3.411815E-04 -1.475205E+02  3.512831E-04 -1.471455E+02  9.436146E-01 -6.486696E+01 
8.226625E+02  9.590206E-01 -5.504366E+01  3.485069E-04 -1.473439E+02  3.501433E-04 -1.470955E+02  9.434217E-01 -6.485921E+01 
8.227250E+02  9.589938E-01 -5.505026E+01  3.507074E-04 -1.476471E+02  3.462664E-04 -1.469048E+02  9.434061E-01 -6.487498E+01 
8.227875E+02  9.588292E-01 -5.505611E+01  3.434725E-04 -1.472117E+02  3.463501E-04 -1.478325E+02  9.435905E-01 -6.487242E+01 
8.228500E+02  9.591102E-01 -5.505747E+01  3.486373E-04 -1.485391E+02  3.443228E-04 -1.484258E+02  9.433629E-01 -6.488385E+01 
8.229125E+02  9.589390E-01 -5.504207E+01  3.550341E-04 -1.487093E+02  3.510410E-04 -1.485611E+02  9.435171E-01 -6.488891E+01 
8.229750E+02  9.589443E-01 -5.507180E+01  3.566191E-04 -1.500639E+02  3.489891E-04 -1.485305E+02  9.434475E-01 -6.488878E+01 
8.230375E+02  9.591967E-01 -5.507666E+01  3.524135E-04 -1.483557E+02  3.535721E-04 -1.481590E+02  9.433199E-01 -6.490807E+01 
8.231000E+02  9.590427E-01 -5.508577E+01  3.518903E-04 -1.500471E+02  3.514192E-04 -1.496399E+02  9.434320E-01 -6.490997E+01 
8.231625E+02  9.589818E-01 -5.509252E+01  3.527219E-04 -1.504197E+02  3.470714E-04 -1.504422E+02  9.434731E-01 -6.490597E+01 
8.232250E+02  9.591858E-01 -5.510060E+01  3.519893E-04 -1.504973E+02  3.440873E-04 -1.506501E+02  9.435380E-01 -6.491682E+01 
8.232875E+02  9.590390E-01 -5.507487E+01  3.510031E-04 -1.515435E+02  3.554368E-04 -1.515169E+02  9.435831E-01 -6.491204E+01 
8.233500E+02  9.590503E-01 -5.510843E+01  3.507647E-04 -1.522913E+02  3.525978E-04 -1.529908E+02  9.433759E-01 -6.490806E+01 
8.234125E+02  9.590720E-01 -5.511040E+01  3.532964E-04 -1.531314E+02  3.555948E-04 -1.540782E+02  9.432783E-01 -6.491331E+01 
8.234750E+02  9.588206E-01 -5.510334E+01  3.492503E-04 -1.545419E+02  3.558744E-04 -1.543764E+02  9.433014E-01 -6.492624E+01 
8.235375E+02  9.588908E-01 -5.511374E+01  3.459015E-04 -1.562095E+02  3.494321E-04 -1.560239E+02  9.436936E-01 -6.490640E+01 
8.236000E+02  9.589975E-01 -5.511983E+01  3.403137E-04 -1.566976E+02  3.428678E-04 -1.575903E+02  9.434163E-01 -6.494285E+01 
8.236625E+02  9.589226E-01 -5.513339E+01  3.377431E-04 -1.590421E+02  3.411368E-04 -1.576366E+02  9.433936E-01 -6.493034E+01 
8.237250E+02  9.590644E-01 -5.511587E+01  3.343970E-04 -1.601131E+02  3.298097E-04 -1.588642E+02  9.435053E-01 -6.493167E+01 
8.237875E+02  9.589650E-01 -5.513282E+01  3.218178E-04 -1.602489E+02  3.225718E-04 -1.612092E+02  9.433867E-01 -6.495268E+01 
8.238500E+02  9.589710E-01 -5.513156E+01  3.149203E-04 -1.618418E+02  3.114115E-04 -1.618704E+02  9.434569E-01 -6.495249E+01 
8.239125E+02  9.589833E-01 -5.514300E+01  3.059201E-04 -1.622655E+02  3.013694E-04 -1.616887E+02  9.435293E-01 -6.495680E+01 
8.239750E+02  9.588202E-01 -5.514937E+01  2.901231E-04 -1.627952E+02  2.863974E-04 -1.624037E+02  9.433695E-01 -6.496901E+01 
8.240375E+02  9.590028E-01 -5.514234E+01  2.784883E-04 -1.612964E+02  2.822965E-04 -1.632442E+02  9.435419E-01 -6.496194E+01 
8.241000E+02  9.590381E-01 -5.515823E+01  2.753443E-04 -1.625601E+02  2.782345E-04 -1.620426E+02  9.433854E-01 -6.495340E+01 
8.241625E+02  9.588529E-01 -5.514971E+01  2.654080E-04 -1.611270E+02  2.591000E-04 -1.615493E+02  9.433642E-01 -6.498089E+01 
8.242250E+02  9.590340E-01 -5.516778E+01  2.513237E-04 -1.611540E+02  2.497392E-04 -1.619351E+02  9.435803E-01 -6.496667E+01 
8.242875E+02  9.587297E-01 -5.516728E+01  2.357194E-04 -1.601643E+02  2.387822E-04 -1.595491E+02  9.433649E-01 -6.498208E+01 
8.243500E+02  9.588023E-01 -5.518677E+01  2.287903E-04 -1.595728E+02  2.288544E-04 -1.590463E+02  9.432846E-01 -6.499181E+01 
8.244125E+02  9.589401E-01 -5.518464E+01  2.250366E-04 -1.574340E+02  2.234253E-04 -1.563494E+02  9.433220E-01 -6.499325E+01 
8.244750E+02  9.589737E-01 -5.518931E+01  2.081254E-04 -1.550933E+02  2.181399E-04 -1.535967E+02  9.433715E-01 -6.498561E+01 
8.245375E+02  9.587073E-01 -5.518539E+01  2.045209E-04 -1.525512E+02  2.053101E-04 -1.541802E+02  9.432448E-01 -6.498689E+01 
8.246000E+02  9.588374E-01 -5.520590E+01  1.973988E-04 -1.500328E+02  1.976211E-04 -1.507165E+02  9.431886E-01 -6.501538E+01 
8.246625E+02  9.587546E-01 -5.520182E+01  1.899027E-04 -1.462965E+02  1.969989E-04 -1.475392E+02  9.434205E-01 -6.500850E+01 
8.247250E+02  9.588840E-01 -5.520201E+01  1.898227E-04 -1.443244E+02  1.937753E-04 -1.426638E+02  9.433990E-01 -6.498651E+01 
8.247875E+02  9.586886E-01 -5.520037E+01  1.913224E-04 -1.396072E+02  1.897365E-04 -1.399822E+02  9.435704E-01 -6.501479E+01 
8.248500E+02  9.587388E-01 -5.520697E+01  1.929872E-04 -1.346602E+02  1.945946E-04 -1.365577E+02  9.432825E-01 -6.501412E+01 
8.249125E+02  9.584960E-01 -5.522157E+01  1.926312E-04 -1.315930E+02  1.977551E-04 -1.308938E+02  9.435245E-01 -6.501312E+01 
8.249750E+02  9.586175E-01 -5.522199E+01  2.047619E-04 -1.287772E+02  2.053242E-04 -1.273844E+02  9.433751E-01 -6.503013E+01 
8.250375E+02  9.586138E-01 -5.520898E+01  2.115146E-04 -1.258200E+02  2.105123E-04 -1.256255E+02  9.434287E-01 -6.502061E+01 
8.251000E+02  9.588407E-01 -5.523300E+01  2.243410E-04 -1.213886E+02  2.189066E-04 -1.212748E+02  9.434739E-01 -6.502043E+01 
8.251625E+02  9.586685E-01 -5.524697E+01  2.349732E-04 -1.198788E+02  2.344195E-04 -1.189131E+02  9.432389E-01 -6.502738E+01 
8.252250E+02  9.587239E-01 -5.523449E+01  2.536331E-04 -1.189883E+02  2.532589E-04 -1.186676E+02  9.432890E-01 -6.501443E+01 
8.252875E+02  9.587785E-01 -5.524170E+01  2.631267E-04 -1.181739E+02  2.621530E-04 -1.178165E+02  9.431660E-01 -6.503993E+01 
8.253500E+02  9.585335E-01 -5.525178E+01  2.803348E-04 -1.163105E+02  2.751162E-04 -1.158735E+02  9.432116E-01 -6.504305E+01 
8.254125E+02  9.587170E-01 -5.524491E+01  2.932716E-04 -1.161214E+02  2.921794E-04 -1.163710E+02  9.433692E-01 -6.504390E+01 
8.254750E+02  9.587606E-01 -5.525160E+01  3.087816E-04 -1.166308E+02  3.088254E-04 -1.162627E+02  9.433471E-01 -6.505200E+01 
8.255375E+02  9.586931E-01 -5.527897E+01  3.238995E-04 -1.163578E+02  3.291933E-04 -1.173287E+02  9.432702E-01 -6.505118E+01 
8.256000E+02  9.588095E-01 -5.526256E+01  3.432600E-04 -1.172147E+02  3.534801E-04 -1.182396E+02  9.433695E-01 -6.505135E+01 
8.256625E+02  9.587172E-01 -5.527271E+01  3.525930E-04 -1.172330E+02  3.544265E-04 -1.183085E+02  9.432280E-01 -6.506776E+01 
8.257250E+02  9.588242E-01 -5.526875E+01  3.758135E-04 -1.203236E+02  3.783471E-04 -1.194327E+02  9.432544E-01 -6.508145E+01 
8.257875E+02  9.586438E-01 -5.527901E+01  3.829213E-04 -1.223986E+02  3.957896E-04 -1.207141E+02  9.433930E-01 -6.506641E+01 
8.258500E+02  9.588602E-01 -5.527969E+01  4.021301E-04 -1.238122E+02  4.030457E-04 -1.236416E+02  9.429902E-01 -6.508038E+01 
8.259125E+02  9.588446E-01 -5.529388E+01  4.091433E-04 -1.239701E+02  4.193718E-04 -1.237662E+02  9.431974E-01 -6.509357E+01 
8.259750E+02  9.585104E-01 -5.529089E+01  4.280762E-04 -1.281567E+02  4.226041E-04 -1.256777E+02  9.431729E-01 -6.508803E+01 
8.260375E+02  9.586637E-01 -5.529334E+01  4.320890E-04 -1.276205E+02  4.212053E-04 -1.285439E+02  9.433945E-01 -6.509280E+01 
8.261000E+02  9.585600E-01 -5.529849E+01  4.352830E-04 -1.304607E+02  4.371494E-04 -1.301770E+02  9.431472E-01 -6.509252E+01 
8.261625E+02  9.587421E-01 -5.531878E+01  4.439300E-04 -1.322362E+02  4.414750E-04 -1.316368E+02  9.433720E-01 -6.507748E+01 
8.262250E+02  9.585933E-01 -5.530909E+01  4.543938E-04 -1.340620E+02  4.458110E-04 -1.335215E+02  9.430991E-01 -6.511126E+01 
8.262875E+02  9.586801E-01 -5.531283E+01  4.507893E-04 -1.352056E+02  4.510223E-04 -1.352374E+02  9.434311E-01 -6.511033E+01 
8.263500E+02  9.587010E-01 -5.531674E+01  4.607713E-04 -1.374159E+02  4.560453E-04 -1.368168E+02  9.433134E-01 -6.509292E+01 
8.264125E+02  9.586619E-01 -5.532432E+01  4.528306E-04 -1.389055E+02  4.547637E-04 -1.390791E+02  9.433518E-01 -6.513056E+01 
8.264750E+02  9.586647E-01 -5.531971E+01  4.572439E-04 -1.418298E+02  4.547526E-04 -1.414626E+02  9.430661E-01 -6.511709E+01 
8.265375E+02  9.587412E-01 -5.533343E+01  4.586687E-04 -1.435624E+02  4.578054E-04 -1.425142E+02  9.433962E-01 -6.510667E+01 
8.266000E+02  9.588002E-01 -5.533755E+01  4.505758E-04 -1.442187E+02  4.489170E-04 -1.457849E+02  9.432560E-01 -6.512901E+01 
8.266625E+02  9.585848E-01 -5.535500E+01  4.458232E-04 -1.469335E+02  4.464947E-04 -1.467790E+02  9.431717E-01 -6.512801E+01 
8.267250E+02  9.587812E-01 -5.534395E+01  4.424056E-04 -1.475672E+02  4.384384E-04 -1.474326E+02  9.432906E-01 -6.512586E+01 
8.267875E+02  9.589371E-01 -5.534059E+01  4.368825E-04 -1.488148E+02  4.299616E-04 -1.484183E+02  9.433020E-01 -6.512904E+01 
8.268500E+02  9.586787E-01 -5.535792E+01  4.287105E-04 -1.503192E+02  4.314770E-04 -1.495874E+02  9.432266E-01 -6.513385E+01 
8.269125E+02  9.587062E-01 -5.536521E+01  4.216246E-04 -1.513156E+02  4.245256E-04 -1.508658E+02  9.432102E-01 -6.514246E+01 
8.269750E+02  9.587843E-01 -5.536928E+01  4.184385E-04 -1.525603E+02  4.217721E-04 -1.522503E+02  9.431567E-01 -6.515258E+01 
8.270375E+02  9.586374E-01 -5.537594E+01  4.119638E-04 -1.529587E+02  4.118981E-04 -1.526985E+02  9.430597E-01 -6.514086E+01 
8.271000E+02  9.589218E-01 -5.537327E+01  4.012493E-04 -1.537204E+02  4.025296E-04 -1.541946E+02  9.432403E-01 -6.514606E+01 
8.271625E+02  9.586430E-01 -5.538966E+01  3.944048E-04 -1.550685E+02  4.016898E-04 -1.553984E+02  9.431146E-01 -6.516084E+01 
8.272250E+02  9.586971E-01 -5.539445E+01  3.872219E-04 -1.556921E+02  3.849866E-04 -1.558206E+02  9.432682E-01 -6.516212E+01 
8.272875E+02  9.587003E-01 -5.539439E+01  3.781216E-04 -1.563956E+02  3.781557E-04 -1.561052E+02  9.431690E-01 -6.518010E+01 
8.273500E+02  9.586517E-01 -5.539821E+01  3.667143E-04 -1.563328E+02  3.694277E-04 -1.556567E+02  9.431211E-01 -6.517653E+01 
8.274125E+02  9.586704E-01 -5.540850E+01  3.577438E-04 -1.565172E+02  3.578496E-04 -1.560766E+02  9.431514E-01 -6.518479E+01 
8.274750E+02  9.589016E-01 -5.540846E+01  3.497372E-04 -1.555294E+02  3.496359E-04 -1.559925E+02  9.429880E-01 -6.517164E+01 
8.275375E+02  9.588121E-01 -5.542611E+01  3.408259E-04 -1.555503E+02  3.445887E-04 -1.554357E+02  9.433306E-01 -6.518485E+01 
8.276000E+02  9.587064E-01 -5.541977E+01  3.395802E-04 -1.543837E+02  3.358525E-04 -1.552736E+02  9.434142E-01 -6.518330E+01 
8.276625E+02  9.588330E-01 -5.542208E+01  3.294576E-04 -1.551017E+02  3.334948E-04 -1.549312E+02  9.433490E-01 -6.519762E+01 
8.277250E+02  9.585920E-01 -5.542596E+01  3.286297E-04 -1.547197E+02  3.295962E-04 -1.538639E+02  9.433395E-01 -6.520039E+01 
8.277875E+02  9.589299E-01 -5.544006E+01  3.246486E-04 -1.541608E+02  3.265217E-04 -1.532924E+02  9.433769E-01 -6.519657E+01 
8.278500E+02  9.588203E-01 -5.543542E+01  3.268910E-04 -1.528040E+02  3.287011E-04 -1.518744E+02  9.433681E-01 -6.521920E+01 
8.279125E+02  9.588303E-01 -5.545089E+01  3.199769E-04 -1.518507E+02  3.287169E-04 -1.524334E+02  9.432264E-01 -6.520850E+01 
8.279750E+02  9.588265E-01 -5.544136E+01  3.221054E-04 -1.525332E+02  3.222794E-04 -1.518730E+02  9.432065E-01 -6.522459E+01 
