! Matrix data file written by TouchstoneData, EPCOS AG
! FILENAME: "B3960_NB.s2p"
! COMMENT: "PINNING 1/4; PORTEX 1=103PS; 2=189.5PS; 23 F"
! INFO: nport=2, nfreq=1601
! DATE: "Wed Feb  1 14:07:07 2012"
! USER: "Wilfried Schott"
!
! port | pin | signal
! -----|-----|--------
!   1  |  1  |  IN
!   2  |  4  |  OUT
! --------------------
! 
# MHZ S MA R 50
! freq  magS11 angS11  magS21 angS21  magS12 angS12  magS22 angS22
4.314200E+02  9.826326E-01 -3.094066E+01  4.522171E-04 7.956475E+01  4.494554E-04 7.934455E+01  9.773383E-01 -3.756339E+01 
4.314231E+02  9.823027E-01 -3.094249E+01  4.515948E-04 8.028875E+01  4.504716E-04 8.054988E+01  9.773758E-01 -3.755492E+01 
4.314263E+02  9.823835E-01 -3.095846E+01  4.556740E-04 8.107173E+01  4.533573E-04 8.126055E+01  9.774684E-01 -3.755718E+01 
4.314294E+02  9.825141E-01 -3.095011E+01  4.644246E-04 8.114696E+01  4.585652E-04 8.091873E+01  9.772260E-01 -3.756067E+01 
4.314325E+02  9.825356E-01 -3.095779E+01  4.634141E-04 8.174049E+01  4.624569E-04 8.165315E+01  9.773349E-01 -3.756707E+01 
4.314356E+02  9.825650E-01 -3.095630E+01  4.777420E-04 8.228486E+01  4.678799E-04 8.282211E+01  9.774506E-01 -3.755383E+01 
4.314388E+02  9.824626E-01 -3.095789E+01  4.721547E-04 8.256923E+01  4.683956E-04 8.323775E+01  9.772022E-01 -3.756592E+01 
4.314419E+02  9.825478E-01 -3.095610E+01  4.860616E-04 8.376755E+01  4.753569E-04 8.354708E+01  9.774122E-01 -3.756782E+01 
4.314450E+02  9.824408E-01 -3.095188E+01  4.910028E-04 8.515097E+01  4.789831E-04 8.467925E+01  9.774606E-01 -3.756931E+01 
4.314481E+02  9.824589E-01 -3.096365E+01  4.887287E-04 8.450408E+01  4.905031E-04 8.562066E+01  9.772560E-01 -3.758101E+01 
4.314513E+02  9.823157E-01 -3.097282E+01  4.938073E-04 8.574326E+01  4.920561E-04 8.570367E+01  9.772172E-01 -3.757608E+01 
4.314544E+02  9.824005E-01 -3.098415E+01  4.970914E-04 8.551789E+01  5.007140E-04 8.621136E+01  9.771436E-01 -3.758147E+01 
4.314575E+02  9.825109E-01 -3.096406E+01  5.126845E-04 8.615973E+01  5.106935E-04 8.639064E+01  9.773434E-01 -3.756395E+01 
4.314606E+02  9.822143E-01 -3.097767E+01  5.188158E-04 8.681179E+01  5.112206E-04 8.757817E+01  9.772281E-01 -3.758448E+01 
4.314638E+02  9.824264E-01 -3.097166E+01  5.228967E-04 8.718421E+01  5.199592E-04 8.756477E+01  9.772741E-01 -3.758014E+01 
4.314669E+02  9.823462E-01 -3.098703E+01  5.270050E-04 8.726869E+01  5.250078E-04 8.788626E+01  9.772699E-01 -3.758107E+01 
4.314700E+02  9.824435E-01 -3.097904E+01  5.375147E-04 8.781847E+01  5.302041E-04 8.780746E+01  9.773564E-01 -3.759401E+01 
4.314731E+02  9.824817E-01 -3.098557E+01  5.386836E-04 8.854713E+01  5.389678E-04 8.833949E+01  9.772095E-01 -3.759391E+01 
4.314762E+02  9.823311E-01 -3.098300E+01  5.452755E-04 8.821798E+01  5.473387E-04 8.831927E+01  9.770069E-01 -3.760662E+01 
4.314794E+02  9.824777E-01 -3.098378E+01  5.577778E-04 8.864391E+01  5.565655E-04 8.913800E+01  9.771640E-01 -3.758621E+01 
4.314825E+02  9.825269E-01 -3.098973E+01  5.644850E-04 8.831156E+01  5.583618E-04 8.950795E+01  9.769212E-01 -3.760446E+01 
4.314856E+02  9.824684E-01 -3.100099E+01  5.661932E-04 8.962389E+01  5.671838E-04 8.908516E+01  9.772061E-01 -3.759049E+01 
4.314888E+02  9.826611E-01 -3.099609E+01  5.741423E-04 8.873031E+01  5.716822E-04 8.915438E+01  9.773992E-01 -3.759986E+01 
4.314919E+02  9.823732E-01 -3.099756E+01  5.817283E-04 8.917911E+01  5.765432E-04 8.948565E+01  9.770696E-01 -3.761117E+01 
4.314950E+02  9.825284E-01 -3.099911E+01  5.921844E-04 9.002374E+01  5.828134E-04 8.961486E+01  9.771472E-01 -3.759900E+01 
4.314981E+02  9.824485E-01 -3.101054E+01  6.007820E-04 9.004136E+01  5.981203E-04 9.034590E+01  9.771511E-01 -3.760684E+01 
4.315013E+02  9.824782E-01 -3.101050E+01  6.106618E-04 9.018093E+01  6.034024E-04 9.010317E+01  9.773116E-01 -3.760809E+01 
4.315044E+02  9.826086E-01 -3.099378E+01  6.151718E-04 8.998693E+01  6.090064E-04 9.002038E+01  9.773068E-01 -3.760361E+01 
4.315075E+02  9.823251E-01 -3.101300E+01  6.243050E-04 9.010531E+01  6.220571E-04 9.018057E+01  9.770940E-01 -3.762369E+01 
4.315106E+02  9.824890E-01 -3.101312E+01  6.326669E-04 8.999942E+01  6.303414E-04 9.039399E+01  9.772725E-01 -3.760627E+01 
4.315138E+02  9.824670E-01 -3.101939E+01  6.382039E-04 9.036322E+01  6.354698E-04 9.038616E+01  9.771986E-01 -3.760901E+01 
4.315169E+02  9.825187E-01 -3.102396E+01  6.476890E-04 9.050214E+01  6.383528E-04 9.030841E+01  9.772048E-01 -3.760971E+01 
4.315200E+02  9.824616E-01 -3.102524E+01  6.577127E-04 9.050329E+01  6.493061E-04 9.049220E+01  9.771625E-01 -3.761787E+01 
4.315231E+02  9.824326E-01 -3.101681E+01  6.666577E-04 9.033709E+01  6.585800E-04 8.979222E+01  9.773858E-01 -3.761187E+01 
4.315263E+02  9.824863E-01 -3.103176E+01  6.675642E-04 8.987584E+01  6.621641E-04 8.978108E+01  9.773496E-01 -3.762293E+01 
4.315294E+02  9.823414E-01 -3.103014E+01  6.709419E-04 9.019915E+01  6.672377E-04 9.041689E+01  9.772958E-01 -3.762491E+01 
4.315325E+02  9.824611E-01 -3.102450E+01  6.841771E-04 8.998551E+01  6.797855E-04 9.053996E+01  9.772271E-01 -3.762226E+01 
4.315356E+02  9.824169E-01 -3.103608E+01  6.876316E-04 8.999461E+01  6.895254E-04 9.020634E+01  9.772234E-01 -3.763137E+01 
4.315387E+02  9.822537E-01 -3.103266E+01  6.978648E-04 8.986515E+01  6.962044E-04 9.031184E+01  9.772076E-01 -3.762924E+01 
4.315419E+02  9.824182E-01 -3.103918E+01  7.060103E-04 8.981509E+01  7.013998E-04 8.975868E+01  9.770964E-01 -3.763837E+01 
4.315450E+02  9.822778E-01 -3.103877E+01  7.141778E-04 8.971073E+01  7.071844E-04 9.003522E+01  9.772114E-01 -3.761692E+01 
4.315481E+02  9.822403E-01 -3.104091E+01  7.082894E-04 9.002607E+01  7.167258E-04 8.969974E+01  9.771563E-01 -3.763819E+01 
4.315513E+02  9.823909E-01 -3.104318E+01  7.233161E-04 8.945667E+01  7.174018E-04 8.986297E+01  9.772431E-01 -3.763920E+01 
4.315544E+02  9.823639E-01 -3.104596E+01  7.297634E-04 8.953199E+01  7.314976E-04 8.961231E+01  9.773648E-01 -3.764301E+01 
4.315575E+02  9.822659E-01 -3.104811E+01  7.376856E-04 8.962994E+01  7.327888E-04 8.940035E+01  9.770800E-01 -3.765182E+01 
4.315606E+02  9.820505E-01 -3.105912E+01  7.508995E-04 8.933520E+01  7.414526E-04 8.923371E+01  9.772593E-01 -3.764218E+01 
4.315638E+02  9.821895E-01 -3.104668E+01  7.540575E-04 8.911176E+01  7.504202E-04 8.915847E+01  9.770553E-01 -3.765512E+01 
4.315669E+02  9.823087E-01 -3.105960E+01  7.641445E-04 8.851117E+01  7.556637E-04 8.903070E+01  9.771425E-01 -3.765205E+01 
4.315700E+02  9.821281E-01 -3.105436E+01  7.694839E-04 8.892748E+01  7.594391E-04 8.867608E+01  9.772026E-01 -3.765639E+01 
4.315731E+02  9.822707E-01 -3.105403E+01  7.710539E-04 8.904157E+01  7.734612E-04 8.882622E+01  9.770000E-01 -3.766988E+01 
4.315763E+02  9.821689E-01 -3.106275E+01  7.813201E-04 8.825924E+01  7.751497E-04 8.869608E+01  9.770677E-01 -3.766230E+01 
4.315794E+02  9.823147E-01 -3.105864E+01  7.901076E-04 8.828208E+01  7.876096E-04 8.809185E+01  9.770635E-01 -3.767348E+01 
4.315825E+02  9.819897E-01 -3.106954E+01  7.931220E-04 8.797923E+01  7.892393E-04 8.777027E+01  9.770352E-01 -3.766620E+01 
4.315856E+02  9.821439E-01 -3.106762E+01  7.984628E-04 8.814377E+01  7.950419E-04 8.798102E+01  9.769347E-01 -3.767368E+01 
4.315888E+02  9.820476E-01 -3.107492E+01  8.024239E-04 8.779447E+01  8.007146E-04 8.752993E+01  9.770325E-01 -3.766859E+01 
4.315919E+02  9.820865E-01 -3.107164E+01  8.125727E-04 8.756712E+01  8.072125E-04 8.790306E+01  9.770026E-01 -3.768347E+01 
4.315950E+02  9.822390E-01 -3.107532E+01  8.145222E-04 8.737827E+01  8.138619E-04 8.745541E+01  9.768938E-01 -3.768461E+01 
4.315981E+02  9.821211E-01 -3.107762E+01  8.187345E-04 8.718233E+01  8.174368E-04 8.771916E+01  9.769449E-01 -3.768242E+01 
4.316012E+02  9.822427E-01 -3.107038E+01  8.238165E-04 8.680407E+01  8.206623E-04 8.738482E+01  9.768251E-01 -3.769105E+01 
4.316044E+02  9.821265E-01 -3.108951E+01  8.305688E-04 8.715013E+01  8.290579E-04 8.743395E+01  9.768978E-01 -3.768070E+01 
4.316075E+02  9.821131E-01 -3.109306E+01  8.357992E-04 8.678018E+01  8.338789E-04 8.663350E+01  9.765740E-01 -3.769849E+01 
4.316106E+02  9.821168E-01 -3.108939E+01  8.501529E-04 8.651061E+01  8.341491E-04 8.619357E+01  9.768823E-01 -3.768741E+01 
4.316138E+02  9.821250E-01 -3.109148E+01  8.468947E-04 8.631060E+01  8.448938E-04 8.625730E+01  9.767403E-01 -3.769682E+01 
4.316169E+02  9.821744E-01 -3.109060E+01  8.548267E-04 8.609697E+01  8.524302E-04 8.624340E+01  9.767700E-01 -3.769949E+01 
4.316200E+02  9.821369E-01 -3.111058E+01  8.654649E-04 8.579906E+01  8.548362E-04 8.617554E+01  9.768998E-01 -3.770698E+01 
4.316231E+02  9.821451E-01 -3.109183E+01  8.695595E-04 8.580813E+01  8.610411E-04 8.556678E+01  9.766811E-01 -3.771072E+01 
4.316263E+02  9.822911E-01 -3.110186E+01  8.752951E-04 8.577116E+01  8.675104E-04 8.548578E+01  9.769173E-01 -3.769282E+01 
4.316294E+02  9.821043E-01 -3.110486E+01  8.813866E-04 8.532333E+01  8.731182E-04 8.523996E+01  9.768767E-01 -3.771108E+01 
4.316325E+02  9.822355E-01 -3.110247E+01  8.783575E-04 8.504712E+01  8.769812E-04 8.507500E+01  9.769258E-01 -3.770846E+01 
4.316356E+02  9.822645E-01 -3.112241E+01  8.833246E-04 8.488043E+01  8.816302E-04 8.510064E+01  9.770196E-01 -3.770967E+01 
4.316388E+02  9.821774E-01 -3.111741E+01  8.920709E-04 8.474112E+01  8.866872E-04 8.481919E+01  9.769202E-01 -3.771764E+01 
4.316419E+02  9.822514E-01 -3.112497E+01  8.960189E-04 8.442231E+01  8.909843E-04 8.465782E+01  9.769360E-01 -3.771514E+01 
4.316450E+02  9.821717E-01 -3.111446E+01  8.972959E-04 8.449481E+01  8.937965E-04 8.426138E+01  9.769752E-01 -3.772049E+01 
4.316481E+02  9.823364E-01 -3.111914E+01  9.020067E-04 8.432818E+01  8.952526E-04 8.423389E+01  9.769401E-01 -3.773128E+01 
4.316513E+02  9.821076E-01 -3.112499E+01  9.085179E-04 8.409844E+01  9.063953E-04 8.423734E+01  9.769891E-01 -3.772582E+01 
4.316544E+02  9.821950E-01 -3.111746E+01  9.158578E-04 8.390093E+01  9.053066E-04 8.387553E+01  9.768218E-01 -3.771994E+01 
4.316575E+02  9.822157E-01 -3.114467E+01  9.128096E-04 8.383334E+01  9.116082E-04 8.398058E+01  9.769383E-01 -3.772030E+01 
4.316606E+02  9.820923E-01 -3.113911E+01  9.171535E-04 8.346366E+01  9.168598E-04 8.378717E+01  9.770625E-01 -3.772442E+01 
4.316637E+02  9.824297E-01 -3.113888E+01  9.265640E-04 8.338013E+01  9.199277E-04 8.357345E+01  9.769870E-01 -3.773298E+01 
4.316669E+02  9.821402E-01 -3.114705E+01  9.270688E-04 8.324283E+01  9.253565E-04 8.345448E+01  9.770640E-01 -3.772100E+01 
4.316700E+02  9.822467E-01 -3.113838E+01  9.325276E-04 8.324040E+01  9.271476E-04 8.313199E+01  9.768819E-01 -3.774393E+01 
4.316731E+02  9.821536E-01 -3.115507E+01  9.365528E-04 8.308747E+01  9.335158E-04 8.301352E+01  9.770009E-01 -3.772947E+01 
4.316763E+02  9.822869E-01 -3.114928E+01  9.432502E-04 8.250202E+01  9.347201E-04 8.259636E+01  9.770803E-01 -3.773686E+01 
4.316794E+02  9.822887E-01 -3.116115E+01  9.446912E-04 8.265451E+01  9.364170E-04 8.275775E+01  9.770266E-01 -3.775165E+01 
4.316825E+02  9.821395E-01 -3.115095E+01  9.487765E-04 8.250333E+01  9.471776E-04 8.273611E+01  9.769414E-01 -3.774086E+01 
4.316856E+02  9.822862E-01 -3.115073E+01  9.610924E-04 8.194136E+01  9.529524E-04 8.220357E+01  9.768216E-01 -3.775721E+01 
4.316888E+02  9.822324E-01 -3.116561E+01  9.614039E-04 8.195010E+01  9.548719E-04 8.219406E+01  9.768531E-01 -3.775507E+01 
4.316919E+02  9.822112E-01 -3.116672E+01  9.610874E-04 8.187461E+01  9.550553E-04 8.184811E+01  9.769790E-01 -3.775383E+01 
4.316950E+02  9.824342E-01 -3.116597E+01  9.650875E-04 8.155774E+01  9.644071E-04 8.166604E+01  9.769682E-01 -3.776644E+01 
4.316981E+02  9.822140E-01 -3.117375E+01  9.732331E-04 8.150970E+01  9.630434E-04 8.167743E+01  9.770482E-01 -3.775793E+01 
4.317013E+02  9.821815E-01 -3.116490E+01  9.755496E-04 8.135196E+01  9.712553E-04 8.125794E+01  9.767765E-01 -3.777670E+01 
4.317044E+02  9.822123E-01 -3.118385E+01  9.786534E-04 8.101096E+01  9.797624E-04 8.142172E+01  9.769884E-01 -3.776205E+01 
4.317075E+02  9.821675E-01 -3.118359E+01  9.815381E-04 8.158665E+01  9.788415E-04 8.122753E+01  9.768922E-01 -3.777967E+01 
4.317106E+02  9.822947E-01 -3.118691E+01  9.847934E-04 8.082262E+01  9.819430E-04 8.094533E+01  9.769692E-01 -3.777285E+01 
4.317138E+02  9.821820E-01 -3.118342E+01  9.888709E-04 8.058355E+01  9.834510E-04 8.087764E+01  9.769335E-01 -3.778448E+01 
4.317169E+02  9.822350E-01 -3.118990E+01  9.946552E-04 8.062107E+01  9.866456E-04 8.075037E+01  9.767840E-01 -3.779614E+01 
4.317200E+02  9.821706E-01 -3.120306E+01  9.953910E-04 8.024072E+01  9.922660E-04 8.081084E+01  9.769733E-01 -3.777488E+01 
4.317231E+02  9.820545E-01 -3.120162E+01  9.984499E-04 8.034572E+01  1.000649E-03 8.052184E+01  9.768382E-01 -3.779357E+01 
4.317262E+02  9.823076E-01 -3.120588E+01  1.000522E-03 8.020089E+01  1.003927E-03 8.049823E+01  9.767879E-01 -3.779365E+01 
4.317294E+02  9.819763E-01 -3.121244E+01  1.008488E-03 8.007139E+01  9.986272E-04 8.042228E+01  9.767967E-01 -3.780352E+01 
4.317325E+02  9.821209E-01 -3.121342E+01  1.013644E-03 7.966220E+01  1.007115E-03 8.009918E+01  9.768835E-01 -3.779679E+01 
4.317356E+02  9.821640E-01 -3.121082E+01  1.019765E-03 7.985356E+01  1.008669E-03 7.959479E+01  9.767717E-01 -3.779759E+01 
4.317388E+02  9.820463E-01 -3.121336E+01  1.014992E-03 7.984601E+01  1.010430E-03 7.974550E+01  9.766962E-01 -3.781329E+01 
4.317419E+02  9.820194E-01 -3.121947E+01  1.020647E-03 7.949399E+01  1.015834E-03 7.984022E+01  9.768879E-01 -3.780406E+01 
4.317450E+02  9.821877E-01 -3.121800E+01  1.031227E-03 7.924616E+01  1.017431E-03 7.986035E+01  9.766918E-01 -3.781089E+01 
4.317481E+02  9.821238E-01 -3.122877E+01  1.026032E-03 7.909704E+01  1.029448E-03 7.944927E+01  9.767718E-01 -3.781527E+01 
4.317513E+02  9.820442E-01 -3.122977E+01  1.028223E-03 7.911049E+01  1.029797E-03 7.912084E+01  9.767936E-01 -3.781073E+01 
4.317544E+02  9.820202E-01 -3.122716E+01  1.030218E-03 7.915671E+01  1.032045E-03 7.894771E+01  9.765762E-01 -3.782683E+01 
4.317575E+02  9.821577E-01 -3.123735E+01  1.032628E-03 7.891083E+01  1.027692E-03 7.884507E+01  9.767986E-01 -3.782211E+01 
4.317606E+02  9.819505E-01 -3.123947E+01  1.040448E-03 7.882883E+01  1.033829E-03 7.883552E+01  9.765671E-01 -3.783101E+01 
4.317638E+02  9.819021E-01 -3.124651E+01  1.047842E-03 7.850347E+01  1.040843E-03 7.832549E+01  9.767513E-01 -3.783466E+01 
4.317669E+02  9.819911E-01 -3.124382E+01  1.047653E-03 7.872993E+01  1.043231E-03 7.854873E+01  9.767768E-01 -3.783496E+01 
4.317700E+02  9.820054E-01 -3.124194E+01  1.050627E-03 7.791714E+01  1.042865E-03 7.839376E+01  9.766647E-01 -3.785062E+01 
4.317731E+02  9.820379E-01 -3.123887E+01  1.055616E-03 7.823605E+01  1.044967E-03 7.850824E+01  9.766988E-01 -3.784314E+01 
4.317763E+02  9.820317E-01 -3.124776E+01  1.056584E-03 7.805096E+01  1.050278E-03 7.822095E+01  9.766459E-01 -3.785541E+01 
4.317794E+02  9.818644E-01 -3.125119E+01  1.061066E-03 7.753227E+01  1.053302E-03 7.831909E+01  9.766918E-01 -3.785482E+01 
4.317825E+02  9.818982E-01 -3.124592E+01  1.065213E-03 7.771464E+01  1.061091E-03 7.784318E+01  9.766949E-01 -3.784902E+01 
4.317856E+02  9.819372E-01 -3.125083E+01  1.070040E-03 7.795736E+01  1.064672E-03 7.788867E+01  9.765634E-01 -3.786407E+01 
4.317887E+02  9.818315E-01 -3.125313E+01  1.068704E-03 7.767130E+01  1.066954E-03 7.764886E+01  9.767536E-01 -3.786591E+01 
4.317919E+02  9.817647E-01 -3.124895E+01  1.076317E-03 7.774098E+01  1.065257E-03 7.761524E+01  9.766862E-01 -3.786867E+01 
4.317950E+02  9.817258E-01 -3.125563E+01  1.078476E-03 7.740516E+01  1.066654E-03 7.766667E+01  9.766938E-01 -3.786192E+01 
4.317981E+02  9.816835E-01 -3.126572E+01  1.086340E-03 7.733459E+01  1.084244E-03 7.757281E+01  9.767663E-01 -3.786834E+01 
4.318013E+02  9.818088E-01 -3.126251E+01  1.083631E-03 7.727152E+01  1.075353E-03 7.709481E+01  9.766744E-01 -3.788086E+01 
4.318044E+02  9.818586E-01 -3.126887E+01  1.088135E-03 7.693059E+01  1.080687E-03 7.717721E+01  9.767415E-01 -3.787370E+01 
4.318075E+02  9.819482E-01 -3.128990E+01  1.090058E-03 7.667415E+01  1.079806E-03 7.709441E+01  9.765640E-01 -3.788586E+01 
4.318106E+02  9.819789E-01 -3.127618E+01  1.086883E-03 7.665415E+01  1.088816E-03 7.691256E+01  9.767140E-01 -3.787670E+01 
4.318138E+02  9.819672E-01 -3.128460E+01  1.099307E-03 7.646387E+01  1.092524E-03 7.700374E+01  9.768208E-01 -3.788850E+01 
4.318169E+02  9.819638E-01 -3.128358E+01  1.095551E-03 7.695670E+01  1.093431E-03 7.682616E+01  9.767361E-01 -3.789141E+01 
4.318200E+02  9.820237E-01 -3.127531E+01  1.100771E-03 7.637883E+01  1.098436E-03 7.652014E+01  9.768493E-01 -3.789001E+01 
4.318231E+02  9.822370E-01 -3.130099E+01  1.105754E-03 7.655265E+01  1.099960E-03 7.647299E+01  9.767589E-01 -3.789984E+01 
4.318263E+02  9.822391E-01 -3.129762E+01  1.107798E-03 7.632166E+01  1.103150E-03 7.607033E+01  9.769334E-01 -3.788706E+01 
4.318294E+02  9.820604E-01 -3.130979E+01  1.113033E-03 7.633026E+01  1.103166E-03 7.630015E+01  9.767483E-01 -3.790048E+01 
4.318325E+02  9.820374E-01 -3.130304E+01  1.118684E-03 7.592055E+01  1.107477E-03 7.604448E+01  9.770487E-01 -3.790227E+01 
4.318356E+02  9.820853E-01 -3.130335E+01  1.116885E-03 7.583067E+01  1.116270E-03 7.610663E+01  9.769316E-01 -3.790057E+01 
4.318388E+02  9.819722E-01 -3.131852E+01  1.133711E-03 7.594007E+01  1.118749E-03 7.587864E+01  9.768071E-01 -3.791136E+01 
4.318419E+02  9.820084E-01 -3.131616E+01  1.123112E-03 7.586179E+01  1.119332E-03 7.591730E+01  9.769093E-01 -3.789851E+01 
4.318450E+02  9.819092E-01 -3.132340E+01  1.129778E-03 7.555151E+01  1.121116E-03 7.600714E+01  9.768011E-01 -3.791069E+01 
4.318481E+02  9.820880E-01 -3.131899E+01  1.139017E-03 7.554377E+01  1.128653E-03 7.555249E+01  9.769902E-01 -3.791154E+01 
4.318512E+02  9.820940E-01 -3.133086E+01  1.131777E-03 7.566731E+01  1.129123E-03 7.597467E+01  9.769453E-01 -3.791449E+01 
4.318544E+02  9.820416E-01 -3.133849E+01  1.139876E-03 7.559879E+01  1.130898E-03 7.573654E+01  9.768404E-01 -3.791881E+01 
4.318575E+02  9.820631E-01 -3.134589E+01  1.139789E-03 7.520797E+01  1.133990E-03 7.561629E+01  9.768089E-01 -3.791130E+01 
4.318606E+02  9.819338E-01 -3.134696E+01  1.144915E-03 7.482110E+01  1.143278E-03 7.544814E+01  9.768011E-01 -3.792755E+01 
4.318638E+02  9.821363E-01 -3.135722E+01  1.151157E-03 7.506246E+01  1.146962E-03 7.565870E+01  9.768115E-01 -3.792411E+01 
4.318669E+02  9.821069E-01 -3.135019E+01  1.155326E-03 7.535400E+01  1.143964E-03 7.522645E+01  9.768805E-01 -3.793599E+01 
4.318700E+02  9.820590E-01 -3.134370E+01  1.154724E-03 7.481431E+01  1.152884E-03 7.513108E+01  9.766984E-01 -3.794646E+01 
4.318731E+02  9.820153E-01 -3.135648E+01  1.163417E-03 7.478034E+01  1.152207E-03 7.501686E+01  9.768274E-01 -3.794398E+01 
4.318763E+02  9.821321E-01 -3.135782E+01  1.158278E-03 7.488426E+01  1.154356E-03 7.501243E+01  9.766305E-01 -3.795505E+01 
4.318794E+02  9.822120E-01 -3.136386E+01  1.165562E-03 7.464380E+01  1.160057E-03 7.496614E+01  9.768163E-01 -3.794549E+01 
4.318825E+02  9.820763E-01 -3.137587E+01  1.171714E-03 7.485531E+01  1.163447E-03 7.504755E+01  9.767983E-01 -3.796624E+01 
4.318856E+02  9.820832E-01 -3.137595E+01  1.173360E-03 7.417271E+01  1.166334E-03 7.469862E+01  9.767684E-01 -3.796832E+01 
4.318888E+02  9.819443E-01 -3.138154E+01  1.175287E-03 7.437010E+01  1.170083E-03 7.455636E+01  9.768785E-01 -3.796697E+01 
4.318919E+02  9.818404E-01 -3.138133E+01  1.182205E-03 7.472578E+01  1.174193E-03 7.438941E+01  9.766125E-01 -3.797836E+01 
4.318950E+02  9.818736E-01 -3.138489E+01  1.182665E-03 7.432719E+01  1.174979E-03 7.444741E+01  9.766022E-01 -3.797369E+01 
4.318981E+02  9.818595E-01 -3.138335E+01  1.185998E-03 7.441792E+01  1.178087E-03 7.429075E+01  9.768293E-01 -3.797896E+01 
4.319013E+02  9.820714E-01 -3.138373E+01  1.191440E-03 7.423338E+01  1.191750E-03 7.438500E+01  9.766153E-01 -3.798493E+01 
4.319044E+02  9.819236E-01 -3.138951E+01  1.190934E-03 7.424725E+01  1.185944E-03 7.416377E+01  9.766011E-01 -3.798808E+01 
4.319075E+02  9.820040E-01 -3.139018E+01  1.190265E-03 7.410530E+01  1.191006E-03 7.426224E+01  9.764525E-01 -3.800106E+01 
