! Matrix data file written by TouchstoneData, EPCOS AG
! FILENAME: "B4060_WB.s2p"
! COMMENT: "11 Jan 2006 S11-PORTEX1 84PS;PORTEX2 170PS;"
! INFO: nport=2, nfreq=1601
! DATE: "Tue Jul 22 16:32:40 2008"
! USER: "Aleksander Breg"
!
! port | pin | signal
! -----|-----|--------
!   1  |  6  |  input
!   2  |  2  |  output
! --------------------
! 
# MHZ S MA R 50
! freq  magS11 angS11  magS21 angS21  magS12 angS12  magS22 angS22
1.000000E+01  9.991670E-01 -2.016449E+00  3.830446E-04 9.539676E+01  3.824972E-04 9.439255E+01  9.994236E-01 -2.616677E+00 
1.186875E+01  9.987679E-01 -2.409054E+00  3.918987E-04 9.290650E+01  3.815844E-04 9.118507E+01  9.986895E-01 -3.147348E+00 
1.373750E+01  9.993787E-01 -3.007139E+00  4.111243E-04 8.169974E+01  4.026412E-04 8.086286E+01  9.993030E-01 -3.782690E+00 
1.560625E+01  9.992379E-01 -3.222506E+00  8.113371E-04 8.405441E+01  8.052489E-04 8.382053E+01  9.993068E-01 -4.160350E+00 
1.747500E+01  9.985923E-01 -3.461026E+00  7.345632E-04 9.043650E+01  7.297972E-04 9.090107E+01  9.995027E-01 -4.514812E+00 
1.934375E+01  9.992606E-01 -3.953026E+00  8.048025E-04 8.839074E+01  7.999997E-04 8.849906E+01  9.990480E-01 -5.110196E+00 
2.121250E+01  9.985959E-01 -4.237357E+00  6.556252E-04 9.498094E+01  6.519702E-04 9.508583E+01  9.985397E-01 -5.422011E+00 
2.308125E+01  9.983788E-01 -4.701531E+00  7.425092E-04 7.344551E+01  7.514721E-04 7.337027E+01  9.968808E-01 -5.980876E+00 
2.495000E+01  9.989552E-01 -5.013404E+00  7.750263E-04 8.406343E+01  7.679131E-04 8.469855E+01  9.975419E-01 -6.409890E+00 
2.681875E+01  9.990212E-01 -5.217327E+00  7.260207E-04 9.046459E+01  7.210010E-04 9.088437E+01  9.974109E-01 -7.111758E+00 
2.868750E+01  9.984773E-01 -6.027285E+00  9.726128E-04 8.232758E+01  9.866629E-04 8.244597E+01  9.991894E-01 -7.439053E+00 
3.055625E+01  9.960680E-01 -6.510910E+00  1.008432E-03 7.073607E+01  1.003421E-03 7.138827E+01  9.977184E-01 -8.110536E+00 
3.242500E+01  9.973101E-01 -6.725281E+00  1.101655E-03 7.798919E+01  1.105744E-03 7.742253E+01  9.976667E-01 -8.601798E+00 
3.429375E+01  9.980767E-01 -6.987621E+00  1.249281E-03 8.369277E+01  1.241867E-03 8.415748E+01  9.976697E-01 -9.005378E+00 
3.616250E+01  9.981707E-01 -7.377196E+00  1.367483E-03 7.898459E+01  1.369568E-03 7.895394E+01  9.975871E-01 -9.478019E+00 
3.803125E+01  9.978841E-01 -7.714411E+00  1.504431E-03 8.624660E+01  1.504622E-03 8.632969E+01  9.974040E-01 -9.965046E+00 
3.990000E+01  9.980778E-01 -8.077000E+00  1.378357E-03 8.051007E+01  1.359743E-03 8.057925E+01  9.973630E-01 -1.037874E+01 
4.176875E+01  9.964018E-01 -8.579876E+00  1.616313E-03 7.532678E+01  1.598612E-03 7.521298E+01  9.977899E-01 -1.071349E+01 
4.363750E+01  9.974359E-01 -8.897249E+00  1.238036E-03 8.286576E+01  1.217997E-03 8.278919E+01  9.972575E-01 -1.130844E+01 
4.550625E+01  9.969687E-01 -9.118009E+00  1.889937E-03 3.316183E+01  1.875721E-03 3.326987E+01  9.942969E-01 -1.184968E+01 
4.737500E+01  9.982362E-01 -9.409360E+00  1.400964E-03 7.290478E+01  1.396561E-03 7.303624E+01  9.969018E-01 -1.228182E+01 
4.924375E+01  9.983129E-01 -9.787933E+00  1.491878E-03 7.838654E+01  1.483253E-03 7.847660E+01  9.971731E-01 -1.270907E+01 
5.111250E+01  9.982580E-01 -1.020691E+01  1.659486E-03 7.802214E+01  1.645290E-03 7.771456E+01  9.970701E-01 -1.316306E+01 
5.298125E+01  9.979616E-01 -1.061580E+01  1.756034E-03 7.611922E+01  1.746677E-03 7.628776E+01  9.971806E-01 -1.368560E+01 
5.485000E+01  9.976411E-01 -1.098712E+01  1.491733E-03 8.171872E+01  1.481741E-03 8.153014E+01  9.965016E-01 -1.416874E+01 
5.671875E+01  9.975827E-01 -1.138379E+01  1.867706E-03 7.405259E+01  1.858019E-03 7.416500E+01  9.964067E-01 -1.463828E+01 
5.858750E+01  9.976336E-01 -1.176057E+01  1.885154E-03 7.564966E+01  1.875150E-03 7.573281E+01  9.965916E-01 -1.514059E+01 
6.045625E+01  9.978204E-01 -1.214280E+01  1.870952E-03 7.531279E+01  1.869039E-03 7.552210E+01  9.966835E-01 -1.563585E+01 
6.232500E+01  9.971994E-01 -1.253149E+01  2.088021E-03 6.669828E+01  2.074170E-03 6.690634E+01  9.958916E-01 -1.616579E+01 
6.419375E+01  9.973597E-01 -1.285476E+01  1.963618E-03 7.184242E+01  1.961077E-03 7.176701E+01  9.954638E-01 -1.654245E+01 
6.606250E+01  9.974987E-01 -1.326455E+01  2.175515E-03 7.053558E+01  2.164880E-03 7.059528E+01  9.959737E-01 -1.704205E+01 
6.793125E+01  9.975122E-01 -1.361826E+01  2.123446E-03 7.857773E+01  2.107202E-03 7.896157E+01  9.956573E-01 -1.753930E+01 
6.980000E+01  9.973630E-01 -1.401295E+01  2.292198E-03 7.444237E+01  2.283291E-03 7.434205E+01  9.957650E-01 -1.802290E+01 
7.166875E+01  9.970572E-01 -1.439578E+01  2.583267E-03 7.435766E+01  2.570552E-03 7.443868E+01  9.945171E-01 -1.853218E+01 
7.353750E+01  9.971392E-01 -1.472577E+01  2.186319E-03 7.029650E+01  2.175996E-03 7.038399E+01  9.947226E-01 -1.891654E+01 
7.540625E+01  9.971247E-01 -1.512822E+01  2.473444E-03 6.697920E+01  2.459617E-03 6.715139E+01  9.946416E-01 -1.944899E+01 
7.727500E+01  9.969425E-01 -1.550609E+01  2.353021E-03 7.129889E+01  2.339780E-03 7.134432E+01  9.949317E-01 -1.992054E+01 
7.914375E+01  9.970603E-01 -1.588447E+01  2.473801E-03 7.101100E+01  2.460949E-03 7.100362E+01  9.952023E-01 -2.041282E+01 
8.101250E+01  9.960815E-01 -1.624546E+01  2.416140E-03 7.217112E+01  2.394248E-03 7.233343E+01  9.935997E-01 -2.086035E+01 
8.288125E+01  9.969369E-01 -1.661472E+01  2.596098E-03 7.456897E+01  2.586479E-03 7.450522E+01  9.931858E-01 -2.137837E+01 
8.475000E+01  9.968801E-01 -1.699482E+01  2.591906E-03 7.047622E+01  2.586752E-03 7.040844E+01  9.946849E-01 -2.183312E+01 
8.661875E+01  9.967976E-01 -1.736835E+01  2.649670E-03 7.005362E+01  2.639240E-03 7.033038E+01  9.944171E-01 -2.230414E+01 
8.848750E+01  9.967061E-01 -1.774357E+01  2.897432E-03 7.000585E+01  2.884135E-03 7.010311E+01  9.948781E-01 -2.280224E+01 
9.035625E+01  9.963273E-01 -1.811548E+01  2.575073E-03 5.872319E+01  2.573908E-03 5.887013E+01  9.928315E-01 -2.325673E+01 
9.222500E+01  9.967435E-01 -1.849243E+01  3.066162E-03 6.755194E+01  3.048492E-03 6.758254E+01  9.939536E-01 -2.369366E+01 
9.409375E+01  9.963997E-01 -1.886243E+01  2.809799E-03 6.380497E+01  2.800213E-03 6.385422E+01  9.938127E-01 -2.419214E+01 
9.596250E+01  9.967197E-01 -1.922736E+01  3.123263E-03 6.499097E+01  3.119921E-03 6.506862E+01  9.937843E-01 -2.468171E+01 
9.783125E+01  9.965874E-01 -1.961505E+01  2.908956E-03 6.818265E+01  2.893854E-03 6.828303E+01  9.941543E-01 -2.515019E+01 
9.970000E+01  9.962646E-01 -1.994592E+01  3.011995E-03 7.163229E+01  3.006170E-03 7.180293E+01  9.933360E-01 -2.555041E+01 
1.015687E+02  9.965946E-01 -2.033224E+01  3.061158E-03 6.692753E+01  3.046475E-03 6.709691E+01  9.940858E-01 -2.602128E+01 
1.034375E+02  9.965371E-01 -2.070368E+01  3.209475E-03 6.602460E+01  3.192677E-03 6.613665E+01  9.938184E-01 -2.650295E+01 
1.053063E+02  9.965999E-01 -2.110437E+01  3.197933E-03 6.453896E+01  3.176866E-03 6.452961E+01  9.940411E-01 -2.701246E+01 
1.071750E+02  9.960234E-01 -2.152550E+01  3.536191E-03 6.491743E+01  3.518250E-03 6.499258E+01  9.939374E-01 -2.755419E+01 
1.090438E+02  9.959847E-01 -2.183848E+01  3.375512E-03 6.391897E+01  3.370591E-03 6.390029E+01  9.931841E-01 -2.794852E+01 
1.109125E+02  9.962683E-01 -2.219511E+01  3.341473E-03 6.559361E+01  3.322042E-03 6.562378E+01  9.940582E-01 -2.837858E+01 
1.127812E+02  9.963762E-01 -2.256856E+01  3.433180E-03 6.312547E+01  3.420740E-03 6.339245E+01  9.937871E-01 -2.887679E+01 
1.146500E+02  9.963224E-01 -2.294561E+01  3.577000E-03 6.287491E+01  3.558825E-03 6.305383E+01  9.936054E-01 -2.935053E+01 
1.165187E+02  9.952954E-01 -2.329010E+01  3.395012E-03 5.248253E+01  3.388072E-03 5.256570E+01  9.911247E-01 -2.980759E+01 
1.183875E+02  9.960869E-01 -2.364622E+01  3.619703E-03 6.243913E+01  3.595649E-03 6.234954E+01  9.931886E-01 -3.021482E+01 
1.202562E+02  9.963337E-01 -2.402735E+01  3.630841E-03 6.259021E+01  3.618614E-03 6.277709E+01  9.933080E-01 -3.067374E+01 
1.221250E+02  9.962136E-01 -2.439517E+01  3.849528E-03 6.175189E+01  3.828957E-03 6.185514E+01  9.927924E-01 -3.115279E+01 
1.239938E+02  9.959632E-01 -2.478062E+01  3.986913E-03 5.989357E+01  3.972292E-03 6.001845E+01  9.927662E-01 -3.162305E+01 
1.258625E+02  9.955223E-01 -2.509901E+01  3.737497E-03 6.088284E+01  3.726387E-03 6.086170E+01  9.911799E-01 -3.201142E+01 
1.277313E+02  9.956028E-01 -2.548469E+01  3.664208E-03 5.463458E+01  3.656787E-03 5.461314E+01  9.916448E-01 -3.245788E+01 
1.296000E+02  9.958228E-01 -2.585169E+01  3.897107E-03 6.037091E+01  3.888885E-03 6.041928E+01  9.927483E-01 -3.292533E+01 
1.314688E+02  9.957932E-01 -2.620797E+01  3.959410E-03 6.060108E+01  3.939830E-03 6.075697E+01  9.924573E-01 -3.337981E+01 
1.333375E+02  9.956303E-01 -2.658674E+01  3.963832E-03 6.183104E+01  3.946599E-03 6.181562E+01  9.923067E-01 -3.386066E+01 
1.352063E+02  9.955050E-01 -2.691767E+01  4.098547E-03 5.965570E+01  4.081643E-03 5.973067E+01  9.909709E-01 -3.425979E+01 
1.370750E+02  9.953791E-01 -2.730177E+01  3.979315E-03 5.810479E+01  3.970420E-03 5.824528E+01  9.912703E-01 -3.472059E+01 
1.389437E+02  9.953905E-01 -2.766922E+01  4.223564E-03 5.976331E+01  4.204665E-03 5.985938E+01  9.914833E-01 -3.518496E+01 
1.408125E+02  9.951930E-01 -2.804117E+01  4.423866E-03 5.787650E+01  4.408404E-03 5.790731E+01  9.913786E-01 -3.566975E+01 
1.426813E+02  9.947472E-01 -2.840967E+01  4.445705E-03 5.678798E+01  4.428839E-03 5.687989E+01  9.909412E-01 -3.615431E+01 
1.445500E+02  9.946922E-01 -2.874931E+01  4.351411E-03 5.404433E+01  4.339044E-03 5.421088E+01  9.892554E-01 -3.652388E+01 
1.464187E+02  9.946161E-01 -2.911241E+01  4.393456E-03 5.525620E+01  4.386864E-03 5.541167E+01  9.899404E-01 -3.699322E+01 
1.482875E+02  9.945190E-01 -2.947370E+01  4.174176E-03 5.603629E+01  4.164124E-03 5.611946E+01  9.899851E-01 -3.740641E+01 
1.501562E+02  9.945126E-01 -2.987049E+01  4.376065E-03 5.457537E+01  4.360631E-03 5.475046E+01  9.898413E-01 -3.791447E+01 
1.520250E+02  9.937871E-01 -3.025111E+01  4.747478E-03 5.638854E+01  4.720574E-03 5.654896E+01  9.882643E-01 -3.849640E+01 
1.538938E+02  9.938969E-01 -3.057168E+01  4.347538E-03 5.459714E+01  4.317442E-03 5.470055E+01  9.887210E-01 -3.874555E+01 
1.557625E+02  9.940337E-01 -3.094250E+01  4.683101E-03 5.294276E+01  4.655591E-03 5.315932E+01  9.886217E-01 -3.925373E+01 
1.576312E+02  9.936819E-01 -3.132633E+01  4.611822E-03 5.149847E+01  4.595459E-03 5.161117E+01  9.886027E-01 -3.968074E+01 
1.595000E+02  9.934869E-01 -3.166413E+01  4.271659E-03 5.203088E+01  4.260246E-03 5.210004E+01  9.885904E-01 -4.014515E+01 
1.613688E+02  9.926269E-01 -3.202857E+01  4.062153E-03 5.208554E+01  4.046642E-03 5.215684E+01  9.869043E-01 -4.058910E+01 
1.632375E+02  9.930663E-01 -3.237534E+01  4.643856E-03 5.532707E+01  4.632540E-03 5.556082E+01  9.880144E-01 -4.099015E+01 
1.651062E+02  9.932920E-01 -3.274691E+01  4.689583E-03 5.249983E+01  4.665147E-03 5.255351E+01  9.878630E-01 -4.148001E+01 
1.669750E+02  9.930350E-01 -3.311759E+01  4.713406E-03 5.158208E+01  4.697640E-03 5.174723E+01  9.878600E-01 -4.193048E+01 
1.688438E+02  9.930276E-01 -3.349621E+01  4.715855E-03 5.242122E+01  4.697928E-03 5.260052E+01  9.874428E-01 -4.239566E+01 
1.707125E+02  9.925692E-01 -3.384265E+01  5.023492E-03 5.441346E+01  5.010672E-03 5.462723E+01  9.857678E-01 -4.277716E+01 
1.725813E+02  9.927433E-01 -3.420976E+01  5.094515E-03 5.086541E+01  5.079989E-03 5.104907E+01  9.870508E-01 -4.324429E+01 
1.744500E+02  9.929878E-01 -3.456490E+01  5.163412E-03 5.082183E+01  5.147410E-03 5.102794E+01  9.870183E-01 -4.371438E+01 
1.763187E+02  9.924756E-01 -3.492988E+01  5.082283E-03 4.703406E+01  5.069543E-03 4.721102E+01  9.865743E-01 -4.415169E+01 
1.781875E+02  9.923669E-01 -3.529893E+01  5.046354E-03 4.818549E+01  5.031061E-03 4.830093E+01  9.863234E-01 -4.460177E+01 
1.800563E+02  9.918695E-01 -3.562539E+01  4.825247E-03 4.636542E+01  4.814706E-03 4.649895E+01  9.848795E-01 -4.495094E+01 
1.819250E+02  9.923056E-01 -3.598393E+01  4.787868E-03 4.850407E+01  4.770343E-03 4.868814E+01  9.865717E-01 -4.539055E+01 
1.837937E+02  9.922439E-01 -3.635730E+01  4.911066E-03 4.917979E+01  4.893757E-03 4.933494E+01  9.862953E-01 -4.586599E+01 
1.856625E+02  9.922688E-01 -3.671114E+01  5.017942E-03 4.921624E+01  5.007565E-03 4.944396E+01  9.860899E-01 -4.629409E+01 
1.875312E+02  9.920667E-01 -3.709638E+01  5.154561E-03 4.910287E+01  5.136832E-03 4.922022E+01  9.857420E-01 -4.680318E+01 
1.894000E+02  9.916177E-01 -3.739950E+01  5.098830E-03 4.959139E+01  5.091553E-03 4.967210E+01  9.850522E-01 -4.708642E+01 
1.912688E+02  9.918901E-01 -3.778226E+01  5.256347E-03 4.820932E+01  5.242442E-03 4.840202E+01  9.854735E-01 -4.757007E+01 
1.931375E+02  9.914209E-01 -3.812990E+01  5.335218E-03 4.815280E+01  5.319959E-03 4.832167E+01  9.852924E-01 -4.800500E+01 
1.950062E+02  9.913935E-01 -3.848928E+01  5.417798E-03 4.666191E+01  5.399480E-03 4.685543E+01  9.851295E-01 -4.844812E+01 
1.968750E+02  9.908279E-01 -3.887009E+01  5.469725E-03 4.164277E+01  5.457652E-03 4.187475E+01  9.821678E-01 -4.896823E+01 
1.987438E+02  9.910896E-01 -3.917569E+01  5.296382E-03 4.434518E+01  5.285213E-03 4.463506E+01  9.838163E-01 -4.924129E+01 
2.006125E+02  9.910642E-01 -3.954120E+01  5.369036E-03 4.426293E+01  5.355842E-03 4.446780E+01  9.838445E-01 -4.969597E+01 
2.024812E+02  9.908766E-01 -3.989572E+01  5.290967E-03 4.529625E+01  5.280141E-03 4.545530E+01  9.839542E-01 -5.011370E+01 
2.043500E+02  9.906205E-01 -4.026171E+01  5.363421E-03 4.621278E+01  5.351270E-03 4.632700E+01  9.836241E-01 -5.057294E+01 
2.062188E+02  9.895550E-01 -4.059073E+01  5.822900E-03 4.525433E+01  5.807041E-03 4.549722E+01  9.814824E-01 -5.097715E+01 
2.080875E+02  9.900226E-01 -4.094071E+01  5.478124E-03 4.294025E+01  5.457349E-03 4.316574E+01  9.822431E-01 -5.136205E+01 
2.099563E+02  9.898669E-01 -4.132029E+01  5.482002E-03 3.971485E+01  5.464636E-03 3.980812E+01  9.816625E-01 -5.179323E+01 
2.118250E+02  9.896414E-01 -4.168050E+01  5.320015E-03 4.182396E+01  5.311540E-03 4.197381E+01  9.820518E-01 -5.222597E+01 
2.136937E+02  9.894670E-01 -4.204665E+01  5.418570E-03 4.368953E+01  5.408506E-03 4.391931E+01  9.820083E-01 -5.267703E+01 
2.155625E+02  9.888225E-01 -4.236227E+01  5.526478E-03 4.483152E+01  5.516032E-03 4.500444E+01  9.798803E-01 -5.303211E+01 
2.174313E+02  9.890286E-01 -4.273071E+01  5.547266E-03 4.299166E+01  5.528805E-03 4.320720E+01  9.808485E-01 -5.350734E+01 
2.193000E+02  9.889064E-01 -4.309400E+01  5.678886E-03 4.222328E+01  5.656519E-03 4.247136E+01  9.806543E-01 -5.393199E+01 
2.211687E+02  9.888070E-01 -4.346266E+01  5.737958E-03 4.221491E+01  5.728691E-03 4.238762E+01  9.805013E-01 -5.438484E+01 
2.230375E+02  9.883809E-01 -4.384238E+01  5.770086E-03 4.221589E+01  5.744570E-03 4.245799E+01  9.798291E-01 -5.485566E+01 
2.249062E+02  9.880945E-01 -4.415541E+01  5.850600E-03 4.113188E+01  5.829182E-03 4.139361E+01  9.789889E-01 -5.515960E+01 
2.267750E+02  9.877669E-01 -4.454074E+01  6.055632E-03 3.895150E+01  6.043253E-03 3.917430E+01  9.787706E-01 -5.565197E+01 
2.286438E+02  9.879189E-01 -4.489619E+01  6.046526E-03 3.837706E+01  6.025718E-03 3.857317E+01  9.787353E-01 -5.608004E+01 
2.305125E+02  9.876607E-01 -4.525240E+01  5.693694E-03 3.719912E+01  5.680779E-03 3.745782E+01  9.779791E-01 -5.649409E+01 
2.323812E+02  9.872420E-01 -4.564296E+01  5.897621E-03 3.736992E+01  5.892114E-03 3.754536E+01  9.773053E-01 -5.698810E+01 
2.342500E+02  9.873260E-01 -4.595717E+01  5.648193E-03 3.859423E+01  5.623827E-03 3.886845E+01  9.778459E-01 -5.727144E+01 
2.361188E+02  9.872037E-01 -4.632331E+01  5.858309E-03 3.924770E+01  5.842573E-03 3.944465E+01  9.777517E-01 -5.776196E+01 
2.379875E+02  9.870276E-01 -4.669162E+01  5.865231E-03 3.836877E+01  5.847823E-03 3.849065E+01  9.775270E-01 -5.818246E+01 
2.398562E+02  9.871331E-01 -4.706067E+01  5.937508E-03 3.785551E+01  5.916223E-03 3.797632E+01  9.775170E-01 -5.862821E+01 
2.417250E+02  9.855167E-01 -4.739640E+01  5.559456E-03 3.706574E+01  5.550449E-03 3.723973E+01  9.753434E-01 -5.901454E+01 
2.435938E+02  9.867902E-01 -4.773778E+01  5.790261E-03 3.721255E+01  5.774955E-03 3.741145E+01  9.773437E-01 -5.938822E+01 
2.454625E+02  9.868272E-01 -4.810834E+01  5.993201E-03 3.753655E+01  5.978681E-03 3.776811E+01  9.773998E-01 -5.984911E+01 
2.473313E+02  9.870067E-01 -4.846286E+01  5.973385E-03 3.636500E+01  5.968943E-03 3.650264E+01  9.773918E-01 -6.026093E+01 
2.492000E+02  9.872109E-01 -4.881659E+01  6.147143E-03 3.586265E+01  6.130634E-03 3.618678E+01  9.772591E-01 -6.071878E+01 
2.510687E+02  9.864635E-01 -4.913874E+01  6.042358E-03 3.449244E+01  6.029254E-03 3.477925E+01  9.752285E-01 -6.107146E+01 
2.529375E+02  9.871628E-01 -4.951204E+01  6.049442E-03 3.579420E+01  6.038956E-03 3.594650E+01  9.768748E-01 -6.146774E+01 
2.548063E+02  9.873050E-01 -4.987052E+01  6.072425E-03 3.430359E+01  6.060787E-03 3.448752E+01  9.768460E-01 -6.188710E+01 
2.566750E+02  9.873770E-01 -5.021331E+01  6.244284E-03 3.565935E+01  6.233452E-03 3.585822E+01  9.773329E-01 -6.229971E+01 
2.585437E+02  9.872058E-01 -5.058169E+01  6.337477E-03 3.285998E+01  6.328150E-03 3.306719E+01  9.768453E-01 -6.275832E+01 
2.604125E+02  9.868214E-01 -5.088898E+01  6.328608E-03 3.115399E+01  6.315430E-03 3.138898E+01  9.753104E-01 -6.301761E+01 
2.622812E+02  9.870520E-01 -5.123181E+01  6.060897E-03 3.039187E+01  6.051369E-03 3.064599E+01  9.762002E-01 -6.344042E+01 
2.641500E+02  9.872290E-01 -5.157985E+01  5.882240E-03 2.971763E+01  5.865728E-03 2.992780E+01  9.762782E-01 -6.383855E+01 
2.660188E+02  9.872446E-01 -5.190953E+01  5.940747E-03 3.400745E+01  5.920983E-03 3.418678E+01  9.768553E-01 -6.424042E+01 
2.678875E+02  9.871697E-01 -5.228396E+01  6.162564E-03 3.336105E+01  6.146306E-03 3.350946E+01  9.764338E-01 -6.470391E+01 
2.697563E+02  9.871517E-01 -5.258032E+01  6.214952E-03 3.361138E+01  6.200475E-03 3.376947E+01  9.758418E-01 -6.497230E+01 
2.716250E+02  9.872641E-01 -5.293787E+01  6.295738E-03 3.129730E+01  6.284275E-03 3.148805E+01  9.760969E-01 -6.540175E+01 
2.734937E+02  9.872593E-01 -5.329652E+01  6.237923E-03 3.205790E+01  6.229294E-03 3.220049E+01  9.760742E-01 -6.581062E+01 
2.753625E+02  9.869367E-01 -5.362144E+01  6.305507E-03 3.212839E+01  6.299765E-03 3.231444E+01  9.758862E-01 -6.620518E+01 
2.772312E+02  9.857060E-01 -5.401805E+01  6.462429E-03 2.961729E+01  6.451055E-03 2.984151E+01  9.736287E-01 -6.667856E+01 
2.791000E+02  9.864050E-01 -5.426655E+01  6.522533E-03 3.025421E+01  6.506352E-03 3.052073E+01  9.751259E-01 -6.692855E+01 
2.809688E+02  9.863068E-01 -5.463614E+01  6.437402E-03 2.694357E+01  6.425339E-03 2.719456E+01  9.746514E-01 -6.734525E+01 
2.828375E+02  9.865720E-01 -5.497191E+01  6.267658E-03 2.880362E+01  6.258237E-03 2.899302E+01  9.745093E-01 -6.771647E+01 
2.847063E+02  9.862888E-01 -5.529395E+01  6.156972E-03 2.839678E+01  6.149487E-03 2.863960E+01  9.740964E-01 -6.808895E+01 
2.865750E+02  9.856787E-01 -5.561638E+01  6.215837E-03 2.936666E+01  6.204213E-03 2.961936E+01  9.725111E-01 -6.845355E+01 
2.884438E+02  9.859707E-01 -5.596397E+01  6.326781E-03 2.907377E+01  6.316952E-03 2.921547E+01  9.737273E-01 -6.882708E+01 
2.903125E+02  9.859437E-01 -5.632213E+01  6.463001E-03 2.817983E+01  6.449409E-03 2.838723E+01  9.737204E-01 -6.922881E+01 
2.921812E+02  9.856445E-01 -5.664840E+01  6.458037E-03 2.685091E+01  6.453332E-03 2.708090E+01  9.732119E-01 -6.960533E+01 
2.940500E+02  9.854492E-01 -5.700887E+01  6.370069E-03 2.731026E+01  6.368867E-03 2.750653E+01  9.733465E-01 -7.001276E+01 
2.959187E+02  9.849426E-01 -5.729193E+01  6.247921E-03 2.568635E+01  6.243599E-03 2.585970E+01  9.717593E-01 -7.029368E+01 
2.977875E+02  9.851228E-01 -5.764918E+01  6.290934E-03 2.761546E+01  6.288071E-03 2.777389E+01  9.726114E-01 -7.071308E+01 
2.996562E+02  9.850561E-01 -5.798603E+01  6.380446E-03 2.784143E+01  6.378699E-03 2.807967E+01  9.728347E-01 -7.110709E+01 
