! Matrix data file written by TouchstoneData, EPCOS AG
! FILENAME: "B4060_NB.s2p"
! COMMENT: "11 Jan 2006 S11-PORTEX1 84PS;PORTEX2 170PS;"
! INFO: nport=2, nfreq=1601
! DATE: "Tue Jul 22 16:32:57 2008"
! USER: "Aleksander Breg"
!
! port | pin | signal
! -----|-----|--------
!   1  |  6  |  input
!   2  |  2  |  output
! --------------------
! 
# MHZ S MA R 50
! freq  magS11 angS11  magS21 angS21  magS12 angS12  magS22 angS22
1.300000E+03  9.383103E-01 1.729072E+02  2.108992E-03 -1.156444E+01  2.099988E-03 -1.178832E+01  9.104083E-01 1.766657E+02 
1.300312E+03  9.381838E-01 1.728795E+02  2.146040E-03 -1.075862E+01  2.133816E-03 -1.031241E+01  9.104544E-01 1.766388E+02 
1.300625E+03  9.379788E-01 1.728446E+02  2.195280E-03 -8.765780E+00  2.180601E-03 -8.617230E+00  9.106024E-01 1.766168E+02 
1.300938E+03  9.380953E-01 1.728139E+02  2.288345E-03 -8.166839E+00  2.271417E-03 -8.030126E+00  9.106251E-01 1.765883E+02 
1.301250E+03  9.381066E-01 1.727810E+02  2.352959E-03 -7.513996E+00  2.346432E-03 -7.444189E+00  9.107821E-01 1.765500E+02 
1.301562E+03  9.378382E-01 1.727484E+02  2.450292E-03 -7.563640E+00  2.439393E-03 -7.532600E+00  9.108283E-01 1.765246E+02 
1.301875E+03  9.378932E-01 1.727233E+02  2.505578E-03 -8.045880E+00  2.492076E-03 -7.920904E+00  9.107979E-01 1.764966E+02 
1.302188E+03  9.378508E-01 1.726734E+02  2.597318E-03 -7.932874E+00  2.588182E-03 -7.945541E+00  9.107965E-01 1.764646E+02 
1.302500E+03  9.378554E-01 1.726444E+02  2.676572E-03 -9.332013E+00  2.663083E-03 -9.315454E+00  9.109581E-01 1.764376E+02 
1.302812E+03  9.378166E-01 1.726134E+02  2.732959E-03 -1.004726E+01  2.718279E-03 -1.003781E+01  9.108846E-01 1.764117E+02 
1.303125E+03  9.377820E-01 1.725851E+02  2.817049E-03 -1.120019E+01  2.797371E-03 -1.112916E+01  9.108903E-01 1.763637E+02 
1.303438E+03  9.376939E-01 1.725539E+02  2.868833E-03 -1.259006E+01  2.850246E-03 -1.261662E+01  9.108058E-01 1.763345E+02 
1.303750E+03  9.376873E-01 1.725193E+02  2.925539E-03 -1.404003E+01  2.911475E-03 -1.398519E+01  9.109449E-01 1.763211E+02 
1.304062E+03  9.377483E-01 1.724964E+02  2.939003E-03 -1.573323E+01  2.927435E-03 -1.554770E+01  9.108490E-01 1.762810E+02 
1.304375E+03  9.377758E-01 1.724482E+02  2.983877E-03 -1.675998E+01  2.971057E-03 -1.671474E+01  9.108957E-01 1.762535E+02 
1.304688E+03  9.377363E-01 1.724208E+02  3.019182E-03 -1.860623E+01  3.005520E-03 -1.864746E+01  9.107511E-01 1.762279E+02 
1.305000E+03  9.376137E-01 1.723841E+02  3.021987E-03 -2.012924E+01  3.009928E-03 -2.036810E+01  9.107385E-01 1.762009E+02 
1.305312E+03  9.376601E-01 1.723557E+02  3.015347E-03 -2.213605E+01  3.004258E-03 -2.200701E+01  9.106715E-01 1.761713E+02 
1.305625E+03  9.376292E-01 1.723316E+02  3.008278E-03 -2.322294E+01  2.993908E-03 -2.309450E+01  9.108388E-01 1.761446E+02 
1.305938E+03  9.376808E-01 1.722931E+02  2.994935E-03 -2.506152E+01  2.985819E-03 -2.498171E+01  9.108156E-01 1.761107E+02 
1.306250E+03  9.376868E-01 1.722575E+02  2.940846E-03 -2.624592E+01  2.928286E-03 -2.621062E+01  9.107640E-01 1.760829E+02 
1.306562E+03  9.379305E-01 1.722146E+02  2.936691E-03 -2.743011E+01  2.935820E-03 -2.743648E+01  9.105727E-01 1.760555E+02 
1.306875E+03  9.377947E-01 1.721870E+02  2.871450E-03 -2.917717E+01  2.861069E-03 -2.907539E+01  9.106926E-01 1.760205E+02 
1.307188E+03  9.380255E-01 1.721482E+02  2.832619E-03 -2.913829E+01  2.818197E-03 -2.919767E+01  9.105483E-01 1.759877E+02 
1.307500E+03  9.380201E-01 1.721153E+02  2.783600E-03 -3.088252E+01  2.786130E-03 -3.088245E+01  9.104843E-01 1.759612E+02 
1.307812E+03  9.380619E-01 1.720809E+02  2.699574E-03 -3.060234E+01  2.696783E-03 -3.060003E+01  9.104095E-01 1.759259E+02 
1.308125E+03  9.380449E-01 1.720286E+02  2.697919E-03 -3.138664E+01  2.686282E-03 -3.116492E+01  9.103167E-01 1.758957E+02 
1.308438E+03  9.379863E-01 1.720016E+02  2.585721E-03 -3.112868E+01  2.580491E-03 -3.108177E+01  9.103186E-01 1.758693E+02 
1.308750E+03  9.381523E-01 1.719571E+02  2.613249E-03 -3.027894E+01  2.599806E-03 -3.020331E+01  9.099834E-01 1.758411E+02 
1.309062E+03  9.381466E-01 1.719153E+02  2.528433E-03 -3.101560E+01  2.523114E-03 -3.111538E+01  9.099565E-01 1.758105E+02 
1.309375E+03  9.381965E-01 1.718791E+02  2.521136E-03 -2.876283E+01  2.512473E-03 -2.855204E+01  9.099132E-01 1.757945E+02 
1.309688E+03  9.381450E-01 1.718349E+02  2.543591E-03 -2.971273E+01  2.537333E-03 -2.967583E+01  9.096569E-01 1.757682E+02 
1.310000E+03  9.381150E-01 1.717995E+02  2.503529E-03 -2.782570E+01  2.489673E-03 -2.791025E+01  9.096311E-01 1.757512E+02 
1.310312E+03  9.382839E-01 1.717564E+02  2.598049E-03 -2.781920E+01  2.584752E-03 -2.800096E+01  9.093004E-01 1.757252E+02 
1.310625E+03  9.382289E-01 1.717169E+02  2.542087E-03 -2.803420E+01  2.533700E-03 -2.786317E+01  9.091448E-01 1.757186E+02 
1.310938E+03  9.382180E-01 1.716782E+02  2.647025E-03 -2.673492E+01  2.631914E-03 -2.667191E+01  9.092003E-01 1.756960E+02 
1.311250E+03  9.384007E-01 1.716322E+02  2.646108E-03 -2.830686E+01  2.632122E-03 -2.816824E+01  9.092565E-01 1.756600E+02 
1.311562E+03  9.381394E-01 1.716035E+02  2.692659E-03 -2.688113E+01  2.679672E-03 -2.696056E+01  9.092755E-01 1.756553E+02 
1.311875E+03  9.382515E-01 1.715574E+02  2.783653E-03 -2.880125E+01  2.775333E-03 -2.866588E+01  9.094691E-01 1.756318E+02 
1.312188E+03  9.381359E-01 1.715184E+02  2.780225E-03 -2.883180E+01  2.769641E-03 -2.902862E+01  9.094473E-01 1.756206E+02 
1.312500E+03  9.381622E-01 1.714743E+02  2.881049E-03 -2.997288E+01  2.867579E-03 -3.005101E+01  9.094167E-01 1.755842E+02 
1.312812E+03  9.381702E-01 1.714336E+02  2.883365E-03 -3.187416E+01  2.874297E-03 -3.188464E+01  9.094722E-01 1.755567E+02 
1.313125E+03  9.380044E-01 1.714056E+02  2.949730E-03 -3.275333E+01  2.936137E-03 -3.276885E+01  9.097936E-01 1.755384E+02 
1.313438E+03  9.380157E-01 1.713510E+02  2.945693E-03 -3.515112E+01  2.934000E-03 -3.503846E+01  9.097037E-01 1.755082E+02 
1.313750E+03  9.378950E-01 1.713189E+02  2.974390E-03 -3.613980E+01  2.949842E-03 -3.619822E+01  9.098081E-01 1.754788E+02 
1.314062E+03  9.380104E-01 1.712800E+02  2.993391E-03 -3.885190E+01  2.983425E-03 -3.880138E+01  9.098552E-01 1.754351E+02 
1.314375E+03  9.378251E-01 1.712314E+02  2.953008E-03 -4.016086E+01  2.939178E-03 -4.027145E+01  9.099435E-01 1.754079E+02 
1.314688E+03  9.378006E-01 1.711973E+02  2.965259E-03 -4.292581E+01  2.957026E-03 -4.299905E+01  9.098140E-01 1.753710E+02 
1.315000E+03  9.376473E-01 1.711603E+02  2.909540E-03 -4.501604E+01  2.895712E-03 -4.507361E+01  9.096020E-01 1.753290E+02 
1.315312E+03  9.377178E-01 1.711184E+02  2.900029E-03 -4.735581E+01  2.887576E-03 -4.736931E+01  9.096402E-01 1.752944E+02 
1.315625E+03  9.376501E-01 1.710841E+02  2.791476E-03 -5.053545E+01  2.773555E-03 -5.053007E+01  9.095249E-01 1.752657E+02 
1.315938E+03  9.375475E-01 1.710408E+02  2.721400E-03 -5.184928E+01  2.708508E-03 -5.217935E+01  9.093006E-01 1.752243E+02 
1.316250E+03  9.374628E-01 1.710020E+02  2.634383E-03 -5.559057E+01  2.623562E-03 -5.581299E+01  9.090777E-01 1.751977E+02 
1.316562E+03  9.373411E-01 1.709734E+02  2.484467E-03 -5.675075E+01  2.465205E-03 -5.678729E+01  9.088470E-01 1.751723E+02 
1.316875E+03  9.374839E-01 1.709415E+02  2.379612E-03 -5.950075E+01  2.371860E-03 -5.961549E+01  9.086243E-01 1.751451E+02 
1.317188E+03  9.371509E-01 1.708913E+02  2.189921E-03 -6.105011E+01  2.180250E-03 -6.122483E+01  9.082394E-01 1.751241E+02 
1.317500E+03  9.371693E-01 1.708646E+02  2.071003E-03 -6.075460E+01  2.057495E-03 -6.108034E+01  9.079609E-01 1.751097E+02 
1.317812E+03  9.371216E-01 1.708213E+02  1.916813E-03 -6.177799E+01  1.909471E-03 -6.168005E+01  9.078608E-01 1.750881E+02 
1.318125E+03  9.372120E-01 1.707914E+02  1.800431E-03 -6.170567E+01  1.797891E-03 -6.162998E+01  9.075241E-01 1.750727E+02 
1.318438E+03  9.371625E-01 1.707470E+02  1.678429E-03 -6.271515E+01  1.666332E-03 -6.292772E+01  9.073476E-01 1.750650E+02 
1.318750E+03  9.371107E-01 1.707181E+02  1.495287E-03 -6.054381E+01  1.489982E-03 -6.081696E+01  9.073193E-01 1.750504E+02 
1.319062E+03  9.369020E-01 1.706763E+02  1.341374E-03 -6.142318E+01  1.341970E-03 -6.168388E+01  9.069657E-01 1.750529E+02 
1.319375E+03  9.369354E-01 1.706395E+02  1.137037E-03 -5.622172E+01  1.138250E-03 -5.646182E+01  9.069729E-01 1.750423E+02 
1.319688E+03  9.369210E-01 1.706033E+02  1.048518E-03 -4.703299E+01  1.048990E-03 -4.728486E+01  9.070374E-01 1.750419E+02 
1.320000E+03  9.370079E-01 1.705742E+02  9.523202E-04 -3.847464E+01  9.549478E-04 -3.892974E+01  9.071572E-01 1.750450E+02 
1.320312E+03  9.369711E-01 1.705388E+02  9.578950E-04 -2.815322E+01  9.584875E-04 -2.829326E+01  9.072707E-01 1.750364E+02 
1.320625E+03  9.369051E-01 1.705032E+02  1.019823E-03 -1.821276E+01  1.021239E-03 -1.840668E+01  9.076741E-01 1.750151E+02 
1.320938E+03  9.369586E-01 1.704627E+02  1.094314E-03 -1.023487E+01  1.093153E-03 -1.034006E+01  9.078311E-01 1.749962E+02 
1.321250E+03  9.369549E-01 1.704274E+02  1.198740E-03 -6.340589E+00  1.194511E-03 -6.730962E+00  9.079535E-01 1.749796E+02 
1.321562E+03  9.370354E-01 1.703855E+02  1.346335E-03 -2.409736E+00  1.345213E-03 -2.382482E+00  9.084563E-01 1.749637E+02 
1.321875E+03  9.369202E-01 1.703518E+02  1.486227E-03 6.953401E-02  1.489836E-03 -1.007186E-01  9.084226E-01 1.749463E+02 
1.322188E+03  9.368652E-01 1.703214E+02  1.610556E-03 1.125877E+00  1.608458E-03 8.223512E-01  9.087877E-01 1.749122E+02 
1.322500E+03  9.369321E-01 1.702797E+02  1.780045E-03 1.272052E+00  1.769333E-03 8.119833E-01  9.090931E-01 1.748840E+02 
1.322812E+03  9.369062E-01 1.702554E+02  1.945405E-03 1.869565E+00  1.939886E-03 1.682406E+00  9.092628E-01 1.748556E+02 
1.323125E+03  9.369553E-01 1.702175E+02  2.115909E-03 1.208069E+00  2.104544E-03 8.333048E-01  9.096239E-01 1.748073E+02 
1.323438E+03  9.371057E-01 1.701695E+02  2.271032E-03 -7.028477E-01  2.258347E-03 -9.371216E-01  9.096036E-01 1.747772E+02 
1.323750E+03  9.371175E-01 1.701418E+02  2.417957E-03 -2.646300E+00  2.406405E-03 -2.781710E+00  9.096526E-01 1.747451E+02 
1.324062E+03  9.371635E-01 1.700993E+02  2.530763E-03 -4.484822E+00  2.523848E-03 -4.647907E+00  9.096726E-01 1.747055E+02 
1.324375E+03  9.372258E-01 1.700570E+02  2.625074E-03 -6.796317E+00  2.617755E-03 -6.804153E+00  9.098463E-01 1.746612E+02 
1.324688E+03  9.371570E-01 1.700134E+02  2.709273E-03 -8.526867E+00  2.702222E-03 -8.799963E+00  9.096086E-01 1.746286E+02 
1.325000E+03  9.372303E-01 1.699784E+02  2.818725E-03 -1.063871E+01  2.799126E-03 -1.068793E+01  9.095814E-01 1.746019E+02 
1.325312E+03  9.373818E-01 1.699444E+02  2.845968E-03 -1.275034E+01  2.836364E-03 -1.280308E+01  9.096414E-01 1.745748E+02 
1.325625E+03  9.372866E-01 1.698974E+02  2.897425E-03 -1.470705E+01  2.884160E-03 -1.501702E+01  9.093549E-01 1.745446E+02 
1.325938E+03  9.374882E-01 1.698620E+02  2.937266E-03 -1.730996E+01  2.927782E-03 -1.738277E+01  9.094856E-01 1.745023E+02 
1.326250E+03  9.374290E-01 1.698215E+02  2.934566E-03 -1.884128E+01  2.927625E-03 -1.903371E+01  9.094065E-01 1.744865E+02 
1.326562E+03  9.373279E-01 1.697685E+02  2.949756E-03 -2.087181E+01  2.937596E-03 -2.112412E+01  9.093809E-01 1.744619E+02 
1.326875E+03  9.375274E-01 1.697317E+02  2.929752E-03 -2.260347E+01  2.917360E-03 -2.290590E+01  9.093297E-01 1.744399E+02 
1.327188E+03  9.374576E-01 1.696951E+02  2.951215E-03 -2.358937E+01  2.942466E-03 -2.381438E+01  9.092790E-01 1.744088E+02 
1.327500E+03  9.374298E-01 1.696479E+02  2.918030E-03 -2.531438E+01  2.908438E-03 -2.538188E+01  9.092819E-01 1.743767E+02 
1.327812E+03  9.374911E-01 1.696126E+02  2.923056E-03 -2.621476E+01  2.902832E-03 -2.628968E+01  9.092954E-01 1.743626E+02 
1.328125E+03  9.375538E-01 1.695658E+02  2.916288E-03 -2.748852E+01  2.909104E-03 -2.763518E+01  9.092361E-01 1.743361E+02 
1.328438E+03  9.375701E-01 1.695260E+02  2.871873E-03 -2.771606E+01  2.860347E-03 -2.800873E+01  9.095187E-01 1.743095E+02 
1.328750E+03  9.375222E-01 1.694856E+02  2.857983E-03 -2.847189E+01  2.854370E-03 -2.854678E+01  9.093306E-01 1.742936E+02 
1.329062E+03  9.375257E-01 1.694338E+02  2.849488E-03 -2.876997E+01  2.837120E-03 -2.908160E+01  9.096715E-01 1.742542E+02 
1.329375E+03  9.373394E-01 1.694009E+02  2.849354E-03 -2.871530E+01  2.840836E-03 -2.889664E+01  9.095142E-01 1.742341E+02 
1.329688E+03  9.375809E-01 1.693574E+02  2.823919E-03 -2.903750E+01  2.807817E-03 -2.941832E+01  9.096563E-01 1.741965E+02 
1.330000E+03  9.373896E-01 1.693094E+02  2.836775E-03 -2.888679E+01  2.829139E-03 -2.898015E+01  9.098801E-01 1.741645E+02 
1.330312E+03  9.373803E-01 1.692789E+02  2.853731E-03 -2.888086E+01  2.841526E-03 -2.902934E+01  9.096542E-01 1.741297E+02 
1.330625E+03  9.373359E-01 1.692340E+02  2.869391E-03 -2.859205E+01  2.853806E-03 -2.870569E+01  9.097043E-01 1.741012E+02 
1.330938E+03  9.372900E-01 1.691908E+02  2.920667E-03 -2.919287E+01  2.899780E-03 -2.935800E+01  9.097438E-01 1.740724E+02 
1.331250E+03  9.371395E-01 1.691432E+02  2.943694E-03 -2.933920E+01  2.925733E-03 -2.950146E+01  9.097417E-01 1.740503E+02 
1.331562E+03  9.373684E-01 1.691050E+02  2.987494E-03 -2.972699E+01  2.970014E-03 -2.991348E+01  9.097650E-01 1.740149E+02 
1.331875E+03  9.370342E-01 1.690814E+02  3.020565E-03 -3.026986E+01  3.003458E-03 -3.052012E+01  9.096857E-01 1.739796E+02 
1.332188E+03  9.370647E-01 1.690234E+02  3.084048E-03 -3.090924E+01  3.069376E-03 -3.104524E+01  9.095458E-01 1.739387E+02 
1.332500E+03  9.371050E-01 1.689924E+02  3.129989E-03 -3.193496E+01  3.108309E-03 -3.211931E+01  9.098048E-01 1.739153E+02 
1.332812E+03  9.371796E-01 1.689503E+02  3.190319E-03 -3.284391E+01  3.174204E-03 -3.295873E+01  9.096941E-01 1.738809E+02 
1.333125E+03  9.370718E-01 1.689044E+02  3.245419E-03 -3.430070E+01  3.223743E-03 -3.459079E+01  9.096340E-01 1.738476E+02 
1.333438E+03  9.369292E-01 1.688675E+02  3.270458E-03 -3.569542E+01  3.257456E-03 -3.588202E+01  9.094999E-01 1.738249E+02 
1.333750E+03  9.368293E-01 1.688265E+02  3.314529E-03 -3.733026E+01  3.296626E-03 -3.742163E+01  9.093668E-01 1.738061E+02 
1.334062E+03  9.367218E-01 1.687941E+02  3.337015E-03 -3.896376E+01  3.313550E-03 -3.926217E+01  9.094164E-01 1.737641E+02 
1.334375E+03  9.368619E-01 1.687488E+02  3.353911E-03 -4.089452E+01  3.330244E-03 -4.104491E+01  9.095225E-01 1.737413E+02 
1.334688E+03  9.368685E-01 1.687213E+02  3.335286E-03 -4.306742E+01  3.317279E-03 -4.328061E+01  9.093193E-01 1.737121E+02 
1.335000E+03  9.367659E-01 1.686887E+02  3.309299E-03 -4.458521E+01  3.293654E-03 -4.476708E+01  9.095012E-01 1.736700E+02 
1.335312E+03  9.368192E-01 1.686460E+02  3.289367E-03 -4.684918E+01  3.265854E-03 -4.696906E+01  9.095870E-01 1.736351E+02 
1.335625E+03  9.368378E-01 1.686063E+02  3.227250E-03 -4.864909E+01  3.205731E-03 -4.883904E+01  9.092876E-01 1.736134E+02 
1.335938E+03  9.366952E-01 1.685644E+02  3.165063E-03 -5.015861E+01  3.146572E-03 -5.030523E+01  9.092531E-01 1.735685E+02 
1.336250E+03  9.368527E-01 1.685255E+02  3.096245E-03 -5.158722E+01  3.080218E-03 -5.175435E+01  9.091572E-01 1.735441E+02 
1.336562E+03  9.366917E-01 1.684977E+02  3.032828E-03 -5.302063E+01  3.010845E-03 -5.331932E+01  9.090997E-01 1.735150E+02 
1.336875E+03  9.366367E-01 1.684538E+02  2.937403E-03 -5.420539E+01  2.917104E-03 -5.451459E+01  9.087919E-01 1.734727E+02 
1.337188E+03  9.368126E-01 1.684293E+02  2.860528E-03 -5.510722E+01  2.836106E-03 -5.534540E+01  9.087052E-01 1.734501E+02 
1.337500E+03  9.368310E-01 1.683830E+02  2.779608E-03 -5.604437E+01  2.754948E-03 -5.623659E+01  9.085365E-01 1.734129E+02 
1.337812E+03  9.368141E-01 1.683574E+02  2.670258E-03 -5.649810E+01  2.655553E-03 -5.683968E+01  9.082508E-01 1.733897E+02 
1.338125E+03  9.368302E-01 1.683035E+02  2.579004E-03 -5.678118E+01  2.569104E-03 -5.712620E+01  9.082141E-01 1.733788E+02 
1.338438E+03  9.368106E-01 1.682691E+02  2.515602E-03 -5.656162E+01  2.491961E-03 -5.664719E+01  9.080884E-01 1.733522E+02 
1.338750E+03  9.369839E-01 1.682388E+02  2.425934E-03 -5.653978E+01  2.414566E-03 -5.678453E+01  9.076459E-01 1.733299E+02 
1.339062E+03  9.368519E-01 1.681941E+02  2.343674E-03 -5.580008E+01  2.323791E-03 -5.610103E+01  9.077788E-01 1.733126E+02 
1.339375E+03  9.370692E-01 1.681471E+02  2.292289E-03 -5.517514E+01  2.287971E-03 -5.534990E+01  9.076111E-01 1.732813E+02 
1.339688E+03  9.370697E-01 1.681289E+02  2.234953E-03 -5.409411E+01  2.217570E-03 -5.416201E+01  9.073914E-01 1.732598E+02 
1.340000E+03  9.370653E-01 1.680780E+02  2.181869E-03 -5.397048E+01  2.175584E-03 -5.424311E+01  9.075154E-01 1.732390E+02 
1.340312E+03  9.372174E-01 1.680433E+02  2.128602E-03 -5.323901E+01  2.114844E-03 -5.336633E+01  9.072683E-01 1.732228E+02 
1.340625E+03  9.371994E-01 1.680040E+02  2.061554E-03 -5.107250E+01  2.050726E-03 -5.127278E+01  9.071419E-01 1.732090E+02 
1.340938E+03  9.370679E-01 1.679560E+02  2.000521E-03 -4.974768E+01  1.997158E-03 -4.986749E+01  9.071323E-01 1.731986E+02 
1.341250E+03  9.370433E-01 1.679138E+02  1.985753E-03 -4.707941E+01  1.971183E-03 -4.719437E+01  9.070372E-01 1.731889E+02 
1.341562E+03  9.370517E-01 1.678827E+02  1.996549E-03 -4.399267E+01  1.990467E-03 -4.403899E+01  9.072418E-01 1.731741E+02 
1.341875E+03  9.372633E-01 1.678378E+02  2.006094E-03 -4.144917E+01  1.997950E-03 -4.181514E+01  9.072395E-01 1.731562E+02 
1.342188E+03  9.373300E-01 1.678034E+02  2.071955E-03 -3.981791E+01  2.058318E-03 -4.003215E+01  9.075053E-01 1.731343E+02 
1.342500E+03  9.375180E-01 1.677666E+02  2.151641E-03 -3.861937E+01  2.133403E-03 -3.868161E+01  9.075235E-01 1.730985E+02 
1.342812E+03  9.375168E-01 1.677178E+02  2.201817E-03 -3.798624E+01  2.191722E-03 -3.837958E+01  9.078428E-01 1.730701E+02 
1.343125E+03  9.374496E-01 1.676859E+02  2.249032E-03 -3.794454E+01  2.233128E-03 -3.826179E+01  9.077542E-01 1.730455E+02 
1.343438E+03  9.375686E-01 1.676357E+02  2.302245E-03 -3.774737E+01  2.285389E-03 -3.790336E+01  9.077142E-01 1.730240E+02 
1.343750E+03  9.374915E-01 1.675869E+02  2.334751E-03 -3.786735E+01  2.321322E-03 -3.807385E+01  9.079091E-01 1.729942E+02 
1.344062E+03  9.375716E-01 1.675537E+02  2.360043E-03 -3.780084E+01  2.347192E-03 -3.793392E+01  9.078483E-01 1.729666E+02 
1.344375E+03  9.376387E-01 1.675138E+02  2.385973E-03 -3.736866E+01  2.364639E-03 -3.782442E+01  9.078521E-01 1.729344E+02 
1.344688E+03  9.375769E-01 1.674735E+02  2.437935E-03 -3.756327E+01  2.429713E-03 -3.770446E+01  9.077940E-01 1.729031E+02 
1.345000E+03  9.376425E-01 1.674290E+02  2.488273E-03 -3.729916E+01  2.477275E-03 -3.729024E+01  9.080354E-01 1.728851E+02 
1.345312E+03  9.378622E-01 1.673778E+02  2.558883E-03 -3.744813E+01  2.541017E-03 -3.741800E+01  9.080576E-01 1.728571E+02 
1.345625E+03  9.377619E-01 1.673393E+02  2.645921E-03 -3.848853E+01  2.619412E-03 -3.853271E+01  9.082054E-01 1.728312E+02 
1.345938E+03  9.376921E-01 1.673052E+02  2.703064E-03 -3.971718E+01  2.687838E-03 -4.007451E+01  9.082229E-01 1.727847E+02 
1.346250E+03  9.377057E-01 1.672526E+02  2.740677E-03 -4.129137E+01  2.719173E-03 -4.120338E+01  9.082616E-01 1.727497E+02 
1.346562E+03  9.378667E-01 1.672118E+02  2.755233E-03 -4.349944E+01  2.743943E-03 -4.357523E+01  9.080831E-01 1.727129E+02 
1.346875E+03  9.377997E-01 1.671739E+02  2.776511E-03 -4.570968E+01  2.758696E-03 -4.575993E+01  9.078763E-01 1.726694E+02 
1.347188E+03  9.376489E-01 1.671318E+02  2.701784E-03 -4.786751E+01  2.690451E-03 -4.784423E+01  9.074105E-01 1.726325E+02 
1.347500E+03  9.376843E-01 1.670940E+02  2.562500E-03 -4.932047E+01  2.549083E-03 -4.942699E+01  9.067568E-01 1.726304E+02 
1.347812E+03  9.377709E-01 1.670409E+02  2.458483E-03 -4.824705E+01  2.448608E-03 -4.808347E+01  9.067461E-01 1.726563E+02 
1.348125E+03  9.376971E-01 1.669969E+02  2.444795E-03 -4.505811E+01  2.430109E-03 -4.507320E+01  9.069090E-01 1.726451E+02 
1.348438E+03  9.376337E-01 1.669675E+02  2.510979E-03 -4.420260E+01  2.491380E-03 -4.434278E+01  9.073293E-01 1.726268E+02 
