! Matrix data file written by TouchstoneData, EPCOS AG
! FILENAME: "L972G_NB.s3p"
! COMMENT: "(L972G_NBN1.s3p) (L972G_NBN1.s3p)"
! INFO: nport=3, nfreq=801
! DATE: "Fri Nov 14 14:07:52 2008"
! USER: "Aleksander Breg"
!
! port | pin | signal
! -----|-----|--------
!   1  |  2     input
!   2  |  4  |  output
!   3  |  6  |  output
! --------------------
! 
# MHZ S MA R 50
! freq  magS11 angS11  magS12 angS12  magS13 angS13  ...
7.940000E+02  8.559515E-01 -5.512257E+01  9.361516E-03 -1.762453E+02  4.422497E-01 3.288650E+01 
 9.489290E-03 -1.723540E+02  9.332395E-01 -1.140051E+02  8.827232E-03 -1.726858E+02 
 4.431734E-01 3.260339E+01  8.845884E-03 -1.749538E+02  8.551730E-01 -5.356571E+01 
7.941938E+02  8.566414E-01 -5.524440E+01  8.554894E-03 -1.714128E+02  4.424625E-01 3.297202E+01 
 9.399117E-03 -1.745252E+02  9.336301E-01 -1.140677E+02  8.753795E-03 -1.723676E+02 
 4.432050E-01 3.245170E+01  8.994579E-03 -1.732840E+02  8.545119E-01 -5.356953E+01 
7.943875E+02  8.576969E-01 -5.519595E+01  9.270130E-03 -1.727023E+02  4.427850E-01 3.292271E+01 
 9.190167E-03 -1.740168E+02  9.353718E-01 -1.142480E+02  8.930399E-03 -1.704376E+02 
 4.445586E-01 3.256674E+01  8.340074E-03 -1.744881E+02  8.534043E-01 -5.376925E+01 
7.945812E+02  8.576361E-01 -5.518064E+01  9.161924E-03 -1.746027E+02  4.421938E-01 3.319711E+01 
 9.098902E-03 -1.744645E+02  9.350624E-01 -1.142673E+02  8.781113E-03 -1.708668E+02 
 4.448971E-01 3.275965E+01  8.422148E-03 -1.739566E+02  8.537454E-01 -5.363605E+01 
7.947750E+02  8.581458E-01 -5.531321E+01  9.107487E-03 -1.744500E+02  4.443107E-01 3.289163E+01 
 9.155047E-03 -1.729588E+02  9.349589E-01 -1.143585E+02  8.390385E-03 -1.725510E+02 
 4.452170E-01 3.282346E+01  8.532679E-03 -1.741589E+02  8.541921E-01 -5.392564E+01 
7.949688E+02  8.571639E-01 -5.542366E+01  9.018549E-03 -1.739839E+02  4.463726E-01 3.290293E+01 
 9.079370E-03 -1.737744E+02  9.363931E-01 -1.144815E+02  8.738876E-03 -1.728063E+02 
 4.463301E-01 3.274592E+01  8.893000E-03 -1.734330E+02  8.567349E-01 -5.400553E+01 
7.951625E+02  8.581868E-01 -5.552873E+01  8.811452E-03 -1.719110E+02  4.465392E-01 3.293133E+01 
 9.117165E-03 -1.745208E+02  9.354910E-01 -1.145133E+02  8.867810E-03 -1.719509E+02 
 4.475596E-01 3.274463E+01  8.573345E-03 -1.715865E+02  8.555843E-01 -5.399359E+01 
7.953563E+02  8.575998E-01 -5.556702E+01  8.747798E-03 -1.705844E+02  4.470573E-01 3.290200E+01 
 9.173375E-03 -1.752224E+02  9.351267E-01 -1.145857E+02  8.806237E-03 -1.719240E+02 
 4.479790E-01 3.270306E+01  8.658318E-03 -1.741801E+02  8.565379E-01 -5.414228E+01 
7.955500E+02  8.567474E-01 -5.545397E+01  8.725306E-03 -1.731466E+02  4.479414E-01 3.310463E+01 
 8.816055E-03 -1.733568E+02  9.368072E-01 -1.147281E+02  8.918387E-03 -1.726322E+02 
 4.487259E-01 3.279314E+01  8.660299E-03 -1.715142E+02  8.546043E-01 -5.411049E+01 
7.957437E+02  8.539048E-01 -5.554413E+01  9.239915E-03 -1.743879E+02  4.487559E-01 3.301003E+01 
 8.727955E-03 -1.732486E+02  9.361529E-01 -1.148735E+02  8.679498E-03 -1.735952E+02 
 4.487556E-01 3.276276E+01  8.524842E-03 -1.732714E+02  8.546728E-01 -5.420824E+01 
7.959375E+02  8.563131E-01 -5.566392E+01  9.012781E-03 -1.734806E+02  4.495891E-01 3.307684E+01 
 8.748463E-03 -1.728428E+02  9.370465E-01 -1.149256E+02  8.981570E-03 -1.719111E+02 
 4.496236E-01 3.268106E+01  8.642006E-03 -1.716565E+02  8.545263E-01 -5.413478E+01 
7.961313E+02  8.557634E-01 -5.575023E+01  9.291444E-03 -1.743592E+02  4.495825E-01 3.280908E+01 
 9.064451E-03 -1.749413E+02  9.381961E-01 -1.150005E+02  9.287005E-03 -1.720705E+02 
 4.524413E-01 3.257051E+01  9.390606E-03 -1.735267E+02  8.534750E-01 -5.431727E+01 
7.963250E+02  8.569306E-01 -5.573724E+01  8.753517E-03 -1.745141E+02  4.515183E-01 3.294888E+01 
 8.780197E-03 -1.728476E+02  9.382352E-01 -1.151747E+02  8.719928E-03 -1.711986E+02 
 4.534707E-01 3.276158E+01  8.964896E-03 -1.712517E+02  8.541099E-01 -5.430986E+01 
7.965187E+02  8.546478E-01 -5.588024E+01  8.797139E-03 -1.742308E+02  4.527965E-01 3.292797E+01 
 8.921332E-03 -1.752551E+02  9.373076E-01 -1.151997E+02  8.883591E-03 -1.750454E+02 
 4.525483E-01 3.261078E+01  8.429081E-03 -1.723951E+02  8.540264E-01 -5.428079E+01 
7.967125E+02  8.552341E-01 -5.586104E+01  9.089030E-03 -1.730791E+02  4.531730E-01 3.291074E+01 
 8.858982E-03 -1.717695E+02  9.361527E-01 -1.153719E+02  8.757924E-03 -1.708900E+02 
 4.543815E-01 3.254172E+01  9.272741E-03 -1.734173E+02  8.522496E-01 -5.437750E+01 
7.969062E+02  8.537406E-01 -5.591336E+01  9.045184E-03 -1.728258E+02  4.539977E-01 3.285273E+01 
 8.699518E-03 -1.741261E+02  9.379404E-01 -1.154566E+02  8.990024E-03 -1.728435E+02 
 4.546124E-01 3.255908E+01  8.849838E-03 -1.717613E+02  8.541439E-01 -5.444651E+01 
7.971000E+02  8.540562E-01 -5.584259E+01  8.851253E-03 -1.739599E+02  4.546261E-01 3.277509E+01 
 9.214305E-03 -1.742920E+02  9.372806E-01 -1.154185E+02  9.039381E-03 -1.714166E+02 
 4.554540E-01 3.263039E+01  8.866917E-03 -1.742933E+02  8.539920E-01 -5.449758E+01 
7.972938E+02  8.519031E-01 -5.597823E+01  9.470908E-03 -1.740678E+02  4.560610E-01 3.269581E+01 
 8.674275E-03 -1.752895E+02  9.391476E-01 -1.156516E+02  8.783824E-03 -1.697995E+02 
 4.541632E-01 3.232181E+01  8.807606E-03 -1.709006E+02  8.532864E-01 -5.456782E+01 
7.974875E+02  8.529068E-01 -5.599689E+01  9.041254E-03 -1.714774E+02  4.556652E-01 3.264803E+01 
 8.770206E-03 -1.721327E+02  9.369163E-01 -1.156225E+02  8.679662E-03 -1.723528E+02 
 4.565647E-01 3.242647E+01  8.646282E-03 -1.697947E+02  8.518305E-01 -5.467191E+01 
7.976812E+02  8.535608E-01 -5.610270E+01  8.988503E-03 -1.758546E+02  4.560742E-01 3.261806E+01 
 8.990424E-03 -1.727235E+02  9.374727E-01 -1.158954E+02  9.303809E-03 -1.726281E+02 
 4.565473E-01 3.235760E+01  9.217591E-03 -1.701794E+02  8.520787E-01 -5.458073E+01 
7.978750E+02  8.525216E-01 -5.604795E+01  9.165463E-03 -1.720025E+02  4.568130E-01 3.263552E+01 
 8.840010E-03 -1.717523E+02  9.387653E-01 -1.158797E+02  8.808495E-03 -1.690788E+02 
 4.566872E-01 3.228441E+01  8.687953E-03 -1.712240E+02  8.517358E-01 -5.453988E+01 
7.980688E+02  8.530491E-01 -5.621561E+01  8.888480E-03 -1.741280E+02  4.568160E-01 3.260803E+01 
 9.171468E-03 -1.727581E+02  9.388582E-01 -1.158571E+02  8.954871E-03 -1.707830E+02 
 4.579220E-01 3.208322E+01  9.201608E-03 -1.738599E+02  8.511898E-01 -5.464386E+01 
7.982625E+02  8.541140E-01 -5.615519E+01  9.105989E-03 -1.751342E+02  4.572458E-01 3.235603E+01 
 9.175749E-03 -1.720799E+02  9.374386E-01 -1.160541E+02  9.065852E-03 -1.733971E+02 
 4.584858E-01 3.225110E+01  9.188158E-03 -1.714228E+02  8.509935E-01 -5.487133E+01 
7.984562E+02  8.532824E-01 -5.620734E+01  9.145285E-03 -1.724875E+02  4.569300E-01 3.248872E+01 
 8.933381E-03 -1.732443E+02  9.383299E-01 -1.162310E+02  9.277705E-03 -1.705563E+02 
 4.588052E-01 3.208427E+01  9.221889E-03 -1.724380E+02  8.485868E-01 -5.479507E+01 
7.986500E+02  8.521765E-01 -5.631972E+01  9.008522E-03 -1.729010E+02  4.574567E-01 3.244179E+01 
 9.231012E-03 -1.724904E+02  9.349263E-01 -1.163596E+02  9.121701E-03 -1.704308E+02 
 4.588504E-01 3.202549E+01  9.372545E-03 -1.713365E+02  8.493545E-01 -5.476283E+01 
7.988438E+02  8.532053E-01 -5.623231E+01  8.780072E-03 -1.729191E+02  4.585687E-01 3.252101E+01 
 8.725939E-03 -1.712651E+02  9.375812E-01 -1.164080E+02  9.210189E-03 -1.721480E+02 
 4.596499E-01 3.207977E+01  9.468461E-03 -1.734299E+02  8.520010E-01 -5.469528E+01 
7.990375E+02  8.522859E-01 -5.638666E+01  9.237361E-03 -1.725877E+02  4.578950E-01 3.235590E+01 
 9.161233E-03 -1.724865E+02  9.385694E-01 -1.165616E+02  9.166234E-03 -1.730538E+02 
 4.592771E-01 3.214685E+01  9.240621E-03 -1.726544E+02  8.490710E-01 -5.476417E+01 
7.992313E+02  8.507613E-01 -5.632122E+01  8.937314E-03 -1.725284E+02  4.586426E-01 3.237508E+01 
 9.230090E-03 -1.743587E+02  9.394864E-01 -1.165946E+02  9.334212E-03 -1.715779E+02 
 4.585800E-01 3.213093E+01  9.220528E-03 -1.697630E+02  8.512389E-01 -5.490827E+01 
7.994250E+02  8.520510E-01 -5.630868E+01  8.984225E-03 -1.713738E+02  4.588315E-01 3.238334E+01 
 9.112508E-03 -1.741320E+02  9.389674E-01 -1.164391E+02  9.218263E-03 -1.702173E+02 
 4.611157E-01 3.207349E+01  9.341245E-03 -1.716077E+02  8.508037E-01 -5.493303E+01 
7.996187E+02  8.542363E-01 -5.647479E+01  9.178826E-03 -1.721601E+02  4.605458E-01 3.225103E+01 
 8.872340E-03 -1.734646E+02  9.397939E-01 -1.168998E+02  9.399364E-03 -1.711958E+02 
 4.618045E-01 3.213324E+01  9.661845E-03 -1.714975E+02  8.510113E-01 -5.504842E+01 
7.998125E+02  8.548982E-01 -5.643424E+01  9.385690E-03 -1.755192E+02  4.609227E-01 3.229308E+01 
 9.376856E-03 -1.720680E+02  9.398694E-01 -1.169233E+02  9.317338E-03 -1.719203E+02 
 4.628791E-01 3.217466E+01  9.505293E-03 -1.687026E+02  8.517713E-01 -5.508601E+01 
8.000063E+02  8.508314E-01 -5.651486E+01  8.825745E-03 -1.741136E+02  4.627947E-01 3.248992E+01 
 9.305423E-03 -1.719215E+02  9.385154E-01 -1.170283E+02  9.527491E-03 -1.700066E+02 
 4.617038E-01 3.214106E+01  9.678509E-03 -1.708366E+02  8.518131E-01 -5.509656E+01 
8.002000E+02  8.531535E-01 -5.653900E+01  9.163980E-03 -1.726233E+02  4.605431E-01 3.235258E+01 
 9.173574E-03 -1.724110E+02  9.388157E-01 -1.171656E+02  9.630104E-03 -1.712270E+02 
 4.639841E-01 3.216206E+01  9.592396E-03 -1.747085E+02  8.482526E-01 -5.519238E+01 
8.003937E+02  8.514290E-01 -5.650184E+01  9.572493E-03 -1.727937E+02  4.619778E-01 3.217559E+01 
 9.334792E-03 -1.740702E+02  9.394590E-01 -1.172526E+02  9.402725E-03 -1.710275E+02 
 4.633029E-01 3.225754E+01  9.216447E-03 -1.741945E+02  8.485417E-01 -5.533264E+01 
8.005875E+02  8.490930E-01 -5.677873E+01  8.847582E-03 -1.730463E+02  4.623306E-01 3.245408E+01 
 9.299513E-03 -1.717201E+02  9.373584E-01 -1.172831E+02  9.591916E-03 -1.726611E+02 
 4.627575E-01 3.189505E+01  9.452808E-03 -1.702475E+02  8.480131E-01 -5.531567E+01 
8.007812E+02  8.508250E-01 -5.680473E+01  9.066784E-03 -1.729833E+02  4.637972E-01 3.220326E+01 
 9.188395E-03 -1.736626E+02  9.371857E-01 -1.175162E+02  9.621467E-03 -1.709387E+02 
 4.657505E-01 3.197099E+01  9.391058E-03 -1.727288E+02  8.476154E-01 -5.542858E+01 
8.009750E+02  8.504763E-01 -5.687283E+01  9.358623E-03 -1.699340E+02  4.649636E-01 3.222166E+01 
 9.157736E-03 -1.732242E+02  9.384676E-01 -1.176345E+02  9.455704E-03 -1.721393E+02 
 4.658670E-01 3.189571E+01  9.642146E-03 -1.730145E+02  8.496979E-01 -5.547146E+01 
8.011688E+02  8.512010E-01 -5.685691E+01  9.099742E-03 -1.731543E+02  4.652215E-01 3.221095E+01 
 9.020096E-03 -1.716937E+02  9.385618E-01 -1.177984E+02  9.604481E-03 -1.716385E+02 
 4.661927E-01 3.204513E+01  9.425075E-03 -1.708408E+02  8.474417E-01 -5.544068E+01 
8.013625E+02  8.485843E-01 -5.682241E+01  9.252526E-03 -1.731811E+02  4.665383E-01 3.227567E+01 
 9.206895E-03 -1.736601E+02  9.374105E-01 -1.177500E+02  9.589250E-03 -1.717184E+02 
 4.669592E-01 3.202268E+01  9.882054E-03 -1.732776E+02  8.487486E-01 -5.555824E+01 
8.015562E+02  8.502014E-01 -5.696857E+01  9.085645E-03 -1.720716E+02  4.666027E-01 3.218795E+01 
 8.961837E-03 -1.739947E+02  9.396888E-01 -1.180723E+02  9.608085E-03 -1.722224E+02 
 4.683507E-01 3.192004E+01  9.505383E-03 -1.721797E+02  8.459323E-01 -5.557216E+01 
8.017500E+02  8.496459E-01 -5.700516E+01  9.377437E-03 -1.710064E+02  4.690043E-01 3.191646E+01 
 9.371152E-03 -1.732919E+02  9.357576E-01 -1.180468E+02  9.802633E-03 -1.721120E+02 
 4.687096E-01 3.198203E+01  9.789490E-03 -1.734477E+02  8.484886E-01 -5.578857E+01 
8.019438E+02  8.504603E-01 -5.704310E+01  9.162781E-03 -1.734620E+02  4.692122E-01 3.212910E+01 
 9.266422E-03 -1.714562E+02  9.385551E-01 -1.181087E+02  9.724058E-03 -1.721054E+02 
 4.703675E-01 3.181488E+01  1.000814E-02 -1.721796E+02  8.466353E-01 -5.572234E+01 
8.021375E+02  8.493779E-01 -5.703313E+01  9.288691E-03 -1.713186E+02  4.716450E-01 3.193439E+01 
 9.096933E-03 -1.716069E+02  9.380925E-01 -1.182704E+02  9.641346E-03 -1.728877E+02 
 4.707163E-01 3.181981E+01  9.952596E-03 -1.746170E+02  8.485597E-01 -5.580160E+01 
8.023312E+02  8.492523E-01 -5.705083E+01  9.313635E-03 -1.723551E+02  4.709615E-01 3.200184E+01 
 9.055735E-03 -1.722394E+02  9.371408E-01 -1.184633E+02  9.480505E-03 -1.735148E+02 
 4.711814E-01 3.202450E+01  9.730369E-03 -1.720861E+02  8.476671E-01 -5.577024E+01 
8.025250E+02  8.487036E-01 -5.718376E+01  9.425463E-03 -1.722784E+02  4.721776E-01 3.208179E+01 
 9.598679E-03 -1.720740E+02  9.373632E-01 -1.185549E+02  9.871678E-03 -1.703508E+02 
 4.727088E-01 3.179257E+01  9.514329E-03 -1.718451E+02  8.468942E-01 -5.577036E+01 
8.027188E+02  8.487573E-01 -5.722537E+01  9.369128E-03 -1.714033E+02  4.722903E-01 3.203054E+01 
 9.398941E-03 -1.745076E+02  9.373377E-01 -1.185842E+02  9.755535E-03 -1.705656E+02 
 4.732334E-01 3.167109E+01  9.587684E-03 -1.752160E+02  8.449116E-01 -5.582895E+01 
8.029125E+02  8.486536E-01 -5.725363E+01  9.778395E-03 -1.736015E+02  4.726924E-01 3.187439E+01 
 9.311373E-03 -1.718719E+02  9.363832E-01 -1.187073E+02  9.986583E-03 -1.725131E+02 
 4.743621E-01 3.161942E+01  9.865925E-03 -1.731971E+02  8.458983E-01 -5.588683E+01 
8.031063E+02  8.481852E-01 -5.733771E+01  9.275018E-03 -1.733564E+02  4.754391E-01 3.179483E+01 
 9.305746E-03 -1.718998E+02  9.360694E-01 -1.186954E+02  9.630035E-03 -1.710069E+02 
 4.751444E-01 3.160758E+01  9.484308E-03 -1.735695E+02  8.446034E-01 -5.596855E+01 
8.033000E+02  8.496841E-01 -5.738772E+01  9.559638E-03 -1.744685E+02  4.752016E-01 3.170387E+01 
 9.466907E-03 -1.692914E+02  9.362311E-01 -1.187559E+02  1.007251E-02 -1.711729E+02 
 4.773632E-01 3.157746E+01  9.928482E-03 -1.737783E+02  8.459739E-01 -5.605798E+01 
8.034937E+02  8.463682E-01 -5.737388E+01  9.476269E-03 -1.734077E+02  4.766322E-01 3.167310E+01 
 9.466700E-03 -1.743387E+02  9.355499E-01 -1.190601E+02  1.003752E-02 -1.725693E+02 
 4.765466E-01 3.161442E+01  9.674790E-03 -1.722246E+02  8.457603E-01 -5.608521E+01 
8.036875E+02  8.466993E-01 -5.743205E+01  9.462148E-03 -1.690967E+02  4.764973E-01 3.176160E+01 
 9.716801E-03 -1.713280E+02  9.364962E-01 -1.191065E+02  9.533478E-03 -1.725615E+02 
 4.769818E-01 3.152686E+01  9.807674E-03 -1.736059E+02  8.445782E-01 -5.614439E+01 
8.038813E+02  8.458086E-01 -5.758554E+01  9.863800E-03 -1.708499E+02  4.774176E-01 3.161848E+01 
 9.964823E-03 -1.705692E+02  9.353454E-01 -1.190914E+02  9.914094E-03 -1.703837E+02 
 4.771452E-01 3.135093E+01  9.740187E-03 -1.721832E+02  8.448730E-01 -5.617160E+01 
8.040750E+02  8.477296E-01 -5.760820E+01  9.708681E-03 -1.714897E+02  4.780621E-01 3.151332E+01 
 9.758168E-03 -1.703596E+02  9.363315E-01 -1.193687E+02  1.025745E-02 -1.711485E+02 
 4.795009E-01 3.142305E+01  1.027818E-02 -1.723906E+02  8.440015E-01 -5.619957E+01 
8.042687E+02  8.447905E-01 -5.759100E+01  9.667129E-03 -1.725363E+02  4.788244E-01 3.148396E+01 
 9.610762E-03 -1.728613E+02  9.340839E-01 -1.194672E+02  9.570420E-03 -1.702986E+02 
 4.783249E-01 3.140136E+01  1.028138E-02 -1.716998E+02  8.436896E-01 -5.629864E+01 
8.044625E+02  8.452690E-01 -5.771847E+01  9.864053E-03 -1.712723E+02  4.792467E-01 3.140692E+01 
 9.762957E-03 -1.737472E+02  9.340707E-01 -1.195794E+02  1.008134E-02 -1.707594E+02 
 4.798756E-01 3.107718E+01  9.904339E-03 -1.739746E+02  8.432494E-01 -5.646129E+01 
8.046562E+02  8.430564E-01 -5.768958E+01  9.601469E-03 -1.717971E+02  4.810963E-01 3.127613E+01 
 9.756166E-03 -1.715981E+02  9.322988E-01 -1.196713E+02  1.018557E-02 -1.722518E+02 
 4.790227E-01 3.119649E+01  1.004785E-02 -1.743240E+02  8.443420E-01 -5.641509E+01 
8.048500E+02  8.478360E-01 -5.781283E+01  9.490301E-03 -1.738890E+02  4.819419E-01 3.139416E+01 
 9.839515E-03 -1.693867E+02  9.349251E-01 -1.198104E+02  1.022875E-02 -1.713561E+02 
 4.814677E-01 3.112636E+01  1.000337E-02 -1.719312E+02  8.451259E-01 -5.635617E+01 
8.050438E+02  8.423162E-01 -5.786061E+01  9.580858E-03 -1.725465E+02  4.806306E-01 3.120777E+01 
 9.811839E-03 -1.708217E+02  9.341830E-01 -1.197989E+02  9.912863E-03 -1.740286E+02 
 4.813508E-01 3.096079E+01  1.025707E-02 -1.712277E+02  8.418317E-01 -5.657864E+01 
8.052375E+02  8.451534E-01 -5.792302E+01  1.013498E-02 -1.720787E+02  4.814531E-01 3.115466E+01 
 9.999046E-03 -1.716521E+02  9.354135E-01 -1.200683E+02  1.006029E-02 -1.734595E+02 
 4.826555E-01 3.098081E+01  1.042222E-02 -1.733267E+02  8.404363E-01 -5.664080E+01 
8.054312E+02  8.454388E-01 -5.796549E+01  1.000393E-02 -1.746970E+02  4.831598E-01 3.108218E+01 
 9.782511E-03 -1.731142E+02  9.341389E-01 -1.201791E+02  1.038986E-02 -1.717764E+02 
 4.840287E-01 3.095533E+01  9.843199E-03 -1.730828E+02  8.428204E-01 -5.669341E+01 
8.056250E+02  8.457000E-01 -5.801838E+01  9.423556E-03 -1.727682E+02  4.853823E-01 3.111406E+01 
 9.777381E-03 -1.716026E+02  9.313271E-01 -1.201299E+02  1.032110E-02 -1.718490E+02 
 4.852254E-01 3.081207E+01  9.844038E-03 -1.728970E+02  8.433728E-01 -5.669554E+01 
8.058188E+02  8.437987E-01 -5.813944E+01  9.967826E-03 -1.725610E+02  4.840386E-01 3.091486E+01 
 1.020503E-02 -1.743236E+02  9.352510E-01 -1.203972E+02  1.012194E-02 -1.710712E+02 
 4.850518E-01 3.080992E+01  9.975587E-03 -1.731964E+02  8.399609E-01 -5.678239E+01 
8.060125E+02  8.406254E-01 -5.819671E+01  9.883180E-03 -1.721975E+02  4.845678E-01 3.105559E+01 
 9.767720E-03 -1.739966E+02  9.330879E-01 -1.205125E+02  1.016710E-02 -1.741389E+02 
 4.846778E-01 3.069990E+01  9.972630E-03 -1.742986E+02  8.398771E-01 -5.679428E+01 
8.062062E+02  8.419643E-01 -5.818952E+01  9.567847E-03 -1.734731E+02  4.860795E-01 3.089331E+01 
 9.896947E-03 -1.725217E+02  9.334109E-01 -1.207187E+02  1.015814E-02 -1.728877E+02 
 4.855750E-01 3.063686E+01  1.030414E-02 -1.735518E+02  8.421817E-01 -5.684637E+01 
8.064000E+02  8.411862E-01 -5.822500E+01  9.828318E-03 -1.716612E+02  4.863341E-01 3.085818E+01 
 9.889863E-03 -1.726704E+02  9.329240E-01 -1.207831E+02  1.024396E-02 -1.720214E+02 
 4.863722E-01 3.075677E+01  1.011913E-02 -1.748890E+02  8.394150E-01 -5.689350E+01 
8.065938E+02  8.419252E-01 -5.832477E+01  1.004593E-02 -1.732263E+02  4.872768E-01 3.083772E+01 
 1.001367E-02 -1.714652E+02  9.320660E-01 -1.210285E+02  1.034681E-02 -1.706336E+02 
 4.884909E-01 3.056988E+01  1.005920E-02 -1.738330E+02  8.396621E-01 -5.691247E+01 
8.067875E+02  8.393599E-01 -5.851334E+01  1.002249E-02 -1.733131E+02  4.882465E-01 3.069642E+01 
 9.788806E-03 -1.733822E+02  9.328346E-01 -1.211000E+02  1.039744E-02 -1.728678E+02 
 4.874834E-01 3.033266E+01  9.852422E-03 -1.737514E+02  8.387403E-01 -5.718223E+01 
8.069813E+02  8.387330E-01 -5.870580E+01  9.563956E-03 -1.728636E+02  4.881615E-01 3.060194E+01 
 9.714541E-03 -1.733690E+02  9.300690E-01 -1.211031E+02  1.031283E-02 -1.740833E+02 
 4.870537E-01 3.026594E+01  1.018310E-02 -1.722088E+02  8.378421E-01 -5.722744E+01 
8.071750E+02  8.399869E-01 -5.857581E+01  1.013858E-02 -1.714471E+02  4.895217E-01 3.044342E+01 
 1.007918E-02 -1.713079E+02  9.294409E-01 -1.214552E+02  1.029874E-02 -1.744195E+02 
 4.903916E-01 3.032340E+01  1.057761E-02 -1.727859E+02  8.379690E-01 -5.724712E+01 
8.073687E+02  8.401346E-01 -5.866273E+01  9.742449E-03 -1.745608E+02  4.895214E-01 3.062096E+01 
 1.023481E-02 -1.720911E+02  9.285700E-01 -1.214169E+02  1.051547E-02 -1.742265E+02 
 4.906418E-01 3.018235E+01  1.044243E-02 -1.734999E+02  8.365052E-01 -5.721082E+01 
8.075625E+02  8.362097E-01 -5.866689E+01  1.006213E-02 -1.732432E+02  4.912996E-01 3.040774E+01 
 9.935742E-03 -1.716774E+02  9.297485E-01 -1.216122E+02  1.037829E-02 -1.740198E+02 
 4.901151E-01 3.028487E+01  1.049054E-02 -1.743982E+02  8.383528E-01 -5.735377E+01 
8.077563E+02  8.380598E-01 -5.890384E+01  1.001457E-02 -1.723243E+02  4.927299E-01 3.044508E+01 
 9.753328E-03 -1.729957E+02  9.262839E-01 -1.216377E+02  1.099312E-02 -1.724937E+02 
 4.925682E-01 3.005427E+01  1.036904E-02 -1.745710E+02  8.381092E-01 -5.727302E+01 
8.079500E+02  8.367662E-01 -5.876738E+01  1.016009E-02 -1.735493E+02  4.924636E-01 3.013102E+01 
 9.925936E-03 -1.719865E+02  9.288217E-01 -1.218724E+02  1.054037E-02 -1.749099E+02 
 4.922778E-01 3.008202E+01  1.026517E-02 -1.769139E+02  8.365538E-01 -5.753986E+01 
8.081437E+02  8.368818E-01 -5.873413E+01  9.969672E-03 -1.741897E+02  4.918069E-01 3.022207E+01 
