! Matrix data file written by TouchstoneData, EPCOS AG
! FILENAME: "L972G_WB.s3p"
! COMMENT: "(L972G_WBN1.s3p)"
! INFO: nport=3, nfreq=801
! DATE: "Fri Nov 14 14:07:58 2008"
! USER: "Aleksander Breg"
!
! port | pin | signal
! -----|-----|--------
!   1  |  2  |  input
!   2  |  4  |  output
!   3  |  6  |  output
! --------------------
! 
# MHZ S MA R 50
! freq  magS11 angS11  magS12 angS12  magS13 angS13  ...
6.500000E+02  9.282151E-01 -4.194511E+01  3.678612E-03 -1.583752E+02  3.183472E-01 4.808812E+01 
 3.613414E-03 -1.619220E+02  9.546307E-01 -8.558591E+01  3.620999E-03 -1.609845E+02 
 3.184297E-01 4.783486E+01  3.432648E-03 -1.589908E+02  9.260299E-01 -4.069882E+01 
6.505000E+02  9.290206E-01 -4.193369E+01  3.775006E-03 -1.616931E+02  3.195901E-01 4.823612E+01 
 3.296165E-03 -1.534165E+02  9.551394E-01 -8.567094E+01  3.518398E-03 -1.574589E+02 
 3.193885E-01 4.799265E+01  3.632383E-03 -1.616788E+02  9.279156E-01 -4.076131E+01 
6.510000E+02  9.291039E-01 -4.198066E+01  3.925291E-03 -1.568315E+02  3.193694E-01 4.803885E+01 
 3.522907E-03 -1.624428E+02  9.515270E-01 -8.574470E+01  3.512417E-03 -1.599549E+02 
 3.192142E-01 4.789415E+01  3.502314E-03 -1.556137E+02  9.265070E-01 -4.070570E+01 
6.515000E+02  9.277821E-01 -4.203132E+01  3.641125E-03 -1.634967E+02  3.200102E-01 4.805292E+01 
 3.740392E-03 -1.580137E+02  9.524602E-01 -8.586985E+01  3.683638E-03 -1.564123E+02 
 3.184624E-01 4.785778E+01  3.397437E-03 -1.597839E+02  9.263094E-01 -4.075058E+01 
6.520000E+02  9.291455E-01 -4.201191E+01  3.538810E-03 -1.599807E+02  3.208154E-01 4.813257E+01 
 3.476073E-03 -1.585539E+02  9.545593E-01 -8.584951E+01  3.891419E-03 -1.630671E+02 
 3.199722E-01 4.800604E+01  3.783874E-03 -1.587326E+02  9.286781E-01 -4.070156E+01 
6.525000E+02  9.261773E-01 -4.211020E+01  3.443189E-03 -1.603972E+02  3.211527E-01 4.802908E+01 
 3.664053E-03 -1.595233E+02  9.530177E-01 -8.591326E+01  3.763969E-03 -1.621772E+02 
 3.197841E-01 4.792736E+01  3.801555E-03 -1.561638E+02  9.262805E-01 -4.083102E+01 
6.530000E+02  9.267038E-01 -4.211146E+01  4.167803E-03 -1.550758E+02  3.206443E-01 4.797642E+01 
 3.560921E-03 -1.583927E+02  9.552818E-01 -8.596299E+01  3.568220E-03 -1.642644E+02 
 3.203911E-01 4.780013E+01  3.550375E-03 -1.605931E+02  9.257722E-01 -4.083833E+01 
6.535000E+02  9.268451E-01 -4.209660E+01  3.978146E-03 -1.567905E+02  3.204145E-01 4.789980E+01 
 3.561960E-03 -1.651079E+02  9.532784E-01 -8.607229E+01  3.521055E-03 -1.565246E+02 
 3.211895E-01 4.790184E+01  3.762129E-03 -1.540401E+02  9.229725E-01 -4.104367E+01 
6.540000E+02  9.272098E-01 -4.214178E+01  3.743957E-03 -1.619678E+02  3.221497E-01 4.791979E+01 
 3.759360E-03 -1.617126E+02  9.556208E-01 -8.609483E+01  3.721847E-03 -1.644086E+02 
 3.205636E-01 4.799334E+01  3.782786E-03 -1.594752E+02  9.269557E-01 -4.098047E+01 
6.545000E+02  9.256355E-01 -4.228201E+01  3.712160E-03 -1.624440E+02  3.221539E-01 4.767858E+01 
 3.667835E-03 -1.585411E+02  9.532674E-01 -8.620300E+01  3.725549E-03 -1.610667E+02 
 3.219290E-01 4.774452E+01  3.700810E-03 -1.626271E+02  9.248212E-01 -4.110284E+01 
6.550000E+02  9.265596E-01 -4.251609E+01  3.343653E-03 -1.680495E+02  3.226491E-01 4.793775E+01 
 3.561217E-03 -1.627881E+02  9.518411E-01 -8.653339E+01  3.616156E-03 -1.614338E+02 
 3.216015E-01 4.756069E+01  3.862716E-03 -1.566292E+02  9.245326E-01 -4.101931E+01 
6.555000E+02  9.281018E-01 -4.236119E+01  3.458965E-03 -1.560554E+02  3.232932E-01 4.779194E+01 
 3.320681E-03 -1.589269E+02  9.544775E-01 -8.640781E+01  3.613982E-03 -1.588657E+02 
 3.234881E-01 4.774239E+01  3.332147E-03 -1.676095E+02  9.240356E-01 -4.106734E+01 
6.560000E+02  9.268158E-01 -4.230476E+01  3.819003E-03 -1.601724E+02  3.227533E-01 4.780433E+01 
 3.354475E-03 -1.636051E+02  9.520211E-01 -8.629638E+01  3.862079E-03 -1.605474E+02 
 3.238110E-01 4.769398E+01  3.696626E-03 -1.602272E+02  9.233894E-01 -4.122866E+01 
6.565000E+02  9.245497E-01 -4.231833E+01  3.669967E-03 -1.604133E+02  3.226618E-01 4.783494E+01 
 3.554161E-03 -1.600947E+02  9.529948E-01 -8.645790E+01  3.800680E-03 -1.605948E+02 
 3.228366E-01 4.770095E+01  3.827126E-03 -1.589565E+02  9.231942E-01 -4.108753E+01 
6.570000E+02  9.251940E-01 -4.241900E+01  3.731637E-03 -1.578900E+02  3.234612E-01 4.787709E+01 
 3.410712E-03 -1.600461E+02  9.535744E-01 -8.655476E+01  3.650259E-03 -1.587036E+02 
 3.239045E-01 4.763716E+01  3.881596E-03 -1.624343E+02  9.210452E-01 -4.113686E+01 
6.575000E+02  9.235556E-01 -4.240445E+01  3.567823E-03 -1.650625E+02  3.247486E-01 4.785920E+01 
 3.802150E-03 -1.614831E+02  9.516074E-01 -8.656006E+01  3.683747E-03 -1.562285E+02 
 3.242308E-01 4.779279E+01  3.881935E-03 -1.586146E+02  9.228868E-01 -4.120850E+01 
6.580000E+02  9.239348E-01 -4.242504E+01  3.689944E-03 -1.649073E+02  3.242259E-01 4.778707E+01 
 3.729849E-03 -1.593438E+02  9.514933E-01 -8.663990E+01  3.864566E-03 -1.625388E+02 
 3.243618E-01 4.770885E+01  3.638575E-03 -1.585984E+02  9.227977E-01 -4.110693E+01 
6.585000E+02  9.238247E-01 -4.252418E+01  3.508159E-03 -1.551694E+02  3.245968E-01 4.777105E+01 
 3.390696E-03 -1.588007E+02  9.537847E-01 -8.677569E+01  3.700980E-03 -1.572528E+02 
 3.248837E-01 4.776466E+01  3.511356E-03 -1.578420E+02  9.225597E-01 -4.123093E+01 
6.590000E+02  9.258470E-01 -4.245069E+01  3.717115E-03 -1.632952E+02  3.250386E-01 4.790943E+01 
 3.818942E-03 -1.580067E+02  9.540781E-01 -8.673467E+01  3.694613E-03 -1.627577E+02 
 3.264717E-01 4.780046E+01  3.355383E-03 -1.592263E+02  9.226855E-01 -4.109668E+01 
6.595000E+02  9.232876E-01 -4.262985E+01  3.379049E-03 -1.638732E+02  3.250563E-01 4.750517E+01 
 3.738829E-03 -1.562591E+02  9.556011E-01 -8.686734E+01  3.873560E-03 -1.590324E+02 
 3.255191E-01 4.748436E+01  3.870355E-03 -1.580411E+02  9.208709E-01 -4.131772E+01 
6.600000E+02  9.236039E-01 -4.258888E+01  3.626839E-03 -1.528237E+02  3.265182E-01 4.773794E+01 
 3.476361E-03 -1.600737E+02  9.532530E-01 -8.697439E+01  3.469385E-03 -1.603046E+02 
 3.259834E-01 4.749375E+01  3.987104E-03 -1.614558E+02  9.215446E-01 -4.141306E+01 
6.605000E+02  9.221262E-01 -4.261632E+01  4.078826E-03 -1.587737E+02  3.273197E-01 4.757969E+01 
 3.722618E-03 -1.620326E+02  9.531020E-01 -8.694315E+01  3.608495E-03 -1.602163E+02 
 3.268270E-01 4.749812E+01  3.347452E-03 -1.599390E+02  9.216754E-01 -4.143931E+01 
6.610000E+02  9.243660E-01 -4.263586E+01  3.831941E-03 -1.582736E+02  3.281532E-01 4.773462E+01 
 3.685780E-03 -1.638987E+02  9.552003E-01 -8.714878E+01  3.906146E-03 -1.580576E+02 
 3.278083E-01 4.751711E+01  4.143166E-03 -1.604336E+02  9.209057E-01 -4.133945E+01 
6.615000E+02  9.241725E-01 -4.270145E+01  3.776651E-03 -1.656231E+02  3.278299E-01 4.788437E+01 
 3.824757E-03 -1.589756E+02  9.548081E-01 -8.724621E+01  3.759418E-03 -1.624496E+02 
 3.287646E-01 4.751956E+01  3.602082E-03 -1.593735E+02  9.213636E-01 -4.147386E+01 
6.620000E+02  9.226053E-01 -4.267664E+01  4.047931E-03 -1.579088E+02  3.283337E-01 4.785065E+01 
 3.617921E-03 -1.609319E+02  9.562367E-01 -8.707408E+01  4.061452E-03 -1.569788E+02 
 3.291988E-01 4.745512E+01  3.549956E-03 -1.598015E+02  9.202623E-01 -4.145164E+01 
6.625000E+02  9.234759E-01 -4.275596E+01  3.426693E-03 -1.665014E+02  3.303151E-01 4.761021E+01 
 3.555343E-03 -1.595826E+02  9.539155E-01 -8.726004E+01  3.482279E-03 -1.605269E+02 
 3.302124E-01 4.746684E+01  3.567667E-03 -1.619266E+02  9.220557E-01 -4.149590E+01 
6.630000E+02  9.222577E-01 -4.276403E+01  3.697215E-03 -1.547060E+02  3.300470E-01 4.761991E+01 
 3.767275E-03 -1.573351E+02  9.537891E-01 -8.755226E+01  3.621806E-03 -1.620791E+02 
 3.305993E-01 4.732178E+01  3.624941E-03 -1.590818E+02  9.203608E-01 -4.156601E+01 
6.635000E+02  9.222393E-01 -4.284131E+01  3.529034E-03 -1.562569E+02  3.310380E-01 4.757134E+01 
 4.038973E-03 -1.614864E+02  9.538632E-01 -8.742231E+01  3.861978E-03 -1.584173E+02 
 3.302974E-01 4.730040E+01  3.988649E-03 -1.594368E+02  9.204882E-01 -4.149837E+01 
6.640000E+02  9.220336E-01 -4.288462E+01  3.684099E-03 -1.601414E+02  3.307590E-01 4.733206E+01 
 4.444027E-03 -1.531659E+02  9.558399E-01 -8.755652E+01  3.426823E-03 -1.583555E+02 
 3.315664E-01 4.722061E+01  3.681120E-03 -1.626141E+02  9.208990E-01 -4.161481E+01 
6.645000E+02  9.214945E-01 -4.276048E+01  3.358864E-03 -1.583922E+02  3.311892E-01 4.714342E+01 
 4.078123E-03 -1.605461E+02  9.545210E-01 -8.766237E+01  3.826262E-03 -1.574334E+02 
 3.314695E-01 4.748630E+01  3.908619E-03 -1.607628E+02  9.206854E-01 -4.177326E+01 
6.650000E+02  9.211020E-01 -4.302707E+01  4.031046E-03 -1.637157E+02  3.317843E-01 4.726288E+01 
 3.908706E-03 -1.566732E+02  9.526709E-01 -8.773024E+01  3.278542E-03 -1.567297E+02 
 3.318570E-01 4.705837E+01  3.815559E-03 -1.552625E+02  9.213871E-01 -4.172370E+01 
6.655000E+02  9.195013E-01 -4.298963E+01  3.826190E-03 -1.548714E+02  3.315365E-01 4.708719E+01 
 4.013631E-03 -1.568772E+02  9.537548E-01 -8.788314E+01  4.183010E-03 -1.551120E+02 
 3.313244E-01 4.711607E+01  3.936529E-03 -1.626444E+02  9.179184E-01 -4.180367E+01 
6.660000E+02  9.221048E-01 -4.302414E+01  3.751796E-03 -1.539158E+02  3.313487E-01 4.713130E+01 
 3.910369E-03 -1.567838E+02  9.545184E-01 -8.783109E+01  4.199515E-03 -1.615327E+02 
 3.333056E-01 4.713070E+01  3.713588E-03 -1.579638E+02  9.182023E-01 -4.177272E+01 
6.665000E+02  9.215281E-01 -4.295593E+01  3.870309E-03 -1.571186E+02  3.325267E-01 4.705267E+01 
 3.753653E-03 -1.512333E+02  9.522185E-01 -8.794739E+01  3.954193E-03 -1.564292E+02 
 3.335168E-01 4.708336E+01  4.129141E-03 -1.596508E+02  9.196177E-01 -4.179697E+01 
6.670000E+02  9.204384E-01 -4.307354E+01  3.919509E-03 -1.610524E+02  3.337863E-01 4.694903E+01 
 3.727250E-03 -1.585354E+02  9.519965E-01 -8.804224E+01  4.048876E-03 -1.568344E+02 
 3.334420E-01 4.706657E+01  4.098485E-03 -1.568805E+02  9.202584E-01 -4.188535E+01 
6.675000E+02  9.208142E-01 -4.303487E+01  4.060651E-03 -1.526594E+02  3.340896E-01 4.716003E+01 
 3.606661E-03 -1.607943E+02  9.542615E-01 -8.816070E+01  3.625052E-03 -1.539196E+02 
 3.342152E-01 4.698503E+01  4.176118E-03 -1.628250E+02  9.188318E-01 -4.185712E+01 
6.680000E+02  9.219082E-01 -4.320555E+01  3.483924E-03 -1.579152E+02  3.348993E-01 4.706531E+01 
 4.147267E-03 -1.573733E+02  9.539214E-01 -8.831537E+01  4.022272E-03 -1.569307E+02 
 3.351089E-01 4.676617E+01  3.989307E-03 -1.571470E+02  9.184324E-01 -4.185831E+01 
6.685000E+02  9.216107E-01 -4.315986E+01  3.888272E-03 -1.575235E+02  3.347161E-01 4.692508E+01 
 3.933714E-03 -1.586438E+02  9.557710E-01 -8.822739E+01  4.171596E-03 -1.595761E+02 
 3.359212E-01 4.687752E+01  3.899280E-03 -1.548423E+02  9.186252E-01 -4.188635E+01 
6.690000E+02  9.229365E-01 -4.315743E+01  4.095832E-03 -1.612715E+02  3.354267E-01 4.691185E+01 
 3.729259E-03 -1.549113E+02  9.562730E-01 -8.846233E+01  3.967559E-03 -1.562249E+02 
 3.374990E-01 4.694914E+01  4.086888E-03 -1.592624E+02  9.188796E-01 -4.202936E+01 
6.695000E+02  9.210009E-01 -4.329776E+01  3.799477E-03 -1.549089E+02  3.344688E-01 4.683826E+01 
 3.998576E-03 -1.647492E+02  9.518997E-01 -8.849271E+01  3.791380E-03 -1.556856E+02 
 3.370444E-01 4.688561E+01  4.267484E-03 -1.555326E+02  9.167816E-01 -4.192344E+01 
6.700000E+02  9.195853E-01 -4.324587E+01  3.648086E-03 -1.588633E+02  3.366945E-01 4.683173E+01 
 4.257020E-03 -1.589888E+02  9.527768E-01 -8.849879E+01  3.876436E-03 -1.596146E+02 
 3.369120E-01 4.662730E+01  4.249323E-03 -1.533870E+02  9.172256E-01 -4.204263E+01 
6.705000E+02  9.205297E-01 -4.342420E+01  4.568229E-03 -1.579022E+02  3.370420E-01 4.673844E+01 
 3.971663E-03 -1.603686E+02  9.540955E-01 -8.871068E+01  3.983080E-03 -1.564255E+02 
 3.375970E-01 4.651864E+01  4.041779E-03 -1.544888E+02  9.172192E-01 -4.205543E+01 
6.710000E+02  9.192461E-01 -4.338066E+01  3.832532E-03 -1.554697E+02  3.378377E-01 4.661567E+01 
 3.811143E-03 -1.580626E+02  9.532686E-01 -8.872956E+01  4.120197E-03 -1.575795E+02 
 3.381044E-01 4.659184E+01  3.978795E-03 -1.554178E+02  9.170793E-01 -4.210389E+01 
6.715000E+02  9.182099E-01 -4.346573E+01  4.280525E-03 -1.583463E+02  3.375325E-01 4.644109E+01 
 3.981738E-03 -1.572983E+02  9.540650E-01 -8.872562E+01  4.059244E-03 -1.637857E+02 
 3.379602E-01 4.622423E+01  3.947938E-03 -1.599256E+02  9.175129E-01 -4.228485E+01 
6.720000E+02  9.183191E-01 -4.362601E+01  3.977340E-03 -1.591997E+02  3.386736E-01 4.639234E+01 
 4.285111E-03 -1.593509E+02  9.560096E-01 -8.891065E+01  4.277831E-03 -1.571625E+02 
 3.391548E-01 4.614634E+01  4.125674E-03 -1.543978E+02  9.171124E-01 -4.226908E+01 
6.725000E+02  9.177533E-01 -4.350253E+01  4.521855E-03 -1.568032E+02  3.393220E-01 4.638751E+01 
 3.832743E-03 -1.600321E+02  9.531740E-01 -8.903115E+01  4.136775E-03 -1.540644E+02 
 3.392077E-01 4.620549E+01  3.972818E-03 -1.582157E+02  9.182758E-01 -4.221585E+01 
6.730000E+02  9.167859E-01 -4.362541E+01  4.129439E-03 -1.567448E+02  3.386881E-01 4.628976E+01 
 4.385558E-03 -1.587180E+02  9.542252E-01 -8.925971E+01  4.119738E-03 -1.558154E+02 
 3.389737E-01 4.614634E+01  4.503789E-03 -1.552550E+02  9.137287E-01 -4.240035E+01 
6.735000E+02  9.183218E-01 -4.363511E+01  4.250906E-03 -1.626433E+02  3.397440E-01 4.622706E+01 
 4.489967E-03 -1.604714E+02  9.551439E-01 -8.908495E+01  4.001247E-03 -1.574468E+02 
 3.407486E-01 4.609992E+01  4.185814E-03 -1.588817E+02  9.161592E-01 -4.241649E+01 
6.740000E+02  9.192075E-01 -4.371514E+01  3.950742E-03 -1.517922E+02  3.392510E-01 4.629448E+01 
 4.078309E-03 -1.558872E+02  9.547781E-01 -8.924796E+01  4.072889E-03 -1.581143E+02 
 3.410100E-01 4.590777E+01  4.240346E-03 -1.531774E+02  9.141455E-01 -4.242941E+01 
6.745000E+02  9.192925E-01 -4.364952E+01  4.072783E-03 -1.619698E+02  3.404221E-01 4.604966E+01 
 4.339982E-03 -1.559765E+02  9.535549E-01 -8.939880E+01  3.934560E-03 -1.637092E+02 
 3.416749E-01 4.602914E+01  4.163518E-03 -1.632014E+02  9.161065E-01 -4.244304E+01 
6.750000E+02  9.173909E-01 -4.366519E+01  4.243684E-03 -1.543685E+02  3.400208E-01 4.603302E+01 
 4.031369E-03 -1.557068E+02  9.530033E-01 -8.933415E+01  4.570551E-03 -1.623557E+02 
 3.416997E-01 4.598703E+01  4.333891E-03 -1.603609E+02  9.138868E-01 -4.229261E+01 
6.755000E+02  9.160712E-01 -4.372091E+01  3.796708E-03 -1.586847E+02  3.405036E-01 4.601858E+01 
 4.066685E-03 -1.548927E+02  9.540771E-01 -8.945409E+01  3.924559E-03 -1.598310E+02 
 3.414607E-01 4.583118E+01  4.302075E-03 -1.493233E+02  9.127296E-01 -4.236826E+01 
6.760000E+02  9.159747E-01 -4.374654E+01  4.202888E-03 -1.605789E+02  3.413103E-01 4.611927E+01 
 4.587954E-03 -1.540230E+02  9.525381E-01 -8.951931E+01  4.168223E-03 -1.613337E+02 
 3.416492E-01 4.577070E+01  4.120233E-03 -1.589631E+02  9.133987E-01 -4.232236E+01 
6.765000E+02  9.176649E-01 -4.370897E+01  4.356930E-03 -1.526323E+02  3.417345E-01 4.577386E+01 
 4.421215E-03 -1.585053E+02  9.538317E-01 -8.962210E+01  4.652028E-03 -1.638137E+02 
 3.434004E-01 4.591741E+01  4.280301E-03 -1.570466E+02  9.138187E-01 -4.242617E+01 
6.770000E+02  9.156340E-01 -4.371564E+01  4.306413E-03 -1.574881E+02  3.428757E-01 4.575189E+01 
 4.510180E-03 -1.557561E+02  9.525675E-01 -8.989513E+01  4.374289E-03 -1.570286E+02 
 3.425663E-01 4.577158E+01  4.514475E-03 -1.605415E+02  9.146232E-01 -4.261009E+01 
6.775000E+02  9.178449E-01 -4.380994E+01  4.177671E-03 -1.607566E+02  3.445771E-01 4.542879E+01 
 4.271293E-03 -1.599724E+02  9.510132E-01 -8.981346E+01  3.845902E-03 -1.620207E+02 
 3.444016E-01 4.555072E+01  4.384909E-03 -1.567247E+02  9.149606E-01 -4.262316E+01 
6.780000E+02  9.181449E-01 -4.397585E+01  4.359424E-03 -1.538936E+02  3.453627E-01 4.544998E+01 
 4.420202E-03 -1.549830E+02  9.406854E-01 -9.008118E+01  4.307413E-03 -1.620140E+02 
 3.461057E-01 4.533916E+01  4.635265E-03 -1.607802E+02  9.135464E-01 -4.255278E+01 
6.785000E+02  9.154170E-01 -4.405854E+01  4.390631E-03 -1.564594E+02  3.432669E-01 4.544087E+01 
 4.490159E-03 -1.615484E+02  9.531438E-01 -8.984482E+01  4.411152E-03 -1.580774E+02 
 3.439475E-01 4.532892E+01  4.554901E-03 -1.647276E+02  9.148578E-01 -4.260200E+01 
6.790000E+02  9.181998E-01 -4.390674E+01  4.206221E-03 -1.599664E+02  3.433247E-01 4.530966E+01 
 4.187029E-03 -1.579366E+02  9.520060E-01 -9.001921E+01  3.973916E-03 -1.563892E+02 
 3.449567E-01 4.516400E+01  4.343615E-03 -1.626730E+02  9.133935E-01 -4.268848E+01 
6.795000E+02  9.168661E-01 -4.395920E+01  4.803003E-03 -1.588301E+02  3.430995E-01 4.520633E+01 
 4.504621E-03 -1.598252E+02  9.540821E-01 -9.024335E+01  4.482389E-03 -1.587044E+02 
 3.437879E-01 4.508722E+01  4.254253E-03 -1.591811E+02  9.121790E-01 -4.269627E+01 
6.800000E+02  9.179406E-01 -4.415015E+01  4.229567E-03 -1.600176E+02  3.455773E-01 4.518005E+01 
 4.424611E-03 -1.610740E+02  9.513276E-01 -9.031403E+01  4.062028E-03 -1.577405E+02 
 3.456393E-01 4.504044E+01  4.693774E-03 -1.598716E+02  9.156882E-01 -4.275891E+01 
6.805000E+02  9.172896E-01 -4.415151E+01  4.784861E-03 -1.576104E+02  3.447182E-01 4.504400E+01 
 4.413643E-03 -1.568466E+02  9.513347E-01 -9.048767E+01  4.338132E-03 -1.601921E+02 
 3.454723E-01 4.497277E+01  4.694401E-03 -1.583887E+02  9.125822E-01 -4.278548E+01 
6.810000E+02  9.153491E-01 -4.415191E+01  4.508945E-03 -1.632271E+02  3.445045E-01 4.500820E+01 
 4.746042E-03 -1.558524E+02  9.521288E-01 -9.046704E+01  5.011165E-03 -1.523637E+02 
 3.452841E-01 4.486096E+01  4.458242E-03 -1.576078E+02  9.131206E-01 -4.280053E+01 
6.815000E+02  9.140609E-01 -4.411097E+01  4.891304E-03 -1.604756E+02  3.457536E-01 4.490578E+01 
 4.471802E-03 -1.555417E+02  9.520543E-01 -9.037382E+01  4.785947E-03 -1.586147E+02 
 3.443585E-01 4.487155E+01  4.607372E-03 -1.582938E+02  9.148816E-01 -4.277018E+01 
6.820000E+02  9.177766E-01 -4.415248E+01  4.559323E-03 -1.559601E+02  3.451148E-01 4.495707E+01 
 4.647774E-03 -1.599158E+02  9.512673E-01 -9.051674E+01  4.137934E-03 -1.556782E+02 
 3.465876E-01 4.474061E+01  4.684371E-03 -1.568283E+02  9.147066E-01 -4.292638E+01 
6.825000E+02  9.161194E-01 -4.434066E+01  4.765915E-03 -1.602739E+02  3.448163E-01 4.478951E+01 
 4.584277E-03 -1.604529E+02  9.512776E-01 -9.072898E+01  4.660087E-03 -1.598229E+02 
 3.455759E-01 4.471100E+01  4.540010E-03 -1.591187E+02  9.130031E-01 -4.305368E+01 
6.830000E+02  9.162892E-01 -4.443783E+01  4.687211E-03 -1.547721E+02  3.468381E-01 4.486572E+01 
 4.526323E-03 -1.583622E+02  9.516420E-01 -9.081730E+01  4.569085E-03 -1.555198E+02 
 3.466241E-01 4.467105E+01  4.517713E-03 -1.591865E+02  9.139567E-01 -4.300065E+01 
6.835000E+02  9.158195E-01 -4.437682E+01  4.248999E-03 -1.622589E+02  3.461779E-01 4.465376E+01 
 4.829595E-03 -1.636909E+02  9.507391E-01 -9.081127E+01  4.365292E-03 -1.616535E+02 
 3.475125E-01 4.465575E+01  4.777998E-03 -1.613155E+02  9.126109E-01 -4.302645E+01 
6.840000E+02  9.142731E-01 -4.454701E+01  4.952360E-03 -1.610349E+02  3.472113E-01 4.483765E+01 
 4.995820E-03 -1.593513E+02  9.510598E-01 -9.085159E+01  4.565859E-03 -1.572397E+02 
 3.473495E-01 4.443513E+01  4.614415E-03 -1.600222E+02  9.141323E-01 -4.292565E+01 
6.845000E+02  9.147783E-01 -4.431080E+01  4.557493E-03 -1.588719E+02  3.479067E-01 4.453810E+01 
 4.531551E-03 -1.599070E+02  9.492468E-01 -9.095812E+01  4.555015E-03 -1.600165E+02 
 3.485058E-01 4.470967E+01  4.557062E-03 -1.551908E+02  9.113468E-01 -4.312289E+01 
6.850000E+02  9.132236E-01 -4.444956E+01  4.424346E-03 -1.577888E+02  3.463476E-01 4.442060E+01 
 4.437275E-03 -1.625693E+02  9.492486E-01 -9.099518E+01  4.648774E-03 -1.591641E+02 
 3.474730E-01 4.433365E+01  4.440095E-03 -1.547481E+02  9.091371E-01 -4.304429E+01 
6.855000E+02  9.117644E-01 -4.443140E+01  4.698296E-03 -1.629599E+02  3.486000E-01 4.434300E+01 
 4.514736E-03 -1.606312E+02  9.490246E-01 -9.108661E+01  4.434955E-03 -1.581257E+02 
 3.479705E-01 4.429693E+01  4.650975E-03 -1.606223E+02  9.122074E-01 -4.299181E+01 
6.860000E+02  9.133930E-01 -4.457405E+01  4.783217E-03 -1.597155E+02  3.489098E-01 4.411028E+01 
 4.422636E-03 -1.581871E+02  9.503133E-01 -9.114676E+01  4.541716E-03 -1.624540E+02 
 3.484404E-01 4.419749E+01  4.732565E-03 -1.585709E+02  9.122000E-01 -4.314778E+01 
6.865000E+02  9.138627E-01 -4.447284E+01  4.818900E-03 -1.584384E+02  3.472327E-01 4.412106E+01 
