! Matrix data file written by TouchstoneData, EPCOS AG
! FILENAME: "B4154_WB.s3p"
! COMMENT: "(B4154_SAWi_WB.s3p) EPCOS AG 19.02.2010 14:2"
! INFO: nport=3, nfreq=1601
! DATE: "Fri Feb 19 14:20:34 2010"
! USER: "Aleksander Breg"
!
! port | pin | signal
! -----|-----|--------
!   1  |  2  |  input
!   2  |  4  |  output
!   3  |  6  |  output
! --------------------
! 
# MHZ S MA R 50
! freq  magS11 angS11  magS12 angS12  magS13 angS13  ...
5.000000E+01  9.981805E-01 -3.105340E+00  5.770068E-05 -1.020614E+02  2.406522E-04 6.898546E+01 
 5.770068E-05 -1.020614E+02  9.976011E-01 -3.208490E+00  2.843118E-02 8.670895E+01 
 2.406522E-04 6.898546E+01  2.843118E-02 8.670895E+01  9.976882E-01 -3.234068E+00 
5.371875E+01  9.970534E-01 -3.506980E+00  1.464154E-04 -8.749135E+01  8.493835E-05 -1.778932E+02 
 1.464154E-04 -8.749135E+01  9.960509E-01 -3.609632E+00  3.032827E-02 8.653906E+01 
 8.493835E-05 -1.778932E+02  3.032827E-02 8.653906E+01  9.963444E-01 -3.606647E+00 
5.743750E+01  9.978645E-01 -3.722130E+00  9.481496E-05 5.255890E+01  2.137064E-04 9.073157E+01 
 9.481496E-05 5.255890E+01  9.968559E-01 -3.784542E+00  3.229637E-02 8.629127E+01 
 2.137064E-04 9.073157E+01  3.229637E-02 8.629127E+01  9.970164E-01 -3.852804E+00 
6.115625E+01  9.979903E-01 -3.980970E+00  9.228945E-05 1.421841E+02  2.664762E-04 6.976791E+01 
 9.228945E-05 1.421841E+02  9.963595E-01 -4.076230E+00  3.448736E-02 8.571365E+01 
 2.664762E-04 6.976791E+01  3.448736E-02 8.571365E+01  9.972302E-01 -4.127241E+00 
6.487500E+01  9.983470E-01 -4.198837E+00  5.669443E-05 5.203189E+01  2.236567E-04 8.276631E+01 
 5.669443E-05 5.203189E+01  9.966483E-01 -4.270426E+00  3.669152E-02 8.538413E+01 
 2.236567E-04 8.276631E+01  3.669152E-02 8.538413E+01  9.978289E-01 -4.349493E+00 
6.859375E+01  9.979174E-01 -4.420566E+00  8.362786E-05 1.073686E+02  2.640829E-04 8.279727E+01 
 8.362786E-05 1.073686E+02  9.958311E-01 -4.564005E+00  3.886797E-02 8.540425E+01 
 2.640829E-04 8.279727E+01  3.886797E-02 8.540425E+01  9.972316E-01 -4.580807E+00 
7.231250E+01  9.971231E-01 -4.679852E+00  4.579890E-05 -5.155650E+01  3.783536E-04 6.097150E+01 
 4.579890E-05 -5.155650E+01  9.948656E-01 -4.780582E+00  4.070602E-02 8.498506E+01 
 3.783536E-04 6.097150E+01  4.070602E-02 8.498506E+01  9.967136E-01 -4.860428E+00 
7.603125E+01  9.976730E-01 -4.936852E+00  9.430450E-05 7.388142E+01  3.347472E-04 8.020165E+01 
 9.430450E-05 7.388142E+01  9.950378E-01 -5.037862E+00  4.276820E-02 8.467574E+01 
 3.347472E-04 8.020165E+01  4.276820E-02 8.467574E+01  9.969951E-01 -5.150349E+00 
7.975000E+01  9.970598E-01 -5.153733E+00  2.289548E-04 -1.447166E+02  2.263187E-04 1.140306E+02 
 2.289548E-04 -1.447166E+02  9.937339E-01 -5.297644E+00  4.493677E-02 8.465470E+01 
 2.263187E-04 1.140306E+02  4.493677E-02 8.465470E+01  9.961451E-01 -5.357048E+00 
8.346875E+01  9.978626E-01 -5.377834E+00  1.732979E-05 1.463150E+02  2.968843E-04 8.194361E+01 
 1.732979E-05 1.463150E+02  9.942541E-01 -5.538505E+00  4.714828E-02 8.404884E+01 
 2.968843E-04 8.194361E+01  4.714828E-02 8.404884E+01  9.965516E-01 -5.609471E+00 
8.718750E+01  9.972600E-01 -5.674647E+00  1.311611E-04 7.076863E+01  3.185927E-04 8.302600E+01 
 1.311611E-04 7.076863E+01  9.932109E-01 -5.865707E+00  4.912724E-02 8.386683E+01 
 3.185927E-04 8.302600E+01  4.912724E-02 8.386683E+01  9.965009E-01 -5.877872E+00 
9.090625E+01  9.971339E-01 -5.913470E+00  6.533827E-05 1.501785E+02  3.559045E-04 9.119520E+01 
 6.533827E-05 1.501785E+02  9.926751E-01 -6.037369E+00  5.107495E-02 8.344416E+01 
 3.559045E-04 9.119520E+01  5.107495E-02 8.344416E+01  9.961820E-01 -6.187152E+00 
9.462500E+01  9.967637E-01 -6.129484E+00  1.247118E-04 2.017587E+01  3.757153E-04 6.518364E+01 
 1.247118E-04 2.017587E+01  9.919529E-01 -6.413486E+00  5.305817E-02 8.320894E+01 
 3.757153E-04 6.518364E+01  5.305817E-02 8.320894E+01  9.953053E-01 -6.482004E+00 
9.834375E+01  9.975361E-01 -6.333326E+00  6.970185E-05 9.159131E+01  3.624925E-04 6.360806E+01 
 6.970185E-05 9.159131E+01  9.918965E-01 -6.516890E+00  5.514780E-02 8.298427E+01 
 3.624925E-04 6.360806E+01  5.514780E-02 8.298427E+01  9.957939E-01 -6.615105E+00 
1.020625E+02  9.970376E-01 -6.584252E+00  1.063437E-04 1.071134E+02  4.339169E-04 7.640730E+01 
 1.063437E-04 1.071134E+02  9.914106E-01 -6.818851E+00  5.730040E-02 8.292408E+01 
 4.339169E-04 7.640730E+01  5.730040E-02 8.292408E+01  9.954544E-01 -6.931219E+00 
1.057812E+02  9.963389E-01 -6.840026E+00  5.475805E-05 1.262952E+02  3.487260E-04 1.093937E+02 
 5.475805E-05 1.262952E+02  9.905117E-01 -7.048008E+00  5.921003E-02 8.262493E+01 
 3.487260E-04 1.093937E+02  5.921003E-02 8.262493E+01  9.947992E-01 -7.188264E+00 
1.095000E+02  9.974401E-01 -7.053567E+00  1.132838E-04 5.258439E+01  4.181733E-04 7.969563E+01 
 1.132838E-04 5.258439E+01  9.905307E-01 -7.294361E+00  6.134782E-02 8.225320E+01 
 4.181733E-04 7.969563E+01  6.134782E-02 8.225320E+01  9.951712E-01 -7.408960E+00 
1.132188E+02  9.973447E-01 -7.290050E+00  8.439975E-05 1.155598E+02  3.548599E-04 8.119761E+01 
 8.439975E-05 1.155598E+02  9.903009E-01 -7.553651E+00  6.349295E-02 8.196406E+01 
 3.548599E-04 8.119761E+01  6.349295E-02 8.196406E+01  9.953786E-01 -7.672974E+00 
1.169375E+02  9.968878E-01 -7.515039E+00  1.077735E-04 9.044376E+01  3.772560E-04 8.187918E+01 
 1.077735E-04 9.044376E+01  9.896597E-01 -7.770254E+00  6.552586E-02 8.180022E+01 
 3.772560E-04 8.187918E+01  6.552586E-02 8.180022E+01  9.948741E-01 -7.890879E+00 
1.206562E+02  9.975116E-01 -7.808964E+00  3.954036E-05 9.013171E+01  3.780242E-04 7.456774E+01 
 3.954036E-05 9.013171E+01  9.894174E-01 -8.036202E+00  6.757015E-02 8.145709E+01 
 3.780242E-04 7.456774E+01  6.757015E-02 8.145709E+01  9.949465E-01 -8.172313E+00 
1.243750E+02  9.969761E-01 -8.017896E+00  8.851654E-05 5.893209E+01  4.582966E-04 7.600066E+01 
 8.851654E-05 5.893209E+01  9.889776E-01 -8.270841E+00  6.946916E-02 8.130251E+01 
 4.582966E-04 7.600066E+01  6.946916E-02 8.130251E+01  9.944732E-01 -8.414722E+00 
1.280938E+02  9.974808E-01 -8.271435E+00  7.759739E-05 5.395239E+01  4.035061E-04 7.785016E+01 
 7.759739E-05 5.395239E+01  9.891200E-01 -8.489962E+00  7.168258E-02 8.103947E+01 
 4.035061E-04 7.785016E+01  7.168258E-02 8.103947E+01  9.947662E-01 -8.634385E+00 
1.318125E+02  9.971103E-01 -8.531726E+00  9.265298E-05 6.627472E+01  5.047323E-04 7.313650E+01 
 9.265298E-05 6.627472E+01  9.887170E-01 -8.764375E+00  7.376909E-02 8.063049E+01 
 5.047323E-04 7.313650E+01  7.376909E-02 8.063049E+01  9.943710E-01 -8.930886E+00 
1.355312E+02  9.973118E-01 -8.759655E+00  8.741259E-05 8.818835E+01  4.615294E-04 8.772488E+01 
 8.741259E-05 8.818835E+01  9.889964E-01 -8.975907E+00  7.580109E-02 8.050272E+01 
 4.615294E-04 8.772488E+01  7.580109E-02 8.050272E+01  9.947817E-01 -9.139622E+00 
1.392500E+02  9.971473E-01 -8.975546E+00  8.108840E-05 1.055724E+02  4.839251E-04 8.197697E+01 
 8.108840E-05 1.055724E+02  9.889067E-01 -9.258343E+00  7.773713E-02 8.018632E+01 
 4.839251E-04 8.197697E+01  7.773713E-02 8.018632E+01  9.949370E-01 -9.413873E+00 
1.429688E+02  9.976068E-01 -9.231482E+00  9.786991E-05 9.471574E+01  5.584584E-04 8.172541E+01 
 9.786991E-05 9.471574E+01  9.884543E-01 -9.485247E+00  7.969977E-02 7.999418E+01 
 5.584584E-04 8.172541E+01  7.969977E-02 7.999418E+01  9.946488E-01 -9.657027E+00 
1.466875E+02  9.970839E-01 -9.435238E+00  9.121945E-05 8.023989E+01  5.462075E-04 7.934326E+01 
 9.121945E-05 8.023989E+01  9.882392E-01 -9.661239E+00  8.177540E-02 7.983681E+01 
 5.462075E-04 7.934326E+01  8.177540E-02 7.983681E+01  9.939985E-01 -9.862078E+00 
1.504062E+02  9.965680E-01 -9.714498E+00  1.495191E-04 1.027303E+02  5.406129E-04 7.257712E+01 
 1.495191E-04 1.027303E+02  9.880073E-01 -9.949275E+00  8.378155E-02 7.951155E+01 
 5.406129E-04 7.257712E+01  8.378155E-02 7.951155E+01  9.941378E-01 -1.014389E+01 
1.541250E+02  9.968012E-01 -9.955207E+00  1.245028E-04 1.025291E+02  5.368906E-04 8.161492E+01 
 1.245028E-04 1.025291E+02  9.882108E-01 -1.020736E+01  8.580574E-02 7.926378E+01 
 5.368906E-04 8.161492E+01  8.580574E-02 7.926378E+01  9.944063E-01 -1.042912E+01 
1.578438E+02  9.968807E-01 -1.024232E+01  9.804710E-05 8.038177E+01  5.594706E-04 7.896406E+01 
 9.804710E-05 8.038177E+01  9.880237E-01 -1.046153E+01  8.780533E-02 7.905588E+01 
 5.594706E-04 7.896406E+01  8.780533E-02 7.905588E+01  9.942493E-01 -1.069285E+01 
1.615625E+02  9.975165E-01 -1.041743E+01  1.669818E-04 7.790885E+01  6.582304E-04 7.993294E+01 
 1.669818E-04 7.790885E+01  9.890993E-01 -1.064704E+01  8.996256E-02 7.880063E+01 
 6.582304E-04 7.993294E+01  8.996256E-02 7.880063E+01  9.950481E-01 -1.088217E+01 
1.652812E+02  9.965966E-01 -1.071075E+01  1.050146E-04 1.050723E+02  5.845730E-04 7.492656E+01 
 1.050146E-04 1.050723E+02  9.877037E-01 -1.093044E+01  9.186012E-02 7.855240E+01 
 5.845730E-04 7.492656E+01  9.186012E-02 7.855240E+01  9.941200E-01 -1.118431E+01 
1.690000E+02  9.962157E-01 -1.094149E+01  7.823538E-05 8.361903E+01  6.471488E-04 7.591903E+01 
 7.823538E-05 8.361903E+01  9.870722E-01 -1.119371E+01  9.380775E-02 7.829655E+01 
 6.471488E-04 7.591903E+01  9.380775E-02 7.829655E+01  9.933258E-01 -1.141885E+01 
1.727188E+02  9.960405E-01 -1.116655E+01  9.515878E-05 8.004146E+01  6.402985E-04 7.930369E+01 
 9.515878E-05 8.004146E+01  9.873767E-01 -1.139556E+01  9.591824E-02 7.806676E+01 
 6.402985E-04 7.930369E+01  9.591824E-02 7.806676E+01  9.938311E-01 -1.167280E+01 
1.764375E+02  9.955472E-01 -1.141053E+01  5.450759E-05 1.018145E+02  6.527176E-04 7.594130E+01 
 5.450759E-05 1.018145E+02  9.866158E-01 -1.165763E+01  9.782829E-02 7.777398E+01 
 6.527176E-04 7.594130E+01  9.782829E-02 7.777398E+01  9.928372E-01 -1.192798E+01 
1.801562E+02  9.962337E-01 -1.166867E+01  1.644276E-04 8.806485E+01  6.196087E-04 7.453463E+01 
 1.644276E-04 8.806485E+01  9.871834E-01 -1.188787E+01  9.983315E-02 7.755746E+01 
 6.196087E-04 7.453463E+01  9.983315E-02 7.755746E+01  9.932279E-01 -1.220270E+01 
1.838750E+02  9.963346E-01 -1.193255E+01  8.138190E-05 9.477575E+01  6.848690E-04 7.635401E+01 
 8.138190E-05 9.477575E+01  9.873422E-01 -1.212728E+01  1.019694E-01 7.735219E+01 
 6.848690E-04 7.635401E+01  1.019694E-01 7.735219E+01  9.929611E-01 -1.246900E+01 
1.875938E+02  9.965191E-01 -1.215136E+01  1.674297E-04 9.632037E+01  6.427197E-04 7.541103E+01 
 1.674297E-04 9.632037E+01  9.875146E-01 -1.234082E+01  1.039922E-01 7.711420E+01 
 6.427197E-04 7.541103E+01  1.039922E-01 7.711420E+01  9.932510E-01 -1.270559E+01 
1.913125E+02  9.962887E-01 -1.243515E+01  1.087117E-04 9.066583E+01  6.959480E-04 7.463248E+01 
 1.087117E-04 9.066583E+01  9.877400E-01 -1.262425E+01  1.059193E-01 7.685477E+01 
 6.959480E-04 7.463248E+01  1.059193E-01 7.685477E+01  9.930279E-01 -1.298530E+01 
1.950312E+02  9.944478E-01 -1.260007E+01  1.138359E-04 9.188459E+01  7.422527E-04 7.827670E+01 
 1.138359E-04 9.188459E+01  9.848891E-01 -1.271906E+01  1.077101E-01 7.670920E+01 
 7.422527E-04 7.827670E+01  1.077101E-01 7.670920E+01  9.908858E-01 -1.316491E+01 
1.987500E+02  9.958788E-01 -1.284604E+01  1.316337E-04 9.133471E+01  7.312584E-04 7.765632E+01 
 1.316337E-04 9.133471E+01  9.860824E-01 -1.309280E+01  1.098642E-01 7.636935E+01 
 7.312584E-04 7.765632E+01  1.098642E-01 7.636935E+01  9.916463E-01 -1.347551E+01 
2.024688E+02  9.950533E-01 -1.310605E+01  1.242389E-04 9.743289E+01  8.189855E-04 7.696485E+01 
 1.242389E-04 9.743289E+01  9.843227E-01 -1.332367E+01  1.117708E-01 7.613825E+01 
 8.189855E-04 7.696485E+01  1.117708E-01 7.613825E+01  9.903873E-01 -1.372305E+01 
2.061875E+02  9.957293E-01 -1.341971E+01  1.188950E-04 1.053411E+02  7.948840E-04 7.608013E+01 
 1.188950E-04 1.053411E+02  9.850212E-01 -1.352455E+01  1.138062E-01 7.590113E+01 
 7.948840E-04 7.608013E+01  1.138062E-01 7.590113E+01  9.910948E-01 -1.395232E+01 
2.099062E+02  9.951769E-01 -1.349906E+01  1.254863E-04 1.216401E+02  7.392732E-04 7.768032E+01 
 1.254863E-04 1.216401E+02  9.881779E-01 -1.372672E+01  1.161080E-01 7.570490E+01 
 7.392732E-04 7.768032E+01  1.161080E-01 7.570490E+01  9.905480E-01 -1.404638E+01 
2.136250E+02  9.946522E-01 -1.382373E+01  1.518895E-04 1.051803E+02  7.554060E-04 6.918325E+01 
 1.518895E-04 1.051803E+02  9.848374E-01 -1.388651E+01  1.180397E-01 7.547158E+01 
 7.554060E-04 6.918325E+01  1.180397E-01 7.547158E+01  9.901247E-01 -1.445140E+01 
2.173438E+02  9.947265E-01 -1.411168E+01  1.388693E-04 1.047836E+02  7.889964E-04 7.564647E+01 
 1.388693E-04 1.047836E+02  9.851463E-01 -1.419065E+01  1.198745E-01 7.521048E+01 
 7.889964E-04 7.564647E+01  1.198745E-01 7.521048E+01  9.891885E-01 -1.474257E+01 
2.210625E+02  9.947168E-01 -1.429970E+01  1.663037E-04 8.872900E+01  7.792161E-04 7.436493E+01 
 1.663037E-04 8.872900E+01  9.843904E-01 -1.438999E+01  1.218242E-01 7.500103E+01 
 7.792161E-04 7.436493E+01  1.218242E-01 7.500103E+01  9.883757E-01 -1.490832E+01 
2.247812E+02  9.956223E-01 -1.453076E+01  1.436322E-04 1.034303E+02  7.774087E-04 7.473710E+01 
 1.436322E-04 1.034303E+02  9.839875E-01 -1.459681E+01  1.240012E-01 7.482245E+01 
 7.774087E-04 7.473710E+01  1.240012E-01 7.482245E+01  9.895498E-01 -1.515129E+01 
2.285000E+02  9.938220E-01 -1.479496E+01  1.428948E-04 9.904227E+01  7.290485E-04 7.926314E+01 
 1.428948E-04 9.904227E+01  9.831528E-01 -1.488716E+01  1.256979E-01 7.447649E+01 
 7.290485E-04 7.926314E+01  1.256979E-01 7.447649E+01  9.875589E-01 -1.548536E+01 
2.322188E+02  9.952237E-01 -1.497888E+01  1.247990E-04 1.022826E+02  8.332286E-04 7.658171E+01 
 1.247990E-04 1.022826E+02  9.838239E-01 -1.501606E+01  1.278627E-01 7.432966E+01 
 8.332286E-04 7.658171E+01  1.278627E-01 7.432966E+01  9.879071E-01 -1.567052E+01 
2.359375E+02  9.951023E-01 -1.525140E+01  1.394855E-04 9.582862E+01  8.568848E-04 7.603698E+01 
 1.394855E-04 9.582862E+01  9.841260E-01 -1.531952E+01  1.300185E-01 7.397398E+01 
 8.568848E-04 7.603698E+01  1.300185E-01 7.397398E+01  9.879840E-01 -1.592199E+01 
2.396562E+02  9.947123E-01 -1.549892E+01  1.199937E-04 7.676534E+01  9.249832E-04 7.021396E+01 
 1.199937E-04 7.676534E+01  9.835291E-01 -1.551147E+01  1.319695E-01 7.380003E+01 
 9.249832E-04 7.021396E+01  1.319695E-01 7.380003E+01  9.872594E-01 -1.614679E+01 
2.433750E+02  9.949939E-01 -1.578111E+01  1.366481E-04 9.973212E+01  8.506021E-04 7.286143E+01 
 1.366481E-04 9.973212E+01  9.835440E-01 -1.578903E+01  1.341428E-01 7.349947E+01 
 8.506021E-04 7.286143E+01  1.341428E-01 7.349947E+01  9.871170E-01 -1.643159E+01 
2.470938E+02  9.947808E-01 -1.596587E+01  1.658313E-04 8.759716E+01  8.770137E-04 7.184212E+01 
 1.658313E-04 8.759716E+01  9.830092E-01 -1.594554E+01  1.359278E-01 7.324903E+01 
 8.770137E-04 7.184212E+01  1.359278E-01 7.324903E+01  9.863213E-01 -1.662568E+01 
2.508125E+02  9.947501E-01 -1.616017E+01  1.554084E-04 1.001643E+02  8.757126E-04 7.288641E+01 
 1.554084E-04 1.001643E+02  9.827094E-01 -1.614163E+01  1.379921E-01 7.309881E+01 
 8.757126E-04 7.288641E+01  1.379921E-01 7.309881E+01  9.861295E-01 -1.683283E+01 
2.545312E+02  9.949181E-01 -1.642598E+01  1.448405E-04 9.948342E+01  8.998203E-04 7.243512E+01 
 1.448405E-04 9.948342E+01  9.823698E-01 -1.639163E+01  1.400345E-01 7.276111E+01 
 8.998203E-04 7.243512E+01  1.400345E-01 7.276111E+01  9.854755E-01 -1.713489E+01 
2.582500E+02  9.948624E-01 -1.660329E+01  1.640004E-04 1.071616E+02  9.048243E-04 7.461901E+01 
 1.640004E-04 1.071616E+02  9.821490E-01 -1.657215E+01  1.418943E-01 7.262675E+01 
 9.048243E-04 7.461901E+01  1.418943E-01 7.262675E+01  9.851113E-01 -1.729137E+01 
2.619688E+02  9.951348E-01 -1.686114E+01  1.246843E-04 9.080952E+01  9.148169E-04 7.347390E+01 
 1.246843E-04 9.080952E+01  9.821820E-01 -1.680747E+01  1.440285E-01 7.229981E+01 
 9.148169E-04 7.347390E+01  1.440285E-01 7.229981E+01  9.855775E-01 -1.755823E+01 
2.656875E+02  9.950473E-01 -1.707466E+01  1.726646E-04 9.651735E+01  9.061117E-04 7.103475E+01 
 1.726646E-04 9.651735E+01  9.817618E-01 -1.703445E+01  1.458842E-01 7.207875E+01 
 9.061117E-04 7.103475E+01  1.458842E-01 7.207875E+01  9.848448E-01 -1.777455E+01 
2.694062E+02  9.948120E-01 -1.728152E+01  1.567064E-04 9.801398E+01  9.075635E-04 6.965763E+01 
 1.567064E-04 9.801398E+01  9.816279E-01 -1.721952E+01  1.480103E-01 7.185441E+01 
 9.075635E-04 6.965763E+01  1.480103E-01 7.185441E+01  9.843389E-01 -1.799272E+01 
2.731250E+02  9.943899E-01 -1.751768E+01  1.696497E-04 9.554275E+01  9.006531E-04 7.007040E+01 
 1.696497E-04 9.554275E+01  9.809413E-01 -1.740992E+01  1.498231E-01 7.157486E+01 
 9.006531E-04 7.007040E+01  1.498231E-01 7.157486E+01  9.833784E-01 -1.821467E+01 
2.768438E+02  9.947978E-01 -1.774996E+01  1.750333E-04 9.669576E+01  9.263250E-04 6.961266E+01 
 1.750333E-04 9.669576E+01  9.813638E-01 -1.767064E+01  1.517934E-01 7.132395E+01 
 9.263250E-04 6.961266E+01  1.517934E-01 7.132395E+01  9.835136E-01 -1.848456E+01 
2.805625E+02  9.946811E-01 -1.801673E+01  1.439701E-04 9.749485E+01  9.619299E-04 7.012783E+01 
 1.439701E-04 9.749485E+01  9.808385E-01 -1.793903E+01  1.537767E-01 7.102639E+01 
 9.619299E-04 7.012783E+01  1.537767E-01 7.102639E+01  9.834801E-01 -1.875341E+01 
2.842812E+02  9.949768E-01 -1.823952E+01  1.846950E-04 9.817689E+01  1.004690E-03 7.148324E+01 
 1.846950E-04 9.817689E+01  9.805634E-01 -1.812546E+01  1.557369E-01 7.083723E+01 
 1.004690E-03 7.148324E+01  1.557369E-01 7.083723E+01  9.832178E-01 -1.892569E+01 
2.880000E+02  9.950031E-01 -1.849220E+01  1.673070E-04 9.655765E+01  9.969453E-04 7.084567E+01 
 1.673070E-04 9.655765E+01  9.802683E-01 -1.837132E+01  1.577151E-01 7.055651E+01 
 9.969453E-04 7.084567E+01  1.577151E-01 7.055651E+01  9.831712E-01 -1.922525E+01 
2.917188E+02  9.946596E-01 -1.869184E+01  1.659868E-04 9.734334E+01  1.042586E-03 6.919440E+01 
 1.659868E-04 9.734334E+01  9.796936E-01 -1.860851E+01  1.595439E-01 7.031313E+01 
 1.042586E-03 6.919440E+01  1.595439E-01 7.031313E+01  9.820799E-01 -1.942885E+01 
2.954375E+02  9.950858E-01 -1.895647E+01  1.882180E-04 1.004247E+02  1.016373E-03 6.954290E+01 
 1.882180E-04 1.004247E+02  9.794794E-01 -1.885620E+01  1.616365E-01 7.004919E+01 
 1.016373E-03 6.954290E+01  1.616365E-01 7.004919E+01  9.822072E-01 -1.968473E+01 
2.991562E+02  9.943467E-01 -1.918854E+01  1.811995E-04 9.781880E+01  1.018300E-03 6.795490E+01 
 1.811995E-04 9.781880E+01  9.786577E-01 -1.904321E+01  1.634308E-01 6.979047E+01 
 1.018300E-03 6.795490E+01  1.634308E-01 6.979047E+01  9.812425E-01 -1.991093E+01 
3.028750E+02  9.945775E-01 -1.943583E+01  1.890437E-04 1.017633E+02  1.039356E-03 7.113300E+01 
 1.890437E-04 1.017633E+02  9.788159E-01 -1.932282E+01  1.654269E-01 6.953569E+01 
 1.039356E-03 7.113300E+01  1.654269E-01 6.953569E+01  9.813868E-01 -2.015009E+01 
3.065938E+02  9.940583E-01 -1.969600E+01  2.008681E-04 1.007158E+02  1.057428E-03 6.973096E+01 
 2.008681E-04 1.007158E+02  9.781754E-01 -1.958857E+01  1.672658E-01 6.923806E+01 
 1.057428E-03 6.973096E+01  1.672658E-01 6.923806E+01  9.810959E-01 -2.044789E+01 
3.103125E+02  9.935646E-01 -1.987500E+01  2.169281E-04 1.056229E+02  1.072228E-03 7.153160E+01 
 2.169281E-04 1.056229E+02  9.776397E-01 -1.975190E+01  1.691154E-01 6.906824E+01 
 1.072228E-03 7.153160E+01  1.691154E-01 6.906824E+01  9.804242E-01 -2.063610E+01 
3.140312E+02  9.938703E-01 -2.012977E+01  1.922766E-04 1.009607E+02  1.087778E-03 6.850526E+01 
 1.922766E-04 1.009607E+02  9.770991E-01 -2.002392E+01  1.710796E-01 6.877892E+01 
 1.087778E-03 6.850526E+01  1.710796E-01 6.877892E+01  9.801851E-01 -2.088437E+01 
3.177500E+02  9.936765E-01 -2.034269E+01  2.218325E-04 1.016326E+02  1.153420E-03 6.994651E+01 
 2.218325E-04 1.016326E+02  9.760395E-01 -2.027281E+01  1.728475E-01 6.853964E+01 
 1.153420E-03 6.994651E+01  1.728475E-01 6.853964E+01  9.795459E-01 -2.111712E+01 
3.214688E+02  9.950168E-01 -2.065570E+01  2.352541E-04 9.377384E+01  1.088892E-03 6.811257E+01 
 2.352541E-04 9.377384E+01  9.763050E-01 -2.055258E+01  1.748776E-01 6.825756E+01 
 1.088892E-03 6.811257E+01  1.748776E-01 6.825756E+01  9.803266E-01 -2.141201E+01 
3.251875E+02  9.930616E-01 -2.087795E+01  1.964531E-04 1.046948E+02  1.137055E-03 6.911043E+01 
