! Matrix data file written by TouchstoneData, EPCOS AG
! FILENAME: "B4154_NB.s3p"
! COMMENT: "(B4154_SAWi_NB.s3p) EPCOS AG 19.02.2010 14:2"
! INFO: nport=3, nfreq=1601
! DATE: "Fri Feb 19 14:20:23 2010"
! USER: "Aleksander Breg"
!
! port | pin | signal
! -----|-----|--------
!   1  |  2  |  input
!   2  |  4  |  output
!   3  |  6  |  output
! --------------------
! 
# MHZ S MA R 50
! freq  magS11 angS11  magS12 angS12  magS13 angS13  ...
1.760000E+03  8.968684E-01 -1.169796E+02  2.012912E-03 2.175829E+01  3.638855E-03 -2.319495E+01 
 2.012912E-03 2.175829E+01  6.743019E-01 -9.301533E+01  6.457699E-01 -9.186013E+00 
 3.638855E-03 -2.319495E+01  6.457699E-01 -9.186013E+00  6.790155E-01 -9.779588E+01 
1.760250E+03  8.971315E-01 -1.170500E+02  2.034246E-03 2.190386E+01  3.666872E-03 -2.334021E+01 
 2.034246E-03 2.190386E+01  6.739411E-01 -9.303868E+01  6.461922E-01 -9.237055E+00 
 3.666872E-03 -2.334021E+01  6.461922E-01 -9.237055E+00  6.786147E-01 -9.784782E+01 
1.760500E+03  8.972260E-01 -1.171195E+02  2.067310E-03 2.175474E+01  3.668443E-03 -2.340473E+01 
 2.067310E-03 2.175474E+01  6.733881E-01 -9.306006E+01  6.463627E-01 -9.289376E+00 
 3.668443E-03 -2.340473E+01  6.463627E-01 -9.289376E+00  6.781020E-01 -9.786806E+01 
1.760750E+03  8.969453E-01 -1.172022E+02  2.100567E-03 2.183773E+01  3.692905E-03 -2.337502E+01 
 2.100567E-03 2.183773E+01  6.728651E-01 -9.308972E+01  6.465528E-01 -9.346995E+00 
 3.692905E-03 -2.337502E+01  6.465528E-01 -9.346995E+00  6.776631E-01 -9.787620E+01 
1.761000E+03  8.968044E-01 -1.172894E+02  2.118326E-03 2.146741E+01  3.715266E-03 -2.332458E+01 
 2.118326E-03 2.146741E+01  6.722989E-01 -9.308900E+01  6.466395E-01 -9.408080E+00 
 3.715266E-03 -2.332458E+01  6.466395E-01 -9.408080E+00  6.771267E-01 -9.789135E+01 
1.761250E+03  8.964908E-01 -1.173828E+02  2.168764E-03 2.119898E+01  3.726977E-03 -2.364450E+01 
 2.168764E-03 2.119898E+01  6.717575E-01 -9.308665E+01  6.465010E-01 -9.463519E+00 
 3.726977E-03 -2.364450E+01  6.465010E-01 -9.463519E+00  6.765975E-01 -9.788580E+01 
1.761500E+03  8.958175E-01 -1.174745E+02  2.191315E-03 2.075716E+01  3.739815E-03 -2.378697E+01 
 2.191315E-03 2.075716E+01  6.714520E-01 -9.307462E+01  6.463654E-01 -9.515203E+00 
 3.739815E-03 -2.378697E+01  6.463654E-01 -9.515203E+00  6.761489E-01 -9.787696E+01 
1.761750E+03  8.950997E-01 -1.175523E+02  2.232516E-03 1.981030E+01  3.757103E-03 -2.411832E+01 
 2.232516E-03 1.981030E+01  6.709485E-01 -9.303860E+01  6.459674E-01 -9.556407E+00 
 3.757103E-03 -2.411832E+01  6.459674E-01 -9.556407E+00  6.757269E-01 -9.786039E+01 
1.762000E+03  8.941164E-01 -1.176468E+02  2.250910E-03 1.890578E+01  3.772418E-03 -2.437137E+01 
 2.250910E-03 1.890578E+01  6.708743E-01 -9.303250E+01  6.457038E-01 -9.591245E+00 
 3.772418E-03 -2.437137E+01  6.457038E-01 -9.591245E+00  6.756483E-01 -9.783694E+01 
1.762250E+03  8.930348E-01 -1.177202E+02  2.290935E-03 1.796080E+01  3.798237E-03 -2.496447E+01 
 2.290935E-03 1.796080E+01  6.707211E-01 -9.299918E+01  6.453649E-01 -9.612836E+00 
 3.798237E-03 -2.496447E+01  6.453649E-01 -9.612836E+00  6.754772E-01 -9.783565E+01 
1.762500E+03  8.917666E-01 -1.177687E+02  2.306531E-03 1.618813E+01  3.786762E-03 -2.537539E+01 
 2.306531E-03 1.618813E+01  6.708919E-01 -9.298809E+01  6.450707E-01 -9.617381E+00 
 3.786762E-03 -2.537539E+01  6.450707E-01 -9.617381E+00  6.755552E-01 -9.781774E+01 
1.762750E+03  8.902033E-01 -1.178123E+02  2.312151E-03 1.427554E+01  3.778660E-03 -2.561775E+01 
 2.312151E-03 1.427554E+01  6.709771E-01 -9.296948E+01  6.446752E-01 -9.620025E+00 
 3.778660E-03 -2.561775E+01  6.446752E-01 -9.620025E+00  6.756288E-01 -9.781172E+01 
1.763000E+03  8.889120E-01 -1.178253E+02  2.289697E-03 1.319545E+01  3.779299E-03 -2.585941E+01 
 2.289697E-03 1.319545E+01  6.711644E-01 -9.296937E+01  6.445245E-01 -9.611058E+00 
 3.779299E-03 -2.585941E+01  6.445245E-01 -9.611058E+00  6.758641E-01 -9.782010E+01 
1.763250E+03  8.877441E-01 -1.178143E+02  2.253006E-03 1.222205E+01  3.768641E-03 -2.625286E+01 
 2.253006E-03 1.222205E+01  6.713427E-01 -9.298059E+01  6.444259E-01 -9.592461E+00 
 3.768641E-03 -2.625286E+01  6.444259E-01 -9.592461E+00  6.760876E-01 -9.783603E+01 
1.763500E+03  8.868864E-01 -1.177855E+02  2.233800E-03 1.119860E+01  3.749258E-03 -2.688794E+01 
 2.233800E-03 1.119860E+01  6.716917E-01 -9.299804E+01  6.446210E-01 -9.571381E+00 
 3.749258E-03 -2.688794E+01  6.446210E-01 -9.571381E+00  6.763578E-01 -9.786492E+01 
1.763750E+03  8.862911E-01 -1.177392E+02  2.201965E-03 1.036193E+01  3.730980E-03 -2.702741E+01 
 2.201965E-03 1.036193E+01  6.718177E-01 -9.303541E+01  6.448503E-01 -9.555143E+00 
 3.730980E-03 -2.702741E+01  6.448503E-01 -9.555143E+00  6.764300E-01 -9.790637E+01 
1.764000E+03  8.861998E-01 -1.177033E+02  2.161352E-03 9.450815E+00  3.700737E-03 -2.734605E+01 
 2.161352E-03 9.450815E+00  6.719292E-01 -9.307214E+01  6.452698E-01 -9.547975E+00 
 3.700737E-03 -2.734605E+01  6.452698E-01 -9.547975E+00  6.765039E-01 -9.795737E+01 
1.764250E+03  8.862995E-01 -1.176826E+02  2.088546E-03 9.390741E+00  3.682893E-03 -2.740050E+01 
 2.088546E-03 9.390741E+00  6.718515E-01 -9.312421E+01  6.456532E-01 -9.554853E+00 
 3.682893E-03 -2.740050E+01  6.456532E-01 -9.554853E+00  6.762906E-01 -9.800842E+01 
1.764500E+03  8.868662E-01 -1.176506E+02  2.045508E-03 1.001673E+01  3.649477E-03 -2.730273E+01 
 2.045508E-03 1.001673E+01  6.717638E-01 -9.318004E+01  6.461023E-01 -9.578419E+00 
 3.649477E-03 -2.730273E+01  6.461023E-01 -9.578419E+00  6.759872E-01 -9.805614E+01 
1.764750E+03  8.874670E-01 -1.176581E+02  2.018430E-03 1.065783E+01  3.632211E-03 -2.740026E+01 
 2.018430E-03 1.065783E+01  6.715401E-01 -9.323356E+01  6.465220E-01 -9.601956E+00 
 3.632211E-03 -2.740026E+01  6.465220E-01 -9.601956E+00  6.756241E-01 -9.809621E+01 
1.765000E+03  8.882025E-01 -1.176685E+02  2.016468E-03 1.177277E+01  3.596538E-03 -2.730628E+01 
 2.016468E-03 1.177277E+01  6.710855E-01 -9.327657E+01  6.469577E-01 -9.637413E+00 
 3.596538E-03 -2.730628E+01  6.469577E-01 -9.637413E+00  6.751753E-01 -9.813823E+01 
1.765250E+03  8.892919E-01 -1.177096E+02  2.014081E-03 1.229216E+01  3.560969E-03 -2.669545E+01 
 2.014081E-03 1.229216E+01  6.706365E-01 -9.332126E+01  6.473903E-01 -9.680934E+00 
 3.560969E-03 -2.669545E+01  6.473903E-01 -9.680934E+00  6.747253E-01 -9.816520E+01 
1.765500E+03  8.898631E-01 -1.177571E+02  1.994745E-03 1.300803E+01  3.550830E-03 -2.591367E+01 
 1.994745E-03 1.300803E+01  6.701566E-01 -9.335367E+01  6.476948E-01 -9.730391E+00 
 3.550830E-03 -2.591367E+01  6.476948E-01 -9.730391E+00  6.742190E-01 -9.818739E+01 
1.765750E+03  8.904907E-01 -1.178352E+02  2.012187E-03 1.451806E+01  3.564606E-03 -2.555927E+01 
 2.012187E-03 1.451806E+01  6.695958E-01 -9.337399E+01  6.479151E-01 -9.770403E+00 
 3.564606E-03 -2.555927E+01  6.479151E-01 -9.770403E+00  6.737375E-01 -9.819912E+01 
1.766000E+03  8.909798E-01 -1.179160E+02  2.047448E-03 1.532198E+01  3.572173E-03 -2.528345E+01 
 2.047448E-03 1.532198E+01  6.691250E-01 -9.339713E+01  6.481930E-01 -9.823624E+00 
 3.572173E-03 -2.528345E+01  6.481930E-01 -9.823624E+00  6.733012E-01 -9.820589E+01 
1.766250E+03  8.911712E-01 -1.180035E+02  2.108527E-03 1.583560E+01  3.586660E-03 -2.494800E+01 
 2.108527E-03 1.583560E+01  6.684843E-01 -9.340456E+01  6.482659E-01 -9.875587E+00 
 3.586660E-03 -2.494800E+01  6.482659E-01 -9.875587E+00  6.728263E-01 -9.821478E+01 
1.766500E+03  8.914016E-01 -1.180853E+02  2.145709E-03 1.552153E+01  3.631287E-03 -2.443810E+01 
 2.145709E-03 1.552153E+01  6.677319E-01 -9.341625E+01  6.483090E-01 -9.937115E+00 
 3.631287E-03 -2.443810E+01  6.483090E-01 -9.937115E+00  6.723978E-01 -9.823310E+01 
1.766750E+03  8.912359E-01 -1.181775E+02  2.198406E-03 1.520194E+01  3.651870E-03 -2.463026E+01 
 2.198406E-03 1.520194E+01  6.671752E-01 -9.340624E+01  6.483402E-01 -9.988528E+00 
 3.651870E-03 -2.463026E+01  6.483402E-01 -9.988528E+00  6.719477E-01 -9.823026E+01 
1.767000E+03  8.910180E-01 -1.182832E+02  2.233489E-03 1.470217E+01  3.677572E-03 -2.461054E+01 
 2.233489E-03 1.470217E+01  6.666437E-01 -9.339513E+01  6.482700E-01 -1.005151E+01 
 3.677572E-03 -2.461054E+01  6.482700E-01 -1.005151E+01  6.715638E-01 -9.822439E+01 
1.767250E+03  8.903402E-01 -1.183693E+02  2.279499E-03 1.408302E+01  3.715127E-03 -2.495394E+01 
 2.279499E-03 1.408302E+01  6.661847E-01 -9.337683E+01  6.479444E-01 -1.009975E+01 
 3.715127E-03 -2.495394E+01  6.479444E-01 -1.009975E+01  6.710525E-01 -9.820727E+01 
1.767500E+03  8.899128E-01 -1.184462E+02  2.286895E-03 1.298468E+01  3.705957E-03 -2.521767E+01 
 2.286895E-03 1.298468E+01  6.658196E-01 -9.334433E+01  6.475445E-01 -1.014039E+01 
 3.705957E-03 -2.521767E+01  6.475445E-01 -1.014039E+01  6.707833E-01 -9.818099E+01 
1.767750E+03  8.892160E-01 -1.185284E+02  2.319273E-03 1.224497E+01  3.725879E-03 -2.553484E+01 
 2.319273E-03 1.224497E+01  6.657284E-01 -9.330024E+01  6.472210E-01 -1.016170E+01 
 3.725879E-03 -2.553484E+01  6.472210E-01 -1.016170E+01  6.707955E-01 -9.815741E+01 
1.768000E+03  8.884464E-01 -1.186039E+02  2.327706E-03 1.114013E+01  3.729990E-03 -2.546935E+01 
 2.327706E-03 1.114013E+01  6.657897E-01 -9.328191E+01  6.468221E-01 -1.017814E+01 
 3.729990E-03 -2.546935E+01  6.468221E-01 -1.017814E+01  6.707957E-01 -9.814792E+01 
1.768250E+03  8.874494E-01 -1.186704E+02  2.341405E-03 1.037549E+01  3.748033E-03 -2.574815E+01 
 2.341405E-03 1.037549E+01  6.660341E-01 -9.325693E+01  6.466071E-01 -1.017802E+01 
 3.748033E-03 -2.574815E+01  6.466071E-01 -1.017802E+01  6.709636E-01 -9.814658E+01 
1.768500E+03  8.864723E-01 -1.187367E+02  2.337691E-03 9.284863E+00  3.744825E-03 -2.586577E+01 
 2.337691E-03 9.284863E+00  6.661833E-01 -9.325768E+01  6.464272E-01 -1.016934E+01 
 3.744825E-03 -2.586577E+01  6.464272E-01 -1.016934E+01  6.711543E-01 -9.813903E+01 
1.768750E+03  8.854763E-01 -1.187828E+02  2.359702E-03 8.406229E+00  3.775717E-03 -2.631356E+01 
 2.359702E-03 8.406229E+00  6.664285E-01 -9.327660E+01  6.464321E-01 -1.016057E+01 
 3.775717E-03 -2.631356E+01  6.464321E-01 -1.016057E+01  6.712989E-01 -9.816754E+01 
1.769000E+03  8.841988E-01 -1.188267E+02  2.340740E-03 7.178157E+00  3.781132E-03 -2.665633E+01 
 2.340740E-03 7.178157E+00  6.666528E-01 -9.330217E+01  6.465940E-01 -1.015554E+01 
 3.781132E-03 -2.665633E+01  6.465940E-01 -1.015554E+01  6.714531E-01 -9.818563E+01 
1.769250E+03  8.829407E-01 -1.188587E+02  2.346538E-03 5.885069E+00  3.773393E-03 -2.713526E+01 
 2.346538E-03 5.885069E+00  6.667235E-01 -9.332548E+01  6.467569E-01 -1.015197E+01 
 3.773393E-03 -2.713526E+01  6.467569E-01 -1.015197E+01  6.715730E-01 -9.821208E+01 
1.769500E+03  8.817880E-01 -1.188680E+02  2.318190E-03 4.924504E+00  3.766485E-03 -2.723035E+01 
 2.318190E-03 4.924504E+00  6.666561E-01 -9.336128E+01  6.468828E-01 -1.015665E+01 
 3.766485E-03 -2.723035E+01  6.468828E-01 -1.015665E+01  6.715046E-01 -9.824997E+01 
1.769750E+03  8.806083E-01 -1.188679E+02  2.292721E-03 4.006863E+00  3.772979E-03 -2.794586E+01 
 2.292721E-03 4.006863E+00  6.666908E-01 -9.339882E+01  6.471711E-01 -1.015131E+01 
 3.772979E-03 -2.794586E+01  6.471711E-01 -1.015131E+01  6.715764E-01 -9.826831E+01 
1.770000E+03  8.795680E-01 -1.188464E+02  2.291393E-03 3.261833E+00  3.753666E-03 -2.838498E+01 
 2.291393E-03 3.261833E+00  6.665641E-01 -9.342968E+01  6.474377E-01 -1.016571E+01 
 3.753666E-03 -2.838498E+01  6.474377E-01 -1.016571E+01  6.714159E-01 -9.832651E+01 
1.770250E+03  8.787173E-01 -1.187940E+02  2.230256E-03 2.855878E+00  3.721393E-03 -2.858213E+01 
 2.230256E-03 2.855878E+00  6.665483E-01 -9.347067E+01  6.478490E-01 -1.017024E+01 
 3.721393E-03 -2.858213E+01  6.478490E-01 -1.017024E+01  6.713492E-01 -9.836884E+01 
1.770500E+03  8.786454E-01 -1.187254E+02  2.193746E-03 2.169177E+00  3.684166E-03 -2.858416E+01 
 2.193746E-03 2.169177E+00  6.664084E-01 -9.351557E+01  6.483208E-01 -1.019081E+01 
 3.684166E-03 -2.858416E+01  6.483208E-01 -1.019081E+01  6.710882E-01 -9.842111E+01 
1.770750E+03  8.787712E-01 -1.186865E+02  2.154010E-03 2.476330E+00  3.681602E-03 -2.889129E+01 
 2.154010E-03 2.476330E+00  6.661025E-01 -9.356793E+01  6.487920E-01 -1.021639E+01 
 3.681602E-03 -2.889129E+01  6.487920E-01 -1.021639E+01  6.706727E-01 -9.847479E+01 
1.771000E+03  8.795323E-01 -1.186515E+02  2.134216E-03 2.676320E+00  3.643721E-03 -2.909954E+01 
 2.134216E-03 2.676320E+00  6.657702E-01 -9.361522E+01  6.491790E-01 -1.025862E+01 
 3.643721E-03 -2.909954E+01  6.491790E-01 -1.025862E+01  6.701709E-01 -9.851058E+01 
1.771250E+03  8.803808E-01 -1.186411E+02  2.099008E-03 2.719812E+00  3.602921E-03 -2.871528E+01 
 2.099008E-03 2.719812E+00  6.653214E-01 -9.364851E+01  6.496057E-01 -1.030275E+01 
 3.602921E-03 -2.871528E+01  6.496057E-01 -1.030275E+01  6.696268E-01 -9.855914E+01 
1.771500E+03  8.814589E-01 -1.186632E+02  2.064204E-03 3.497312E+00  3.594889E-03 -2.848551E+01 
 2.064204E-03 3.497312E+00  6.647773E-01 -9.369277E+01  6.500187E-01 -1.035306E+01 
 3.594889E-03 -2.848551E+01  6.500187E-01 -1.035306E+01  6.690659E-01 -9.857193E+01 
1.771750E+03  8.825935E-01 -1.187021E+02  2.079625E-03 4.288394E+00  3.574036E-03 -2.822384E+01 
 2.079625E-03 4.288394E+00  6.640773E-01 -9.371579E+01  6.501964E-01 -1.041671E+01 
 3.574036E-03 -2.822384E+01  6.501964E-01 -1.041671E+01  6.682424E-01 -9.859534E+01 
1.772000E+03  8.833530E-01 -1.187693E+02  2.079605E-03 4.917560E+00  3.566882E-03 -2.766389E+01 
 2.079605E-03 4.917560E+00  6.634661E-01 -9.374449E+01  6.503259E-01 -1.048410E+01 
 3.566882E-03 -2.766389E+01  6.503259E-01 -1.048410E+01  6.675904E-01 -9.859894E+01 
1.772250E+03  8.842616E-01 -1.188403E+02  2.082170E-03 5.795148E+00  3.546763E-03 -2.754219E+01 
 2.082170E-03 5.795148E+00  6.626210E-01 -9.373986E+01  6.503547E-01 -1.053958E+01 
 3.546763E-03 -2.754219E+01  6.503547E-01 -1.053958E+01  6.671380E-01 -9.860414E+01 
1.772500E+03  8.847464E-01 -1.189402E+02  2.101121E-03 6.671412E+00  3.554266E-03 -2.732739E+01 
 2.101121E-03 6.671412E+00  6.619479E-01 -9.375819E+01  6.503027E-01 -1.061150E+01 
 3.554266E-03 -2.732739E+01  6.503027E-01 -1.061150E+01  6.664405E-01 -9.858926E+01 
1.772750E+03  8.849559E-01 -1.190653E+02  2.144069E-03 7.006093E+00  3.548305E-03 -2.668830E+01 
 2.144069E-03 7.006093E+00  6.613579E-01 -9.372427E+01  6.500301E-01 -1.067039E+01 
 3.548305E-03 -2.668830E+01  6.500301E-01 -1.067039E+01  6.659314E-01 -9.858055E+01 
1.773000E+03  8.851350E-01 -1.191610E+02  2.164205E-03 6.751979E+00  3.578988E-03 -2.597995E+01 
 2.164205E-03 6.751979E+00  6.608713E-01 -9.368379E+01  6.497305E-01 -1.071639E+01 
 3.578988E-03 -2.597995E+01  6.497305E-01 -1.071639E+01  6.656142E-01 -9.855110E+01 
1.773250E+03  8.850313E-01 -1.192683E+02  2.207226E-03 6.975494E+00  3.616004E-03 -2.572886E+01 
 2.207226E-03 6.975494E+00  6.604799E-01 -9.366146E+01  6.492527E-01 -1.076797E+01 
 3.616004E-03 -2.572886E+01  6.492527E-01 -1.076797E+01  6.653037E-01 -9.852475E+01 
1.773500E+03  8.844495E-01 -1.193755E+02  2.248108E-03 6.410276E+00  3.634894E-03 -2.543064E+01 
 2.248108E-03 6.410276E+00  6.602335E-01 -9.363132E+01  6.487751E-01 -1.079204E+01 
 3.634894E-03 -2.543064E+01  6.487751E-01 -1.079204E+01  6.652053E-01 -9.848263E+01 
1.773750E+03  8.837424E-01 -1.194855E+02  2.291913E-03 5.513981E+00  3.671748E-03 -2.550192E+01 
 2.291913E-03 5.513981E+00  6.601168E-01 -9.358551E+01  6.482935E-01 -1.081094E+01 
 3.671748E-03 -2.550192E+01  6.482935E-01 -1.081094E+01  6.653203E-01 -9.846166E+01 
1.774000E+03  8.827121E-01 -1.195946E+02  2.326339E-03 4.670528E+00  3.693270E-03 -2.581598E+01 
 2.326339E-03 4.670528E+00  6.600686E-01 -9.354824E+01  6.477678E-01 -1.080033E+01 
 3.693270E-03 -2.581598E+01  6.477678E-01 -1.080033E+01  6.655896E-01 -9.843551E+01 
1.774250E+03  8.814126E-01 -1.196840E+02  2.342081E-03 3.641072E+00  3.714371E-03 -2.563507E+01 
 2.342081E-03 3.641072E+00  6.604151E-01 -9.351413E+01  6.474201E-01 -1.078738E+01 
 3.714371E-03 -2.563507E+01  6.474201E-01 -1.078738E+01  6.658199E-01 -9.843442E+01 
1.774500E+03  8.800894E-01 -1.197526E+02  2.358089E-03 2.356826E+00  3.752906E-03 -2.605218E+01 
 2.358089E-03 2.356826E+00  6.607377E-01 -9.350649E+01  6.473017E-01 -1.076231E+01 
 3.752906E-03 -2.605218E+01  6.473017E-01 -1.076231E+01  6.663148E-01 -9.845045E+01 
1.774750E+03  8.786884E-01 -1.198124E+02  2.377026E-03 8.387556E-01  3.754019E-03 -2.651192E+01 
 2.377026E-03 8.387556E-01  6.612081E-01 -9.351131E+01  6.473224E-01 -1.073335E+01 
 3.754019E-03 -2.651192E+01  6.473224E-01 -1.073335E+01  6.666790E-01 -9.847891E+01 
1.775000E+03  8.772428E-01 -1.198394E+02  2.337057E-03 -4.021251E-01  3.802525E-03 -2.682138E+01 
 2.337057E-03 -4.021251E-01  6.616695E-01 -9.352322E+01  6.475581E-01 -1.070268E+01 
 3.802525E-03 -2.682138E+01  6.475581E-01 -1.070268E+01  6.669263E-01 -9.852477E+01 
1.775250E+03  8.757692E-01 -1.198604E+02  2.331845E-03 -1.561156E+00  3.802955E-03 -2.749910E+01 
 2.331845E-03 -1.561156E+00  6.619795E-01 -9.355099E+01  6.478788E-01 -1.068353E+01 
 3.802955E-03 -2.749910E+01  6.478788E-01 -1.068353E+01  6.670538E-01 -9.858321E+01 
1.775500E+03  8.746552E-01 -1.198613E+02  2.313967E-03 -2.761031E+00  3.791754E-03 -2.771609E+01 
 2.313967E-03 -2.761031E+00  6.621674E-01 -9.360100E+01  6.483307E-01 -1.067545E+01 
 3.791754E-03 -2.771609E+01  6.483307E-01 -1.067545E+01  6.669214E-01 -9.862878E+01 
1.775750E+03  8.735209E-01 -1.198454E+02  2.265493E-03 -3.339351E+00  3.798172E-03 -2.826749E+01 
 2.265493E-03 -3.339351E+00  6.623098E-01 -9.366240E+01  6.488844E-01 -1.068316E+01 
 3.798172E-03 -2.826749E+01  6.488844E-01 -1.068316E+01  6.668531E-01 -9.868482E+01 
1.776000E+03  8.727179E-01 -1.198284E+02  2.252179E-03 -4.233594E+00  3.768575E-03 -2.866626E+01 
 2.252179E-03 -4.233594E+00  6.621994E-01 -9.371359E+01  6.494173E-01 -1.069239E+01 
 3.768575E-03 -2.866626E+01  6.494173E-01 -1.069239E+01  6.665784E-01 -9.873284E+01 
1.776250E+03  8.717444E-01 -1.197975E+02  2.187371E-03 -4.692446E+00  3.767874E-03 -2.923498E+01 
 2.187371E-03 -4.692446E+00  6.619184E-01 -9.376674E+01  6.499798E-01 -1.071651E+01 
 3.767874E-03 -2.923498E+01  6.499798E-01 -1.071651E+01  6.662934E-01 -9.878876E+01 
1.776500E+03  8.711910E-01 -1.197823E+02  2.180481E-03 -4.919224E+00  3.745758E-03 -2.959986E+01 
 2.180481E-03 -4.919224E+00  6.614321E-01 -9.382925E+01  6.504195E-01 -1.076184E+01 
 3.745758E-03 -2.959986E+01  6.504195E-01 -1.076184E+01  6.656725E-01 -9.883630E+01 
1.776750E+03  8.707724E-01 -1.197229E+02  2.152511E-03 -5.081117E+00  3.702077E-03 -2.985670E+01 
 2.152511E-03 -5.081117E+00  6.610441E-01 -9.387095E+01  6.509739E-01 -1.080173E+01 
 3.702077E-03 -2.985670E+01  6.509739E-01 -1.080173E+01  6.650950E-01 -9.887757E+01 
1.777000E+03  8.707313E-01 -1.196726E+02  2.088507E-03 -5.423642E+00  3.671517E-03 -3.019565E+01 
 2.088507E-03 -5.423642E+00  6.604585E-01 -9.391329E+01  6.514366E-01 -1.085584E+01 
 3.671517E-03 -3.019565E+01  6.514366E-01 -1.085584E+01  6.645239E-01 -9.890164E+01 
1.777250E+03  8.710296E-01 -1.196252E+02  2.062647E-03 -5.067075E+00  3.613677E-03 -2.988222E+01 
 2.062647E-03 -5.067075E+00  6.597724E-01 -9.395139E+01  6.517435E-01 -1.091385E+01 
 3.613677E-03 -2.988222E+01  6.517435E-01 -1.091385E+01  6.639459E-01 -9.891244E+01 
1.777500E+03  8.719193E-01 -1.195911E+02  2.043243E-03 -4.695720E+00  3.588298E-03 -2.969775E+01 
 2.043243E-03 -4.695720E+00  6.591534E-01 -9.398047E+01  6.520601E-01 -1.098300E+01 
 3.588298E-03 -2.969775E+01  6.520601E-01 -1.098300E+01  6.633908E-01 -9.893170E+01 
1.777750E+03  8.729564E-01 -1.195959E+02  2.015253E-03 -3.842013E+00  3.554829E-03 -2.938874E+01 
 2.015253E-03 -3.842013E+00  6.582691E-01 -9.399827E+01  6.521879E-01 -1.105833E+01 
 3.554829E-03 -2.938874E+01  6.521879E-01 -1.105833E+01  6.627143E-01 -9.894191E+01 
1.778000E+03  8.742601E-01 -1.196052E+02  2.012317E-03 -3.470191E+00  3.531587E-03 -2.876792E+01 
 2.012317E-03 -3.470191E+00  6.574253E-01 -9.400096E+01  6.521797E-01 -1.113869E+01 
 3.531587E-03 -2.876792E+01  6.521797E-01 -1.113869E+01  6.620344E-01 -9.893567E+01 
1.778250E+03  8.753975E-01 -1.196628E+02  2.006742E-03 -3.039600E+00  3.528549E-03 -2.823914E+01 
