! Matrix data file written by TouchstoneData, EPCOS AG
! FILENAME: "newformat_LY98B_3_P1011407_Pcb01_NB.s3p"
! COMMENT: "(LY98B_3_P1011407_Pcb01_NB.s3p) Epcos AG 9/1"
! INFO: nport=3, nfreq=801
! DATE: "Wed Oct 12 10:00:51 2011"
! USER: "WeiLong Lin"
!
! port | pin | signal
! -----|-----|--------
!   1  |  1  |  in
!   2  |  2  |  out
!   3  |  4  |  out
! --------------------
! 
# MHZ S MA R 50
! freq  magS11 angS11  magS12 angS12  magS13 angS13  ...
1.375420E+03  9.664724E-01 -8.268705E+01  7.154355E-03 3.960327E+01  6.911840E-03 3.599383E+01 
 6.822391E-03 3.946672E+01  9.214608E-01 -5.114736E+01  3.618701E-01 3.767420E+01 
 6.795442E-03 3.578935E+01  3.605031E-01 3.767096E+01  9.122973E-01 -5.168803E+01 
1.375920E+03  9.664960E-01 -8.273532E+01  7.188685E-03 3.985614E+01  6.936346E-03 3.575646E+01 
 6.859510E-03 3.993897E+01  9.212161E-01 -5.119278E+01  3.621447E-01 3.761961E+01 
 6.791855E-03 3.585914E+01  3.606617E-01 3.762310E+01  9.122133E-01 -5.172128E+01 
1.376420E+03  9.665041E-01 -8.277682E+01  7.140223E-03 4.020307E+01  6.933891E-03 3.542386E+01 
 6.833054E-03 4.001366E+01  9.210055E-01 -5.122293E+01  3.622991E-01 3.757807E+01 
 6.812858E-03 3.531193E+01  3.609368E-01 3.756029E+01  9.123498E-01 -5.176908E+01 
1.376920E+03  9.669426E-01 -8.282036E+01  7.256156E-03 4.034994E+01  6.874593E-03 3.502241E+01 
 6.929893E-03 4.016018E+01  9.208333E-01 -5.125188E+01  3.623948E-01 3.753065E+01 
 6.743138E-03 3.499319E+01  3.610561E-01 3.751071E+01  9.123198E-01 -5.179749E+01 
1.377420E+03  9.670920E-01 -8.289472E+01  7.308449E-03 4.065102E+01  6.817545E-03 3.524714E+01 
 6.992256E-03 4.046206E+01  9.207623E-01 -5.128396E+01  3.626781E-01 3.750614E+01 
 6.719956E-03 3.505452E+01  3.614187E-01 3.748805E+01  9.123214E-01 -5.183995E+01 
1.377920E+03  9.666729E-01 -8.292177E+01  7.385163E-03 4.052416E+01  6.807179E-03 3.552771E+01 
 7.051001E-03 4.052545E+01  9.205700E-01 -5.129771E+01  3.629582E-01 3.749821E+01 
 6.676935E-03 3.528537E+01  3.616979E-01 3.746014E+01  9.120216E-01 -5.188188E+01 
1.378420E+03  9.670190E-01 -8.291086E+01  7.462372E-03 4.008248E+01  6.786192E-03 3.506832E+01 
 7.130477E-03 4.016594E+01  9.206499E-01 -5.130220E+01  3.632239E-01 3.747053E+01 
 6.687222E-03 3.519439E+01  3.618896E-01 3.743499E+01  9.116850E-01 -5.192601E+01 
1.378920E+03  9.673319E-01 -8.299164E+01  7.532217E-03 3.932331E+01  6.690295E-03 3.487927E+01 
 7.210323E-03 3.929338E+01  9.206050E-01 -5.135430E+01  3.633664E-01 3.743131E+01 
 6.622589E-03 3.500463E+01  3.620763E-01 3.741005E+01  9.114182E-01 -5.194004E+01 
1.379420E+03  9.675253E-01 -8.305455E+01  7.533766E-03 3.860322E+01  6.686115E-03 3.569875E+01 
 7.196255E-03 3.831668E+01  9.207035E-01 -5.138479E+01  3.636551E-01 3.742511E+01 
 6.573482E-03 3.552389E+01  3.624358E-01 3.739120E+01  9.112711E-01 -5.199188E+01 
1.379920E+03  9.673487E-01 -8.311972E+01  7.495360E-03 3.830375E+01  6.710290E-03 3.594344E+01 
 7.145858E-03 3.800337E+01  9.204371E-01 -5.139832E+01  3.638977E-01 3.741905E+01 
 6.593396E-03 3.599610E+01  3.626970E-01 3.738920E+01  9.107101E-01 -5.201568E+01 
1.380420E+03  9.676802E-01 -8.316566E+01  7.499210E-03 3.753361E+01  6.657155E-03 3.619320E+01 
 7.139332E-03 3.745663E+01  9.205319E-01 -5.143377E+01  3.642618E-01 3.739878E+01 
 6.500027E-03 3.578581E+01  3.629424E-01 3.736921E+01  9.102917E-01 -5.203629E+01 
1.380920E+03  9.682985E-01 -8.326490E+01  7.442732E-03 3.719182E+01  6.618064E-03 3.685928E+01 
 7.123853E-03 3.688782E+01  9.202497E-01 -5.148704E+01  3.644502E-01 3.733271E+01 
 6.477306E-03 3.677437E+01  3.633193E-01 3.730815E+01  9.101717E-01 -5.205559E+01 
1.381420E+03  9.682618E-01 -8.335086E+01  7.378353E-03 3.687313E+01  6.652626E-03 3.750006E+01 
 7.069768E-03 3.681583E+01  9.199581E-01 -5.151239E+01  3.645639E-01 3.729584E+01 
 6.578720E-03 3.757462E+01  3.635353E-01 3.725729E+01  9.100480E-01 -5.208925E+01 
1.381920E+03  9.682159E-01 -8.344678E+01  7.345946E-03 3.654608E+01  6.721442E-03 3.729457E+01 
 7.012483E-03 3.635199E+01  9.198838E-01 -5.154069E+01  3.647319E-01 3.727216E+01 
 6.605349E-03 3.749579E+01  3.636950E-01 3.722502E+01  9.098144E-01 -5.211125E+01 
1.382420E+03  9.677113E-01 -8.350806E+01  7.274192E-03 3.668491E+01  6.718316E-03 3.771582E+01 
 6.953032E-03 3.644180E+01  9.197700E-01 -5.159415E+01  3.648954E-01 3.720344E+01 
 6.590224E-03 3.768531E+01  3.639710E-01 3.717927E+01  9.097264E-01 -5.214901E+01 
1.382920E+03  9.677854E-01 -8.357736E+01  7.247830E-03 3.649189E+01  6.755112E-03 3.788866E+01 
 6.952781E-03 3.638213E+01  9.195937E-01 -5.161113E+01  3.650713E-01 3.720036E+01 
 6.636756E-03 3.761349E+01  3.640600E-01 3.716504E+01  9.094761E-01 -5.216983E+01 
1.383420E+03  9.672727E-01 -8.364216E+01  7.195739E-03 3.613380E+01  6.831601E-03 3.821935E+01 
 6.910268E-03 3.599104E+01  9.190287E-01 -5.162168E+01  3.651421E-01 3.717647E+01 
 6.717382E-03 3.802510E+01  3.641575E-01 3.714576E+01  9.094392E-01 -5.219439E+01 
1.383920E+03  9.673852E-01 -8.368704E+01  7.122739E-03 3.578958E+01  6.899403E-03 3.789154E+01 
 6.795894E-03 3.575989E+01  9.190263E-01 -5.162362E+01  3.654720E-01 3.719057E+01 
 6.769356E-03 3.775716E+01  3.643548E-01 3.715436E+01  9.091098E-01 -5.222443E+01 
1.384420E+03  9.667707E-01 -8.376961E+01  7.027162E-03 3.610014E+01  6.854047E-03 3.725659E+01 
 6.729103E-03 3.620292E+01  9.186559E-01 -5.166420E+01  3.656978E-01 3.717099E+01 
 6.741833E-03 3.760678E+01  3.644050E-01 3.715966E+01  9.088007E-01 -5.223232E+01 
1.384920E+03  9.662402E-01 -8.379744E+01  6.993808E-03 3.641720E+01  6.908540E-03 3.811681E+01 
 6.687154E-03 3.633595E+01  9.186754E-01 -5.168636E+01  3.661656E-01 3.716992E+01 
 6.767914E-03 3.814720E+01  3.647035E-01 3.715779E+01  9.086962E-01 -5.226162E+01 
1.385420E+03  9.664721E-01 -8.383987E+01  6.957091E-03 3.669829E+01  6.952070E-03 3.758578E+01 
 6.623518E-03 3.668473E+01  9.184699E-01 -5.169918E+01  3.664999E-01 3.716818E+01 
 6.810510E-03 3.762862E+01  3.649180E-01 3.714184E+01  9.084716E-01 -5.229040E+01 
1.385920E+03  9.659558E-01 -8.391029E+01  6.906475E-03 3.781871E+01  7.039447E-03 3.786793E+01 
 6.582596E-03 3.765424E+01  9.182172E-01 -5.174870E+01  3.668943E-01 3.716380E+01 
 6.929702E-03 3.780429E+01  3.653352E-01 3.715938E+01  9.079276E-01 -5.232303E+01 
1.386420E+03  9.657632E-01 -8.394563E+01  7.010086E-03 3.801781E+01  7.064430E-03 3.733992E+01 
 6.700459E-03 3.796560E+01  9.177517E-01 -5.175171E+01  3.675794E-01 3.714522E+01 
 6.954620E-03 3.716741E+01  3.661040E-01 3.712591E+01  9.079110E-01 -5.234165E+01 
1.386920E+03  9.653715E-01 -8.402592E+01  7.018657E-03 3.743666E+01  7.103489E-03 3.639186E+01 
 6.716906E-03 3.734188E+01  9.175102E-01 -5.178661E+01  3.677933E-01 3.708663E+01 
 6.994622E-03 3.643741E+01  3.664125E-01 3.707442E+01  9.081899E-01 -5.236362E+01 
1.387420E+03  9.647045E-01 -8.404769E+01  6.910058E-03 3.752131E+01  7.076049E-03 3.586814E+01 
 6.621553E-03 3.761035E+01  9.170578E-01 -5.179954E+01  3.683355E-01 3.710172E+01 
 6.960774E-03 3.574058E+01  3.668756E-01 3.708845E+01  9.076301E-01 -5.239930E+01 
1.387920E+03  9.647262E-01 -8.406789E+01  6.883044E-03 3.820526E+01  7.135692E-03 3.523942E+01 
 6.571506E-03 3.792134E+01  9.169238E-01 -5.179903E+01  3.689714E-01 3.703068E+01 
 6.984886E-03 3.541951E+01  3.676656E-01 3.701660E+01  9.077412E-01 -5.241050E+01 
1.388420E+03  9.649207E-01 -8.412582E+01  6.880866E-03 3.904848E+01  7.042851E-03 3.501558E+01 
 6.584496E-03 3.903784E+01  9.167882E-01 -5.181251E+01  3.692539E-01 3.697536E+01 
 6.922700E-03 3.493417E+01  3.679445E-01 3.695890E+01  9.077327E-01 -5.242346E+01 
1.388920E+03  9.644696E-01 -8.415152E+01  7.031893E-03 3.925090E+01  7.033365E-03 3.421810E+01 
 6.695691E-03 3.915562E+01  9.165969E-01 -5.182370E+01  3.696192E-01 3.691363E+01 
 6.921747E-03 3.436789E+01  3.682933E-01 3.689066E+01  9.079022E-01 -5.247351E+01 
1.389420E+03  9.652023E-01 -8.415317E+01  6.993586E-03 3.869523E+01  6.967426E-03 3.418851E+01 
 6.654092E-03 3.879167E+01  9.164493E-01 -5.185210E+01  3.696801E-01 3.688368E+01 
 6.828654E-03 3.430231E+01  3.685549E-01 3.687599E+01  9.077312E-01 -5.248427E+01 
1.389920E+03  9.658445E-01 -8.424069E+01  7.034439E-03 3.953808E+01  6.913576E-03 3.320385E+01 
 6.721430E-03 3.929033E+01  9.165926E-01 -5.189422E+01  3.701974E-01 3.682585E+01 
 6.792775E-03 3.314841E+01  3.688737E-01 3.680742E+01  9.073472E-01 -5.250987E+01 
1.390420E+03  9.655958E-01 -8.431315E+01  7.132534E-03 3.921310E+01  6.758611E-03 3.341831E+01 
 6.811088E-03 3.881756E+01  9.164615E-01 -5.193075E+01  3.705555E-01 3.678889E+01 
 6.641336E-03 3.327735E+01  3.692844E-01 3.674341E+01  9.071157E-01 -5.255191E+01 
1.390920E+03  9.660253E-01 -8.436369E+01  7.114067E-03 3.902556E+01  6.741859E-03 3.437487E+01 
 6.775704E-03 3.870873E+01  9.162494E-01 -5.196763E+01  3.709443E-01 3.670600E+01 
 6.637860E-03 3.441643E+01  3.695417E-01 3.666617E+01  9.066956E-01 -5.259064E+01 
1.391420E+03  9.658351E-01 -8.444903E+01  7.195634E-03 3.834091E+01  6.721474E-03 3.326868E+01 
 6.864140E-03 3.808879E+01  9.158804E-01 -5.200701E+01  3.709471E-01 3.661785E+01 
 6.587735E-03 3.356889E+01  3.699070E-01 3.657135E+01  9.065820E-01 -5.262120E+01 
1.391920E+03  9.658087E-01 -8.447784E+01  7.140612E-03 3.828734E+01  6.600508E-03 3.450281E+01 
 6.772621E-03 3.822844E+01  9.155585E-01 -5.203632E+01  3.713567E-01 3.656108E+01 
 6.495768E-03 3.433129E+01  3.702238E-01 3.650397E+01  9.060407E-01 -5.265352E+01 
1.392420E+03  9.662612E-01 -8.454313E+01  7.108329E-03 3.778935E+01  6.615357E-03 3.473270E+01 
 6.801264E-03 3.775847E+01  9.155219E-01 -5.207524E+01  3.714220E-01 3.645664E+01 
 6.515210E-03 3.470167E+01  3.701136E-01 3.639448E+01  9.057247E-01 -5.267854E+01 
1.392920E+03  9.662512E-01 -8.462553E+01  7.129456E-03 3.763325E+01  6.592451E-03 3.502921E+01 
 6.779671E-03 3.769260E+01  9.154987E-01 -5.207040E+01  3.713661E-01 3.642006E+01 
 6.486259E-03 3.515775E+01  3.700553E-01 3.636371E+01  9.056422E-01 -5.268715E+01 
1.393420E+03  9.661708E-01 -8.468171E+01  7.041644E-03 3.723264E+01  6.614988E-03 3.627710E+01 
 6.724451E-03 3.739123E+01  9.151513E-01 -5.208362E+01  3.714498E-01 3.634514E+01 
 6.530106E-03 3.636425E+01  3.701605E-01 3.626593E+01  9.054459E-01 -5.271752E+01 
1.393920E+03  9.659537E-01 -8.473449E+01  6.997661E-03 3.791403E+01  6.712520E-03 3.565636E+01 
 6.695648E-03 3.774101E+01  9.153534E-01 -5.209271E+01  3.711178E-01 3.631613E+01 
 6.589825E-03 3.573104E+01  3.697833E-01 3.625732E+01  9.056120E-01 -5.271918E+01 
1.394420E+03  9.660597E-01 -8.477343E+01  7.043848E-03 3.780436E+01  6.695522E-03 3.580054E+01 
 6.721216E-03 3.781467E+01  9.152051E-01 -5.213968E+01  3.714109E-01 3.629397E+01 
 6.567440E-03 3.587696E+01  3.700132E-01 3.620644E+01  9.055046E-01 -5.276697E+01 
1.394920E+03  9.665151E-01 -8.485641E+01  7.055101E-03 3.757932E+01  6.710240E-03 3.602832E+01 
 6.724516E-03 3.778163E+01  9.150413E-01 -5.217534E+01  3.712643E-01 3.620261E+01 
 6.607524E-03 3.574485E+01  3.699056E-01 3.614524E+01  9.056704E-01 -5.279533E+01 
1.395420E+03  9.670662E-01 -8.494114E+01  7.027673E-03 3.773918E+01  6.713109E-03 3.570049E+01 
 6.741676E-03 3.765630E+01  9.150960E-01 -5.217987E+01  3.712477E-01 3.625508E+01 
 6.623092E-03 3.578948E+01  3.700232E-01 3.618513E+01  9.059604E-01 -5.282069E+01 
1.395920E+03  9.668939E-01 -8.502227E+01  7.048806E-03 3.771541E+01  6.777279E-03 3.577211E+01 
 6.716200E-03 3.753786E+01  9.149548E-01 -5.223970E+01  3.715824E-01 3.622736E+01 
 6.648478E-03 3.585548E+01  3.704077E-01 3.619358E+01  9.058049E-01 -5.287044E+01 
1.396420E+03  9.667751E-01 -8.510520E+01  7.033888E-03 3.732076E+01  6.810074E-03 3.563024E+01 
 6.712714E-03 3.737939E+01  9.145655E-01 -5.228076E+01  3.716735E-01 3.617277E+01 
 6.686581E-03 3.556599E+01  3.706731E-01 3.613959E+01  9.053967E-01 -5.291217E+01 
1.396920E+03  9.669092E-01 -8.516573E+01  6.979680E-03 3.731210E+01  6.799408E-03 3.548815E+01 
 6.674475E-03 3.717637E+01  9.143649E-01 -5.228948E+01  3.718027E-01 3.613893E+01 
 6.668665E-03 3.571622E+01  3.708775E-01 3.613615E+01  9.052523E-01 -5.291808E+01 
1.397420E+03  9.670787E-01 -8.524643E+01  6.950241E-03 3.768784E+01  6.836777E-03 3.532890E+01 
 6.623064E-03 3.781423E+01  9.140087E-01 -5.233369E+01  3.719572E-01 3.608404E+01 
 6.701068E-03 3.540913E+01  3.710904E-01 3.607358E+01  9.049611E-01 -5.296781E+01 
1.397920E+03  9.668793E-01 -8.532305E+01  7.047998E-03 3.820401E+01  6.818837E-03 3.487679E+01 
 6.695549E-03 3.819760E+01  9.137283E-01 -5.232148E+01  3.715161E-01 3.606707E+01 
 6.671367E-03 3.460350E+01  3.706623E-01 3.605643E+01  9.048143E-01 -5.294676E+01 
1.398420E+03  9.665429E-01 -8.541088E+01  7.073169E-03 3.757083E+01  6.876843E-03 3.404906E+01 
 6.732835E-03 3.745217E+01  9.139403E-01 -5.232493E+01  3.714804E-01 3.613299E+01 
 6.755772E-03 3.410622E+01  3.706614E-01 3.610718E+01  9.049969E-01 -5.297295E+01 
1.398920E+03  9.662637E-01 -8.549642E+01  7.035738E-03 3.810789E+01  6.757833E-03 3.364045E+01 
 6.723904E-03 3.762915E+01  9.141438E-01 -5.236232E+01  3.718035E-01 3.615864E+01 
 6.644339E-03 3.375756E+01  3.710657E-01 3.612587E+01  9.050321E-01 -5.299232E+01 
1.399420E+03  9.655319E-01 -8.555143E+01  7.081722E-03 3.787490E+01  6.727000E-03 3.428136E+01 
 6.731688E-03 3.788102E+01  9.141432E-01 -5.238805E+01  3.717599E-01 3.620828E+01 
 6.629420E-03 3.447932E+01  3.709697E-01 3.616463E+01  9.051042E-01 -5.301321E+01 
1.399920E+03  9.651099E-01 -8.564888E+01  7.180955E-03 3.742393E+01  6.890569E-03 3.445908E+01 
 6.808796E-03 3.738567E+01  9.142432E-01 -5.243081E+01  3.725389E-01 3.624421E+01 
 6.757216E-03 3.403696E+01  3.718168E-01 3.619976E+01  9.051897E-01 -5.307554E+01 
1.400420E+03  9.643817E-01 -8.571220E+01  7.101262E-03 3.639496E+01  6.844049E-03 3.212499E+01 
 6.744005E-03 3.608233E+01  9.143415E-01 -5.246462E+01  3.726583E-01 3.624197E+01 
 6.747497E-03 3.201746E+01  3.718150E-01 3.619117E+01  9.050233E-01 -5.310914E+01 
1.400920E+03  9.640947E-01 -8.576204E+01  7.101901E-03 3.540823E+01  6.730857E-03 3.097406E+01 
 6.749811E-03 3.546072E+01  9.143243E-01 -5.251455E+01  3.730730E-01 3.629286E+01 
 6.626862E-03 3.087190E+01  3.722216E-01 3.622990E+01  9.050181E-01 -5.315466E+01 
1.401420E+03  9.637375E-01 -8.584459E+01  7.035195E-03 3.650159E+01  6.585720E-03 3.153108E+01 
 6.703899E-03 3.629778E+01  9.139281E-01 -5.254589E+01  3.737949E-01 3.631424E+01 
 6.475571E-03 3.142201E+01  3.728965E-01 3.626231E+01  9.048750E-01 -5.319454E+01 
1.401920E+03  9.631360E-01 -8.584163E+01  6.963180E-03 3.574243E+01  6.439142E-03 3.118261E+01 
 6.647460E-03 3.555005E+01  9.137545E-01 -5.256032E+01  3.743532E-01 3.630068E+01 
 6.295561E-03 3.096320E+01  3.734446E-01 3.623421E+01  9.044375E-01 -5.323599E+01 
1.402420E+03  9.632243E-01 -8.585846E+01  6.933886E-03 3.518740E+01  6.224077E-03 3.140369E+01 
 6.636177E-03 3.503933E+01  9.134538E-01 -5.258637E+01  3.748599E-01 3.627912E+01 
 6.124163E-03 3.118846E+01  3.737642E-01 3.621252E+01  9.042506E-01 -5.326387E+01 
1.402920E+03  9.633735E-01 -8.590276E+01  6.735958E-03 3.574250E+01  6.135733E-03 3.295431E+01 
 6.436408E-03 3.542182E+01  9.133357E-01 -5.261336E+01  3.754102E-01 3.625223E+01 
 6.030983E-03 3.300449E+01  3.742296E-01 3.620883E+01  9.041968E-01 -5.328219E+01 
1.403420E+03  9.642402E-01 -8.595063E+01  6.854902E-03 3.678241E+01  6.253622E-03 3.412868E+01 
 6.557363E-03 3.655007E+01  9.132268E-01 -5.264875E+01  3.758226E-01 3.623005E+01 
 6.134580E-03 3.403627E+01  3.745374E-01 3.617718E+01  9.039954E-01 -5.332629E+01 
1.403920E+03  9.634717E-01 -8.601507E+01  6.944396E-03 3.634647E+01  6.330594E-03 3.414944E+01 
 6.622456E-03 3.611716E+01  9.128608E-01 -5.265202E+01  3.763253E-01 3.618958E+01 
 6.217960E-03 3.425597E+01  3.750586E-01 3.614398E+01  9.035798E-01 -5.335886E+01 
1.404420E+03  9.640311E-01 -8.603719E+01  6.783760E-03 3.567354E+01  6.175687E-03 3.425366E+01 
 6.493430E-03 3.558566E+01  9.129382E-01 -5.268624E+01  3.767717E-01 3.616165E+01 
 6.068909E-03 3.415242E+01  3.753544E-01 3.610698E+01  9.032359E-01 -5.338128E+01 
1.404920E+03  9.640450E-01 -8.609602E+01  6.831606E-03 3.599212E+01  6.227139E-03 3.502743E+01 
 6.527279E-03 3.549530E+01  9.130058E-01 -5.273853E+01  3.767691E-01 3.614263E+01 
 6.097969E-03 3.493415E+01  3.753625E-01 3.606346E+01  9.032282E-01 -5.343492E+01 
1.405420E+03  9.643383E-01 -8.619134E+01  6.763623E-03 3.552258E+01  6.214770E-03 3.564153E+01 
 6.469479E-03 3.547370E+01  9.125845E-01 -5.276055E+01  3.772975E-01 3.613316E+01 
 6.129463E-03 3.552205E+01  3.759678E-01 3.607183E+01  9.028434E-01 -5.346738E+01 
1.405920E+03  9.639598E-01 -8.624585E+01  6.751666E-03 3.530438E+01  6.300882E-03 3.580163E+01 
 6.456991E-03 3.535865E+01  9.125055E-01 -5.281587E+01  3.776593E-01 3.607433E+01 
 6.177962E-03 3.591111E+01  3.763123E-01 3.600698E+01  9.025949E-01 -5.350328E+01 
1.406420E+03  9.643718E-01 -8.630417E+01  6.665772E-03 3.564570E+01  6.307427E-03 3.612556E+01 
 6.370530E-03 3.541349E+01  9.120564E-01 -5.283355E+01  3.781490E-01 3.606417E+01 
 6.229803E-03 3.605908E+01  3.767474E-01 3.599290E+01  9.024652E-01 -5.351425E+01 
1.406920E+03  9.643872E-01 -8.638819E+01  6.593997E-03 3.590316E+01  6.310911E-03 3.599439E+01 
 6.298786E-03 3.596747E+01  9.117239E-01 -5.286227E+01  3.785017E-01 3.603065E+01 
 6.229210E-03 3.570335E+01  3.771918E-01 3.594753E+01  9.023160E-01 -5.355431E+01 
1.407420E+03  9.643360E-01 -8.643813E+01  6.630229E-03 3.696848E+01  6.426694E-03 3.577354E+01 
 6.340206E-03 3.680365E+01  9.116727E-01 -5.290016E+01  3.791622E-01 3.603806E+01 
 6.302425E-03 3.588135E+01  3.778525E-01 3.592753E+01  9.019568E-01 -5.359239E+01 
1.407920E+03  9.644446E-01 -8.650355E+01  6.671357E-03 3.734680E+01  6.405282E-03 3.577424E+01 
 6.376657E-03 3.722839E+01  9.113096E-01 -5.292470E+01  3.797711E-01 3.599531E+01 
 6.262238E-03 3.566496E+01  3.784955E-01 3.589992E+01  9.014652E-01 -5.360366E+01 
1.408420E+03  9.645806E-01 -8.657858E+01  6.757506E-03 3.702604E+01  6.444053E-03 3.512262E+01 
 6.478133E-03 3.698860E+01  9.110738E-01 -5.294021E+01  3.803188E-01 3.595031E+01 
 6.327958E-03 3.524375E+01  3.791559E-01 3.584108E+01  9.011672E-01 -5.361819E+01 
1.408920E+03  9.647647E-01 -8.663383E+01  6.718470E-03 3.606064E+01  6.354043E-03 3.476598E+01 
 6.412231E-03 3.633631E+01  9.110598E-01 -5.296459E+01  3.807390E-01 3.591801E+01 
 6.265781E-03 3.475994E+01  3.796046E-01 3.576844E+01  9.009833E-01 -5.362115E+01 
1.409420E+03  9.650016E-01 -8.672971E+01  6.691340E-03 3.615776E+01  6.348195E-03 3.540905E+01 
 6.381550E-03 3.631441E+01  9.111971E-01 -5.299512E+01  3.813766E-01 3.585885E+01 
 6.247031E-03 3.536521E+01  3.802884E-01 3.570720E+01  9.009856E-01 -5.362545E+01 
1.409920E+03  9.648437E-01 -8.680169E+01  6.652176E-03 3.634737E+01  6.338564E-03 3.442334E+01 
 6.343516E-03 3.624682E+01  9.112626E-01 -5.301795E+01  3.818598E-01 3.579700E+01 
 6.212569E-03 3.423431E+01  3.807185E-01 3.565230E+01  9.010925E-01 -5.365195E+01 
1.410420E+03  9.650070E-01 -8.687004E+01  6.611349E-03 3.700656E+01  6.271529E-03 3.499218E+01 
 6.326816E-03 3.669477E+01  9.112519E-01 -5.305739E+01  3.820434E-01 3.572555E+01 
 6.142952E-03 3.496227E+01  3.808224E-01 3.557776E+01  9.010354E-01 -5.369417E+01 
1.410920E+03  9.654363E-01 -8.694137E+01  6.679654E-03 3.705483E+01  6.240970E-03 3.469808E+01 
 6.403542E-03 3.689860E+01  9.111826E-01 -5.308870E+01  3.822938E-01 3.569341E+01 
 6.152760E-03 3.458132E+01  3.810906E-01 3.557391E+01  9.012303E-01 -5.373215E+01 
1.411420E+03  9.658248E-01 -8.702823E+01  6.712305E-03 3.692948E+01  6.181726E-03 3.563709E+01 
 6.412087E-03 3.669021E+01  9.112172E-01 -5.313356E+01  3.827501E-01 3.565177E+01 
 6.062836E-03 3.559878E+01  3.814811E-01 3.555306E+01  9.013345E-01 -5.377805E+01 
1.411920E+03  9.657995E-01 -8.713876E+01  6.721193E-03 3.672301E+01  6.191610E-03 3.627891E+01 
 6.428360E-03 3.643072E+01  9.111501E-01 -5.315571E+01  3.833228E-01 3.560043E+01 
 6.079585E-03 3.626730E+01  3.818721E-01 3.552326E+01  9.010463E-01 -5.382628E+01 
1.412420E+03  9.655533E-01 -8.720204E+01  6.734537E-03 3.624250E+01  6.238110E-03 3.678330E+01 
