! Matrix data file written by TouchstoneData, EPCOS AG
! FILENAME: "newformat_B4303_x50y50_pcb06_NB.s3p"
! COMMENT: "(B4303_x50y50_pcb06_NB.s3p) Epcos AG 6/23/20"
! INFO: nport=3, nfreq=801
! DATE: "Wed Oct 12 10:28:59 2011"
! USER: "WeiLong Lin"
!
! port | pin | signal
! -----|-----|--------
!   1  |  1  |  in
!   2  |  2  |  out
!   3  |  4  |  out
! --------------------
! 
# MHZ S MA R 50
! freq  magS11 angS11  magS12 angS12  magS13 angS13  ...
6.815000E+02  9.808819E-01 -9.671502E+01  2.203645E-03 1.112855E+01  4.295131E-03 1.300904E+01 
 2.170118E-03 1.126493E+01  9.862793E-01 -5.887269E+01  1.458231E-03 1.780963E+02 
 4.278502E-03 1.293703E+01  1.455836E-03 1.768361E+02  9.846582E-01 -5.818886E+01 
6.820000E+02  9.809200E-01 -9.679677E+01  1.939145E-03 1.648986E+01  4.328952E-03 1.345208E+01 
 1.951915E-03 1.504438E+01  9.861000E-01 -5.889134E+01  1.467506E-03 1.721276E+02 
 4.334646E-03 1.321067E+01  1.460350E-03 1.711768E+02  9.846933E-01 -5.822058E+01 
6.825000E+02  9.810260E-01 -9.687692E+01  2.171026E-03 1.629308E+01  4.434487E-03 1.333905E+01 
 2.152591E-03 1.715939E+01  9.859555E-01 -5.887001E+01  1.300028E-03 1.308770E+02 
 4.399619E-03 1.357019E+01  1.296527E-03 1.310931E+02  9.841704E-01 -5.826067E+01 
6.830000E+02  9.801399E-01 -9.696577E+01  1.971281E-03 1.293612E+01  4.414790E-03 1.165369E+01 
 1.968993E-03 1.273923E+01  9.861058E-01 -5.891986E+01  7.365370E-04 1.207455E+02 
 4.390857E-03 1.160987E+01  7.115280E-04 1.209705E+02  9.842980E-01 -5.832606E+01 
6.835000E+02  9.799843E-01 -9.693815E+01  2.132531E-03 1.924652E+01  4.339501E-03 1.207655E+01 
 2.144040E-03 1.880614E+01  9.869646E-01 -5.896167E+01  1.627647E-04 9.653954E+01 
 4.301207E-03 1.175358E+01  1.461569E-04 9.138697E+01  9.846161E-01 -5.838403E+01 
6.840000E+02  9.808617E-01 -9.702556E+01  2.057156E-03 1.785523E+01  4.570309E-03 1.106476E+01 
 2.017940E-03 1.736793E+01  9.866467E-01 -5.904140E+01  2.655572E-04 -1.140994E+02 
 4.572369E-03 1.114761E+01  2.380692E-04 -1.154851E+02  9.841803E-01 -5.846229E+01 
6.845000E+02  9.812523E-01 -9.708425E+01  2.108236E-03 2.616945E+01  4.415676E-03 5.828860E+00 
 2.148495E-03 2.619371E+01  9.864451E-01 -5.910489E+01  7.503556E-04 -3.402082E+01 
 4.429518E-03 6.242899E+00  7.519417E-04 -3.521939E+01  9.831959E-01 -5.854598E+01 
6.850000E+02  9.815208E-01 -9.716895E+01  2.477699E-03 2.632351E+01  4.120877E-03 3.160392E+00 
 2.486073E-03 2.582816E+01  9.862367E-01 -5.916356E+01  1.651679E-03 -6.169246E+01 
 4.114175E-03 3.424965E+00  1.659726E-03 -6.153270E+01  9.818667E-01 -5.857716E+01 
6.855000E+02  9.819551E-01 -9.723918E+01  2.821871E-03 2.023538E+01  3.503398E-03 6.186370E+00 
 2.834238E-03 1.984731E+01  9.864867E-01 -5.922176E+01  1.746342E-03 -1.113952E+02 
 3.490551E-03 5.848435E+00  1.767760E-03 -1.111385E+02  9.829505E-01 -5.849897E+01 
6.860000E+02  9.820942E-01 -9.731803E+01  3.015268E-03 1.863973E+01  3.386077E-03 8.509845E+00 
 3.024778E-03 1.806352E+01  9.858135E-01 -5.924853E+01  1.833560E-03 -1.211156E+02 
 3.402054E-03 8.065899E+00  1.849560E-03 -1.204145E+02  9.838254E-01 -5.859683E+01 
6.865000E+02  9.818846E-01 -9.744019E+01  3.064186E-03 1.084074E+01  3.264961E-03 1.514042E+01 
 3.059859E-03 1.108690E+01  9.865194E-01 -5.933641E+01  1.185893E-03 -1.222764E+02 
 3.226796E-03 1.499679E+01  1.165419E-03 -1.206906E+02  9.841199E-01 -5.869329E+01 
6.870000E+02  9.813480E-01 -9.745823E+01  2.841041E-03 1.062485E+01  3.540735E-03 1.598073E+01 
 2.838867E-03 1.081858E+01  9.862581E-01 -5.941765E+01  1.373408E-03 -1.225972E+02 
 3.533812E-03 1.571514E+01  1.370360E-03 -1.243736E+02  9.841765E-01 -5.873083E+01 
6.875000E+02  9.821973E-01 -9.751409E+01  2.919888E-03 1.243656E+01  3.568007E-03 1.573754E+01 
 2.924567E-03 1.312596E+01  9.860388E-01 -5.946293E+01  1.087493E-03 -1.289686E+02 
 3.556037E-03 1.601287E+01  1.084490E-03 -1.274511E+02  9.844135E-01 -5.881140E+01 
6.880000E+02  9.821363E-01 -9.762098E+01  3.193126E-03 1.195517E+01  3.408926E-03 1.498857E+01 
 3.206055E-03 1.213528E+01  9.860938E-01 -5.952654E+01  1.524982E-03 -1.100636E+02 
 3.401788E-03 1.492380E+01  1.528690E-03 -1.096867E+02  9.842833E-01 -5.886888E+01 
6.885000E+02  9.821016E-01 -9.771380E+01  3.593639E-03 7.708892E+00  3.207546E-03 1.907285E+01 
 3.566343E-03 7.334974E+00  9.860679E-01 -5.961793E+01  1.219539E-03 -1.080621E+02 
 3.154987E-03 1.896735E+01  1.225521E-03 -1.087519E+02  9.841684E-01 -5.896379E+01 
6.890000E+02  9.819464E-01 -9.780016E+01  3.455997E-03 -5.696555E-01  3.338137E-03 2.374023E+01 
 3.439895E-03 -8.718172E-01  9.853557E-01 -5.963093E+01  2.116718E-03 -1.005097E+02 
 3.316886E-03 2.433908E+01  2.124320E-03 -9.944563E+01  9.834419E-01 -5.900673E+01 
6.895000E+02  9.820626E-01 -9.790549E+01  3.853685E-03 -1.050796E+00  3.070121E-03 2.742544E+01 
 3.824745E-03 -9.214162E-01  9.859670E-01 -5.974734E+01  1.701102E-03 -9.765780E+01 
 3.058125E-03 2.781487E+01  1.709016E-03 -9.728668E+01  9.834282E-01 -5.908648E+01 
6.900000E+02  9.811505E-01 -9.801911E+01  4.547209E-03 -7.579396E+00  3.032690E-03 3.978620E+01 
 4.559298E-03 -7.596509E+00  9.851643E-01 -5.989618E+01  2.190993E-03 -7.552968E+01 
 3.013983E-03 3.953423E+01  2.154603E-03 -7.587157E+01  9.830486E-01 -5.914676E+01 
6.905000E+02  9.799058E-01 -9.806085E+01  4.349803E-03 -3.398578E+01  4.606961E-03 4.558781E+01 
 4.364675E-03 -3.429711E+01  9.825044E-01 -5.985070E+01  4.409444E-03 -9.376816E+01 
 4.604799E-03 4.528214E+01  4.411584E-03 -9.403416E+01  9.820211E-01 -5.917556E+01 
6.910000E+02  9.790779E-01 -9.803914E+01  3.210384E-03 -5.555303E+01  5.709651E-03 3.389551E+01 
 3.202063E-03 -5.521626E+01  9.814927E-01 -5.969360E+01  6.585487E-03 -1.122823E+02 
 5.711956E-03 3.399462E+01  6.607592E-03 -1.123952E+02  9.815108E-01 -5.913699E+01 
6.915000E+02  9.797123E-01 -9.811324E+01  2.360420E-03 -5.771338E+01  5.659348E-03 2.630270E+01 
 2.299617E-03 -5.816495E+01  9.841261E-01 -5.973765E+01  5.852821E-03 -1.319853E+02 
 5.661061E-03 2.609800E+01  5.879552E-03 -1.322908E+02  9.829955E-01 -5.922917E+01 
6.920000E+02  9.798158E-01 -9.816824E+01  1.327628E-03 -4.300422E+01  5.445771E-03 1.647165E+01 
 1.298183E-03 -4.306258E+01  9.857463E-01 -5.982430E+01  5.443599E-03 -1.504590E+02 
 5.431589E-03 1.661555E+01  5.477577E-03 -1.504790E+02  9.839491E-01 -5.933888E+01 
6.925000E+02  9.796709E-01 -9.824346E+01  1.651924E-03 -3.499238E+01  4.999040E-03 1.371045E+01 
 1.628735E-03 -3.389827E+01  9.855185E-01 -5.993328E+01  4.889799E-03 -1.588908E+02 
 5.059915E-03 1.393346E+01  4.906723E-03 -1.589235E+02  9.827321E-01 -5.947839E+01 
6.930000E+02  9.799962E-01 -9.831807E+01  1.306739E-03 -2.709364E+01  5.115738E-03 1.244139E+01 
 1.322206E-03 -2.620108E+01  9.860469E-01 -6.001205E+01  5.625944E-03 -1.645162E+02 
 5.095077E-03 1.261208E+01  5.632063E-03 -1.642951E+02  9.812861E-01 -5.960512E+01 
6.935000E+02  9.804386E-01 -9.840576E+01  1.436934E-03 -4.892714E+00  4.580847E-03 1.238542E+01 
 1.409198E-03 -4.487662E+00  9.859686E-01 -6.009160E+01  4.493660E-03 1.764406E+02 
 4.553442E-03 1.257334E+01  4.508846E-03 1.760474E+02  9.796385E-01 -5.949356E+01 
6.940000E+02  9.805153E-01 -9.850359E+01  1.869196E-03 -3.791429E+00  4.288852E-03 1.178618E+01 
 1.892943E-03 -3.352000E+00  9.858202E-01 -6.017905E+01  2.899293E-03 1.723186E+02 
 4.282063E-03 1.154409E+01  2.921929E-03 1.718648E+02  9.817432E-01 -5.937423E+01 
6.945000E+02  9.799347E-01 -9.855928E+01  2.012151E-03 -2.354852E+01  4.117142E-03 1.517065E+01 
 1.992973E-03 -2.361109E+01  9.848760E-01 -6.021796E+01  2.527593E-03 -1.784743E+02 
 4.096297E-03 1.521846E+01  2.557154E-03 -1.784822E+02  9.824045E-01 -5.948040E+01 
6.950000E+02  9.802360E-01 -9.862685E+01  1.784407E-03 -6.824216E+00  4.439444E-03 1.544093E+01 
 1.781178E-03 -6.068877E+00  9.858744E-01 -6.029466E+01  3.135517E-03 -1.642058E+02 
 4.463719E-03 1.497178E+01  3.137080E-03 -1.637216E+02  9.835127E-01 -5.953430E+01 
6.955000E+02  9.799942E-01 -9.869079E+01  2.234559E-03 -1.163246E+01  4.734812E-03 1.424331E+01 
 2.250155E-03 -1.108309E+01  9.854472E-01 -6.040848E+01  3.319265E-03 -1.720644E+02 
 4.708339E-03 1.387395E+01  3.296591E-03 -1.726203E+02  9.836674E-01 -5.960396E+01 
6.960000E+02  9.790173E-01 -9.874808E+01  2.750235E-03 -4.430917E+01  4.525156E-03 9.208039E+00 
 2.762735E-03 -4.444322E+01  9.832287E-01 -6.044790E+01  3.271351E-03 -1.748230E+02 
 4.492749E-03 9.290291E+00  3.262735E-03 -1.746135E+02  9.842399E-01 -5.969077E+01 
6.965000E+02  9.793094E-01 -9.880094E+01  1.602348E-03 -5.579275E+01  4.202231E-03 8.435363E+00 
 1.597126E-03 -5.624499E+01  9.838770E-01 -6.043786E+01  3.296103E-03 -1.780996E+02 
 4.184081E-03 7.961378E+00  3.349179E-03 -1.782724E+02  9.844642E-01 -5.978562E+01 
6.970000E+02  9.797153E-01 -9.887213E+01  8.914261E-04 -4.254231E+01  4.171561E-03 9.004227E+00 
 8.659611E-04 -4.421434E+01  9.849276E-01 -6.050494E+01  4.011050E-03 -1.733535E+02 
 4.195315E-03 9.157651E+00  4.013650E-03 -1.733321E+02  9.842685E-01 -5.992301E+01 
6.975000E+02  9.797376E-01 -9.896485E+01  8.805448E-04 -1.744377E+01  3.973737E-03 7.521545E+00 
 8.858929E-04 -1.587177E+01  9.846535E-01 -6.054367E+01  4.394951E-03 1.642747E+02 
 3.976944E-03 7.558616E+00  4.404049E-03 1.642733E+02  9.829277E-01 -5.996347E+01 
6.980000E+02  9.795416E-01 -9.905069E+01  9.761706E-04 -1.649597E+00  3.791767E-03 8.601756E+00 
 9.557860E-04 -9.621352E-01  9.850969E-01 -6.065584E+01  4.213227E-03 1.659116E+02 
 3.800379E-03 8.711469E+00  4.225024E-03 1.661149E+02  9.828788E-01 -6.003094E+01 
6.985000E+02  9.793861E-01 -9.911743E+01  1.185716E-03 5.617625E+00  3.712099E-03 1.025864E+01 
 1.156221E-03 5.101164E+00  9.845450E-01 -6.081575E+01  5.005911E-03 1.649221E+02 
 3.725106E-03 1.050207E+01  5.006698E-03 1.649861E+02  9.821524E-01 -6.012185E+01 
6.990000E+02  9.789872E-01 -9.920003E+01  1.242960E-03 -7.332471E-01  3.503000E-03 9.662785E+00 
 1.226039E-03 -2.892974E-01  9.814200E-01 -6.065167E+01  5.500323E-03 1.174386E+02 
 3.506918E-03 9.876880E+00  5.501351E-03 1.174878E+02  9.804478E-01 -5.999799E+01 
6.995000E+02  9.788275E-01 -9.923682E+01  1.202432E-03 -5.885110E+00  3.308434E-03 1.134299E+01 
 1.191037E-03 -4.194471E+00  9.816661E-01 -6.064761E+01  4.629997E-03 1.018487E+02 
 3.303032E-03 1.133972E+01  4.657786E-03 1.015623E+02  9.814713E-01 -6.002048E+01 
7.000000E+02  9.789528E-01 -9.930570E+01  1.158096E-03 1.024709E+01  3.027664E-03 1.933562E+01 
 1.162863E-03 1.001893E+01  9.828527E-01 -6.066630E+01  3.535036E-03 9.275959E+01 
 3.031263E-03 1.920708E+01  3.534269E-03 9.287487E+01  9.821208E-01 -6.012591E+01 
7.005000E+02  9.792057E-01 -9.936007E+01  1.400070E-03 5.296122E+00  3.243591E-03 2.113686E+01 
 1.409708E-03 5.424179E+00  9.851683E-01 -6.071082E+01  2.405304E-03 5.663527E+01 
 3.252609E-03 2.104524E+01  2.432496E-03 5.740156E+01  9.834722E-01 -6.016854E+01 
7.010000E+02  9.792461E-01 -9.942494E+01  1.467477E-03 -2.827889E+00  3.034154E-03 2.984238E+01 
 1.458102E-03 -1.233518E+00  9.848489E-01 -6.084215E+01  1.278485E-03 4.953439E+01 
 3.037493E-03 2.969810E+01  1.326128E-03 4.944685E+01  9.827656E-01 -6.031670E+01 
7.015000E+02  9.786716E-01 -9.950660E+01  1.602996E-03 2.297820E+00  3.746215E-03 4.507553E+01 
 1.612352E-03 9.825663E-01  9.851493E-01 -6.091975E+01  1.431626E-03 3.674217E+01 
 3.765142E-03 4.506856E+01  1.427938E-03 3.651708E+01  9.805992E-01 -6.039575E+01 
7.020000E+02  9.789130E-01 -9.952621E+01  1.390711E-03 -2.242386E+00  4.703545E-03 3.063150E+01 
 1.395034E-03 -1.535074E+00  9.854941E-01 -6.102510E+01  7.934467E-04 -7.465225E+00 
 4.705355E-03 3.031811E+01  7.996212E-04 -8.236295E+00  9.810654E-01 -6.031721E+01 
7.025000E+02  9.792379E-01 -9.959683E+01  1.238198E-03 -7.428373E+00  4.734876E-03 2.683414E+01 
 1.238472E-03 -6.824263E+00  9.842473E-01 -6.112435E+01  6.534480E-04 -5.918027E+01 
 4.737062E-03 2.683777E+01  6.875639E-04 -5.831369E+01  9.818394E-01 -6.039033E+01 
7.030000E+02  9.792188E-01 -9.964644E+01  1.141557E-03 -3.541625E+00  4.974673E-03 2.478781E+01 
 1.122864E-03 -2.341614E+00  9.831113E-01 -6.114881E+01  7.511831E-04 -7.980958E+01 
 4.984936E-03 2.465371E+01  7.436937E-04 -8.118816E+01  9.814140E-01 -6.044285E+01 
7.035000E+02  9.790018E-01 -9.968477E+01  1.171648E-03 7.375028E+00  4.988054E-03 1.966763E+01 
 1.176841E-03 7.540047E+00  9.843331E-01 -6.118776E+01  6.652425E-04 -1.080319E+02 
 4.987606E-03 1.984778E+01  6.863594E-04 -1.077460E+02  9.821170E-01 -6.048165E+01 
7.040000E+02  9.800746E-01 -9.974138E+01  1.320191E-03 7.299961E+00  4.966283E-03 1.823509E+01 
 1.293176E-03 8.547803E+00  9.836123E-01 -6.130964E+01  9.189586E-04 -9.702347E+01 
 4.967923E-03 1.824995E+01  8.784399E-04 -9.996355E+01  9.817138E-01 -6.055853E+01 
7.045000E+02  9.805757E-01 -9.983193E+01  1.255629E-03 8.129772E+00  4.845963E-03 1.569739E+01 
 1.237464E-03 9.181091E+00  9.817640E-01 -6.129564E+01  1.015180E-03 -1.254801E+02 
 4.868910E-03 1.537960E+01  1.001851E-03 -1.253599E+02  9.824959E-01 -6.059689E+01 
7.050000E+02  9.807926E-01 -9.991593E+01  1.365707E-03 1.009806E+01  4.704435E-03 1.402073E+01 
 1.379833E-03 1.051905E+01  9.835913E-01 -6.131692E+01  7.707294E-04 -1.217791E+02 
 4.700034E-03 1.407345E+01  7.979985E-04 -1.238954E+02  9.829279E-01 -6.069194E+01 
7.055000E+02  9.810091E-01 -1.000084E+02  1.319770E-03 8.167848E+00  4.575061E-03 1.299161E+01 
 1.293662E-03 8.639686E+00  9.834020E-01 -6.137666E+01  9.028591E-04 -7.899336E+01 
 4.565349E-03 1.301363E+01  8.844195E-04 -7.816499E+01  9.825908E-01 -6.079611E+01 
7.060000E+02  9.811513E-01 -1.000951E+02  1.391989E-03 9.843778E+00  4.525209E-03 1.369432E+01 
 1.414008E-03 9.174307E+00  9.832416E-01 -6.140118E+01  1.371235E-03 -9.782461E+01 
 4.548790E-03 1.359932E+01  1.378650E-03 -9.835712E+01  9.816816E-01 -6.082070E+01 
7.065000E+02  9.813246E-01 -1.001712E+02  1.320129E-03 6.715701E+00  4.532966E-03 1.265492E+01 
 1.309369E-03 6.732209E+00  9.840773E-01 -6.144469E+01  1.461020E-03 -8.599869E+01 
 4.515674E-03 1.229045E+01  1.443496E-03 -8.458155E+01  9.820416E-01 -6.088617E+01 
7.070000E+02  9.812787E-01 -1.002708E+02  1.260741E-03 1.219203E+01  4.473764E-03 1.187208E+01 
 1.285026E-03 1.178098E+01  9.837762E-01 -6.148945E+01  2.601634E-03 -8.977601E+01 
 4.460117E-03 1.204486E+01  2.598993E-03 -8.922042E+01  9.808173E-01 -6.094009E+01 
7.075000E+02  9.812457E-01 -1.003786E+02  1.385439E-03 1.364332E+01  4.383392E-03 1.206479E+01 
 1.387356E-03 1.395813E+01  9.842140E-01 -6.145910E+01  3.657298E-03 -1.200734E+02 
 4.376100E-03 1.161641E+01  3.656656E-03 -1.204354E+02  9.813178E-01 -6.091093E+01 
7.080000E+02  9.812480E-01 -1.004742E+02  1.422553E-03 1.614696E+01  4.400996E-03 1.055790E+01 
 1.436850E-03 1.635151E+01  9.845942E-01 -6.155061E+01  3.261460E-03 -1.313451E+02 
 4.406559E-03 1.028476E+01  3.265747E-03 -1.304282E+02  9.818955E-01 -6.094645E+01 
7.085000E+02  9.810442E-01 -1.005599E+02  1.478140E-03 1.499867E+01  4.341338E-03 1.057323E+01 
 1.485811E-03 1.485835E+01  9.854894E-01 -6.162222E+01  2.997773E-03 -1.404368E+02 
 4.335045E-03 1.044232E+01  2.999479E-03 -1.404449E+02  9.825639E-01 -6.104019E+01 
7.090000E+02  9.808906E-01 -1.006475E+02  1.572442E-03 1.254382E+01  4.189078E-03 1.024394E+01 
 1.584698E-03 1.199913E+01  9.854947E-01 -6.171269E+01  2.929275E-03 -1.500422E+02 
 4.199271E-03 1.039092E+01  2.932888E-03 -1.507558E+02  9.827724E-01 -6.108581E+01 
7.095000E+02  9.804459E-01 -1.007405E+02  1.529179E-03 1.051752E+01  4.213634E-03 1.074164E+01 
 1.500715E-03 1.087585E+01  9.858102E-01 -6.180071E+01  2.542302E-03 -1.500553E+02 
 4.229769E-03 1.088696E+01  2.539017E-03 -1.500092E+02  9.826081E-01 -6.117569E+01 
7.100000E+02  9.801576E-01 -1.008017E+02  1.504933E-03 1.272005E+01  4.163531E-03 8.407908E+00 
 1.512472E-03 1.252406E+01  9.861089E-01 -6.187249E+01  2.657198E-03 -1.536573E+02 
 4.189275E-03 8.472788E+00  2.636189E-03 -1.545051E+02  9.819645E-01 -6.119889E+01 
7.105000E+02  9.801012E-01 -1.008727E+02  1.564483E-03 1.416881E+01  4.004368E-03 1.044385E+01 
 1.564678E-03 1.387186E+01  9.862240E-01 -6.197265E+01  2.343871E-03 -1.558479E+02 
 4.016385E-03 1.033553E+01  2.304983E-03 -1.556777E+02  9.830583E-01 -6.122954E+01 
7.110000E+02  9.798202E-01 -1.009505E+02  1.642602E-03 1.351771E+01  4.039436E-03 1.073103E+01 
 1.620872E-03 1.388614E+01  9.861311E-01 -6.204714E+01  2.302882E-03 -1.572337E+02 
 4.031996E-03 1.091735E+01  2.302012E-03 -1.566360E+02  9.834599E-01 -6.132282E+01 
7.115000E+02  9.797450E-01 -1.010309E+02  1.655422E-03 9.622999E+00  4.000799E-03 1.014878E+01 
 1.687197E-03 1.041283E+01  9.853375E-01 -6.213724E+01  2.341095E-03 -1.552537E+02 
 3.990069E-03 1.032880E+01  2.344918E-03 -1.550423E+02  9.834651E-01 -6.137898E+01 
7.120000E+02  9.795518E-01 -1.011030E+02  1.685972E-03 1.046055E+01  3.935921E-03 1.146331E+01 
 1.678053E-03 1.010050E+01  9.856918E-01 -6.220052E+01  2.196063E-03 -1.556649E+02 
 3.934626E-03 1.160257E+01  2.195940E-03 -1.556116E+02  9.838012E-01 -6.144133E+01 
7.125000E+02  9.791782E-01 -1.011813E+02  1.752416E-03 2.757180E+00  3.974642E-03 1.305819E+01 
 1.722649E-03 3.416811E+00  9.850052E-01 -6.225579E+01  2.291372E-03 -1.510728E+02 
 3.954374E-03 1.279968E+01  2.314426E-03 -1.514064E+02  9.840213E-01 -6.152862E+01 
7.130000E+02  9.788561E-01 -1.012553E+02  1.465627E-03 2.276724E+00  4.039083E-03 1.248331E+01 
 1.463505E-03 1.260887E+00  9.854305E-01 -6.226840E+01  2.507729E-03 -1.581421E+02 
 4.051811E-03 1.250300E+01  2.488141E-03 -1.578752E+02  9.842510E-01 -6.161944E+01 
7.135000E+02  9.784578E-01 -1.013184E+02  1.432319E-03 5.353778E+00  4.050218E-03 1.195008E+01 
 1.452197E-03 6.287762E+00  9.859171E-01 -6.233596E+01  2.426938E-03 -1.605685E+02 
 4.053678E-03 1.159253E+01  2.407423E-03 -1.609093E+02  9.843832E-01 -6.167504E+01 
7.140000E+02  9.784003E-01 -1.013856E+02  1.449594E-03 9.210308E+00  4.067924E-03 1.154005E+01 
 1.439743E-03 9.801820E+00  9.862516E-01 -6.242616E+01  2.450488E-03 -1.632062E+02 
 4.056131E-03 1.150925E+01  2.449292E-03 -1.632341E+02  9.843568E-01 -6.175317E+01 
7.145000E+02  9.785152E-01 -1.014584E+02  1.476907E-03 1.182704E+01  4.040378E-03 1.150202E+01 
 1.479469E-03 1.193396E+01  9.857922E-01 -6.250567E+01  2.352567E-03 -1.701444E+02 
 4.095956E-03 1.163035E+01  2.330635E-03 -1.703609E+02  9.839707E-01 -6.183168E+01 
7.150000E+02  9.781502E-01 -1.015396E+02  1.461300E-03 1.032706E+01  3.966765E-03 1.042038E+01 
 1.480671E-03 1.090074E+01  9.858194E-01 -6.257300E+01  2.125266E-03 -1.668142E+02 
 4.006249E-03 1.067691E+01  2.137466E-03 -1.677044E+02  9.840255E-01 -6.190320E+01 
7.155000E+02  9.779413E-01 -1.015830E+02  1.442483E-03 1.529368E+01  3.980294E-03 1.172766E+01 
 1.441037E-03 1.542095E+01  9.854438E-01 -6.264599E+01  2.043381E-03 -1.729170E+02 
 3.950565E-03 1.165677E+01  2.053076E-03 -1.733202E+02  9.833102E-01 -6.196783E+01 
7.160000E+02  9.784332E-01 -1.016353E+02  1.668165E-03 1.293176E+01  3.997667E-03 1.015121E+01 
 1.640136E-03 1.213503E+01  9.855805E-01 -6.270663E+01  1.866186E-03 -1.636798E+02 
 4.014502E-03 1.040151E+01  1.841303E-03 -1.639370E+02  9.834288E-01 -6.204061E+01 
7.165000E+02  9.783426E-01 -1.017326E+02  1.564788E-03 8.173615E+00  3.967992E-03 1.063788E+01 
 1.562864E-03 7.782192E+00  9.855543E-01 -6.277307E+01  1.883331E-03 -1.601549E+02 
 3.927373E-03 1.081130E+01  1.856807E-03 -1.599659E+02  9.830593E-01 -6.210862E+01 
7.170000E+02  9.780683E-01 -1.017992E+02  1.401268E-03 1.219855E+01  4.069803E-03 1.015356E+01 
 1.423977E-03 1.186535E+01  9.855201E-01 -6.285531E+01  1.957526E-03 -1.589761E+02 
 4.102074E-03 1.034048E+01  1.962100E-03 -1.597948E+02  9.833371E-01 -6.220146E+01 
7.175000E+02  9.777967E-01 -1.018340E+02  1.587197E-03 1.675122E+01  3.847564E-03 8.302447E+00 
 1.591072E-03 1.708559E+01  9.856115E-01 -6.293831E+01  2.079254E-03 -1.591118E+02 
 3.841644E-03 8.474922E+00  2.064943E-03 -1.590947E+02  9.832269E-01 -6.226991E+01 
7.180000E+02  9.778123E-01 -1.018966E+02  1.498351E-03 1.145349E+01  3.958716E-03 1.012450E+01 
 1.519083E-03 1.156989E+01  9.856445E-01 -6.299746E+01  2.154741E-03 -1.633387E+02 
