! Matrix data file written by TouchstoneData, EPCOS AG
! FILENAME: "B4307_02_NB.s2p_newformat"
! COMMENT: "(B4307_02_NB.s2p) Epcos AG 3/3/2011 4:02:42"
! INFO: nport=2, nfreq=801
! DATE: "Mon Mar 14 19:02:34 2011"
! USER: "Michael Schemies"
!
! port | pin | signal
! -----|-----|--------
!   1  |  1  |  in
!   2  |  4  |  out
! --------------------
! 
# MHZ S MA R 50
! freq  magS11 angS11  magS21 angS21  magS12 angS12  magS22 angS22
1.530000E+03  9.528000E-01 -1.170728E+02  1.989804E-03 -2.187892E+01  2.111483E-03 -2.118057E+01  9.587794E-01 -1.244965E+02 
1.530500E+03  9.525191E-01 -1.171498E+02  2.014803E-03 -2.289981E+01  2.124426E-03 -2.211455E+01  9.588778E-01 -1.245561E+02 
1.531000E+03  9.523821E-01 -1.171863E+02  2.039062E-03 -2.061975E+01  2.138435E-03 -2.029568E+01  9.587963E-01 -1.246380E+02 
1.531500E+03  9.524704E-01 -1.172281E+02  2.098340E-03 -2.168466E+01  2.203255E-03 -2.142879E+01  9.588828E-01 -1.246878E+02 
1.532000E+03  9.524668E-01 -1.172630E+02  2.134778E-03 -2.209482E+01  2.220911E-03 -2.232160E+01  9.585154E-01 -1.247772E+02 
1.532500E+03  9.530439E-01 -1.172610E+02  2.155601E-03 -2.309553E+01  2.218960E-03 -2.242172E+01  9.587424E-01 -1.248226E+02 
1.533000E+03  9.539989E-01 -1.173041E+02  2.145793E-03 -2.422410E+01  2.263068E-03 -2.463788E+01  9.585760E-01 -1.248945E+02 
1.533500E+03  9.550663E-01 -1.173603E+02  2.143495E-03 -2.499997E+01  2.234040E-03 -2.493109E+01  9.585543E-01 -1.249622E+02 
1.534000E+03  9.553980E-01 -1.174581E+02  2.094418E-03 -2.516699E+01  2.197810E-03 -2.438254E+01  9.581723E-01 -1.250302E+02 
1.534500E+03  9.550612E-01 -1.175186E+02  2.081891E-03 -2.582196E+01  2.169647E-03 -2.623606E+01  9.580855E-01 -1.250743E+02 
1.535000E+03  9.554520E-01 -1.175703E+02  2.004265E-03 -2.556047E+01  2.103034E-03 -2.569765E+01  9.579452E-01 -1.251470E+02 
1.535500E+03  9.560346E-01 -1.176261E+02  1.993540E-03 -2.386227E+01  2.086197E-03 -2.398720E+01  9.580729E-01 -1.251952E+02 
1.536000E+03  9.566474E-01 -1.177316E+02  2.043005E-03 -2.325820E+01  2.155339E-03 -2.303088E+01  9.581405E-01 -1.252538E+02 
1.536500E+03  9.565814E-01 -1.178217E+02  2.055807E-03 -2.342015E+01  2.138194E-03 -2.338012E+01  9.581742E-01 -1.253363E+02 
1.537000E+03  9.565543E-01 -1.178714E+02  2.054946E-03 -2.379595E+01  2.178598E-03 -2.319326E+01  9.579998E-01 -1.253654E+02 
1.537500E+03  9.568236E-01 -1.179528E+02  2.045826E-03 -2.407888E+01  2.165361E-03 -2.405804E+01  9.580504E-01 -1.254214E+02 
1.538000E+03  9.575968E-01 -1.180373E+02  2.098901E-03 -2.369112E+01  2.164441E-03 -2.400300E+01  9.581860E-01 -1.254648E+02 
1.538500E+03  9.579127E-01 -1.181277E+02  2.078287E-03 -2.455766E+01  2.162481E-03 -2.471325E+01  9.582144E-01 -1.255292E+02 
1.539000E+03  9.581097E-01 -1.182452E+02  2.081625E-03 -2.428629E+01  2.189776E-03 -2.449866E+01  9.579455E-01 -1.255908E+02 
1.539500E+03  9.582351E-01 -1.183420E+02  2.096641E-03 -2.559109E+01  2.180056E-03 -2.589428E+01  9.572878E-01 -1.256500E+02 
1.540000E+03  9.582944E-01 -1.184346E+02  2.017739E-03 -2.548684E+01  2.101528E-03 -2.480171E+01  9.574071E-01 -1.256700E+02 
1.540500E+03  9.582000E-01 -1.185324E+02  2.062960E-03 -2.282810E+01  2.166384E-03 -2.327694E+01  9.574274E-01 -1.257337E+02 
1.541000E+03  9.578275E-01 -1.185974E+02  2.061083E-03 -2.404512E+01  2.184713E-03 -2.359663E+01  9.571291E-01 -1.258061E+02 
1.541500E+03  9.582262E-01 -1.186679E+02  2.099231E-03 -2.295413E+01  2.176796E-03 -2.254650E+01  9.571268E-01 -1.258311E+02 
1.542000E+03  9.586726E-01 -1.187779E+02  2.178246E-03 -2.233042E+01  2.250874E-03 -2.260605E+01  9.577842E-01 -1.259038E+02 
1.542500E+03  9.583389E-01 -1.188885E+02  2.275791E-03 -2.290482E+01  2.366839E-03 -2.178223E+01  9.579002E-01 -1.259558E+02 
1.543000E+03  9.579370E-01 -1.189826E+02  2.367338E-03 -2.421012E+01  2.468015E-03 -2.378792E+01  9.580660E-01 -1.260326E+02 
1.543500E+03  9.580082E-01 -1.190325E+02  2.449008E-03 -2.676629E+01  2.564270E-03 -2.704034E+01  9.583444E-01 -1.261116E+02 
1.544000E+03  9.579141E-01 -1.191228E+02  2.432953E-03 -3.010809E+01  2.564208E-03 -3.046490E+01  9.583054E-01 -1.261966E+02 
1.544500E+03  9.579980E-01 -1.192210E+02  2.392833E-03 -3.226188E+01  2.522524E-03 -3.274358E+01  9.582423E-01 -1.262547E+02 
1.545000E+03  9.573007E-01 -1.193239E+02  2.445870E-03 -3.408375E+01  2.568483E-03 -3.439690E+01  9.581522E-01 -1.263172E+02 
1.545500E+03  9.567442E-01 -1.193947E+02  2.390254E-03 -3.839295E+01  2.507875E-03 -3.827823E+01  9.579904E-01 -1.263724E+02 
1.546000E+03  9.564646E-01 -1.194805E+02  2.250835E-03 -4.045546E+01  2.352579E-03 -3.994154E+01  9.581326E-01 -1.264254E+02 
1.546500E+03  9.562431E-01 -1.195527E+02  2.177753E-03 -4.064258E+01  2.267385E-03 -4.110113E+01  9.575713E-01 -1.264871E+02 
1.547000E+03  9.558420E-01 -1.196625E+02  2.071746E-03 -4.215573E+01  2.127479E-03 -4.157468E+01  9.578391E-01 -1.265111E+02 
1.547500E+03  9.553038E-01 -1.197548E+02  2.053488E-03 -4.123555E+01  2.155194E-03 -3.962003E+01  9.583377E-01 -1.265799E+02 
1.548000E+03  9.547353E-01 -1.198633E+02  1.894231E-03 -4.169398E+01  2.006231E-03 -4.246086E+01  9.583334E-01 -1.266805E+02 
1.548500E+03  9.543607E-01 -1.199248E+02  1.874862E-03 -3.823144E+01  1.939634E-03 -3.793575E+01  9.583769E-01 -1.267594E+02 
1.549000E+03  9.535788E-01 -1.200589E+02  1.973838E-03 -3.625418E+01  2.056483E-03 -3.592723E+01  9.583933E-01 -1.268305E+02 
1.549500E+03  9.522110E-01 -1.201525E+02  2.058342E-03 -3.964986E+01  2.134876E-03 -3.879661E+01  9.584254E-01 -1.269175E+02 
1.550000E+03  9.515263E-01 -1.201911E+02  1.946061E-03 -4.137653E+01  2.024366E-03 -4.153220E+01  9.585755E-01 -1.269978E+02 
1.550500E+03  9.509279E-01 -1.202632E+02  1.936635E-03 -4.054844E+01  1.986454E-03 -4.015264E+01  9.583112E-01 -1.270802E+02 
1.551000E+03  9.492864E-01 -1.202837E+02  1.867925E-03 -4.215903E+01  1.964046E-03 -4.262774E+01  9.578390E-01 -1.271339E+02 
1.551500E+03  9.492392E-01 -1.202881E+02  1.778513E-03 -4.083509E+01  1.823397E-03 -3.975856E+01  9.579196E-01 -1.271906E+02 
1.552000E+03  9.486731E-01 -1.202745E+02  1.769037E-03 -3.790816E+01  1.830117E-03 -3.765465E+01  9.580039E-01 -1.272706E+02 
1.552500E+03  9.495874E-01 -1.203333E+02  1.797512E-03 -3.497136E+01  1.857019E-03 -3.562013E+01  9.579784E-01 -1.273369E+02 
1.553000E+03  9.491475E-01 -1.204309E+02  1.867123E-03 -3.529181E+01  1.913785E-03 -3.415938E+01  9.582690E-01 -1.274028E+02 
1.553500E+03  9.486937E-01 -1.204490E+02  1.872087E-03 -3.436890E+01  1.987935E-03 -3.524383E+01  9.586622E-01 -1.274865E+02 
1.554000E+03  9.491185E-01 -1.205027E+02  1.896238E-03 -3.378518E+01  1.979787E-03 -3.357171E+01  9.588417E-01 -1.275758E+02 
1.554500E+03  9.494541E-01 -1.205225E+02  1.956805E-03 -3.129278E+01  2.015096E-03 -3.191499E+01  9.586934E-01 -1.276645E+02 
1.555000E+03  9.501578E-01 -1.205834E+02  2.161904E-03 -3.133362E+01  2.274910E-03 -3.149794E+01  9.587294E-01 -1.277409E+02 
1.555500E+03  9.497917E-01 -1.207072E+02  2.291449E-03 -3.375950E+01  2.349864E-03 -3.402987E+01  9.592033E-01 -1.278409E+02 
1.556000E+03  9.493934E-01 -1.207343E+02  2.352886E-03 -3.530707E+01  2.499635E-03 -3.443303E+01  9.586480E-01 -1.279477E+02 
1.556500E+03  9.487419E-01 -1.207909E+02  2.459384E-03 -3.816521E+01  2.568711E-03 -3.817845E+01  9.578652E-01 -1.280199E+02 
1.557000E+03  9.499685E-01 -1.208634E+02  2.554020E-03 -4.090465E+01  2.664083E-03 -4.090114E+01  9.576327E-01 -1.280883E+02 
1.557500E+03  9.482128E-01 -1.210340E+02  2.610240E-03 -4.413422E+01  2.743234E-03 -4.417124E+01  9.573046E-01 -1.281657E+02 
1.558000E+03  9.478491E-01 -1.209976E+02  2.678056E-03 -4.654175E+01  2.799083E-03 -4.678112E+01  9.567743E-01 -1.282580E+02 
1.558500E+03  9.463994E-01 -1.210901E+02  2.681532E-03 -4.946129E+01  2.780966E-03 -4.985934E+01  9.564462E-01 -1.283402E+02 
1.559000E+03  9.466415E-01 -1.210794E+02  2.802602E-03 -5.338808E+01  2.927124E-03 -5.331145E+01  9.559291E-01 -1.284172E+02 
1.559500E+03  9.468864E-01 -1.210287E+02  2.845471E-03 -5.551909E+01  2.995584E-03 -5.572893E+01  9.561046E-01 -1.285188E+02 
1.560000E+03  9.484050E-01 -1.210949E+02  2.874038E-03 -6.171683E+01  3.009327E-03 -6.131873E+01  9.553778E-01 -1.286037E+02 
1.560500E+03  9.486582E-01 -1.211588E+02  2.905864E-03 -5.939116E+01  3.035789E-03 -5.965950E+01  9.551508E-01 -1.287150E+02 
1.561000E+03  9.495594E-01 -1.212546E+02  3.043931E-03 -6.436682E+01  3.177596E-03 -6.410254E+01  9.542119E-01 -1.287893E+02 
1.561500E+03  9.493862E-01 -1.213087E+02  3.259859E-03 -6.746826E+01  3.407167E-03 -6.701321E+01  9.534940E-01 -1.288920E+02 
1.562000E+03  9.494866E-01 -1.214006E+02  3.491358E-03 -7.975575E+01  3.657624E-03 -7.923128E+01  9.514982E-01 -1.289383E+02 
1.562500E+03  9.496534E-01 -1.214405E+02  3.169554E-03 -8.453532E+01  3.325514E-03 -8.404396E+01  9.516852E-01 -1.289509E+02 
1.563000E+03  9.505540E-01 -1.215169E+02  3.562708E-03 -8.285639E+01  3.726099E-03 -8.267403E+01  9.513936E-01 -1.291110E+02 
1.563500E+03  9.504951E-01 -1.215914E+02  3.609802E-03 -9.271649E+01  3.809984E-03 -9.264806E+01  9.496424E-01 -1.291716E+02 
1.564000E+03  9.508476E-01 -1.216965E+02  3.671943E-03 -1.070258E+02  3.825757E-03 -1.065421E+02  9.480600E-01 -1.291494E+02 
1.564500E+03  9.508788E-01 -1.217301E+02  3.703148E-03 -1.100032E+02  3.860489E-03 -1.097940E+02  9.469743E-01 -1.292117E+02 
1.565000E+03  9.514467E-01 -1.217962E+02  3.544589E-03 -1.232463E+02  3.732453E-03 -1.233371E+02  9.464105E-01 -1.291800E+02 
1.565500E+03  9.526393E-01 -1.218882E+02  3.334669E-03 -1.346396E+02  3.454396E-03 -1.349120E+02  9.464927E-01 -1.291368E+02 
1.566000E+03  9.527602E-01 -1.220268E+02  2.700003E-03 -1.403107E+02  2.826680E-03 -1.400864E+02  9.474915E-01 -1.292108E+02 
1.566500E+03  9.531096E-01 -1.221194E+02  3.041680E-03 -1.458844E+02  3.151602E-03 -1.452826E+02  9.455912E-01 -1.292057E+02 
1.567000E+03  9.524264E-01 -1.222491E+02  2.541870E-03 -1.591701E+02  2.643957E-03 -1.585107E+02  9.473384E-01 -1.292335E+02 
1.567500E+03  9.518013E-01 -1.222734E+02  2.397349E-03 -1.582733E+02  2.507234E-03 -1.585626E+02  9.462162E-01 -1.292998E+02 
1.568000E+03  9.520418E-01 -1.223150E+02  2.179496E-03 -1.694478E+02  2.275893E-03 -1.696358E+02  9.465610E-01 -1.292941E+02 
1.568500E+03  9.524767E-01 -1.223997E+02  1.799841E-03 -1.722614E+02  1.895598E-03 -1.724335E+02  9.472332E-01 -1.293979E+02 
1.569000E+03  9.521962E-01 -1.224551E+02  1.932615E-03 -1.732973E+02  2.012938E-03 -1.732294E+02  9.460954E-01 -1.293697E+02 
1.569500E+03  9.527687E-01 -1.225585E+02  2.004769E-03 1.783513E+02  2.112352E-03 1.782408E+02  9.457903E-01 -1.292972E+02 
1.570000E+03  9.528111E-01 -1.226234E+02  1.923755E-03 1.663582E+02  2.018396E-03 1.670405E+02  9.475769E-01 -1.293576E+02 
1.570500E+03  9.532047E-01 -1.227125E+02  1.803254E-03 1.577283E+02  1.848152E-03 1.582266E+02  9.474343E-01 -1.293693E+02 
1.571000E+03  9.539443E-01 -1.227933E+02  1.619934E-03 1.514721E+02  1.682489E-03 1.507404E+02  9.486680E-01 -1.293951E+02 
1.571500E+03  9.548411E-01 -1.228992E+02  1.569373E-03 1.463519E+02  1.599927E-03 1.452876E+02  9.504015E-01 -1.294899E+02 
1.572000E+03  9.550973E-01 -1.230112E+02  1.557859E-03 1.361277E+02  1.622295E-03 1.352415E+02  9.502615E-01 -1.295934E+02 
1.572500E+03  9.555125E-01 -1.231528E+02  1.425270E-03 1.283262E+02  1.506986E-03 1.278750E+02  9.510978E-01 -1.296521E+02 
1.573000E+03  9.556515E-01 -1.232460E+02  1.460705E-03 1.233975E+02  1.533203E-03 1.230066E+02  9.515997E-01 -1.297662E+02 
1.573500E+03  9.559812E-01 -1.233738E+02  1.379260E-03 1.114451E+02  1.446029E-03 1.128242E+02  9.522372E-01 -1.298184E+02 
1.574000E+03  9.558010E-01 -1.234976E+02  1.399764E-03 1.050262E+02  1.480066E-03 1.047676E+02  9.522603E-01 -1.299267E+02 
1.574500E+03  9.553955E-01 -1.235989E+02  1.430837E-03 8.575470E+01  1.507276E-03 8.551879E+01  9.515001E-01 -1.299413E+02 
1.575000E+03  9.555828E-01 -1.236951E+02  1.249103E-03 7.358057E+01  1.290517E-03 7.309084E+01  9.523668E-01 -1.299845E+02 
1.575500E+03  9.557879E-01 -1.237833E+02  9.897485E-04 6.453279E+01  1.037497E-03 6.531759E+01  9.537083E-01 -1.300643E+02 
1.576000E+03  9.557146E-01 -1.238836E+02  8.117724E-04 5.091324E+01  8.523946E-04 5.236970E+01  9.542703E-01 -1.301114E+02 
1.576500E+03  9.563319E-01 -1.239959E+02  6.227767E-04 5.069437E+01  6.361171E-04 5.101135E+01  9.556927E-01 -1.302072E+02 
1.577000E+03  9.564725E-01 -1.241444E+02  4.828569E-04 5.668359E+01  5.076623E-04 5.762828E+01  9.569369E-01 -1.303628E+02 
1.577500E+03  9.565252E-01 -1.242548E+02  4.526097E-04 6.721440E+01  4.493022E-04 6.574268E+01  9.571671E-01 -1.305015E+02 
1.578000E+03  9.567811E-01 -1.243776E+02  3.949158E-04 7.408173E+01  4.106958E-04 7.037058E+01  9.574079E-01 -1.306177E+02 
1.578500E+03  9.564825E-01 -1.245432E+02  3.936470E-04 8.310713E+01  4.026340E-04 8.406340E+01  9.577724E-01 -1.307416E+02 
1.579000E+03  9.562520E-01 -1.246753E+02  4.076416E-04 9.368552E+01  4.209072E-04 9.396917E+01  9.579181E-01 -1.308710E+02 
1.579500E+03  9.558485E-01 -1.248201E+02  4.465650E-04 9.957744E+01  4.355120E-04 1.046037E+02  9.578468E-01 -1.309981E+02 
1.580000E+03  9.547600E-01 -1.249200E+02  5.502441E-04 1.132060E+02  5.890499E-04 1.119795E+02  9.576786E-01 -1.311203E+02 
1.580500E+03  9.544668E-01 -1.250254E+02  6.845931E-04 1.152561E+02  7.205633E-04 1.136854E+02  9.575445E-01 -1.312467E+02 
1.581000E+03  9.534130E-01 -1.251433E+02  8.578436E-04 1.066292E+02  8.730831E-04 1.074021E+02  9.568641E-01 -1.313728E+02 
1.581500E+03  9.534196E-01 -1.252038E+02  9.153283E-04 1.039070E+02  9.475771E-04 1.028386E+02  9.559393E-01 -1.314768E+02 
1.582000E+03  9.534082E-01 -1.253384E+02  1.001864E-03 1.032845E+02  1.036902E-03 1.038555E+02  9.555631E-01 -1.315656E+02 
1.582500E+03  9.527067E-01 -1.254527E+02  1.203194E-03 1.041791E+02  1.247976E-03 1.036663E+02  9.555584E-01 -1.317010E+02 
1.583000E+03  9.527103E-01 -1.255785E+02  1.472865E-03 9.803411E+01  1.546217E-03 9.825055E+01  9.546483E-01 -1.318395E+02 
1.583500E+03  9.521152E-01 -1.257149E+02  1.658515E-03 8.971126E+01  1.721998E-03 9.077410E+01  9.537850E-01 -1.319370E+02 
1.584000E+03  9.518218E-01 -1.258378E+02  2.007447E-03 8.445943E+01  2.093964E-03 8.355420E+01  9.523272E-01 -1.320732E+02 
1.584500E+03  9.511032E-01 -1.259881E+02  2.273985E-03 6.748098E+01  2.374077E-03 6.778821E+01  9.506765E-01 -1.321112E+02 
1.585000E+03  9.506841E-01 -1.261058E+02  2.378109E-03 6.018675E+01  2.471236E-03 6.018297E+01  9.494796E-01 -1.321641E+02 
1.585500E+03  9.492715E-01 -1.262594E+02  2.564766E-03 4.457805E+01  2.692505E-03 4.492456E+01  9.485587E-01 -1.321441E+02 
1.586000E+03  9.478196E-01 -1.263204E+02  2.073745E-03 3.257651E+01  2.152051E-03 3.277256E+01  9.504610E-01 -1.321939E+02 
1.586500E+03  9.464311E-01 -1.263883E+02  2.048827E-03 2.786809E+01  2.146515E-03 2.807007E+01  9.501494E-01 -1.322728E+02 
1.587000E+03  9.454839E-01 -1.263959E+02  1.973481E-03 1.630157E+01  2.045202E-03 1.612370E+01  9.503144E-01 -1.323223E+02 
1.587500E+03  9.448635E-01 -1.264072E+02  1.549051E-03 1.211471E+01  1.610260E-03 1.306809E+01  9.511383E-01 -1.324338E+02 
1.588000E+03  9.461991E-01 -1.264853E+02  1.415901E-03 1.516489E+01  1.488910E-03 1.398159E+01  9.505986E-01 -1.325885E+02 
1.588500E+03  9.453602E-01 -1.265971E+02  1.363856E-03 1.850576E+01  1.410562E-03 1.969896E+01  9.484285E-01 -1.326731E+02 
1.589000E+03  9.448372E-01 -1.266895E+02  1.478565E-03 1.424779E+01  1.557794E-03 1.356362E+01  9.474781E-01 -1.326800E+02 
1.589500E+03  9.449119E-01 -1.267307E+02  1.349719E-03 1.731376E+01  1.409978E-03 1.819779E+01  9.465473E-01 -1.327744E+02 
1.590000E+03  9.455453E-01 -1.268601E+02  1.603484E-03 1.492757E+01  1.683274E-03 1.435789E+01  9.457899E-01 -1.327283E+02 
1.590500E+03  9.454019E-01 -1.269683E+02  1.525159E-03 7.412596E+00  1.595337E-03 7.633081E+00  9.462360E-01 -1.328178E+02 
1.591000E+03  9.450619E-01 -1.270990E+02  1.658744E-03 4.555614E+00  1.724091E-03 4.928711E+00  9.453727E-01 -1.327611E+02 
1.591500E+03  9.435789E-01 -1.272776E+02  1.626066E-03 -6.964750E+00  1.711079E-03 -7.748612E+00  9.479261E-01 -1.327523E+02 
1.592000E+03  9.432775E-01 -1.273088E+02  1.519005E-03 -9.329645E+00  1.579277E-03 -9.016025E+00  9.486796E-01 -1.328869E+02 
1.592500E+03  9.429615E-01 -1.274268E+02  1.511507E-03 -1.376738E+01  1.588322E-03 -1.290651E+01  9.483032E-01 -1.329541E+02 
1.593000E+03  9.426417E-01 -1.276331E+02  1.484610E-03 -2.235015E+01  1.579157E-03 -2.154211E+01  9.499689E-01 -1.329505E+02 
1.593500E+03  9.411882E-01 -1.278162E+02  1.316627E-03 -2.738087E+01  1.388555E-03 -2.637898E+01  9.510402E-01 -1.331066E+02 
1.594000E+03  9.354013E-01 -1.279261E+02  1.264549E-03 -3.058732E+01  1.294487E-03 -3.102993E+01  9.510449E-01 -1.332413E+02 
1.594500E+03  9.323270E-01 -1.277134E+02  1.130720E-03 -3.199528E+01  1.191692E-03 -3.147208E+01  9.510279E-01 -1.333312E+02 
1.595000E+03  9.330704E-01 -1.275567E+02  1.125358E-03 -3.815273E+01  1.194435E-03 -3.719248E+01  9.507087E-01 -1.334647E+02 
1.595500E+03  9.351917E-01 -1.275100E+02  9.762515E-04 -4.347977E+01  9.968472E-04 -4.389990E+01  9.503743E-01 -1.334339E+02 
1.596000E+03  9.369312E-01 -1.274846E+02  7.841726E-04 -3.998746E+01  8.098404E-04 -4.068953E+01  9.518249E-01 -1.334935E+02 
1.596500E+03  9.377632E-01 -1.277141E+02  6.428868E-04 -3.663293E+01  6.727189E-04 -3.529440E+01  9.529617E-01 -1.335777E+02 
1.597000E+03  9.371878E-01 -1.275995E+02  6.486397E-04 -2.314049E+01  6.881061E-04 -2.146109E+01  9.543023E-01 -1.336947E+02 
1.597500E+03  9.398383E-01 -1.276019E+02  7.271153E-04 -2.264850E+01  7.284691E-04 -2.260164E+01  9.549456E-01 -1.338528E+02 
1.598000E+03  9.426437E-01 -1.277900E+02  7.203914E-04 -1.653531E+01  7.326458E-04 -1.655610E+01  9.548473E-01 -1.339807E+02 
1.598500E+03  9.429611E-01 -1.278897E+02  8.017437E-04 -1.744558E+01  8.517164E-04 -1.511647E+01  9.550637E-01 -1.340729E+02 
1.599000E+03  9.455260E-01 -1.280227E+02  8.788801E-04 -1.467656E+01  9.198931E-04 -1.550573E+01  9.554064E-01 -1.341832E+02 
1.599500E+03  9.464573E-01 -1.281934E+02  9.758850E-04 -1.823616E+01  1.010838E-03 -1.697438E+01  9.558540E-01 -1.343015E+02 
1.600000E+03  9.464988E-01 -1.283564E+02  1.002040E-03 -2.314478E+01  1.047836E-03 -2.342928E+01  9.561157E-01 -1.344230E+02 
1.600500E+03  9.477853E-01 -1.284983E+02  1.064136E-03 -2.365748E+01  1.090304E-03 -2.411027E+01  9.561213E-01 -1.345529E+02 
1.601000E+03  9.477210E-01 -1.287164E+02  1.111295E-03 -2.843686E+01  1.163639E-03 -2.890477E+01  9.565191E-01 -1.346794E+02 
1.601500E+03  9.473333E-01 -1.289155E+02  1.129593E-03 -3.341399E+01  1.172608E-03 -3.381577E+01  9.567305E-01 -1.348278E+02 
1.602000E+03  9.462770E-01 -1.290638E+02  1.125089E-03 -3.583360E+01  1.176387E-03 -3.636465E+01  9.566209E-01 -1.349599E+02 
1.602500E+03  9.449025E-01 -1.291068E+02  1.141312E-03 -4.096134E+01  1.200817E-03 -3.978002E+01  9.566256E-01 -1.350908E+02 
1.603000E+03  9.458779E-01 -1.291757E+02  1.101606E-03 -4.135809E+01  1.152612E-03 -4.149966E+01  9.566907E-01 -1.352166E+02 
1.603500E+03  9.460805E-01 -1.293217E+02  1.099231E-03 -4.079714E+01  1.165277E-03 -4.060462E+01  9.566744E-01 -1.353525E+02 
1.604000E+03  9.467285E-01 -1.294150E+02  1.191129E-03 -4.210261E+01  1.256477E-03 -4.135148E+01  9.566987E-01 -1.354940E+02 
1.604500E+03  9.470781E-01 -1.295571E+02  1.251106E-03 -4.379340E+01  1.304695E-03 -4.346441E+01  9.566428E-01 -1.356511E+02 
1.605000E+03  9.471111E-01 -1.297378E+02  1.262731E-03 -4.553818E+01  1.334717E-03 -4.461954E+01  9.565587E-01 -1.357752E+02 
1.605500E+03  9.465584E-01 -1.297859E+02  1.305736E-03 -4.577562E+01  1.355506E-03 -4.548004E+01  9.564552E-01 -1.359030E+02 
1.606000E+03  9.476521E-01 -1.299453E+02  1.392392E-03 -4.591076E+01  1.435113E-03 -4.601775E+01  9.565527E-01 -1.360407E+02 
1.606500E+03  9.473125E-01 -1.301011E+02  1.448884E-03 -4.654601E+01  1.508845E-03 -4.552032E+01  9.565593E-01 -1.361885E+02 
1.607000E+03  9.475601E-01 -1.302108E+02  1.588765E-03 -4.606953E+01  1.667736E-03 -4.621026E+01  9.563943E-01 -1.363367E+02 
