! Matrix data file written by TouchstoneData, EPCOS AG
! FILENAME: "LY26A_9_WB.s2p_newformat"
! COMMENT: "(LY26A_9_WB.s2p) EPCOS AG 23.02.2010 15:22:2"
! INFO: nport=2, nfreq=1601
! DATE: "Thu May 20 11:04:25 2010"
! USER: "Michael Schemies"
!
! port | pin | signal
! -----|-----|--------
!   1  |  1  |  in
!   2  |  4  |  out
! --------------------
! 
# MHZ S MA R 50
! freq  magS11 angS11  magS21 angS21  magS12 angS12  magS22 angS22
5.000000E+01  9.981378E-01 -3.573974E+00  5.196323E-04 8.460393E+01  4.896289E-04 8.179346E+01  9.983021E-01 -3.597719E+00 
5.246875E+01  9.990311E-01 -3.931760E+00  5.672668E-04 8.193114E+01  5.640389E-04 8.325640E+01  1.000350E+00 -4.047999E+00 
5.493750E+01  9.985382E-01 -4.087738E+00  5.521155E-04 9.276011E+01  5.652866E-04 9.121294E+01  9.997112E-01 -4.244757E+00 
5.740625E+01  9.986128E-01 -4.309851E+00  5.849548E-04 8.666341E+01  5.913629E-04 8.477132E+01  9.990701E-01 -4.510209E+00 
5.987500E+01  9.996574E-01 -4.517006E+00  6.163753E-04 8.606321E+01  6.333915E-04 8.364087E+01  9.986365E-01 -4.687656E+00 
6.234375E+01  9.996458E-01 -4.729331E+00  6.561429E-04 8.697166E+01  7.017575E-04 8.939133E+01  9.985707E-01 -4.889960E+00 
6.481250E+01  9.994134E-01 -4.896911E+00  6.400956E-04 8.433707E+01  6.376140E-04 8.210309E+01  9.987700E-01 -5.014402E+00 
6.728125E+01  9.988275E-01 -4.955868E+00  6.877514E-04 8.483731E+01  6.936588E-04 8.436159E+01  9.982936E-01 -5.119166E+00 
6.975000E+01  9.992865E-01 -5.384558E+00  7.115212E-04 8.279952E+01  6.843032E-04 8.449229E+01  9.995692E-01 -5.601701E+00 
7.221875E+01  9.984272E-01 -5.511368E+00  7.815975E-04 8.330395E+01  7.967919E-04 8.372171E+01  9.993942E-01 -5.648482E+00 
7.468750E+01  9.992544E-01 -5.642118E+00  7.789376E-04 8.537352E+01  7.567324E-04 8.446543E+01  1.000061E+00 -5.824771E+00 
7.715625E+01  9.991304E-01 -5.812636E+00  8.516671E-04 8.222924E+01  8.380442E-04 8.142847E+01  1.000053E+00 -6.025470E+00 
7.962500E+01  9.994925E-01 -6.087944E+00  7.533688E-04 8.642020E+01  7.521784E-04 8.519095E+01  9.991871E-01 -6.231912E+00 
8.209375E+01  9.995328E-01 -6.125936E+00  8.661890E-04 8.115638E+01  8.612689E-04 8.146417E+01  9.991672E-01 -6.265445E+00 
8.456250E+01  9.991116E-01 -6.410981E+00  8.925141E-04 8.319198E+01  8.701560E-04 8.335344E+01  9.996999E-01 -6.599771E+00 
8.703125E+01  9.995713E-01 -6.635238E+00  8.854383E-04 8.551683E+01  8.707858E-04 8.455862E+01  1.000614E+00 -6.767838E+00 
8.950000E+01  9.995759E-01 -6.775031E+00  9.433238E-04 8.433063E+01  9.429213E-04 8.443192E+01  1.000400E+00 -6.917991E+00 
9.196875E+01  9.993596E-01 -6.927344E+00  9.341031E-04 8.447957E+01  9.139912E-04 8.423458E+01  9.996936E-01 -7.151849E+00 
9.443750E+01  9.998091E-01 -7.147801E+00  9.829259E-04 8.238312E+01  9.943438E-04 8.307363E+01  9.990430E-01 -7.369810E+00 
9.690625E+01  1.000293E+00 -7.361297E+00  7.771784E-04 8.754923E+01  8.046633E-04 8.684757E+01  9.990139E-01 -7.577916E+00 
9.937500E+01  9.999733E-01 -7.511867E+00  1.045234E-03 8.500237E+01  1.022146E-03 8.484352E+01  9.998511E-01 -7.737713E+00 
1.018438E+02  9.997455E-01 -7.667162E+00  1.071773E-03 8.151505E+01  1.077566E-03 8.111562E+01  1.000275E+00 -7.887781E+00 
1.043125E+02  9.997749E-01 -7.892357E+00  1.077620E-03 8.279019E+01  1.074872E-03 8.185447E+01  1.000281E+00 -8.095492E+00 
1.067812E+02  9.996768E-01 -8.075984E+00  1.092396E-03 8.251785E+01  1.079790E-03 8.257440E+01  9.980053E-01 -8.468608E+00 
1.092500E+02  9.998260E-01 -8.255363E+00  1.100234E-03 8.092606E+01  1.103356E-03 8.051382E+01  9.972529E-01 -8.732406E+00 
1.117188E+02  9.997126E-01 -8.482546E+00  1.104199E-03 8.076310E+01  1.121699E-03 7.844411E+01  9.972393E-01 -8.938142E+00 
1.141875E+02  1.000170E+00 -8.793330E+00  1.166223E-03 8.107994E+01  1.234873E-03 7.978996E+01  9.978023E-01 -9.278965E+00 
1.166562E+02  9.996029E-01 -8.859525E+00  1.170769E-03 8.186992E+01  1.192023E-03 8.105813E+01  9.973331E-01 -9.285963E+00 
1.191250E+02  9.992217E-01 -9.061088E+00  1.175155E-03 8.184429E+01  1.159693E-03 8.054007E+01  9.971799E-01 -9.502604E+00 
1.215938E+02  9.994255E-01 -9.257494E+00  1.226772E-03 7.963109E+01  1.246874E-03 7.762385E+01  9.976716E-01 -9.700448E+00 
1.240625E+02  9.994275E-01 -9.451715E+00  1.276718E-03 8.239901E+01  1.247746E-03 8.086060E+01  9.987531E-01 -9.854316E+00 
1.265312E+02  9.988505E-01 -9.599866E+00  1.275262E-03 8.095338E+01  1.351456E-03 8.268472E+01  9.970866E-01 -1.002127E+01 
1.290000E+02  9.988766E-01 -9.801861E+00  1.328507E-03 8.024397E+01  1.298155E-03 8.182700E+01  9.960376E-01 -1.024945E+01 
1.314688E+02  9.991965E-01 -1.000669E+01  1.311531E-03 8.006877E+01  1.325434E-03 7.885685E+01  9.951851E-01 -1.043701E+01 
1.339375E+02  9.995509E-01 -1.009685E+01  1.353497E-03 8.092396E+01  1.340469E-03 8.079303E+01  9.959789E-01 -1.044504E+01 
1.364062E+02  9.985894E-01 -1.028809E+01  1.412972E-03 7.963664E+01  1.339794E-03 7.903460E+01  9.962021E-01 -1.075377E+01 
1.388750E+02  9.979846E-01 -1.047820E+01  1.414239E-03 7.926791E+01  1.384917E-03 8.034923E+01  9.956995E-01 -1.092008E+01 
1.413438E+02  9.986010E-01 -1.065995E+01  1.409915E-03 7.903959E+01  1.427804E-03 8.006106E+01  9.956813E-01 -1.104668E+01 
1.438125E+02  9.980641E-01 -1.086283E+01  1.389902E-03 7.929385E+01  1.430300E-03 7.840685E+01  9.951151E-01 -1.125037E+01 
1.462812E+02  9.987213E-01 -1.092741E+01  1.455931E-03 7.704474E+01  1.462271E-03 7.805563E+01  9.953500E-01 -1.134133E+01 
1.487500E+02  9.982421E-01 -1.120941E+01  1.519099E-03 7.871437E+01  1.492155E-03 7.918189E+01  9.957244E-01 -1.155119E+01 
1.512188E+02  9.981518E-01 -1.140131E+01  1.504856E-03 7.951587E+01  1.537912E-03 7.958942E+01  9.961910E-01 -1.173440E+01 
1.536875E+02  9.986455E-01 -1.159896E+01  1.529508E-03 7.696544E+01  1.516656E-03 7.742991E+01  9.959374E-01 -1.192047E+01 
1.561562E+02  9.989484E-01 -1.183211E+01  1.588644E-03 7.801164E+01  1.584010E-03 7.833052E+01  9.956371E-01 -1.211512E+01 
1.586250E+02  9.992568E-01 -1.195601E+01  1.599444E-03 7.831626E+01  1.587272E-03 7.713193E+01  9.958374E-01 -1.224885E+01 
1.610938E+02  1.000241E+00 -1.202158E+01  1.622313E-03 7.688175E+01  1.628341E-03 7.785728E+01  9.969945E-01 -1.235067E+01 
1.635625E+02  9.997674E-01 -1.231040E+01  1.659102E-03 7.813096E+01  1.696096E-03 7.777902E+01  9.964606E-01 -1.266519E+01 
1.660312E+02  9.974822E-01 -1.254892E+01  1.651097E-03 7.610262E+01  1.631636E-03 7.567423E+01  9.957715E-01 -1.289800E+01 
1.685000E+02  9.984042E-01 -1.264018E+01  1.679755E-03 7.504254E+01  1.637669E-03 7.465318E+01  9.964287E-01 -1.299901E+01 
1.709688E+02  9.977988E-01 -1.286512E+01  1.739281E-03 7.713710E+01  1.722042E-03 7.802277E+01  9.964803E-01 -1.311356E+01 
1.734375E+02  9.977465E-01 -1.301376E+01  1.743151E-03 7.869955E+01  1.722446E-03 7.892802E+01  9.965899E-01 -1.327918E+01 
1.759062E+02  9.982976E-01 -1.315161E+01  1.750405E-03 7.752276E+01  1.751941E-03 7.827998E+01  9.965419E-01 -1.350379E+01 
1.783750E+02  9.990808E-01 -1.337569E+01  1.775692E-03 7.678202E+01  1.742592E-03 7.679587E+01  9.971711E-01 -1.374602E+01 
1.808438E+02  9.990620E-01 -1.350881E+01  1.819074E-03 7.658036E+01  1.809731E-03 7.625918E+01  9.967826E-01 -1.390020E+01 
1.833125E+02  9.991990E-01 -1.369654E+01  1.827563E-03 7.540114E+01  1.857132E-03 7.575335E+01  9.970646E-01 -1.410659E+01 
1.857812E+02  9.992898E-01 -1.388084E+01  1.868341E-03 7.633855E+01  1.858269E-03 7.566951E+01  9.974555E-01 -1.427194E+01 
1.882500E+02  9.982898E-01 -1.407870E+01  1.912964E-03 7.558990E+01  1.912511E-03 7.507274E+01  9.969438E-01 -1.444516E+01 
1.907188E+02  9.990907E-01 -1.427799E+01  1.974607E-03 7.662353E+01  1.948127E-03 7.683511E+01  9.973402E-01 -1.460198E+01 
1.931875E+02  9.978259E-01 -1.444056E+01  1.940274E-03 7.659026E+01  1.912782E-03 7.726701E+01  9.959778E-01 -1.481011E+01 
1.956562E+02  9.988353E-01 -1.462698E+01  1.937453E-03 7.631059E+01  1.932190E-03 7.615366E+01  9.958485E-01 -1.502934E+01 
1.981250E+02  9.999325E-01 -1.485254E+01  1.983029E-03 7.505875E+01  1.992533E-03 7.465200E+01  9.971672E-01 -1.524637E+01 
2.005938E+02  9.992751E-01 -1.502558E+01  1.998086E-03 7.446098E+01  1.975057E-03 7.468284E+01  9.979739E-01 -1.540719E+01 
2.030625E+02  9.993308E-01 -1.517468E+01  2.064516E-03 7.425423E+01  2.034738E-03 7.374731E+01  9.980163E-01 -1.564193E+01 
2.055312E+02  9.981823E-01 -1.534456E+01  2.039104E-03 7.411076E+01  2.033130E-03 7.372248E+01  9.976682E-01 -1.578346E+01 
2.080000E+02  9.971649E-01 -1.549943E+01  2.093490E-03 7.434711E+01  2.086135E-03 7.486898E+01  9.981995E-01 -1.596679E+01 
2.104688E+02  9.990409E-01 -1.570578E+01  2.098733E-03 7.475461E+01  2.137548E-03 7.477837E+01  9.984570E-01 -1.621371E+01 
2.129375E+02  9.987246E-01 -1.591815E+01  2.128126E-03 7.347780E+01  2.126742E-03 7.379809E+01  9.967261E-01 -1.636596E+01 
2.154062E+02  9.972033E-01 -1.594590E+01  2.126739E-03 7.496945E+01  2.121279E-03 7.388063E+01  9.964265E-01 -1.653413E+01 
2.178750E+02  9.987270E-01 -1.613481E+01  2.233474E-03 7.369296E+01  2.212293E-03 7.310515E+01  9.968358E-01 -1.670854E+01 
2.203438E+02  9.987795E-01 -1.633249E+01  2.210495E-03 7.411197E+01  2.191592E-03 7.409239E+01  9.972947E-01 -1.686610E+01 
2.228125E+02  9.983655E-01 -1.656065E+01  2.213565E-03 7.319646E+01  2.235999E-03 7.203117E+01  9.970953E-01 -1.709564E+01 
2.252812E+02  9.982343E-01 -1.678349E+01  2.259292E-03 7.331988E+01  2.241044E-03 7.315562E+01  9.975406E-01 -1.731701E+01 
2.277500E+02  9.984039E-01 -1.700503E+01  2.265769E-03 7.264385E+01  2.266008E-03 7.322404E+01  9.973606E-01 -1.751461E+01 
2.302188E+02  9.978302E-01 -1.719094E+01  2.282145E-03 7.345487E+01  2.290168E-03 7.288292E+01  9.974259E-01 -1.772181E+01 
2.326875E+02  9.972185E-01 -1.725848E+01  2.287712E-03 7.252258E+01  2.297272E-03 7.227678E+01  9.981784E-01 -1.772147E+01 
2.351562E+02  9.974466E-01 -1.753878E+01  2.315197E-03 7.259628E+01  2.292050E-03 7.162989E+01  9.974386E-01 -1.806605E+01 
2.376250E+02  9.963114E-01 -1.765401E+01  2.373589E-03 7.345574E+01  2.388615E-03 7.330623E+01  9.961119E-01 -1.822169E+01 
2.400938E+02  9.964457E-01 -1.789838E+01  2.372224E-03 7.154433E+01  2.356520E-03 7.259422E+01  9.958006E-01 -1.839958E+01 
2.425625E+02  9.973656E-01 -1.821406E+01  2.372111E-03 7.125182E+01  2.373456E-03 7.165490E+01  9.962681E-01 -1.870894E+01 
2.450312E+02  9.976764E-01 -1.828997E+01  2.431864E-03 7.102531E+01  2.442290E-03 7.122190E+01  9.970664E-01 -1.882002E+01 
2.475000E+02  9.970186E-01 -1.847756E+01  2.396298E-03 7.111392E+01  2.457678E-03 7.129332E+01  9.966159E-01 -1.899175E+01 
2.499688E+02  9.969122E-01 -1.870213E+01  2.473324E-03 7.043229E+01  2.500850E-03 7.091298E+01  9.964961E-01 -1.916842E+01 
2.524375E+02  9.970097E-01 -1.892181E+01  2.477601E-03 6.978256E+01  2.508059E-03 7.090080E+01  9.964675E-01 -1.932919E+01 
2.549062E+02  9.975125E-01 -1.907326E+01  2.506781E-03 6.999023E+01  2.494804E-03 7.115173E+01  9.968257E-01 -1.952481E+01 
2.573750E+02  9.974343E-01 -1.925393E+01  2.556914E-03 7.130713E+01  2.536713E-03 7.080231E+01  9.966226E-01 -1.977866E+01 
2.598438E+02  9.970813E-01 -1.945507E+01  2.568576E-03 7.045918E+01  2.559105E-03 7.018831E+01  9.961377E-01 -2.000011E+01 
2.623125E+02  9.956433E-01 -1.957998E+01  2.587316E-03 7.018465E+01  2.543513E-03 7.072066E+01  9.957158E-01 -2.012185E+01 
2.647812E+02  9.960185E-01 -1.976356E+01  2.555103E-03 7.023079E+01  2.594150E-03 7.056081E+01  9.956301E-01 -2.029455E+01 
2.672500E+02  9.968250E-01 -1.992253E+01  2.623158E-03 7.026455E+01  2.642048E-03 7.010038E+01  9.964099E-01 -2.045539E+01 
2.697188E+02  9.971866E-01 -2.011594E+01  2.630124E-03 6.978393E+01  2.653811E-03 6.972190E+01  9.965684E-01 -2.063139E+01 
2.721875E+02  9.967512E-01 -2.031973E+01  2.679674E-03 6.881318E+01  2.677713E-03 7.003590E+01  9.957203E-01 -2.078590E+01 
2.746562E+02  9.963594E-01 -2.044385E+01  2.705327E-03 6.928475E+01  2.674440E-03 6.910120E+01  9.969765E-01 -2.090518E+01 
2.771250E+02  9.957626E-01 -2.066750E+01  2.696815E-03 6.923744E+01  2.705760E-03 6.876246E+01  9.978453E-01 -2.115958E+01 
2.795938E+02  9.962357E-01 -2.085065E+01  2.753000E-03 6.891078E+01  2.749628E-03 6.897947E+01  9.975518E-01 -2.139405E+01 
2.820625E+02  9.966181E-01 -2.105481E+01  2.773179E-03 6.899404E+01  2.749089E-03 6.912332E+01  9.975617E-01 -2.159043E+01 
2.845312E+02  9.960063E-01 -2.132630E+01  2.787559E-03 6.892468E+01  2.763015E-03 6.887375E+01  9.974255E-01 -2.171856E+01 
2.870000E+02  9.962127E-01 -2.138021E+01  2.805301E-03 6.877012E+01  2.786086E-03 6.922775E+01  9.979714E-01 -2.185251E+01 
2.894688E+02  9.962877E-01 -2.146686E+01  2.836437E-03 6.873279E+01  2.835654E-03 6.849133E+01  9.985445E-01 -2.193304E+01 
2.919375E+02  9.964730E-01 -2.172479E+01  2.878866E-03 6.870403E+01  2.872300E-03 6.892896E+01  9.984131E-01 -2.218767E+01 
2.944062E+02  9.963535E-01 -2.190335E+01  2.850542E-03 6.769811E+01  2.856042E-03 6.753076E+01  9.979534E-01 -2.240387E+01 
2.968750E+02  9.963087E-01 -2.206969E+01  2.911842E-03 6.780293E+01  2.864225E-03 6.731959E+01  9.976195E-01 -2.260449E+01 
2.993438E+02  9.957231E-01 -2.226012E+01  2.885167E-03 6.839125E+01  2.887880E-03 6.763622E+01  9.975276E-01 -2.278967E+01 
3.018125E+02  9.958525E-01 -2.244344E+01  2.931963E-03 6.788531E+01  2.939772E-03 6.823415E+01  9.972099E-01 -2.295766E+01 
3.042812E+02  9.967069E-01 -2.266360E+01  2.944556E-03 6.748088E+01  2.939349E-03 6.754346E+01  9.971372E-01 -2.317551E+01 
3.067500E+02  9.962322E-01 -2.277987E+01  2.949128E-03 6.686740E+01  2.943857E-03 6.650582E+01  9.962996E-01 -2.329547E+01 
3.092188E+02  9.952340E-01 -2.295135E+01  2.978257E-03 6.798271E+01  2.982023E-03 6.745195E+01  9.962446E-01 -2.349231E+01 
3.116875E+02  9.959034E-01 -2.309601E+01  3.005406E-03 6.621826E+01  3.018193E-03 6.653771E+01  9.970294E-01 -2.366133E+01 
3.141562E+02  9.962396E-01 -2.323226E+01  3.074419E-03 6.696921E+01  3.079317E-03 6.701334E+01  9.971834E-01 -2.383628E+01 
3.166250E+02  9.968782E-01 -2.340000E+01  3.048098E-03 6.655376E+01  3.055064E-03 6.671337E+01  9.970546E-01 -2.404587E+01 
3.190938E+02  9.965019E-01 -2.358949E+01  3.076868E-03 6.688965E+01  3.064562E-03 6.656400E+01  9.979119E-01 -2.421702E+01 
3.215625E+02  9.967316E-01 -2.376715E+01  3.075073E-03 6.580733E+01  3.076234E-03 6.616863E+01  9.983686E-01 -2.441446E+01 
3.240312E+02  9.961313E-01 -2.394154E+01  3.150193E-03 6.665128E+01  3.120282E-03 6.611340E+01  9.986399E-01 -2.459685E+01 
3.265000E+02  9.962401E-01 -2.411100E+01  3.179300E-03 6.566477E+01  3.118338E-03 6.521490E+01  9.980888E-01 -2.479466E+01 
3.289688E+02  9.963849E-01 -2.429854E+01  3.154273E-03 6.563334E+01  3.131819E-03 6.620964E+01  9.976602E-01 -2.499497E+01 
3.314375E+02  9.964566E-01 -2.455507E+01  3.175990E-03 6.494953E+01  3.202296E-03 6.543178E+01  9.961023E-01 -2.519198E+01 
3.339062E+02  9.954804E-01 -2.467577E+01  3.246240E-03 6.528603E+01  3.216463E-03 6.491928E+01  9.961999E-01 -2.529959E+01 
3.363750E+02  9.954105E-01 -2.483760E+01  3.238481E-03 6.481848E+01  3.249674E-03 6.478482E+01  9.972893E-01 -2.539532E+01 
3.388438E+02  9.957761E-01 -2.503039E+01  3.232765E-03 6.452938E+01  3.239947E-03 6.522871E+01  9.978443E-01 -2.563300E+01 
3.413125E+02  9.964040E-01 -2.515765E+01  3.307514E-03 6.438351E+01  3.289345E-03 6.435918E+01  9.979532E-01 -2.581266E+01 
3.437812E+02  9.966686E-01 -2.531404E+01  3.269910E-03 6.493639E+01  3.281051E-03 6.484973E+01  9.976171E-01 -2.598443E+01 
3.462500E+02  9.968106E-01 -2.547547E+01  3.317369E-03 6.496124E+01  3.290040E-03 6.471737E+01  9.985978E-01 -2.619030E+01 
3.487188E+02  9.970097E-01 -2.563994E+01  3.343987E-03 6.447075E+01  3.326030E-03 6.429286E+01  9.989566E-01 -2.636485E+01 
3.511875E+02  9.972177E-01 -2.586259E+01  3.335231E-03 6.425321E+01  3.338320E-03 6.390876E+01  9.979340E-01 -2.655809E+01 
3.536562E+02  9.966233E-01 -2.617476E+01  3.371513E-03 6.318942E+01  3.367979E-03 6.370639E+01  9.974991E-01 -2.686819E+01 
3.561250E+02  9.951504E-01 -2.624648E+01  3.394544E-03 6.382459E+01  3.403929E-03 6.394120E+01  9.975033E-01 -2.689614E+01 
3.585938E+02  9.962095E-01 -2.633709E+01  3.403685E-03 6.439935E+01  3.405935E-03 6.464141E+01  9.981094E-01 -2.704099E+01 
3.610625E+02  9.964846E-01 -2.650909E+01  3.453963E-03 6.364702E+01  3.424488E-03 6.380907E+01  9.981581E-01 -2.722916E+01 
3.635312E+02  9.961579E-01 -2.670875E+01  3.419777E-03 6.296682E+01  3.450081E-03 6.336603E+01  9.970891E-01 -2.744724E+01 
3.660000E+02  9.966702E-01 -2.686032E+01  3.489329E-03 6.264195E+01  3.482542E-03 6.221866E+01  9.969006E-01 -2.760441E+01 
3.684688E+02  9.972819E-01 -2.704186E+01  3.480319E-03 6.258873E+01  3.526840E-03 6.313677E+01  9.970402E-01 -2.776869E+01 
3.709375E+02  9.962649E-01 -2.725193E+01  3.522935E-03 6.338361E+01  3.528715E-03 6.278755E+01  9.973482E-01 -2.794492E+01 
3.734062E+02  9.962839E-01 -2.744694E+01  3.571024E-03 6.264067E+01  3.540228E-03 6.277804E+01  9.980287E-01 -2.802078E+01 
3.758750E+02  9.966611E-01 -2.765848E+01  3.527992E-03 6.291468E+01  3.547401E-03 6.302164E+01  9.972480E-01 -2.823292E+01 
3.783438E+02  9.962340E-01 -2.790464E+01  3.571250E-03 6.236905E+01  3.551744E-03 6.236750E+01  9.966779E-01 -2.844688E+01 
3.808125E+02  9.944043E-01 -2.800790E+01  3.557789E-03 6.227667E+01  3.498419E-03 6.239402E+01  9.966407E-01 -2.860811E+01 
3.832812E+02  9.948104E-01 -2.815108E+01  3.615455E-03 6.211099E+01  3.630317E-03 6.184223E+01  9.969086E-01 -2.874359E+01 
3.857500E+02  9.971807E-01 -2.824401E+01  3.669220E-03 6.159760E+01  3.651446E-03 6.125141E+01  9.981997E-01 -2.886621E+01 
3.882188E+02  9.959366E-01 -2.849368E+01  3.610302E-03 6.107946E+01  3.640206E-03 6.081793E+01  9.960848E-01 -2.910916E+01 
3.906875E+02  9.945881E-01 -2.861797E+01  3.674160E-03 6.092863E+01  3.666986E-03 6.088972E+01  9.950419E-01 -2.935240E+01 
3.931562E+02  9.955784E-01 -2.881269E+01  3.693597E-03 6.079466E+01  3.689730E-03 6.108528E+01  9.952324E-01 -2.945666E+01 
3.956250E+02  9.953822E-01 -2.899130E+01  3.743420E-03 6.115695E+01  3.701818E-03 6.144756E+01  9.963286E-01 -2.961423E+01 
3.980938E+02  9.954995E-01 -2.918403E+01  3.728286E-03 6.085581E+01  3.742584E-03 6.124721E+01  9.966375E-01 -2.975872E+01 
4.005625E+02  9.947536E-01 -2.945112E+01  3.737600E-03 6.041996E+01  3.720694E-03 6.078592E+01  9.964583E-01 -3.003075E+01 
4.030312E+02  9.938139E-01 -2.972251E+01  3.764175E-03 6.005405E+01  3.764409E-03 6.034195E+01  9.960691E-01 -3.017283E+01 
4.055000E+02  9.948612E-01 -2.970437E+01  3.770682E-03 6.028624E+01  3.816868E-03 6.033988E+01  9.964500E-01 -3.025867E+01 
4.079688E+02  9.951422E-01 -2.988512E+01  3.833597E-03 6.011962E+01  3.805728E-03 6.003156E+01  9.965875E-01 -3.044832E+01 
4.104375E+02  9.954728E-01 -3.009114E+01  3.838024E-03 6.089560E+01  3.831027E-03 6.070461E+01  9.967751E-01 -3.064202E+01 
4.129062E+02  9.957651E-01 -3.030580E+01  3.804793E-03 5.927360E+01  3.798437E-03 5.912500E+01  9.964861E-01 -3.082695E+01 
4.153750E+02  9.952866E-01 -3.046341E+01  3.870834E-03 5.969598E+01  3.859303E-03 6.009107E+01  9.965070E-01 -3.097822E+01 
4.178438E+02  9.946060E-01 -3.055037E+01  3.867485E-03 5.986616E+01  3.869609E-03 5.938058E+01  9.960307E-01 -3.108792E+01 
4.203125E+02  9.945392E-01 -3.082549E+01  3.911754E-03 5.915062E+01  3.890621E-03 5.940009E+01  9.969153E-01 -3.132620E+01 
4.227812E+02  9.948831E-01 -3.100629E+01  3.928732E-03 5.959806E+01  3.886462E-03 5.948618E+01  9.960850E-01 -3.152068E+01 
4.252500E+02  9.950160E-01 -3.122589E+01  3.917081E-03 5.829928E+01  3.886768E-03 5.876197E+01  9.951188E-01 -3.171875E+01 
4.277188E+02  9.933565E-01 -3.137051E+01  3.938049E-03 5.943987E+01  3.934284E-03 5.924498E+01  9.957710E-01 -3.183011E+01 
4.301875E+02  9.939415E-01 -3.148581E+01  3.965493E-03 5.835566E+01  3.965312E-03 5.824448E+01  9.963458E-01 -3.197956E+01 
4.326562E+02  9.953526E-01 -3.162515E+01  4.009528E-03 5.888383E+01  4.023881E-03 5.840838E+01  9.963494E-01 -3.209715E+01 
4.351250E+02  9.947804E-01 -3.176901E+01  3.994270E-03 5.910722E+01  3.983768E-03 5.852641E+01  9.961810E-01 -3.223649E+01 
