! Matrix data file written by TouchstoneData, EPCOS AG
! FILENAME: "B4304_Pcb01_WB.s3p_newformat"
! COMMENT: "(B4304_Pcb01_WB.s3p) Epcos AG 3/2/2011 3:58:"
! INFO: nport=3, nfreq=1601
! DATE: "Mon Apr 18 15:57:59 2011"
! USER: "Sergey Rostovtsev"
!
! port | pin | signal
! -----|-----|--------
!   1  |  1  |  in
!   2  |  3  |  out
!   3  |  4  |  out
! --------------------
! 
# MHZ S MA R 50
! freq  magS11 angS11  magS12 angS12  magS13 angS13  ...
5.000000E+01  9.955628E-01 -7.569582E+00  3.354899E-04 7.492902E+01  6.497680E-04 8.277864E+01 
 4.403409E-04 7.694820E+01  9.972021E-01 -3.821833E+00  1.847335E-04 1.360679E+02 
 6.433872E-04 8.874601E+01  1.159825E-04 6.185015E+01  9.978671E-01 -3.725610E+00 
5.371875E+01  9.948333E-01 -8.172541E+00  4.001642E-04 7.635964E+01  7.035653E-04 8.176072E+01 
 4.406372E-04 8.126939E+01  9.960413E-01 -4.147203E+00  1.579329E-04 9.915228E+01 
 6.795237E-04 8.036880E+01  1.625098E-04 9.276041E+01  9.971110E-01 -4.041553E+00 
5.743750E+01  9.956662E-01 -8.816737E+00  4.421788E-04 8.372396E+01  7.424561E-04 8.507559E+01 
 4.260088E-04 8.331514E+01  9.973487E-01 -4.454114E+00  2.403610E-04 9.231473E+01 
 7.580197E-04 8.381083E+01  2.148863E-04 9.063064E+01  9.978464E-01 -4.362741E+00 
6.115625E+01  9.953443E-01 -9.350140E+00  4.957021E-04 8.313327E+01  8.056856E-04 8.234150E+01 
 5.293624E-04 8.169031E+01  9.979244E-01 -4.705839E+00  1.911513E-04 9.320755E+01 
 8.266139E-04 8.371757E+01  2.269098E-04 7.954176E+01  9.976823E-01 -4.629675E+00 
6.487500E+01  9.960549E-01 -9.920456E+00  5.302442E-04 8.030759E+01  8.454268E-04 8.291984E+01 
 5.321414E-04 8.082869E+01  9.969399E-01 -4.975218E+00  2.570921E-04 8.276417E+01 
 8.521571E-04 8.339646E+01  2.602273E-04 8.033765E+01  9.985795E-01 -4.900002E+00 
6.859375E+01  9.959721E-01 -1.048989E+01  5.519460E-04 7.266985E+01  8.940843E-04 7.548137E+01 
 5.374179E-04 6.949010E+01  9.970465E-01 -5.316566E+00  3.235166E-04 1.005968E+02 
 9.035302E-04 7.581496E+01  3.026400E-04 1.000997E+02  9.977456E-01 -5.232435E+00 
7.231250E+01  9.963113E-01 -1.104266E+01  6.502810E-04 8.198949E+01  9.566110E-04 8.376591E+01 
 6.336535E-04 7.945161E+01  9.973314E-01 -5.574772E+00  1.508981E-04 7.741437E+01 
 9.465205E-04 8.058188E+01  1.391720E-04 6.005653E+01  9.978742E-01 -5.467878E+00 
7.603125E+01  9.957707E-01 -1.155141E+01  6.497553E-04 8.236036E+01  1.014053E-03 8.099233E+01 
 6.293094E-04 7.947924E+01  9.976104E-01 -5.860550E+00  3.226676E-04 7.889018E+01 
 1.022956E-03 8.104127E+01  3.394643E-04 8.005034E+01  9.976242E-01 -5.696167E+00 
7.975000E+01  9.953380E-01 -1.214813E+01  8.983293E-04 7.079606E+01  1.271604E-03 7.387031E+01 
 8.677950E-04 7.023627E+01  9.977758E-01 -6.131568E+00  2.413110E-04 -1.506364E+02 
 1.271773E-03 7.330750E+01  2.395151E-04 -1.517617E+02  9.979469E-01 -6.005121E+00 
8.346875E+01  9.960790E-01 -1.270443E+01  6.636534E-04 7.571403E+01  1.093007E-03 7.849161E+01 
 6.633988E-04 7.609023E+01  9.971574E-01 -6.390986E+00  1.665939E-04 1.135992E+02 
 1.107985E-03 7.863561E+01  1.755501E-04 1.139722E+02  9.984575E-01 -6.250055E+00 
8.718750E+01  9.960452E-01 -1.324434E+01  6.357464E-04 8.049602E+01  1.059998E-03 8.006096E+01 
 6.463430E-04 7.936629E+01  9.977747E-01 -6.652114E+00  4.863003E-04 8.416379E+01 
 1.063251E-03 7.983421E+01  4.508085E-04 8.427776E+01  9.976326E-01 -6.534220E+00 
9.090625E+01  9.955405E-01 -1.388309E+01  7.130347E-04 7.739766E+01  1.190841E-03 7.781271E+01 
 7.277548E-04 7.704858E+01  9.976593E-01 -6.882187E+00  3.374898E-04 9.049251E+01 
 1.207793E-03 7.619209E+01  3.702162E-04 8.987379E+01  9.981324E-01 -6.794113E+00 
9.462500E+01  9.964938E-01 -1.440236E+01  7.506693E-04 8.295652E+01  1.204828E-03 7.841092E+01 
 7.370463E-04 8.041268E+01  9.970336E-01 -7.227447E+00  4.143084E-04 2.072358E+01 
 1.210363E-03 7.878366E+01  3.746461E-04 1.975801E+01  9.978883E-01 -7.026110E+00 
9.834375E+01  9.951712E-01 -1.499171E+01  8.090594E-04 7.898782E+01  1.289202E-03 7.910908E+01 
 8.201532E-04 7.798313E+01  9.975062E-01 -7.544726E+00  3.641613E-04 7.015252E+01 
 1.273744E-03 7.851511E+01  3.832187E-04 6.390540E+01  9.980322E-01 -7.334678E+00 
1.020625E+02  9.956115E-01 -1.551393E+01  7.986006E-04 7.167601E+01  1.286044E-03 7.449903E+01 
 7.972561E-04 7.192041E+01  9.965598E-01 -7.804395E+00  4.200662E-04 8.903166E+01 
 1.278741E-03 7.518559E+01  4.449308E-04 9.061799E+01  9.980018E-01 -7.638334E+00 
1.057812E+02  9.960146E-01 -1.609583E+01  8.363771E-04 7.494921E+01  1.359200E-03 7.576286E+01 
 8.761611E-04 7.371229E+01  9.967598E-01 -8.069115E+00  2.591631E-04 9.249864E+01 
 1.369196E-03 7.676469E+01  2.692686E-04 8.439453E+01  9.978401E-01 -7.876199E+00 
1.095000E+02  9.953962E-01 -1.663961E+01  8.124726E-04 7.566504E+01  1.364326E-03 7.837858E+01 
 8.217493E-04 7.775624E+01  9.944567E-01 -8.588353E+00  3.686273E-04 8.380433E+01 
 1.388974E-03 7.755049E+01  3.737754E-04 8.023448E+01  9.974569E-01 -8.196726E+00 
1.132188E+02  9.952519E-01 -1.723834E+01  8.783163E-04 7.277479E+01  1.419631E-03 7.458053E+01 
 8.585021E-04 7.195716E+01  9.939882E-01 -8.838597E+00  4.138744E-04 9.514108E+01 
 1.437976E-03 7.441522E+01  4.262896E-04 9.335002E+01  9.980507E-01 -8.490093E+00 
1.169375E+02  9.944659E-01 -1.778283E+01  9.212021E-04 7.699404E+01  1.477869E-03 7.712040E+01 
 9.232568E-04 7.632688E+01  9.943333E-01 -9.220891E+00  4.091111E-04 6.784615E+01 
 1.518339E-03 7.666360E+01  3.991166E-04 6.393720E+01  9.974464E-01 -8.789697E+00 
1.206562E+02  9.946008E-01 -1.833771E+01  9.077847E-04 7.310222E+01  1.462406E-03 7.315803E+01 
 8.895356E-04 7.107812E+01  9.942155E-01 -9.445436E+00  5.391881E-04 8.739070E+01 
 1.485098E-03 7.425123E+01  5.128683E-04 8.918720E+01  9.970924E-01 -9.087623E+00 
1.243750E+02  9.946805E-01 -1.893520E+01  1.059893E-03 7.414845E+01  1.759445E-03 7.426187E+01 
 1.064613E-03 7.541401E+01  9.929306E-01 -9.658033E+00  1.910494E-04 9.465059E+01 
 1.715962E-03 7.361648E+01  1.951589E-04 1.006977E+02  9.969393E-01 -9.330469E+00 
1.280938E+02  9.944936E-01 -1.937444E+01  8.841612E-04 7.240369E+01  1.541886E-03 7.483367E+01 
 8.763028E-04 7.462861E+01  9.934044E-01 -9.971307E+00  5.294361E-04 6.517771E+01 
 1.551599E-03 7.440634E+01  5.324241E-04 6.764976E+01  9.969099E-01 -9.596252E+00 
1.318125E+02  9.941086E-01 -2.000152E+01  8.874612E-04 6.910221E+01  1.583534E-03 7.222144E+01 
 9.099558E-04 6.991876E+01  9.933820E-01 -1.034263E+01  1.172030E-03 1.054693E+02 
 1.567726E-03 7.174963E+01  1.199033E-03 1.037693E+02  9.963726E-01 -9.883345E+00 
1.355312E+02  9.941043E-01 -2.051268E+01  9.912309E-04 7.221584E+01  1.668451E-03 7.392693E+01 
 9.927061E-04 7.530916E+01  9.939892E-01 -1.051648E+01  2.305566E-04 5.656810E+01 
 1.702660E-03 7.455079E+01  2.168996E-04 6.053343E+01  9.976755E-01 -1.006193E+01 
1.392500E+02  9.945765E-01 -2.108106E+01  1.074561E-03 7.495340E+01  1.757737E-03 7.419209E+01 
 1.068048E-03 7.579373E+01  9.947040E-01 -1.084730E+01  6.169796E-04 6.835407E+01 
 1.785948E-03 7.396681E+01  5.942472E-04 7.008781E+01  9.974967E-01 -1.044414E+01 
1.429688E+02  9.945203E-01 -2.161137E+01  1.317877E-03 6.142873E+01  2.000816E-03 6.635772E+01 
 1.342013E-03 6.220571E+01  9.929017E-01 -1.114673E+01  7.820689E-04 1.786468E+02 
 2.008278E-03 6.489509E+01  7.647993E-04 1.778616E+02  9.965495E-01 -1.071878E+01 
1.466875E+02  9.947993E-01 -2.216925E+01  1.174573E-03 7.206369E+01  1.926801E-03 7.258921E+01 
 1.141500E-03 7.236751E+01  9.938587E-01 -1.141884E+01  2.574624E-04 7.325101E+01 
 1.946946E-03 7.336025E+01  3.008175E-04 8.402369E+01  9.969918E-01 -1.097274E+01 
1.504062E+02  9.939866E-01 -2.262157E+01  9.636196E-04 6.861460E+01  1.731302E-03 6.882212E+01 
 9.021816E-04 6.728758E+01  9.934766E-01 -1.159456E+01  7.492240E-04 8.306835E+01 
 1.712251E-03 6.877284E+01  7.505274E-04 8.466369E+01  9.966573E-01 -1.115294E+01 
1.541250E+02  9.946854E-01 -2.320042E+01  1.145073E-03 7.083750E+01  1.911242E-03 7.224225E+01 
 1.137538E-03 6.962417E+01  9.944432E-01 -1.185650E+01  4.643013E-04 7.419580E+01 
 1.962879E-03 7.149907E+01  4.528549E-04 7.517151E+01  9.970734E-01 -1.145144E+01 
1.578438E+02  9.941642E-01 -2.377839E+01  1.147865E-03 7.054825E+01  1.958951E-03 7.243644E+01 
 1.140893E-03 6.978778E+01  9.944177E-01 -1.213194E+01  4.154086E-04 8.202801E+01 
 1.923592E-03 7.167450E+01  4.180185E-04 8.369600E+01  9.976059E-01 -1.166491E+01 
1.615625E+02  9.949096E-01 -2.423829E+01  1.194901E-03 6.997738E+01  1.974208E-03 7.135650E+01 
 1.214232E-03 7.061170E+01  9.947468E-01 -1.239669E+01  4.546450E-04 7.559720E+01 
 1.978420E-03 7.167586E+01  4.989332E-04 7.750675E+01  9.972751E-01 -1.191354E+01 
1.652812E+02  9.941278E-01 -2.481135E+01  1.236607E-03 7.171726E+01  2.075575E-03 7.186948E+01 
 1.262916E-03 7.104653E+01  9.941458E-01 -1.269631E+01  5.274760E-04 7.665904E+01 
 2.029845E-03 7.071902E+01  5.206432E-04 7.735742E+01  9.975221E-01 -1.222504E+01 
1.690000E+02  9.945250E-01 -2.534046E+01  1.289021E-03 7.022489E+01  2.101089E-03 7.053380E+01 
 1.282638E-03 7.090435E+01  9.936907E-01 -1.294696E+01  5.395463E-04 7.941065E+01 
 2.113559E-03 7.098448E+01  5.342932E-04 7.931897E+01  9.974622E-01 -1.252797E+01 
1.727188E+02  9.935260E-01 -2.587494E+01  1.269629E-03 6.887697E+01  2.143107E-03 6.942827E+01 
 1.292482E-03 6.911349E+01  9.932954E-01 -1.320477E+01  6.073159E-04 6.996116E+01 
 2.117348E-03 6.933553E+01  5.920375E-04 6.758765E+01  9.965871E-01 -1.277419E+01 
1.764375E+02  9.946877E-01 -2.640837E+01  1.257322E-03 6.787055E+01  2.084855E-03 6.861427E+01 
 1.240585E-03 6.766141E+01  9.934924E-01 -1.339630E+01  5.770795E-04 7.107947E+01 
 2.081483E-03 6.956195E+01  5.787915E-04 7.182789E+01  9.966978E-01 -1.297739E+01 
1.801562E+02  9.946388E-01 -2.694019E+01  1.385024E-03 6.148569E+01  2.281377E-03 7.311373E+01 
 1.354487E-03 6.228435E+01  9.930642E-01 -1.369254E+01  1.166361E-03 7.197147E+00 
 2.258781E-03 7.326220E+01  1.210242E-03 8.396984E+00  9.962127E-01 -1.324428E+01 
1.838750E+02  9.943954E-01 -2.743508E+01  1.313991E-03 6.729081E+01  2.233595E-03 6.852628E+01 
 1.327233E-03 6.715837E+01  9.946436E-01 -1.399458E+01  6.083605E-04 8.717624E+01 
 2.189660E-03 6.723106E+01  6.053099E-04 9.058508E+01  9.975802E-01 -1.354670E+01 
1.875938E+02  9.951590E-01 -2.798379E+01  1.489739E-03 6.770305E+01  2.448092E-03 6.905175E+01 
 1.478110E-03 6.863797E+01  9.945900E-01 -1.424458E+01  3.794440E-05 1.637958E+02 
 2.411454E-03 6.881185E+01  5.723696E-05 1.642267E+02  9.974592E-01 -1.384564E+01 
1.913125E+02  9.953286E-01 -2.852739E+01  1.399336E-03 6.927643E+01  2.415698E-03 6.772596E+01 
 1.406215E-03 6.882638E+01  9.950647E-01 -1.451281E+01  7.772204E-04 6.841876E+01 
 2.399037E-03 6.750401E+01  7.476628E-04 6.964952E+01  9.978673E-01 -1.412093E+01 
1.950312E+02  9.940051E-01 -2.898025E+01  1.158582E-03 6.152235E+01  2.174667E-03 6.457017E+01 
 1.143919E-03 6.011703E+01  9.937408E-01 -1.472937E+01  1.169141E-03 8.406647E+01 
 2.167652E-03 6.408162E+01  1.151133E-03 8.338252E+01  9.959654E-01 -1.437071E+01 
1.987500E+02  9.949088E-01 -2.958375E+01  1.561278E-03 6.360749E+01  2.424585E-03 6.440913E+01 
 1.562609E-03 6.302580E+01  9.941013E-01 -1.500874E+01  4.355131E-04 9.724146E+01 
 2.417982E-03 6.550272E+01  4.254029E-04 9.724871E+01  9.961828E-01 -1.459420E+01 
2.024688E+02  9.948941E-01 -3.005316E+01  1.466146E-03 6.639618E+01  2.382502E-03 6.753856E+01 
 1.473029E-03 6.527945E+01  9.941541E-01 -1.533027E+01  7.648187E-04 5.590870E+01 
 2.327827E-03 6.825102E+01  7.526732E-04 5.341747E+01  9.968795E-01 -1.489785E+01 
2.061875E+02  9.942833E-01 -3.054439E+01  1.233954E-03 5.279481E+01  2.220839E-03 5.713804E+01 
 1.236385E-03 5.138851E+01  9.945731E-01 -1.554348E+01  8.921049E-04 1.009670E+02 
 2.210829E-03 5.740515E+01  8.833502E-04 9.995540E+01  9.971262E-01 -1.515915E+01 
2.099062E+02  9.952198E-01 -3.112030E+01  1.398073E-03 6.509654E+01  2.456038E-03 6.557747E+01 
 1.420712E-03 6.588863E+01  9.952157E-01 -1.576921E+01  5.444004E-04 8.330721E+01 
 2.453165E-03 6.522499E+01  5.852665E-04 8.235739E+01  9.979518E-01 -1.541913E+01 
2.136250E+02  9.944527E-01 -3.160202E+01  1.490381E-03 6.709517E+01  2.521109E-03 6.592243E+01 
 1.498402E-03 6.614776E+01  9.943574E-01 -1.604611E+01  7.004881E-04 7.500666E+01 
 2.501876E-03 6.605319E+01  6.881601E-04 7.612382E+01  9.980759E-01 -1.574457E+01 
2.173438E+02  9.947014E-01 -3.220381E+01  1.548691E-03 6.805645E+01  2.607122E-03 6.626195E+01 
 1.564867E-03 6.779692E+01  9.943028E-01 -1.639094E+01  6.927213E-04 7.416422E+01 
 2.595615E-03 6.621647E+01  6.486382E-04 7.641958E+01  9.970037E-01 -1.602569E+01 
2.210625E+02  9.942428E-01 -3.270107E+01  1.598075E-03 6.520428E+01  2.620036E-03 6.489233E+01 
 1.604328E-03 6.453359E+01  9.944791E-01 -1.668287E+01  7.191334E-04 7.538041E+01 
 2.636337E-03 6.500365E+01  7.006528E-04 7.811819E+01  9.966769E-01 -1.632113E+01 
2.247812E+02  9.942265E-01 -3.317985E+01  1.546244E-03 6.483232E+01  2.641615E-03 6.526179E+01 
 1.573858E-03 6.508308E+01  9.948022E-01 -1.688102E+01  5.901892E-04 6.534914E+01 
 2.639755E-03 6.510570E+01  5.962713E-04 6.592686E+01  9.969966E-01 -1.652259E+01 
2.285000E+02  9.951239E-01 -3.373844E+01  1.669873E-03 6.144806E+01  2.787218E-03 6.273145E+01 
 1.651242E-03 6.129947E+01  9.944662E-01 -1.714695E+01  5.198914E-04 8.924232E+01 
 2.762742E-03 6.255026E+01  5.143243E-04 8.736435E+01  9.968537E-01 -1.684552E+01 
2.322188E+02  9.938997E-01 -3.428386E+01  1.638155E-03 6.445145E+01  2.782161E-03 6.456716E+01 
 1.637695E-03 6.402813E+01  9.947271E-01 -1.742172E+01  7.031453E-04 7.707384E+01 
 2.746248E-03 6.416924E+01  7.015232E-04 7.707395E+01  9.969872E-01 -1.712586E+01 
2.359375E+02  9.940484E-01 -3.475341E+01  1.650350E-03 6.320457E+01  2.801596E-03 6.338467E+01 
 1.632714E-03 6.313057E+01  9.945982E-01 -1.770051E+01  1.153249E-03 6.989834E+01 
 2.804081E-03 6.276239E+01  1.135805E-03 7.091344E+01  9.968783E-01 -1.733357E+01 
2.396562E+02  9.939899E-01 -3.530681E+01  1.854203E-03 6.192553E+01  2.922292E-03 6.325789E+01 
 1.841822E-03 6.148959E+01  9.952434E-01 -1.802635E+01  5.752766E-04 7.517207E+01 
 2.947133E-03 6.251212E+01  5.809130E-04 7.511830E+01  9.966988E-01 -1.763794E+01 
2.433750E+02  9.938917E-01 -3.577558E+01  1.804424E-03 6.337142E+01  2.855326E-03 6.348196E+01 
 1.803917E-03 6.240559E+01  9.944756E-01 -1.822809E+01  6.617413E-04 -6.941797E+01 
 2.849990E-03 6.238570E+01  6.924547E-04 -7.041919E+01  9.967182E-01 -1.786359E+01 
2.470938E+02  9.936396E-01 -3.633491E+01  1.883114E-03 5.948392E+01  2.887706E-03 6.106849E+01 
 1.870439E-03 5.895396E+01  9.938462E-01 -1.851494E+01  6.896715E-04 7.362217E+01 
 2.892906E-03 6.054789E+01  7.027068E-04 7.329651E+01  9.967056E-01 -1.821579E+01 
2.508125E+02  9.940839E-01 -3.686491E+01  2.211234E-03 5.857326E+01  3.558988E-03 6.063327E+01 
 2.226910E-03 5.856550E+01  9.946354E-01 -1.880648E+01  4.187166E-04 -1.309401E+02 
 3.546641E-03 6.009723E+01  4.099725E-04 -1.328598E+02  9.966820E-01 -1.846452E+01 
2.545312E+02  9.942649E-01 -3.734916E+01  1.594135E-03 6.207622E+01  2.746846E-03 6.048229E+01 
 1.620701E-03 6.164986E+01  9.951797E-01 -1.909271E+01  8.400518E-04 7.068936E+01 
 2.729776E-03 6.007803E+01  8.516710E-04 7.227413E+01  9.972216E-01 -1.874604E+01 
2.582500E+02  9.936082E-01 -3.786056E+01  1.671622E-03 5.973239E+01  2.856011E-03 6.113561E+01 
 1.649883E-03 5.879432E+01  9.956523E-01 -1.932292E+01  1.268789E-03 7.832179E+01 
 2.866794E-03 6.082566E+01  1.245286E-03 7.784668E+01  9.968692E-01 -1.896662E+01 
2.619688E+02  9.943785E-01 -3.838936E+01  1.672912E-03 5.975597E+01  2.966864E-03 6.055188E+01 
 1.671124E-03 5.990793E+01  9.957176E-01 -1.962869E+01  6.679056E-04 6.608467E+01 
 2.936034E-03 6.046787E+01  6.712645E-04 6.576971E+01  9.968973E-01 -1.926024E+01 
2.656875E+02  9.941760E-01 -3.889920E+01  1.779920E-03 5.826080E+01  3.022460E-03 6.069807E+01 
 1.766391E-03 5.823187E+01  9.955049E-01 -1.992906E+01  6.924798E-04 5.089885E+01 
 3.023737E-03 6.042359E+01  7.092621E-04 5.079384E+01  9.966532E-01 -1.955317E+01 
2.694062E+02  9.941240E-01 -3.944992E+01  1.800807E-03 5.754878E+01  3.081159E-03 5.949823E+01 
 1.788065E-03 5.828166E+01  9.962405E-01 -2.020509E+01  8.516400E-04 7.573784E+01 
 3.060658E-03 5.891313E+01  8.663399E-04 7.539135E+01  9.963622E-01 -1.986137E+01 
2.731250E+02  9.939759E-01 -3.988223E+01  1.820737E-03 5.855273E+01  3.064199E-03 5.965938E+01 
 1.793853E-03 5.829148E+01  9.953322E-01 -2.042640E+01  6.716524E-04 6.517667E+01 
 3.048414E-03 5.920036E+01  6.936041E-04 6.356079E+01  9.962843E-01 -2.006789E+01 
2.768438E+02  9.940377E-01 -4.040938E+01  1.879980E-03 5.853400E+01  3.150834E-03 5.958790E+01 
 1.869756E-03 5.825775E+01  9.961956E-01 -2.069318E+01  7.266579E-04 6.456918E+01 
 3.142324E-03 5.956196E+01  7.039275E-04 6.616360E+01  9.965442E-01 -2.037197E+01 
2.805625E+02  9.939471E-01 -4.094586E+01  1.934538E-03 5.838955E+01  3.209931E-03 5.956287E+01 
 1.941499E-03 5.902450E+01  9.962923E-01 -2.099735E+01  9.022876E-04 6.781979E+01 
 3.221705E-03 5.928996E+01  8.950033E-04 6.912124E+01  9.964877E-01 -2.068793E+01 
2.842812E+02  9.940369E-01 -4.147504E+01  1.906011E-03 5.812118E+01  3.225421E-03 5.814387E+01 
 1.912809E-03 5.802158E+01  9.969437E-01 -2.124748E+01  6.555485E-04 7.274280E+01 
 3.200122E-03 5.795237E+01  6.500474E-04 7.093461E+01  9.965513E-01 -2.097643E+01 
2.880000E+02  9.939567E-01 -4.194661E+01  2.019442E-03 5.775993E+01  3.330630E-03 5.885492E+01 
 2.006873E-03 5.777549E+01  9.953357E-01 -2.156429E+01  1.003156E-03 6.390734E+01 
 3.311600E-03 5.835466E+01  1.009471E-03 6.406086E+01  9.965192E-01 -2.126957E+01 
2.917188E+02  9.935611E-01 -4.247091E+01  2.048877E-03 5.067731E+01  3.335386E-03 5.295978E+01 
 2.043835E-03 5.064989E+01  9.965973E-01 -2.164367E+01  9.482805E-04 1.042192E+02 
 3.344510E-03 5.328163E+01  9.575984E-04 1.039318E+02  9.951638E-01 -2.149614E+01 
2.954375E+02  9.930363E-01 -4.296372E+01  2.132919E-03 5.404266E+01  3.586440E-03 5.527931E+01 
 2.133354E-03 5.313790E+01  9.966632E-01 -2.196827E+01  5.979889E-04 7.894849E+01 
 3.580461E-03 5.502479E+01  6.322731E-04 8.118869E+01  9.955510E-01 -2.184030E+01 
2.991562E+02  9.926516E-01 -4.341625E+01  1.655734E-03 5.753726E+01  3.212798E-03 5.524006E+01 
 1.670612E-03 5.734296E+01  9.969736E-01 -2.216156E+01  1.510193E-03 6.184295E+01 
 3.180144E-03 5.486940E+01  1.548131E-03 6.326316E+01  9.950136E-01 -2.208119E+01 
3.028750E+02  9.930678E-01 -4.393967E+01  1.991306E-03 5.849316E+01  3.164845E-03 5.834229E+01 
 2.036595E-03 5.911326E+01  9.961094E-01 -2.246523E+01  1.056115E-03 9.407341E+01 
 3.136312E-03 5.826055E+01  1.085202E-03 9.287221E+01  9.953018E-01 -2.233792E+01 
3.065938E+02  9.924238E-01 -4.445956E+01  1.883382E-03 5.396848E+01  3.657932E-03 5.628528E+01 
 1.904770E-03 5.356266E+01  9.965243E-01 -2.264974E+01  4.164064E-04 -7.879527E+01 
 3.656614E-03 5.627199E+01  4.132639E-04 -7.645190E+01  9.959233E-01 -2.255124E+01 
3.103125E+02  9.929920E-01 -4.492134E+01  1.979487E-03 5.389802E+01  3.277415E-03 5.562700E+01 
 1.946044E-03 5.419582E+01  9.973707E-01 -2.298985E+01  8.162538E-04 6.820502E+01 
 3.271710E-03 5.575725E+01  8.168778E-04 6.800220E+01  9.956418E-01 -2.290787E+01 
3.140312E+02  9.924170E-01 -4.544998E+01  2.102048E-03 4.967756E+01  3.622357E-03 5.211190E+01 
 2.090768E-03 5.037572E+01  9.959439E-01 -2.331110E+01  1.162435E-03 1.559273E+02 
 3.590103E-03 5.201142E+01  1.144267E-03 1.564525E+02  9.950307E-01 -2.314166E+01 
3.177500E+02  9.924823E-01 -4.592303E+01  1.956544E-03 5.314800E+01  3.469248E-03 5.407659E+01 
 1.967457E-03 5.335244E+01  9.971383E-01 -2.356586E+01  8.801124E-04 7.636802E+01 
 3.429071E-03 5.389122E+01  8.980791E-04 7.478572E+01  9.961516E-01 -2.343284E+01 
3.214688E+02  9.904682E-01 -4.642469E+01  1.955976E-03 5.080414E+01  3.472242E-03 5.261925E+01 
 1.915040E-03 5.088194E+01  9.956559E-01 -2.377199E+01  1.102899E-03 6.404303E+01 
 3.444456E-03 5.246195E+01  1.078825E-03 6.324891E+01  9.952373E-01 -2.364541E+01 
3.251875E+02  9.915853E-01 -4.694322E+01  2.014150E-03 5.369928E+01  3.476629E-03 5.462009E+01 
