! Matrix data file written by TouchstoneData, EPCOS AG
! FILENAME: "B4306_02_NB.s3p_newformat"
! COMMENT: "(B4306_02_NB.s3p) Epcos AG 3/15/2011 3:53:15"
! INFO: nport=3, nfreq=801
! DATE: "Mon Apr 18 17:36:59 2011"
! USER: "Sergey Rostovtsev"
!
! port | pin | signal
! -----|-----|--------
!   1  |  1  |  in
!   2  |  3  |  out
!   3  |  4  |  out
! --------------------
! 
# MHZ S MA R 50
! freq  magS11 angS11  magS12 angS12  magS13 angS13  ...
1.680000E+03  9.573021E-01 -1.111093E+02  4.022204E-03 2.785478E+00  5.716681E-03 3.732151E+01 
 3.867810E-03 2.944407E+00  9.572233E-01 -7.910006E+01  4.349806E-02 2.371966E+01 
 5.630225E-03 3.735602E+01  4.342484E-02 2.373419E+01  9.567504E-01 -7.981938E+01 
1.680625E+03  9.575099E-01 -1.112035E+02  3.719477E-03 7.044817E+00  5.984408E-03 3.459695E+01 
 3.568167E-03 7.121346E+00  9.572286E-01 -7.922725E+01  4.303725E-02 2.374307E+01 
 5.873428E-03 3.444742E+01  4.294643E-02 2.384525E+01  9.568256E-01 -7.993789E+01 
1.681250E+03  9.573933E-01 -1.113258E+02  3.617458E-03 1.102396E+01  6.065992E-03 3.301886E+01 
 3.455133E-03 1.070314E+01  9.576126E-01 -7.936862E+01  4.257607E-02 2.423902E+01 
 5.960691E-03 3.294256E+01  4.245461E-02 2.425443E+01  9.568139E-01 -8.006164E+01 
1.681875E+03  9.576179E-01 -1.114311E+02  3.571488E-03 1.474577E+01  5.950018E-03 3.159827E+01 
 3.423001E-03 1.431664E+01  9.574394E-01 -7.949824E+01  4.245121E-02 2.472364E+01 
 5.865761E-03 3.161462E+01  4.243285E-02 2.470721E+01  9.565636E-01 -8.017330E+01 
1.682500E+03  9.577496E-01 -1.115358E+02  3.503563E-03 1.735455E+01  6.043641E-03 3.322718E+01 
 3.372092E-03 1.704533E+01  9.573668E-01 -7.962867E+01  4.229776E-02 2.490393E+01 
 5.959429E-03 3.343527E+01  4.223261E-02 2.494805E+01  9.561885E-01 -8.029674E+01 
1.683125E+03  9.578563E-01 -1.116704E+02  3.737300E-03 1.674765E+01  6.399253E-03 3.190150E+01 
 3.553918E-03 1.665428E+01  9.572421E-01 -7.974688E+01  4.218188E-02 2.531107E+01 
 6.287935E-03 3.190054E+01  4.218568E-02 2.520441E+01  9.557420E-01 -8.040000E+01 
1.683750E+03  9.579954E-01 -1.118118E+02  3.655845E-03 1.568427E+01  6.168605E-03 3.112688E+01 
 3.502705E-03 1.576240E+01  9.567522E-01 -7.988343E+01  4.207729E-02 2.564350E+01 
 6.048732E-03 3.119256E+01  4.197986E-02 2.544692E+01  9.555183E-01 -8.053193E+01 
1.684375E+03  9.579073E-01 -1.119402E+02  3.531476E-03 1.343536E+01  6.445807E-03 3.205370E+01 
 3.377559E-03 1.292069E+01  9.557664E-01 -7.999464E+01  4.177233E-02 2.569112E+01 
 6.308418E-03 3.178472E+01  4.180616E-02 2.557392E+01  9.549063E-01 -8.065416E+01 
1.685000E+03  9.578494E-01 -1.120894E+02  3.158148E-03 1.268149E+01  6.564145E-03 3.143786E+01 
 3.031572E-03 1.303339E+01  9.552903E-01 -8.008804E+01  4.148680E-02 2.577317E+01 
 6.458975E-03 3.142091E+01  4.139146E-02 2.573276E+01  9.544401E-01 -8.075179E+01 
1.685625E+03  9.577591E-01 -1.121988E+02  2.946709E-03 1.153374E+01  6.851415E-03 3.079880E+01 
 2.799600E-03 1.143408E+01  9.545085E-01 -8.017595E+01  4.073249E-02 2.602329E+01 
 6.727164E-03 3.120093E+01  4.063644E-02 2.610854E+01  9.538520E-01 -8.086279E+01 
1.686250E+03  9.578341E-01 -1.123245E+02  2.542701E-03 2.217867E+01  6.876458E-03 2.831972E+01 
 2.461216E-03 2.296327E+01  9.540124E-01 -8.025132E+01  4.022443E-02 2.779372E+01 
 6.735098E-03 2.829737E+01  4.008145E-02 2.774087E+01  9.533344E-01 -8.097383E+01 
1.686875E+03  9.580705E-01 -1.124371E+02  2.534322E-03 2.969458E+01  7.042979E-03 2.588662E+01 
 2.425032E-03 2.903059E+01  9.528399E-01 -8.039081E+01  4.027141E-02 2.960891E+01 
 6.949846E-03 2.602152E+01  4.015799E-02 2.950190E+01  9.523917E-01 -8.109468E+01 
1.687500E+03  9.580196E-01 -1.125819E+02  2.748750E-03 3.712556E+01  7.122155E-03 2.287469E+01 
 2.622594E-03 3.723208E+01  9.522049E-01 -8.049193E+01  4.121219E-02 3.151503E+01 
 6.994732E-03 2.303804E+01  4.111780E-02 3.152491E+01  9.511442E-01 -8.118255E+01 
1.688125E+03  9.581992E-01 -1.127091E+02  2.883171E-03 3.914247E+01  6.867944E-03 2.181354E+01 
 2.748467E-03 3.941397E+01  9.515230E-01 -8.054761E+01  4.268277E-02 3.190641E+01 
 6.733810E-03 2.177164E+01  4.250871E-02 3.191787E+01  9.499712E-01 -8.122494E+01 
1.688750E+03  9.581066E-01 -1.128365E+02  2.993871E-03 3.996888E+01  6.992870E-03 2.072674E+01 
 2.862367E-03 4.017134E+01  9.513992E-01 -8.057297E+01  4.424972E-02 3.113095E+01 
 6.851807E-03 2.033262E+01  4.416751E-02 3.122984E+01  9.498361E-01 -8.121004E+01 
1.689375E+03  9.581274E-01 -1.129872E+02  3.109618E-03 4.107447E+01  6.824267E-03 1.789920E+01 
 2.944652E-03 4.199684E+01  9.514037E-01 -8.067095E+01  4.449875E-02 3.021626E+01 
 6.707007E-03 1.794177E+01  4.441719E-02 3.021901E+01  9.508029E-01 -8.127655E+01 
1.690000E+03  9.583412E-01 -1.131344E+02  3.136962E-03 3.968415E+01  6.686706E-03 1.683240E+01 
 2.983252E-03 4.001623E+01  9.510124E-01 -8.072226E+01  4.478042E-02 2.915539E+01 
 6.544781E-03 1.691926E+01  4.468127E-02 2.920532E+01  9.514589E-01 -8.137047E+01 
1.690625E+03  9.584418E-01 -1.133068E+02  3.003164E-03 4.287869E+01  6.537015E-03 1.560260E+01 
 2.869360E-03 4.264551E+01  9.514136E-01 -8.083056E+01  4.425139E-02 2.822258E+01 
 6.427082E-03 1.576203E+01  4.408433E-02 2.821120E+01  9.517632E-01 -8.149300E+01 
1.691250E+03  9.581594E-01 -1.134763E+02  3.081429E-03 4.726980E+01  6.300717E-03 1.563306E+01 
 2.939644E-03 4.732489E+01  9.506844E-01 -8.092907E+01  4.403043E-02 2.844826E+01 
 6.189737E-03 1.549670E+01  4.391049E-02 2.847695E+01  9.514282E-01 -8.162841E+01 
1.691875E+03  9.578431E-01 -1.136405E+02  3.339529E-03 4.742837E+01  6.317082E-03 1.600387E+01 
 3.186812E-03 4.752294E+01  9.510499E-01 -8.097984E+01  4.388474E-02 2.847783E+01 
 6.218561E-03 1.607962E+01  4.377976E-02 2.856983E+01  9.507873E-01 -8.174392E+01 
1.692500E+03  9.576625E-01 -1.137977E+02  3.259233E-03 4.515924E+01  6.199217E-03 1.429092E+01 
 3.133835E-03 4.518252E+01  9.506180E-01 -8.110372E+01  4.378478E-02 2.896079E+01 
 6.095666E-03 1.445664E+01  4.364672E-02 2.897440E+01  9.498929E-01 -8.179773E+01 
1.693125E+03  9.572153E-01 -1.139923E+02  3.086557E-03 4.559975E+01  6.118051E-03 1.557184E+01 
 2.930897E-03 4.601409E+01  9.495862E-01 -8.116994E+01  4.428119E-02 2.945384E+01 
 6.055785E-03 1.540115E+01  4.420548E-02 2.938762E+01  9.496225E-01 -8.187445E+01 
1.693750E+03  9.568764E-01 -1.141836E+02  3.103904E-03 5.042180E+01  6.095278E-03 1.429700E+01 
 2.951045E-03 5.070619E+01  9.496536E-01 -8.119200E+01  4.544062E-02 2.904457E+01 
 5.994475E-03 1.439883E+01  4.532410E-02 2.890320E+01  9.495986E-01 -8.190981E+01 
1.694375E+03  9.564633E-01 -1.143542E+02  3.056428E-03 5.068813E+01  5.916029E-03 1.426863E+01 
 2.921136E-03 5.109195E+01  9.505629E-01 -8.126325E+01  4.578009E-02 2.762830E+01 
 5.806871E-03 1.393877E+01  4.564800E-02 2.754736E+01  9.500129E-01 -8.196054E+01 
1.695000E+03  9.560217E-01 -1.145583E+02  3.108444E-03 5.322056E+01  5.885444E-03 1.603735E+01 
 2.970802E-03 5.377210E+01  9.508114E-01 -8.137110E+01  4.531611E-02 2.660871E+01 
 5.783312E-03 1.595574E+01  4.515840E-02 2.667282E+01  9.511964E-01 -8.205601E+01 
1.695625E+03  9.547563E-01 -1.147551E+02  2.981518E-03 5.394325E+01  5.836604E-03 1.722123E+01 
 2.849251E-03 5.324317E+01  9.516923E-01 -8.144252E+01  4.490129E-02 2.570372E+01 
 5.759215E-03 1.697288E+01  4.480765E-02 2.567179E+01  9.514861E-01 -8.217393E+01 
1.696250E+03  9.532085E-01 -1.149295E+02  2.804795E-03 5.538450E+01  6.047424E-03 1.844673E+01 
 2.662771E-03 5.566161E+01  9.519685E-01 -8.156772E+01  4.419520E-02 2.526625E+01 
 5.944619E-03 1.848988E+01  4.412795E-02 2.514474E+01  9.518412E-01 -8.226967E+01 
1.696875E+03  9.519431E-01 -1.150651E+02  2.877815E-03 5.766072E+01  6.394480E-03 1.956465E+01 
 2.737635E-03 5.763255E+01  9.518762E-01 -8.169748E+01  4.386172E-02 2.519617E+01 
 6.277438E-03 1.942856E+01  4.375364E-02 2.515444E+01  9.520255E-01 -8.239857E+01 
1.697500E+03  9.516832E-01 -1.152120E+02  2.522929E-03 5.922427E+01  6.680974E-03 1.713244E+01 
 2.424589E-03 5.894298E+01  9.522682E-01 -8.177197E+01  4.311217E-02 2.507058E+01 
 6.553077E-03 1.722666E+01  4.306375E-02 2.512742E+01  9.522101E-01 -8.251817E+01 
1.698125E+03  9.504749E-01 -1.153720E+02  2.296842E-03 7.254576E+01  6.750663E-03 1.663940E+01 
 2.189148E-03 7.295459E+01  9.525147E-01 -8.190372E+01  4.272685E-02 2.543869E+01 
 6.625328E-03 1.675286E+01  4.270313E-02 2.537519E+01  9.524063E-01 -8.262611E+01 
1.698750E+03  9.494163E-01 -1.155724E+02  2.298229E-03 7.795127E+01  6.891018E-03 1.446554E+01 
 2.191867E-03 7.779754E+01  9.525481E-01 -8.204161E+01  4.273447E-02 2.543195E+01 
 6.803285E-03 1.449241E+01  4.262163E-02 2.544725E+01  9.523346E-01 -8.274940E+01 
1.699375E+03  9.481186E-01 -1.158398E+02  2.320395E-03 8.308191E+01  6.953718E-03 1.490753E+01 
 2.200925E-03 8.298052E+01  9.523429E-01 -8.216112E+01  4.250140E-02 2.543009E+01 
 6.851084E-03 1.476223E+01  4.238981E-02 2.545454E+01  9.525526E-01 -8.285787E+01 
1.700000E+03  9.451361E-01 -1.160460E+02  2.258800E-03 9.903778E+01  7.209856E-03 1.485398E+01 
 2.194608E-03 9.860388E+01  9.526774E-01 -8.227584E+01  4.230727E-02 2.551771E+01 
 7.101984E-03 1.491148E+01  4.211091E-02 2.544286E+01  9.529144E-01 -8.299969E+01 
1.700625E+03  9.405137E-01 -1.162880E+02  2.708821E-03 1.103629E+02  7.593894E-03 1.639929E+01 
 2.596714E-03 1.095265E+02  9.531608E-01 -8.240086E+01  4.211981E-02 2.525168E+01 
 7.498489E-03 1.646042E+01  4.193398E-02 2.533079E+01  9.528874E-01 -8.312748E+01 
1.701250E+03  9.355234E-01 -1.162689E+02  2.951888E-03 1.182361E+02  8.309157E-03 1.350311E+01 
 2.814222E-03 1.183818E+02  9.533965E-01 -8.256685E+01  4.167872E-02 2.499098E+01 
 8.189028E-03 1.357068E+01  4.153982E-02 2.497187E+01  9.533688E-01 -8.328476E+01 
1.701875E+03  9.335551E-01 -1.162011E+02  3.677395E-03 1.291782E+02  8.885331E-03 1.035304E+01 
 3.521335E-03 1.293791E+02  9.536766E-01 -8.271786E+01  4.124941E-02 2.526706E+01 
 8.762540E-03 1.031848E+01  4.109687E-02 2.521750E+01  9.533970E-01 -8.344736E+01 
1.702500E+03  9.338753E-01 -1.161452E+02  4.934200E-03 1.253296E+02  9.624526E-03 7.448117E+00 
 4.718367E-03 1.253555E+02  9.539112E-01 -8.288605E+01  4.116726E-02 2.548837E+01 
 9.394638E-03 7.339147E+00  4.097473E-02 2.550390E+01  9.532951E-01 -8.359379E+01 
1.703125E+03  9.355200E-01 -1.162255E+02  5.297217E-03 1.255013E+02  9.809314E-03 1.333264E+00 
 5.069139E-03 1.254003E+02  9.541497E-01 -8.305448E+01  4.088555E-02 2.568158E+01 
 9.665957E-03 1.318543E+00  4.075596E-02 2.562170E+01  9.530286E-01 -8.375615E+01 
1.703750E+03  9.347997E-01 -1.164445E+02  5.986011E-03 1.264821E+02  1.011425E-02 2.659855E-01 
 5.725816E-03 1.264326E+02  9.537658E-01 -8.321532E+01  4.075654E-02 2.573698E+01 
 9.939774E-03 2.552895E-01  4.060677E-02 2.560864E+01  9.527974E-01 -8.390431E+01 
1.704375E+03  9.334780E-01 -1.166858E+02  6.883167E-03 1.285868E+02  1.087353E-02 -5.307343E+00 
 6.557315E-03 1.284250E+02  9.535698E-01 -8.338872E+01  4.047472E-02 2.583106E+01 
 1.073255E-02 -5.223131E+00  4.037891E-02 2.573447E+01  9.522146E-01 -8.406237E+01 
1.705000E+03  9.318087E-01 -1.170346E+02  8.253111E-03 1.274799E+02  1.133242E-02 -9.327562E+00 
 7.874208E-03 1.271103E+02  9.531465E-01 -8.354672E+01  4.033595E-02 2.595158E+01 
 1.116643E-02 -9.284521E+00  4.025587E-02 2.585741E+01  9.525338E-01 -8.420184E+01 
1.705625E+03  9.243550E-01 -1.171275E+02  9.326676E-03 1.248388E+02  1.164260E-02 -1.465121E+01 
 8.912028E-03 1.245996E+02  9.526755E-01 -8.369019E+01  4.024308E-02 2.590602E+01 
 1.150573E-02 -1.466725E+01  4.012723E-02 2.583169E+01  9.520989E-01 -8.440465E+01 
1.706250E+03  9.173693E-01 -1.170236E+02  1.077249E-02 1.196683E+02  1.184493E-02 -2.105569E+01 
 1.032046E-02 1.195215E+02  9.524620E-01 -8.384735E+01  4.008319E-02 2.604339E+01 
 1.165970E-02 -2.084801E+01  3.988979E-02 2.587617E+01  9.514183E-01 -8.458070E+01 
1.706875E+03  9.151452E-01 -1.166906E+02  1.143569E-02 1.146831E+02  1.192146E-02 -2.609373E+01 
 1.092002E-02 1.147161E+02  9.523197E-01 -8.402891E+01  3.986036E-02 2.584059E+01 
 1.170722E-02 -2.595463E+01  3.971668E-02 2.579973E+01  9.508727E-01 -8.474031E+01 
1.707500E+03  9.189637E-01 -1.164752E+02  1.154928E-02 1.118940E+02  1.186578E-02 -2.856716E+01 
 1.104376E-02 1.118301E+02  9.516783E-01 -8.423709E+01  4.007261E-02 2.628272E+01 
 1.167276E-02 -2.869405E+01  3.926726E-02 2.614914E+01  9.504863E-01 -8.492448E+01 
1.708125E+03  9.221037E-01 -1.164592E+02  1.214673E-02 1.100654E+02  1.173305E-02 -2.990692E+01 
 1.158521E-02 1.100927E+02  9.501520E-01 -8.442285E+01  3.996058E-02 2.702226E+01 
 1.155090E-02 -2.979572E+01  3.922085E-02 2.690585E+01  9.493014E-01 -8.511312E+01 
1.708750E+03  9.258260E-01 -1.166455E+02  1.224884E-02 1.125839E+02  1.245500E-02 -3.212167E+01 
 1.171328E-02 1.126177E+02  9.491445E-01 -8.458718E+01  3.964602E-02 2.743204E+01 
 1.224616E-02 -3.213197E+01  3.950835E-02 2.739591E+01  9.480637E-01 -8.528146E+01 
1.709375E+03  9.243177E-01 -1.170434E+02  1.410079E-02 1.123562E+02  1.361425E-02 -3.497802E+01 
 1.347060E-02 1.123384E+02  9.476533E-01 -8.476027E+01  4.077117E-02 2.743430E+01 
 1.343100E-02 -3.502355E+01  3.997340E-02 2.736666E+01  9.468683E-01 -8.543906E+01 
1.710000E+03  9.233386E-01 -1.173325E+02  1.536529E-02 1.143531E+02  1.501904E-02 -3.886430E+01 
 1.471734E-02 1.143584E+02  9.461094E-01 -8.492437E+01  4.102740E-02 2.714475E+01 
 1.483494E-02 -3.890547E+01  4.095847E-02 2.712270E+01  9.452805E-01 -8.560874E+01 
1.710625E+03  9.194935E-01 -1.176442E+02  1.822118E-02 1.130377E+02  1.652579E-02 -4.445864E+01 
 1.738490E-02 1.131620E+02  9.442341E-01 -8.505680E+01  4.180965E-02 2.520706E+01 
 1.631093E-02 -4.442086E+01  4.173169E-02 2.525649E+01  9.440371E-01 -8.571273E+01 
1.711250E+03  9.093741E-01 -1.175874E+02  2.117311E-02 1.049231E+02  1.817122E-02 -5.649392E+01 
 2.025324E-02 1.049088E+02  9.421603E-01 -8.516854E+01  4.124026E-02 2.332672E+01 
 1.791069E-02 -5.645115E+01  4.114861E-02 2.340258E+01  9.425540E-01 -8.583254E+01 
1.711875E+03  9.043644E-01 -1.173232E+02  2.335854E-02 9.755910E+01  1.890344E-02 -6.677664E+01 
 2.234457E-02 9.752537E+01  9.404738E-01 -8.523875E+01  4.142391E-02 2.108142E+01 
 1.862908E-02 -6.663924E+01  4.061814E-02 2.098870E+01  9.417804E-01 -8.595129E+01 
1.712500E+03  9.070359E-01 -1.168524E+02  2.287837E-02 8.941672E+01  1.753743E-02 -7.616579E+01 
 2.182407E-02 8.929140E+01  9.399003E-01 -8.531381E+01  3.971062E-02 1.986095E+01 
 1.725169E-02 -7.623057E+01  3.956740E-02 1.980644E+01  9.404310E-01 -8.607171E+01 
1.713125E+03  9.100661E-01 -1.166649E+02  2.246472E-02 8.409628E+01  1.644402E-02 -8.362853E+01 
 2.146558E-02 8.399444E+01  9.395849E-01 -8.541336E+01  3.834043E-02 1.893313E+01 
 1.621278E-02 -8.359468E+01  3.830025E-02 1.886531E+01  9.400230E-01 -8.617049E+01 
1.713750E+03  9.161730E-01 -1.166504E+02  2.147121E-02 8.098481E+01  1.436380E-02 -8.592536E+01 
 2.054664E-02 8.090689E+01  9.394600E-01 -8.554652E+01  3.810706E-02 1.883108E+01 
 1.411952E-02 -8.589196E+01  3.737239E-02 1.880570E+01  9.400179E-01 -8.633989E+01 
1.714375E+03  9.200463E-01 -1.169226E+02  2.020036E-02 8.259112E+01  1.436022E-02 -8.368019E+01 
 1.930168E-02 8.244388E+01  9.400162E-01 -8.575179E+01  3.743965E-02 1.766989E+01 
 1.414910E-02 -8.361219E+01  3.677187E-02 1.761003E+01  9.384651E-01 -8.648632E+01 
1.715000E+03  9.197528E-01 -1.173505E+02  2.200486E-02 8.852115E+01  1.527127E-02 -8.055007E+01 
 2.103975E-02 8.842018E+01  9.381072E-01 -8.604421E+01  3.701705E-02 1.545175E+01 
 1.501293E-02 -8.038635E+01  3.629842E-02 1.544723E+01  9.377467E-01 -8.664310E+01 
1.715625E+03  9.190719E-01 -1.175797E+02  2.367123E-02 8.897250E+01  1.665836E-02 -7.797786E+01 
 2.262599E-02 8.885580E+01  9.361405E-01 -8.622290E+01  3.575216E-02 1.371111E+01 
 1.634895E-02 -7.787243E+01  3.515785E-02 1.363306E+01  9.367321E-01 -8.687331E+01 
1.716250E+03  9.136966E-01 -1.178496E+02  2.829948E-02 8.898832E+01  2.076789E-02 -8.198106E+01 
 2.705576E-02 8.897779E+01  9.326065E-01 -8.640830E+01  3.403787E-02 9.555150E+00 
 2.040022E-02 -8.198438E+01  3.340185E-02 9.522240E+00  9.335253E-01 -8.703941E+01 
1.716875E+03  9.024138E-01 -1.175297E+02  3.577673E-02 7.897058E+01  2.596315E-02 -9.788458E+01 
 3.419492E-02 7.888551E+01  9.277265E-01 -8.641291E+01  2.915788E-02 3.950811E+00 
 2.553704E-02 -9.782256E+01  3.006642E-02 4.016224E+00  9.299512E-01 -8.704204E+01 
1.717500E+03  9.046816E-01 -1.171360E+02  3.426752E-02 6.838063E+01  2.523494E-02 -1.082512E+02 
 3.429838E-02 6.850642E+01  9.279845E-01 -8.634342E+01  2.481592E-02 6.014223E+00 
 2.482813E-02 -1.083105E+02  2.441903E-02 6.011685E+00  9.299817E-01 -8.713492E+01 
1.718125E+03  9.103607E-01 -1.167159E+02  3.280419E-02 5.748110E+01  2.493229E-02 -1.212057E+02 
 3.278934E-02 5.759083E+01  9.294434E-01 -8.637701E+01  2.058252E-02 1.252557E+01 
 2.452551E-02 -1.212173E+02  2.023054E-02 1.246602E+01  9.291978E-01 -8.721302E+01 
1.718750E+03  9.162279E-01 -1.166648E+02  3.278503E-02 5.305059E+01  2.344532E-02 -1.309756E+02 
 3.133717E-02 5.293977E+01  9.293470E-01 -8.654077E+01  1.843889E-02 2.247311E+01 
 2.303390E-02 -1.309946E+02  1.898171E-02 2.250084E+01  9.288708E-01 -8.734973E+01 
1.719375E+03  9.231159E-01 -1.168613E+02  2.998399E-02 4.941043E+01  2.071796E-02 -1.366820E+02 
 2.864395E-02 4.931575E+01  9.296437E-01 -8.672402E+01  1.906921E-02 3.422518E+01 
 2.037219E-02 -1.366723E+02  1.963946E-02 3.427761E+01  9.277679E-01 -8.752495E+01 
1.720000E+03  9.272782E-01 -1.171702E+02  2.750151E-02 5.011272E+01  1.960244E-02 -1.385559E+02 
 2.627212E-02 5.000683E+01  9.299471E-01 -8.697972E+01  2.042330E-02 3.626561E+01 
 1.924657E-02 -1.385810E+02  2.100309E-02 3.631016E+01  9.270009E-01 -8.755584E+01 
1.720625E+03  9.279563E-01 -1.175681E+02  2.824128E-02 5.621939E+01  1.855670E-02 -1.389273E+02 
 2.701096E-02 5.613299E+01  9.262560E-01 -8.732552E+01  2.119500E-02 3.678476E+01 
 1.826825E-02 -1.388501E+02  2.177452E-02 3.681112E+01  9.268195E-01 -8.767272E+01 
1.721250E+03  9.278827E-01 -1.177594E+02  3.101424E-02 5.345970E+01  1.828329E-02 -1.382007E+02 
 2.963418E-02 5.334209E+01  9.228497E-01 -8.737890E+01  1.951295E-02 3.723646E+01 
 1.796012E-02 -1.381458E+02  2.005335E-02 3.717870E+01  9.268619E-01 -8.795760E+01 
1.721875E+03  9.241661E-01 -1.178963E+02  3.290940E-02 5.396292E+01  2.165544E-02 -1.375503E+02 
 3.296241E-02 5.402872E+01  9.180772E-01 -8.758819E+01  1.610908E-02 3.674199E+01 
 2.131696E-02 -1.374394E+02  1.653270E-02 3.679827E+01  9.239278E-01 -8.806585E+01 
1.722500E+03  9.215967E-01 -1.175723E+02  3.978155E-02 4.504954E+01  2.575201E-02 -1.456590E+02 
 3.987143E-02 4.524052E+01  9.126081E-01 -8.735989E+01  1.067073E-02 5.648998E+01 
 2.532747E-02 -1.455839E+02  1.093773E-02 5.657448E+01  9.218328E-01 -8.816962E+01 
1.723125E+03  9.289514E-01 -1.174929E+02  3.846677E-02 3.331454E+01  2.500630E-02 -1.565442E+02 
 3.854236E-02 3.346342E+01  9.156155E-01 -8.725456E+01  1.466177E-02 8.814834E+01 
 2.461769E-02 -1.564732E+02  1.507877E-02 8.816641E+01  9.214289E-01 -8.840561E+01 
1.723750E+03  9.355505E-01 -1.175325E+02  3.637130E-02 2.338772E+01  2.523015E-02 -1.655159E+02 
 3.651444E-02 2.365980E+01  9.184873E-01 -8.736628E+01  2.151935E-02 9.856540E+01 
 2.479823E-02 -1.654622E+02  2.108719E-02 9.860937E+01  9.184863E-01 -8.853259E+01 
1.724375E+03  9.398743E-01 -1.178280E+02  3.331167E-02 2.016918E+01  2.444214E-02 -1.741682E+02 
 3.334310E-02 2.024274E+01  9.164783E-01 -8.771446E+01  2.914171E-02 1.002069E+02 
 2.403183E-02 -1.741965E+02  2.857511E-02 1.001036E+02  9.162438E-01 -8.873755E+01 
1.725000E+03  9.440755E-01 -1.181322E+02  3.247904E-02 1.562374E+01  2.229776E-02 -1.798214E+02 
 3.105448E-02 1.571228E+01  9.143617E-01 -8.778787E+01  3.758275E-02 9.443391E+01 
 2.189082E-02 -1.798465E+02  3.686937E-02 9.431806E+01  9.095488E-01 -8.882525E+01 
1.725625E+03  9.464924E-01 -1.184939E+02  2.960525E-02 1.353069E+01  2.113188E-02 1.766820E+02 
 2.831952E-02 1.354594E+01  9.143054E-01 -8.774169E+01  4.102886E-02 8.333348E+01 
 2.076538E-02 1.766338E+02  4.026777E-02 8.319292E+01  9.084303E-01 -8.842598E+01 
1.726250E+03  9.477638E-01 -1.188194E+02  2.802142E-02 1.478553E+01  2.039030E-02 1.715226E+02 
