! Matrix data file written by TouchstoneData, EPCOS AG
! FILENAME: "B4305_Pcb01_NB.s3p_newformat"
! COMMENT: "(B4305_Pcb01_NB.s3p) Epcos AG 3/7/2011 2:08:"
! INFO: nport=3, nfreq=801
! DATE: "Mon Apr 18 16:11:33 2011"
! USER: "Sergey Rostovtsev"
!
! port | pin | signal
! -----|-----|--------
!   1  |  1  |  in
!   2  |  3  |  out
!   3  |  4  |  out
! --------------------
! 
# MHZ S MA R 50
! freq  magS11 angS11  magS12 angS12  magS13 angS13  ...
1.810000E+03  9.544550E-01 -1.225572E+02  1.617600E-03 -8.819732E+01  6.024939E-03 3.014376E+01 
 1.573055E-03 -8.885440E+01  9.398167E-01 -8.973760E+01  5.318212E-02 2.834945E+00 
 5.909331E-03 3.034463E+01  5.289768E-02 2.854655E+00  9.426914E-01 -8.971558E+01 
1.810438E+03  9.545138E-01 -1.226746E+02  1.250654E-03 -8.936091E+01  5.420788E-03 2.776674E+01 
 1.200139E-03 -8.951639E+01  9.402873E-01 -8.985576E+01  5.275809E-02 3.184536E+00 
 5.333408E-03 2.765743E+01  5.248668E-02 3.291039E+00  9.426378E-01 -8.981270E+01 
1.810875E+03  9.544670E-01 -1.227786E+02  1.019897E-03 -9.055834E+01  5.075671E-03 2.665632E+01 
 9.895958E-04 -9.127700E+01  9.404111E-01 -8.989930E+01  5.159667E-02 3.468972E+00 
 4.955402E-03 2.668626E+01  5.132359E-02 3.527726E+00  9.426029E-01 -8.986681E+01 
1.811312E+03  9.547577E-01 -1.228866E+02  8.638267E-04 -9.311567E+01  4.775663E-03 2.457584E+01 
 8.289841E-04 -9.255102E+01  9.409591E-01 -8.998895E+01  5.068250E-02 4.338501E+00 
 4.679578E-03 2.479703E+01  5.042450E-02 4.309322E+00  9.432539E-01 -8.992894E+01 
1.811750E+03  9.551258E-01 -1.229920E+02  7.058345E-04 -1.028473E+02  4.544930E-03 2.215756E+01 
 6.848104E-04 -1.045743E+02  9.413127E-01 -9.007797E+01  4.976672E-02 5.463727E+00 
 4.467943E-03 2.185499E+01  4.951037E-02 5.489229E+00  9.441391E-01 -8.999689E+01 
1.812188E+03  9.550001E-01 -1.231136E+02  4.747061E-04 -1.125408E+02  4.177246E-03 1.814081E+01 
 4.438770E-04 -1.143294E+02  9.417340E-01 -9.017906E+01  4.938539E-02 6.867967E+00 
 4.098626E-03 1.824033E+01  4.912919E-02 6.827021E+00  9.447361E-01 -9.009427E+01 
1.812625E+03  9.548823E-01 -1.232189E+02  4.023334E-04 -1.112405E+02  3.885856E-03 1.637011E+01 
 3.846189E-04 -1.074294E+02  9.418706E-01 -9.027295E+01  4.926913E-02 8.032986E+00 
 3.826806E-03 1.601944E+01  4.895942E-02 8.042298E+00  9.452532E-01 -9.018648E+01 
1.813062E+03  9.545077E-01 -1.233016E+02  4.487364E-04 -1.233624E+02  3.643103E-03 1.105453E+01 
 4.512663E-04 -1.248927E+02  9.418212E-01 -9.035611E+01  4.919684E-02 9.085101E+00 
 3.571283E-03 1.139701E+01  4.888522E-02 9.122160E+00  9.461503E-01 -9.030750E+01 
1.813500E+03  9.550349E-01 -1.234005E+02  5.547134E-04 -1.406690E+02  3.107252E-03 5.593142E+00 
 5.307713E-04 -1.411393E+02  9.417402E-01 -9.043219E+01  4.937007E-02 1.051353E+01 
 3.027724E-03 5.910567E+00  4.906021E-02 1.057559E+01  9.460878E-01 -9.041975E+01 
1.813938E+03  9.552550E-01 -1.234910E+02  7.214043E-04 -1.702675E+02  2.601659E-03 7.150879E+00 
 6.911917E-04 -1.712051E+02  9.420724E-01 -9.050341E+01  4.982793E-02 1.151103E+01 
 2.561309E-03 7.045612E+00  4.951773E-02 1.155382E+01  9.460942E-01 -9.051658E+01 
1.814375E+03  9.554379E-01 -1.235970E+02  8.708129E-04 1.675668E+02  2.325004E-03 7.331946E+00 
 8.451202E-04 1.677823E+02  9.421448E-01 -9.060201E+01  5.045325E-02 1.238633E+01 
 2.268026E-03 7.118725E+00  5.007190E-02 1.233736E+01  9.454240E-01 -9.060506E+01 
1.814812E+03  9.554005E-01 -1.237072E+02  9.901324E-04 1.508626E+02  1.997823E-03 6.916173E+00 
 9.530328E-04 1.517759E+02  9.418922E-01 -9.069642E+01  5.095397E-02 1.293051E+01 
 1.976561E-03 6.927061E+00  5.064804E-02 1.297487E+01  9.454872E-01 -9.065992E+01 
1.815250E+03  9.554590E-01 -1.238204E+02  1.158516E-03 1.408854E+02  1.735654E-03 1.129107E+01 
 1.099475E-03 1.403517E+02  9.420805E-01 -9.075654E+01  5.167977E-02 1.346134E+01 
 1.702690E-03 1.235272E+01  5.137521E-02 1.355142E+01  9.455848E-01 -9.073645E+01 
1.815688E+03  9.555267E-01 -1.239305E+02  1.160885E-03 1.305251E+02  1.616483E-03 1.565761E+01 
 1.119895E-03 1.322825E+02  9.422160E-01 -9.084671E+01  5.241983E-02 1.395522E+01 
 1.593388E-03 1.642303E+01  5.215160E-02 1.390500E+01  9.452998E-01 -9.083356E+01 
1.816125E+03  9.553836E-01 -1.240548E+02  1.224723E-03 1.330140E+02  1.455235E-03 1.869806E+01 
 1.176719E-03 1.317107E+02  9.423129E-01 -9.094942E+01  5.338463E-02 1.390112E+01 
 1.402320E-03 1.818107E+01  5.301914E-02 1.389375E+01  9.456316E-01 -9.089747E+01 
1.816562E+03  9.555303E-01 -1.241647E+02  1.380244E-03 1.302342E+02  1.396031E-03 2.810456E+01 
 1.341503E-03 1.301669E+02  9.421913E-01 -9.106012E+01  5.389669E-02 1.367841E+01 
 1.367282E-03 2.860263E+01  5.358155E-02 1.369415E+01  9.457895E-01 -9.101804E+01 
1.817000E+03  9.552838E-01 -1.242679E+02  1.510152E-03 1.291743E+02  1.482968E-03 2.884302E+01 
 1.439718E-03 1.296981E+02  9.417381E-01 -9.117175E+01  5.440853E-02 1.387872E+01 
 1.448932E-03 2.893652E+01  5.410920E-02 1.391711E+01  9.450739E-01 -9.112372E+01 
1.817438E+03  9.553254E-01 -1.243726E+02  1.650271E-03 1.270698E+02  1.432536E-03 2.805182E+01 
 1.585925E-03 1.274268E+02  9.415265E-01 -9.125182E+01  5.523874E-02 1.339844E+01 
 1.387547E-03 2.711946E+01  5.492017E-02 1.340004E+01  9.446368E-01 -9.120562E+01 
1.817875E+03  9.554304E-01 -1.244706E+02  1.692926E-03 1.278627E+02  1.376371E-03 2.987876E+01 
 1.601823E-03 1.271500E+02  9.410562E-01 -9.136186E+01  5.564789E-02 1.341094E+01 
 1.354930E-03 3.047818E+01  5.533464E-02 1.349162E+01  9.439953E-01 -9.132467E+01 
1.818312E+03  9.554492E-01 -1.245927E+02  1.873975E-03 1.304438E+02  1.399054E-03 3.180735E+01 
 1.792952E-03 1.311193E+02  9.407241E-01 -9.144079E+01  5.674148E-02 1.309980E+01 
 1.386809E-03 3.195151E+01  5.634258E-02 1.310165E+01  9.432263E-01 -9.140663E+01 
1.818750E+03  9.554816E-01 -1.247051E+02  2.125695E-03 1.315801E+02  1.432520E-03 3.164644E+01 
 2.049449E-03 1.314983E+02  9.408685E-01 -9.155118E+01  5.731703E-02 1.221994E+01 
 1.412632E-03 3.190726E+01  5.699730E-02 1.227444E+01  9.424686E-01 -9.147083E+01 
1.819188E+03  9.554794E-01 -1.248330E+02  2.436450E-03 1.309942E+02  1.511368E-03 3.056797E+01 
 2.311274E-03 1.312781E+02  9.398243E-01 -9.164838E+01  5.782844E-02 1.153635E+01 
 1.498793E-03 3.000403E+01  5.751375E-02 1.164539E+01  9.421302E-01 -9.153248E+01 
1.819625E+03  9.551119E-01 -1.249526E+02  2.664747E-03 1.290544E+02  1.548339E-03 2.659045E+01 
 2.532303E-03 1.287645E+02  9.394487E-01 -9.172894E+01  5.843470E-02 1.066374E+01 
 1.535945E-03 2.720942E+01  5.811127E-02 1.070592E+01  9.419245E-01 -9.159226E+01 
1.820062E+03  9.549291E-01 -1.250829E+02  2.882343E-03 1.290172E+02  1.671064E-03 2.227249E+01 
 2.755983E-03 1.289352E+02  9.386977E-01 -9.181297E+01  5.891310E-02 9.603178E+00 
 1.623161E-03 2.226410E+01  5.857988E-02 9.767544E+00  9.415575E-01 -9.165469E+01 
1.820500E+03  9.547066E-01 -1.251787E+02  3.169762E-03 1.285846E+02  1.695993E-03 1.367213E+01 
 3.045659E-03 1.285846E+02  9.376516E-01 -9.189693E+01  5.920010E-02 8.144869E+00 
 1.662627E-03 1.337714E+01  5.885665E-02 8.268394E+00  9.412830E-01 -9.173117E+01 
1.820938E+03  9.547054E-01 -1.253058E+02  3.580601E-03 1.263331E+02  1.584241E-03 1.001120E+01 
 3.419967E-03 1.262850E+02  9.363754E-01 -9.192935E+01  5.872913E-02 6.736963E+00 
 1.542988E-03 9.277146E+00  5.849696E-02 6.854366E+00  9.414485E-01 -9.178412E+01 
1.821375E+03  9.548879E-01 -1.254378E+02  3.797733E-03 1.240985E+02  1.688549E-03 1.061006E+01 
 3.635884E-03 1.240812E+02  9.361573E-01 -9.195124E+01  5.821515E-02 5.916098E+00 
 1.653150E-03 1.047958E+01  5.799378E-02 5.988289E+00  9.416929E-01 -9.188060E+01 
1.821812E+03  9.546716E-01 -1.255596E+02  4.132260E-03 1.232141E+02  1.937239E-03 5.358303E+00 
 3.949582E-03 1.234427E+02  9.357317E-01 -9.200444E+01  5.794293E-02 4.527389E+00 
 1.907275E-03 5.399872E+00  5.758652E-02 4.629036E+00  9.411008E-01 -9.197291E+01 
1.822250E+03  9.547401E-01 -1.256799E+02  4.449222E-03 1.216021E+02  2.217442E-03 -4.251434E+00 
 4.256504E-03 1.212089E+02  9.357549E-01 -9.202740E+01  5.685528E-02 3.573455E+00 
 2.186768E-03 -4.025667E+00  5.661225E-02 3.657020E+00  9.407123E-01 -9.204848E+01 
1.822688E+03  9.547235E-01 -1.258324E+02  4.814900E-03 1.196211E+02  2.378161E-03 -1.720233E+01 
 4.613351E-03 1.193009E+02  9.360082E-01 -9.209715E+01  5.613613E-02 2.704666E+00 
 2.334734E-03 -1.702857E+01  5.586442E-02 2.774332E+00  9.399434E-01 -9.212802E+01 
1.823125E+03  9.544829E-01 -1.259662E+02  5.112159E-03 1.175076E+02  2.295927E-03 -2.545742E+01 
 4.865006E-03 1.171452E+02  9.360025E-01 -9.214085E+01  5.502828E-02 2.001952E+00 
 2.245854E-03 -2.527773E+01  5.479141E-02 1.966045E+00  9.397620E-01 -9.214994E+01 
1.823562E+03  9.540278E-01 -1.261030E+02  5.374033E-03 1.161154E+02  2.535045E-03 -2.747009E+01 
 5.167668E-03 1.161590E+02  9.360781E-01 -9.222787E+01  5.397533E-02 1.323714E+00 
 2.507884E-03 -2.739951E+01  5.371768E-02 1.396175E+00  9.397441E-01 -9.224571E+01 
1.824000E+03  9.533115E-01 -1.262582E+02  5.817526E-03 1.149708E+02  2.978490E-03 -3.631472E+01 
 5.588184E-03 1.147897E+02  9.362541E-01 -9.231355E+01  5.290056E-02 1.128278E+00 
 2.920586E-03 -3.561015E+01  5.260379E-02 1.151917E+00  9.392108E-01 -9.232766E+01 
1.824438E+03  9.527350E-01 -1.263653E+02  6.225611E-03 1.125432E+02  3.310845E-03 -4.662283E+01 
 5.951975E-03 1.125543E+02  9.361321E-01 -9.239922E+01  5.201997E-02 6.680169E-01 
 3.236797E-03 -4.631996E+01  5.179622E-02 7.369554E-01  9.385412E-01 -9.240397E+01 
1.824875E+03  9.523157E-01 -1.264938E+02  6.507004E-03 1.104561E+02  3.398248E-03 -5.765249E+01 
 6.221577E-03 1.104244E+02  9.353645E-01 -9.249534E+01  5.090762E-02 2.900763E-01 
 3.316498E-03 -5.776994E+01  5.066283E-02 3.273535E-01  9.379673E-01 -9.245700E+01 
1.825312E+03  9.521110E-01 -1.266298E+02  6.900654E-03 1.102005E+02  3.418590E-03 -6.089202E+01 
 6.605626E-03 1.102645E+02  9.354710E-01 -9.256096E+01  4.992591E-02 4.011553E-01 
 3.370134E-03 -6.068946E+01  4.964448E-02 4.071610E-01  9.379761E-01 -9.251721E+01 
1.825750E+03  9.515927E-01 -1.267700E+02  7.524971E-03 1.086100E+02  3.810168E-03 -6.489541E+01 
 7.227498E-03 1.083599E+02  9.353498E-01 -9.264089E+01  4.892707E-02 3.328695E-01 
 3.713636E-03 -6.507419E+01  4.860224E-02 3.919473E-01  9.374819E-01 -9.258937E+01 
1.826188E+03  9.510533E-01 -1.269191E+02  8.173458E-03 1.054148E+02  4.310594E-03 -7.002232E+01 
 7.836953E-03 1.051638E+02  9.348414E-01 -9.273931E+01  4.833763E-02 2.142498E-01 
 4.213513E-03 -6.983788E+01  4.811616E-02 2.681986E-01  9.369766E-01 -9.267750E+01 
1.826625E+03  9.505899E-01 -1.270622E+02  8.555954E-03 1.017522E+02  4.668908E-03 -7.793118E+01 
 8.205559E-03 1.017873E+02  9.345387E-01 -9.279343E+01  4.705515E-02 -2.509488E-01 
 4.578044E-03 -7.781071E+01  4.680833E-02 -1.464461E-01  9.361889E-01 -9.272029E+01 
1.827062E+03  9.499947E-01 -1.272288E+02  9.009533E-03 1.002491E+02  4.917427E-03 -8.332284E+01 
 8.602901E-03 1.001275E+02  9.341068E-01 -9.289718E+01  4.598694E-02 1.316597E-01 
 4.807913E-03 -8.316980E+01  4.578584E-02 2.500320E-01  9.365594E-01 -9.273998E+01 
1.827500E+03  9.490295E-01 -1.274047E+02  9.912003E-03 9.823640E+01  5.468494E-03 -8.661217E+01 
 9.488174E-03 9.806270E+01  9.331449E-01 -9.299554E+01  4.526531E-02 -1.253923E-01 
 5.367321E-03 -8.655872E+01  4.499215E-02 5.741673E-02  9.364646E-01 -9.280336E+01 
1.827938E+03  9.474695E-01 -1.275480E+02  1.073980E-02 9.194937E+01  6.020618E-03 -9.382925E+01 
 1.029827E-02 9.186384E+01  9.319725E-01 -9.300799E+01  4.361209E-02 -2.578305E-01 
 5.916141E-03 -9.387407E+01  4.335917E-02 -1.998900E-01  9.368064E-01 -9.285393E+01 
1.828375E+03  9.461619E-01 -1.276608E+02  1.097610E-02 8.661950E+01  6.434214E-03 -1.011847E+02 
 1.051812E-02 8.637500E+01  9.321769E-01 -9.304168E+01  4.206385E-02 7.844445E-01 
 6.326711E-03 -1.007790E+02  4.176016E-02 9.014689E-01  9.368849E-01 -9.292028E+01 
1.828812E+03  9.452852E-01 -1.277745E+02  1.109936E-02 8.142441E+01  6.471168E-03 -1.091523E+02 
 1.066561E-02 8.145319E+01  9.319547E-01 -9.310045E+01  4.082582E-02 2.147737E+00 
 6.371681E-03 -1.088398E+02  4.045142E-02 2.213714E+00  9.375849E-01 -9.297829E+01 
1.829250E+03  9.448684E-01 -1.279098E+02  1.119027E-02 7.802219E+01  6.382734E-03 -1.109513E+02 
 1.071093E-02 7.775565E+01  9.314678E-01 -9.315532E+01  3.980410E-02 3.679438E+00 
 6.299342E-03 -1.108415E+02  3.951088E-02 3.851336E+00  9.376353E-01 -9.307554E+01 
1.829688E+03  9.438395E-01 -1.280667E+02  1.131638E-02 7.377795E+01  6.718693E-03 -1.124308E+02 
 1.087276E-02 7.347222E+01  9.311690E-01 -9.315708E+01  3.890816E-02 5.607899E+00 
 6.611989E-03 -1.122917E+02  3.861191E-02 5.700226E+00  9.376065E-01 -9.317883E+01 
1.830125E+03  9.423436E-01 -1.282113E+02  1.119861E-02 6.953083E+01  7.247430E-03 -1.144949E+02 
 1.075445E-02 6.940137E+01  9.320805E-01 -9.318610E+01  3.851075E-02 7.964045E+00 
 7.119570E-03 -1.143710E+02  3.819482E-02 8.158876E+00  9.372574E-01 -9.329163E+01 
1.830562E+03  9.416139E-01 -1.283366E+02  1.063476E-02 6.567745E+01  7.679530E-03 -1.187977E+02 
 1.018810E-02 6.546636E+01  9.329683E-01 -9.323370E+01  3.865655E-02 1.055459E+01 
 7.559237E-03 -1.185051E+02  3.836670E-02 1.074673E+01  9.359548E-01 -9.335559E+01 
1.831000E+03  9.408558E-01 -1.285077E+02  1.005148E-02 6.636278E+01  7.900047E-03 -1.214710E+02 
 9.627873E-03 6.618508E+01  9.335800E-01 -9.334721E+01  3.933069E-02 1.203812E+01 
 7.761810E-03 -1.214483E+02  3.908955E-02 1.225398E+01  9.355636E-01 -9.338495E+01 
1.831438E+03  9.387576E-01 -1.287065E+02  1.037365E-02 6.698028E+01  8.698802E-03 -1.232785E+02 
 9.950528E-03 6.683842E+01  9.334732E-01 -9.344319E+01  3.964723E-02 1.303335E+01 
 8.542930E-03 -1.231936E+02  3.945420E-02 1.310065E+01  9.352676E-01 -9.344166E+01 
1.831875E+03  9.362865E-01 -1.288680E+02  1.047958E-02 6.733650E+01  9.429594E-03 -1.259069E+02 
 1.003362E-02 6.714823E+01  9.335398E-01 -9.353098E+01  4.031167E-02 1.396082E+01 
 9.271648E-03 -1.258661E+02  4.006238E-02 1.408382E+01  9.350025E-01 -9.348968E+01 
1.832312E+03  9.338242E-01 -1.289496E+02  1.084390E-02 6.553503E+01  1.068018E-02 -1.327788E+02 
 1.037493E-02 6.542459E+01  9.338066E-01 -9.360768E+01  4.051325E-02 1.422620E+01 
 1.048526E-02 -1.326337E+02  4.027128E-02 1.438886E+01  9.343492E-01 -9.352060E+01 
1.832750E+03  9.323355E-01 -1.290752E+02  1.077832E-02 6.662386E+01  1.079278E-02 -1.409728E+02 
 1.032705E-02 6.663955E+01  9.342382E-01 -9.373378E+01  4.063547E-02 1.485704E+01 
 1.061474E-02 -1.410086E+02  4.035276E-02 1.498639E+01  9.350730E-01 -9.354353E+01 
1.833188E+03  9.297790E-01 -1.292505E+02  1.187787E-02 6.842999E+01  1.076280E-02 -1.445845E+02 
 1.139104E-02 6.845836E+01  9.335539E-01 -9.385627E+01  4.071223E-02 1.568988E+01 
 1.058059E-02 -1.444591E+02  4.050713E-02 1.583869E+01  9.355967E-01 -9.360677E+01 
1.833625E+03  9.261587E-01 -1.292583E+02  1.345677E-02 6.202523E+01  1.122359E-02 -1.501036E+02 
 1.290765E-02 6.200100E+01  9.323281E-01 -9.392101E+01  4.068582E-02 1.640317E+01 
 1.102767E-02 -1.500426E+02  4.044381E-02 1.647101E+01  9.362187E-01 -9.369157E+01 
1.834062E+03  9.247091E-01 -1.293172E+02  1.327257E-02 5.641120E+01  1.109459E-02 -1.551757E+02 
 1.269643E-02 5.637172E+01  9.324841E-01 -9.398479E+01  4.074494E-02 1.777846E+01 
 1.091586E-02 -1.551380E+02  4.051162E-02 1.790453E+01  9.368289E-01 -9.380679E+01 
1.834500E+03  9.227157E-01 -1.293346E+02  1.362022E-02 5.314236E+01  1.099380E-02 -1.604473E+02 
 1.307854E-02 5.306130E+01  9.320757E-01 -9.407156E+01  4.127639E-02 1.919681E+01 
 1.083358E-02 -1.603224E+02  4.100529E-02 1.926894E+01  9.369235E-01 -9.389784E+01 
1.834938E+03  9.209876E-01 -1.293916E+02  1.390941E-02 4.772769E+01  1.061620E-02 -1.623628E+02 
 1.333290E-02 4.767953E+01  9.313047E-01 -9.410690E+01  4.262979E-02 2.066592E+01 
 1.043764E-02 -1.622688E+02  4.239476E-02 2.066173E+01  9.361783E-01 -9.398524E+01 
1.835375E+03  9.198325E-01 -1.294327E+02  1.359071E-02 4.136715E+01  1.056512E-02 -1.652424E+02 
 1.302506E-02 4.131778E+01  9.320327E-01 -9.410136E+01  4.396842E-02 1.994608E+01 
 1.039030E-02 -1.654986E+02  4.369251E-02 2.018465E+01  9.366880E-01 -9.404304E+01 
1.835812E+03  9.184107E-01 -1.295290E+02  1.280631E-02 3.715535E+01  1.029597E-02 -1.663705E+02 
 1.228005E-02 3.712749E+01  9.323448E-01 -9.419613E+01  4.434535E-02 1.999251E+01 
 1.011158E-02 -1.664061E+02  4.418531E-02 2.018282E+01  9.369509E-01 -9.416921E+01 
1.836250E+03  9.163591E-01 -1.295566E+02  1.206930E-02 3.292499E+01  1.039711E-02 -1.662328E+02 
 1.156552E-02 3.295175E+01  9.325988E-01 -9.426948E+01  4.554002E-02 2.025065E+01 
 1.020702E-02 -1.660322E+02  4.534015E-02 2.029343E+01  9.364799E-01 -9.426211E+01 
1.836688E+03  9.145788E-01 -1.296518E+02  1.093318E-02 3.367873E+01  1.094621E-02 -1.685578E+02 
 1.046706E-02 3.373674E+01  9.333090E-01 -9.434028E+01  4.656584E-02 1.880659E+01 
 1.075936E-02 -1.683780E+02  4.628162E-02 1.893288E+01  9.364434E-01 -9.429930E+01 
1.837125E+03  9.111492E-01 -1.296708E+02  1.087290E-02 3.361638E+01  1.111253E-02 -1.708364E+02 
 1.040772E-02 3.354706E+01  9.335585E-01 -9.445289E+01  4.646944E-02 1.816276E+01 
 1.090979E-02 -1.706922E+02  4.626752E-02 1.826470E+01  9.368885E-01 -9.439179E+01 
1.837562E+03  9.089657E-01 -1.296241E+02  1.012005E-02 3.399551E+01  1.167458E-02 -1.738847E+02 
 9.720452E-03 3.383000E+01  9.339220E-01 -9.455088E+01  4.690712E-02 1.752948E+01 
 1.148445E-02 -1.738358E+02  4.662306E-02 1.758961E+01  9.369638E-01 -9.447397E+01 
1.838000E+03  9.075811E-01 -1.295123E+02  9.984791E-03 3.602186E+01  1.198175E-02 -1.793789E+02 
 9.567058E-03 3.584515E+01  9.343996E-01 -9.464104E+01  4.691375E-02 1.657576E+01 
 1.174601E-02 -1.792232E+02  4.667211E-02 1.664233E+01  9.375306E-01 -9.456128E+01 
1.838438E+03  9.074921E-01 -1.295080E+02  1.005159E-02 3.944301E+01  1.172951E-02 1.747075E+02 
 9.624917E-03 3.941782E+01  9.345516E-01 -9.476831E+01  4.641968E-02 1.587327E+01 
 1.149775E-02 1.747427E+02  4.619189E-02 1.593502E+01  9.379651E-01 -9.467182E+01 
1.838875E+03  9.046364E-01 -1.295384E+02  1.107468E-02 3.948413E+01  1.102224E-02 1.700095E+02 
 1.060284E-02 3.945769E+01  9.342795E-01 -9.487870E+01  4.597131E-02 1.587556E+01 
 1.082966E-02 1.701959E+02  4.567452E-02 1.592954E+01  9.378446E-01 -9.477815E+01 
1.839312E+03  9.033351E-01 -1.292612E+02  1.190714E-02 3.368307E+01  1.027235E-02 1.662298E+02 
 1.140462E-02 3.359227E+01  9.344672E-01 -9.494352E+01  4.592267E-02 1.608709E+01 
 1.008012E-02 1.663215E+02  4.564415E-02 1.610152E+01  9.380588E-01 -9.483955E+01 
1.839750E+03  9.059498E-01 -1.292459E+02  1.112781E-02 2.873462E+01  9.500037E-03 1.657777E+02 
 1.067860E-02 2.857680E+01  9.345081E-01 -9.507005E+01  4.583348E-02 1.585643E+01 
 9.333657E-03 1.657706E+02  4.553471E-02 1.586058E+01  9.386614E-01 -9.495190E+01 
1.840188E+03  9.061036E-01 -1.292345E+02  1.093473E-02 2.671685E+01  8.926685E-03 1.645370E+02 
 1.047989E-02 2.659773E+01  9.344432E-01 -9.512494E+01  4.573802E-02 1.605720E+01 
 8.781370E-03 1.647194E+02  4.550828E-02 1.602222E+01  9.388522E-01 -9.504772E+01 
1.840625E+03  9.076259E-01 -1.292306E+02  1.041131E-02 2.258707E+01  8.120716E-03 1.654293E+02 
 9.985579E-03 2.246644E+01  9.350583E-01 -9.521234E+01  4.575037E-02 1.600881E+01 
 7.987077E-03 1.654940E+02  4.547335E-02 1.601300E+01  9.391996E-01 -9.515608E+01 
1.841062E+03  9.081532E-01 -1.293159E+02  9.609221E-03 2.065976E+01  7.558142E-03 1.682802E+02 
 9.198103E-03 2.051134E+01  9.360594E-01 -9.530725E+01  4.585566E-02 1.580881E+01 
 7.422865E-03 1.686237E+02  4.568326E-02 1.573319E+01  9.397920E-01 -9.525698E+01 
1.841500E+03  9.080799E-01 -1.293487E+02  8.517510E-03 1.923018E+01  7.314282E-03 1.752401E+02 
 8.165831E-03 1.885428E+01  9.365091E-01 -9.544347E+01  4.566757E-02 1.576814E+01 
 7.199284E-03 1.755902E+02  4.545078E-02 1.581687E+01  9.396376E-01 -9.540305E+01 
1.841938E+03  9.084455E-01 -1.293777E+02  7.546329E-03 2.343569E+01  7.797122E-03 1.788444E+02 
 7.229591E-03 2.347527E+01  9.368675E-01 -9.557322E+01  4.604702E-02 1.569643E+01 
 7.699307E-03 1.790884E+02  4.572602E-02 1.588278E+01  9.396703E-01 -9.551662E+01 
