! Matrix data file written by TouchstoneData, EPCOS AG
! FILENAME: "B4307_02_WB.s2p_newformat"
! COMMENT: "(B4307_02_WB.s2p) Epcos AG 3/3/2011 4:02:45"
! INFO: nport=2, nfreq=1601
! DATE: "Mon Mar 14 19:02:42 2011"
! USER: "Michael Schemies"
!
! port | pin | signal
! -----|-----|--------
!   1  |  1  |  in
!   2  |  4  |  out
! --------------------
! 
# MHZ S MA R 50
! freq  magS11 angS11  magS21 angS21  magS12 angS12  magS22 angS22
1.000000E+02  9.946353E-01 -8.784310E+00  9.215790E-04 7.396725E+01  9.001012E-04 7.231922E+01  9.950052E-01 -1.020743E+01 
1.030625E+02  9.949937E-01 -9.074953E+00  9.527274E-04 8.529112E+01  9.323631E-04 8.603794E+01  9.954199E-01 -1.053531E+01 
1.061250E+02  9.955828E-01 -9.334014E+00  7.769978E-04 7.356974E+01  7.468800E-04 7.367256E+01  9.952457E-01 -1.077241E+01 
1.091875E+02  9.946200E-01 -9.597295E+00  1.072751E-03 7.539774E+01  1.076779E-03 7.514559E+01  9.933106E-01 -1.136951E+01 
1.122500E+02  9.943775E-01 -9.910500E+00  9.241240E-04 8.090100E+01  9.232426E-04 7.907208E+01  9.926029E-01 -1.162132E+01 
1.153125E+02  9.943027E-01 -1.014751E+01  1.003616E-03 7.818582E+01  1.015140E-03 7.965536E+01  9.930380E-01 -1.201951E+01 
1.183750E+02  9.926975E-01 -1.046197E+01  9.823605E-04 7.944993E+01  9.833420E-04 7.877699E+01  9.920690E-01 -1.239127E+01 
1.214375E+02  9.944233E-01 -1.068087E+01  1.189449E-03 7.723446E+01  1.180906E-03 7.748064E+01  9.922514E-01 -1.256363E+01 
1.245000E+02  9.948305E-01 -1.098568E+01  1.153043E-03 7.714029E+01  1.153411E-03 7.661853E+01  9.922346E-01 -1.280366E+01 
1.275625E+02  9.934638E-01 -1.116614E+01  1.165548E-03 7.536486E+01  1.157998E-03 7.412441E+01  9.916732E-01 -1.317050E+01 
1.306250E+02  9.933913E-01 -1.148440E+01  1.133953E-03 7.819224E+01  1.191405E-03 7.942207E+01  9.925103E-01 -1.354248E+01 
1.336875E+02  9.929957E-01 -1.176707E+01  1.194304E-03 7.569379E+01  1.198613E-03 7.351745E+01  9.929817E-01 -1.389431E+01 
1.367500E+02  9.938001E-01 -1.201815E+01  1.199769E-03 7.808842E+01  1.184398E-03 7.937737E+01  9.931330E-01 -1.415826E+01 
1.398125E+02  9.936233E-01 -1.230366E+01  1.332125E-03 7.582416E+01  1.338026E-03 7.547477E+01  9.932292E-01 -1.448891E+01 
1.428750E+02  9.940311E-01 -1.252202E+01  1.349284E-03 7.624623E+01  1.349518E-03 7.559219E+01  9.908244E-01 -1.481627E+01 
1.459375E+02  9.935211E-01 -1.278763E+01  1.384214E-03 7.420174E+01  1.392958E-03 7.337857E+01  9.916282E-01 -1.506392E+01 
1.490000E+02  9.935956E-01 -1.298959E+01  1.387192E-03 7.717659E+01  1.378897E-03 7.707417E+01  9.926873E-01 -1.528078E+01 
1.520625E+02  9.937286E-01 -1.323317E+01  1.433806E-03 7.440882E+01  1.410609E-03 7.543879E+01  9.926515E-01 -1.560737E+01 
1.551250E+02  9.941103E-01 -1.353636E+01  1.484095E-03 7.454780E+01  1.416806E-03 7.331231E+01  9.925458E-01 -1.589830E+01 
1.581875E+02  9.938362E-01 -1.382349E+01  1.515986E-03 7.570576E+01  1.511774E-03 7.515562E+01  9.933503E-01 -1.623518E+01 
1.612500E+02  9.940165E-01 -1.405848E+01  1.384759E-03 7.148197E+01  1.373770E-03 7.131259E+01  9.931062E-01 -1.645624E+01 
1.643125E+02  9.929534E-01 -1.431916E+01  1.533365E-03 7.255225E+01  1.557687E-03 7.234806E+01  9.923605E-01 -1.685318E+01 
1.673750E+02  9.926473E-01 -1.453360E+01  1.360030E-03 7.306235E+01  1.353008E-03 7.291799E+01  9.901042E-01 -1.699196E+01 
1.704375E+02  9.929213E-01 -1.479568E+01  1.579211E-03 7.351558E+01  1.558019E-03 7.295721E+01  9.915346E-01 -1.726265E+01 
1.735000E+02  9.931588E-01 -1.507043E+01  1.501894E-03 7.321155E+01  1.500646E-03 7.142067E+01  9.923720E-01 -1.751856E+01 
1.765625E+02  9.940410E-01 -1.531722E+01  1.571149E-03 7.192704E+01  1.537135E-03 7.260267E+01  9.926204E-01 -1.784493E+01 
1.796250E+02  9.938066E-01 -1.557397E+01  1.606465E-03 7.288734E+01  1.630445E-03 7.357064E+01  9.930315E-01 -1.817740E+01 
1.826875E+02  9.939795E-01 -1.580309E+01  1.658149E-03 6.997240E+01  1.629971E-03 6.841342E+01  9.929071E-01 -1.850198E+01 
1.857500E+02  9.946594E-01 -1.606325E+01  1.653718E-03 7.200142E+01  1.666156E-03 7.293049E+01  9.937536E-01 -1.880458E+01 
1.888125E+02  9.945067E-01 -1.635070E+01  1.710298E-03 6.909496E+01  1.714127E-03 7.020976E+01  9.928891E-01 -1.908282E+01 
1.918750E+02  9.937338E-01 -1.657922E+01  1.743138E-03 6.980456E+01  1.684985E-03 6.942896E+01  9.924395E-01 -1.936044E+01 
1.949375E+02  9.933280E-01 -1.677508E+01  1.713680E-03 6.937626E+01  1.739621E-03 6.970751E+01  9.919909E-01 -1.954637E+01 
1.980000E+02  9.946135E-01 -1.708922E+01  1.769655E-03 7.183034E+01  1.767301E-03 7.097124E+01  9.934780E-01 -1.992870E+01 
2.010625E+02  9.943504E-01 -1.731879E+01  1.831531E-03 7.076176E+01  1.847229E-03 7.052090E+01  9.935277E-01 -2.026339E+01 
2.041250E+02  9.937872E-01 -1.756906E+01  1.755471E-03 7.107080E+01  1.754756E-03 7.052971E+01  9.936162E-01 -2.055691E+01 
2.071875E+02  9.941302E-01 -1.780879E+01  1.885976E-03 7.118236E+01  1.892679E-03 7.045370E+01  9.939930E-01 -2.085288E+01 
2.102500E+02  9.944934E-01 -1.813839E+01  1.862705E-03 7.067833E+01  1.840409E-03 7.095552E+01  9.937554E-01 -2.114125E+01 
2.133125E+02  9.928627E-01 -1.829418E+01  1.894065E-03 6.915511E+01  1.914944E-03 6.940029E+01  9.908373E-01 -2.150610E+01 
2.163750E+02  9.938934E-01 -1.858121E+01  1.887379E-03 6.968951E+01  1.914069E-03 6.922296E+01  9.917923E-01 -2.163044E+01 
2.194375E+02  9.943785E-01 -1.879184E+01  1.955524E-03 6.849515E+01  1.954079E-03 6.943958E+01  9.931849E-01 -2.197160E+01 
2.225000E+02  9.941347E-01 -1.908806E+01  1.958592E-03 6.693209E+01  1.935655E-03 6.727008E+01  9.937330E-01 -2.225413E+01 
2.255625E+02  9.939660E-01 -1.938449E+01  2.070969E-03 6.893031E+01  2.059340E-03 6.850859E+01  9.941118E-01 -2.260260E+01 
2.286250E+02  9.948741E-01 -1.960085E+01  1.980087E-03 6.684171E+01  1.986226E-03 6.783965E+01  9.932513E-01 -2.286041E+01 
2.316875E+02  9.939545E-01 -1.986123E+01  2.079201E-03 6.779295E+01  2.066295E-03 6.844446E+01  9.936535E-01 -2.315506E+01 
2.347500E+02  9.941269E-01 -2.013124E+01  2.144778E-03 6.726192E+01  2.162925E-03 6.765577E+01  9.936529E-01 -2.352517E+01 
2.378125E+02  9.933715E-01 -2.039122E+01  2.159265E-03 5.972998E+01  2.131387E-03 5.967330E+01  9.897720E-01 -2.379846E+01 
2.408750E+02  9.932078E-01 -2.059978E+01  2.096293E-03 6.612332E+01  2.092245E-03 6.617486E+01  9.923263E-01 -2.404877E+01 
2.439375E+02  9.937648E-01 -2.083989E+01  1.972444E-03 6.419804E+01  1.961717E-03 6.409579E+01  9.923155E-01 -2.424574E+01 
2.470000E+02  9.944779E-01 -2.111449E+01  2.110508E-03 6.513202E+01  2.106837E-03 6.533044E+01  9.927748E-01 -2.457281E+01 
2.500625E+02  9.937886E-01 -2.138929E+01  2.050938E-03 6.651630E+01  2.048387E-03 6.649321E+01  9.936818E-01 -2.485114E+01 
2.531250E+02  9.944854E-01 -2.166251E+01  2.165584E-03 6.496773E+01  2.169074E-03 6.509639E+01  9.938685E-01 -2.524449E+01 
2.561875E+02  9.943782E-01 -2.191774E+01  2.201899E-03 6.602354E+01  2.187003E-03 6.607163E+01  9.940927E-01 -2.555760E+01 
2.592500E+02  9.928704E-01 -2.222527E+01  2.287022E-03 6.502797E+01  2.259530E-03 6.546392E+01  9.945350E-01 -2.591406E+01 
2.623125E+02  9.939488E-01 -2.238424E+01  2.223072E-03 6.471657E+01  2.256016E-03 6.488243E+01  9.915591E-01 -2.609132E+01 
2.653750E+02  9.943567E-01 -2.263601E+01  2.212452E-03 6.466477E+01  2.206499E-03 6.512914E+01  9.930744E-01 -2.638763E+01 
2.684375E+02  9.944297E-01 -2.286762E+01  2.339733E-03 6.523772E+01  2.358759E-03 6.552678E+01  9.948491E-01 -2.669262E+01 
2.715000E+02  9.947263E-01 -2.315963E+01  2.379069E-03 6.589567E+01  2.350302E-03 6.619458E+01  9.951091E-01 -2.698756E+01 
2.745625E+02  9.948906E-01 -2.339655E+01  2.350360E-03 6.379561E+01  2.365127E-03 6.312084E+01  9.948901E-01 -2.728251E+01 
2.776250E+02  9.947959E-01 -2.367585E+01  2.381210E-03 6.350779E+01  2.367110E-03 6.362909E+01  9.950376E-01 -2.761075E+01 
2.806875E+02  9.948043E-01 -2.396116E+01  2.405595E-03 6.330693E+01  2.436013E-03 6.379070E+01  9.946046E-01 -2.791466E+01 
2.837500E+02  9.937196E-01 -2.421119E+01  2.485197E-03 6.333272E+01  2.488447E-03 6.317649E+01  9.944465E-01 -2.830000E+01 
2.868125E+02  9.941485E-01 -2.442020E+01  2.439629E-03 6.235053E+01  2.460390E-03 6.180427E+01  9.929842E-01 -2.843871E+01 
2.898750E+02  9.941120E-01 -2.465803E+01  2.512269E-03 6.284308E+01  2.511873E-03 6.340037E+01  9.935553E-01 -2.862888E+01 
2.929375E+02  9.947132E-01 -2.492083E+01  2.599428E-03 6.328800E+01  2.598419E-03 6.296739E+01  9.945652E-01 -2.885688E+01 
2.960000E+02  9.942414E-01 -2.518307E+01  2.623705E-03 6.329035E+01  2.622348E-03 6.246128E+01  9.948482E-01 -2.918034E+01 
2.990625E+02  9.937808E-01 -2.543015E+01  2.588761E-03 5.916347E+01  2.574291E-03 5.854037E+01  9.948934E-01 -2.942689E+01 
3.021250E+02  9.939084E-01 -2.568312E+01  2.627544E-03 6.072746E+01  2.625978E-03 6.049835E+01  9.946694E-01 -2.977796E+01 
3.051875E+02  9.937956E-01 -2.597848E+01  2.579721E-03 5.986874E+01  2.595707E-03 6.024799E+01  9.948284E-01 -3.005546E+01 
3.082500E+02  9.925739E-01 -2.613586E+01  2.631301E-03 5.964855E+01  2.590942E-03 6.002653E+01  9.924071E-01 -3.049779E+01 
3.113125E+02  9.935710E-01 -2.638607E+01  2.561928E-03 6.052846E+01  2.532410E-03 6.063818E+01  9.946762E-01 -3.052777E+01 
3.143750E+02  9.937220E-01 -2.664756E+01  2.599839E-03 6.139726E+01  2.628017E-03 6.186622E+01  9.946856E-01 -3.086605E+01 
3.174375E+02  9.939691E-01 -2.689660E+01  2.731671E-03 6.063304E+01  2.708644E-03 6.012716E+01  9.948561E-01 -3.120175E+01 
3.205000E+02  9.937905E-01 -2.716252E+01  2.684209E-03 5.792036E+01  2.683840E-03 5.859100E+01  9.940458E-01 -3.146563E+01 
3.235625E+02  9.931377E-01 -2.746101E+01  2.762381E-03 5.834892E+01  2.752271E-03 5.813527E+01  9.950174E-01 -3.178064E+01 
3.266250E+02  9.932502E-01 -2.771974E+01  2.752612E-03 5.838624E+01  2.754803E-03 5.762475E+01  9.941954E-01 -3.201145E+01 
3.296875E+02  9.919394E-01 -2.797672E+01  2.716161E-03 5.820775E+01  2.695051E-03 5.910123E+01  9.939012E-01 -3.238729E+01 
3.327500E+02  9.924023E-01 -2.814133E+01  2.715980E-03 5.772961E+01  2.718845E-03 5.703996E+01  9.914685E-01 -3.260989E+01 
3.358125E+02  9.924091E-01 -2.843862E+01  2.797973E-03 5.799665E+01  2.797079E-03 5.761057E+01  9.929573E-01 -3.283710E+01 
3.388750E+02  9.925710E-01 -2.864641E+01  2.791435E-03 5.811165E+01  2.748090E-03 5.828587E+01  9.939058E-01 -3.316707E+01 
3.419375E+02  9.926454E-01 -2.894774E+01  2.841004E-03 5.829306E+01  2.880301E-03 5.879263E+01  9.938112E-01 -3.346472E+01 
3.450000E+02  9.926819E-01 -2.915719E+01  2.877913E-03 5.828657E+01  2.878904E-03 5.827482E+01  9.939083E-01 -3.375706E+01 
3.480625E+02  9.926945E-01 -2.942809E+01  2.896132E-03 5.833990E+01  2.895450E-03 5.896918E+01  9.938943E-01 -3.409604E+01 
3.511250E+02  9.916597E-01 -2.972494E+01  2.959639E-03 5.756115E+01  2.918253E-03 5.781618E+01  9.937361E-01 -3.439978E+01 
3.541875E+02  9.903980E-01 -3.000402E+01  3.024369E-03 5.807189E+01  3.021236E-03 5.746438E+01  9.931950E-01 -3.476882E+01 
3.572500E+02  9.907580E-01 -3.017941E+01  3.017451E-03 5.625311E+01  3.006055E-03 5.671724E+01  9.908234E-01 -3.488920E+01 
3.603125E+02  9.912890E-01 -3.047790E+01  3.046689E-03 5.716683E+01  3.049103E-03 5.689711E+01  9.925652E-01 -3.518773E+01 
3.633750E+02  9.912255E-01 -3.072152E+01  3.108538E-03 5.336900E+01  3.100973E-03 5.347203E+01  9.924830E-01 -3.552619E+01 
3.664375E+02  9.911959E-01 -3.099037E+01  3.021355E-03 5.603501E+01  2.981039E-03 5.599905E+01  9.929639E-01 -3.581103E+01 
3.695000E+02  9.909969E-01 -3.122170E+01  3.127301E-03 5.664334E+01  3.095842E-03 5.682586E+01  9.928781E-01 -3.612443E+01 
3.725625E+02  9.913913E-01 -3.151399E+01  3.219115E-03 5.458500E+01  3.198039E-03 5.514722E+01  9.929822E-01 -3.646787E+01 
3.756250E+02  9.912240E-01 -3.179265E+01  3.204186E-03 5.432295E+01  3.181934E-03 5.454075E+01  9.925052E-01 -3.678453E+01 
3.786875E+02  9.901696E-01 -3.204196E+01  3.238968E-03 5.207640E+01  3.208498E-03 5.254293E+01  9.907626E-01 -3.719757E+01 
3.817500E+02  9.901520E-01 -3.229316E+01  3.070562E-03 5.173772E+01  3.048796E-03 5.185429E+01  9.907052E-01 -3.727892E+01 
3.848125E+02  9.906864E-01 -3.258030E+01  3.075943E-03 5.272766E+01  3.070552E-03 5.338526E+01  9.916925E-01 -3.757680E+01 
3.878750E+02  9.895801E-01 -3.281635E+01  3.094774E-03 5.296742E+01  3.082489E-03 5.332707E+01  9.916336E-01 -3.785390E+01 
3.909375E+02  9.896249E-01 -3.308999E+01  3.087767E-03 5.459094E+01  3.111229E-03 5.440923E+01  9.914177E-01 -3.812899E+01 
3.940000E+02  9.902332E-01 -3.333566E+01  3.171075E-03 5.400035E+01  3.137251E-03 5.409920E+01  9.927033E-01 -3.841854E+01 
3.970625E+02  9.905102E-01 -3.360138E+01  3.176551E-03 5.361162E+01  3.177453E-03 5.305361E+01  9.926076E-01 -3.873873E+01 
4.001250E+02  9.893915E-01 -3.392932E+01  3.239035E-03 5.279000E+01  3.243316E-03 5.305419E+01  9.925441E-01 -3.913300E+01 
4.031875E+02  9.898064E-01 -3.409933E+01  3.318900E-03 5.204609E+01  3.325097E-03 5.206386E+01  9.885952E-01 -3.949340E+01 
4.062500E+02  9.901277E-01 -3.437960E+01  3.288460E-03 5.244069E+01  3.289912E-03 5.212767E+01  9.908650E-01 -3.956718E+01 
4.093125E+02  9.898159E-01 -3.465375E+01  3.309665E-03 5.233333E+01  3.322891E-03 5.238576E+01  9.915468E-01 -3.988783E+01 
4.123750E+02  9.897237E-01 -3.493632E+01  3.328585E-03 5.187858E+01  3.313606E-03 5.229657E+01  9.922427E-01 -4.021729E+01 
4.154375E+02  9.894427E-01 -3.525024E+01  3.347512E-03 5.139219E+01  3.341726E-03 5.185927E+01  9.919431E-01 -4.053008E+01 
4.185000E+02  9.890800E-01 -3.547507E+01  3.378318E-03 5.103251E+01  3.385654E-03 5.097581E+01  9.918415E-01 -4.081675E+01 
4.215625E+02  9.891797E-01 -3.571781E+01  3.370645E-03 5.110144E+01  3.368911E-03 5.099418E+01  9.914250E-01 -4.112969E+01 
4.246250E+02  9.873016E-01 -3.602494E+01  3.462870E-03 5.124036E+01  3.454290E-03 5.099476E+01  9.911332E-01 -4.146840E+01 
4.276875E+02  9.878932E-01 -3.619063E+01  3.428012E-03 5.009483E+01  3.428478E-03 5.007099E+01  9.880486E-01 -4.163176E+01 
4.307500E+02  9.897974E-01 -3.644706E+01  3.474862E-03 5.104220E+01  3.467411E-03 5.115080E+01  9.903772E-01 -4.186814E+01 
4.338125E+02  9.888594E-01 -3.665770E+01  3.598526E-03 4.909281E+01  3.597696E-03 4.891763E+01  9.897315E-01 -4.216564E+01 
4.368750E+02  9.876870E-01 -3.694738E+01  3.653275E-03 4.707741E+01  3.627191E-03 4.710397E+01  9.903411E-01 -4.244202E+01 
4.399375E+02  9.885989E-01 -3.719465E+01  3.552301E-03 4.622647E+01  3.546942E-03 4.592866E+01  9.900048E-01 -4.278583E+01 
4.430000E+02  9.886695E-01 -3.745745E+01  3.402236E-03 4.523880E+01  3.398672E-03 4.540344E+01  9.902161E-01 -4.302597E+01 
4.460625E+02  9.888119E-01 -3.772485E+01  3.360898E-03 4.704319E+01  3.383956E-03 4.733479E+01  9.901605E-01 -4.332675E+01 
4.491250E+02  9.876838E-01 -3.792961E+01  3.471701E-03 4.822388E+01  3.476782E-03 4.791006E+01  9.901308E-01 -4.366692E+01 
4.521875E+02  9.882353E-01 -3.817793E+01  3.505725E-03 4.779973E+01  3.507016E-03 4.858106E+01  9.886788E-01 -4.381879E+01 
4.552500E+02  9.877309E-01 -3.842156E+01  3.565477E-03 4.801523E+01  3.576784E-03 4.771824E+01  9.897657E-01 -4.413154E+01 
4.583125E+02  9.883899E-01 -3.867235E+01  3.636461E-03 4.696870E+01  3.632880E-03 4.717050E+01  9.902719E-01 -4.442694E+01 
4.613750E+02  9.885409E-01 -3.892583E+01  3.568580E-03 4.726030E+01  3.555089E-03 4.761924E+01  9.892433E-01 -4.469215E+01 
4.644375E+02  9.886782E-01 -3.919020E+01  3.562876E-03 4.583557E+01  3.585966E-03 4.597555E+01  9.894853E-01 -4.497826E+01 
4.675000E+02  9.885483E-01 -3.943890E+01  3.542375E-03 4.721758E+01  3.568137E-03 4.664168E+01  9.897110E-01 -4.523342E+01 
4.705625E+02  9.880551E-01 -3.991734E+01  3.645232E-03 4.708021E+01  3.619065E-03 4.732335E+01  9.898874E-01 -4.549291E+01 
4.736250E+02  9.875838E-01 -3.991731E+01  3.641150E-03 4.632940E+01  3.638952E-03 4.662784E+01  9.884921E-01 -4.591000E+01 
4.766875E+02  9.881669E-01 -4.012619E+01  3.635308E-03 4.711847E+01  3.652997E-03 4.691516E+01  9.885398E-01 -4.600983E+01 
4.797500E+02  9.882579E-01 -4.036588E+01  3.694480E-03 4.615673E+01  3.678322E-03 4.642741E+01  9.892113E-01 -4.626547E+01 
4.828125E+02  9.885200E-01 -4.062323E+01  3.700505E-03 4.556567E+01  3.706838E-03 4.550374E+01  9.892432E-01 -4.657007E+01 
4.858750E+02  9.882367E-01 -4.086164E+01  3.744383E-03 4.552127E+01  3.755111E-03 4.507311E+01  9.892586E-01 -4.687634E+01 
4.889375E+02  9.883932E-01 -4.109410E+01  3.766909E-03 4.540659E+01  3.767517E-03 4.541043E+01  9.890399E-01 -4.714926E+01 
4.920000E+02  9.883329E-01 -4.134348E+01  3.805577E-03 4.479088E+01  3.782285E-03 4.478519E+01  9.887408E-01 -4.744412E+01 
4.950625E+02  9.872851E-01 -4.158101E+01  3.854087E-03 4.484371E+01  3.860952E-03 4.467972E+01  9.884126E-01 -4.775382E+01 
4.981250E+02  9.881150E-01 -4.173799E+01  3.814551E-03 4.386946E+01  3.855432E-03 4.382415E+01  9.845045E-01 -4.794981E+01 
5.011875E+02  9.886698E-01 -4.194325E+01  3.881318E-03 4.379844E+01  3.833361E-03 4.437862E+01  9.873132E-01 -4.819972E+01 
5.042500E+02  9.884829E-01 -4.217943E+01  3.844776E-03 4.412178E+01  3.819173E-03 4.445981E+01  9.878739E-01 -4.843730E+01 
5.073125E+02  9.883101E-01 -4.240542E+01  3.894327E-03 4.391108E+01  3.863027E-03 4.403689E+01  9.881381E-01 -4.872740E+01 
5.103750E+02  9.889482E-01 -4.266938E+01  3.964324E-03 4.306550E+01  3.930087E-03 4.321355E+01  9.876630E-01 -4.900941E+01 
5.134375E+02  9.892342E-01 -4.289245E+01  3.923901E-03 4.167383E+01  3.909763E-03 4.127346E+01  9.886451E-01 -4.928825E+01 
5.165000E+02  9.881097E-01 -4.313680E+01  3.879512E-03 4.083248E+01  3.891525E-03 4.074503E+01  9.877995E-01 -4.954353E+01 
5.195625E+02  9.871917E-01 -4.332298E+01  3.760236E-03 4.078899E+01  3.739678E-03 4.029090E+01  9.881124E-01 -4.987951E+01 
5.226250E+02  9.886440E-01 -4.353285E+01  3.856618E-03 4.124970E+01  3.832976E-03 4.109320E+01  9.860450E-01 -5.002901E+01 
5.256875E+02  9.894158E-01 -4.374676E+01  3.754213E-03 4.213133E+01  3.768607E-03 4.196509E+01  9.867565E-01 -5.029938E+01 
5.287500E+02  9.879631E-01 -4.401871E+01  3.851739E-03 4.303925E+01  3.853733E-03 4.277342E+01  9.879501E-01 -5.053387E+01 
5.318125E+02  9.893244E-01 -4.422224E+01  3.919657E-03 4.179635E+01  3.920969E-03 4.202123E+01  9.886530E-01 -5.081006E+01 
5.348750E+02  9.887062E-01 -4.450031E+01  3.906681E-03 4.198473E+01  3.904959E-03 4.199570E+01  9.892388E-01 -5.110587E+01 
5.379375E+02  9.889734E-01 -4.472518E+01  3.967238E-03 4.156589E+01  3.957203E-03 4.167697E+01  9.888688E-01 -5.135080E+01 
5.410000E+02  9.880854E-01 -4.500616E+01  3.981206E-03 4.148119E+01  3.984836E-03 4.132525E+01  9.891488E-01 -5.163596E+01 
5.440625E+02  9.880495E-01 -4.513985E+01  4.037425E-03 4.109482E+01  4.036719E-03 4.102810E+01  9.886129E-01 -5.200842E+01 
5.471250E+02  9.887791E-01 -4.535710E+01  4.049470E-03 4.062313E+01  4.049465E-03 4.036291E+01  9.873026E-01 -5.210007E+01 
5.501875E+02  9.893043E-01 -4.563810E+01  4.012613E-03 4.090929E+01  4.011334E-03 4.051574E+01  9.874099E-01 -5.237649E+01 
5.532500E+02  9.888628E-01 -4.585309E+01  4.118886E-03 4.075768E+01  4.092083E-03 4.075341E+01  9.879819E-01 -5.261437E+01 
5.563125E+02  9.882646E-01 -4.613906E+01  4.069263E-03 3.964091E+01  4.071561E-03 3.976438E+01  9.881604E-01 -5.289572E+01 
5.593750E+02  9.881988E-01 -4.638759E+01  4.122952E-03 4.061453E+01  4.117491E-03 4.044326E+01  9.885116E-01 -5.316609E+01 
5.624375E+02  9.886310E-01 -4.662698E+01  4.118283E-03 3.980884E+01  4.149164E-03 3.950503E+01  9.886559E-01 -5.346255E+01 
5.655000E+02  9.868850E-01 -4.686460E+01  4.168489E-03 3.927355E+01  4.165148E-03 3.924339E+01  9.885070E-01 -5.383793E+01 
5.685625E+02  9.868910E-01 -4.702368E+01  4.257476E-03 3.880203E+01  4.254051E-03 3.878794E+01  9.850383E-01 -5.415996E+01 
5.716250E+02  9.875842E-01 -4.731058E+01  4.342478E-03 3.661940E+01  4.340204E-03 3.709214E+01  9.859287E-01 -5.426079E+01 
5.746875E+02  9.877612E-01 -4.755387E+01  4.168092E-03 3.689457E+01  4.175790E-03 3.706318E+01  9.858790E-01 -5.451569E+01 
5.777500E+02  9.875473E-01 -4.779125E+01  4.157375E-03 3.407716E+01  4.139930E-03 3.398170E+01  9.863411E-01 -5.476379E+01 
