! Matrix data file written by TouchstoneData, EPCOS AG
! FILENAME: "B4306_02_WB.s3p_newformat"
! COMMENT: "(B4306_02_WB.s3p) Epcos AG 3/15/2011 3:53:17"
! INFO: nport=3, nfreq=1601
! DATE: "Mon Apr 18 17:37:01 2011"
! USER: "Sergey Rostovtsev"
!
! port | pin | signal
! -----|-----|--------
!   1  |  1  |  in
!   2  |  3  |  out
!   3  |  4  |  out
! --------------------
! 
# MHZ S MA R 50
! freq  magS11 angS11  magS12 angS12  magS13 angS13  ...
5.000000E+01  9.975647E-01 -3.657088E+00  6.941469E-04 8.801342E+01  9.005475E-04 8.191840E+01 
 6.575733E-04 8.914010E+01  9.987089E-01 -2.389698E+00  2.758124E-03 8.452529E+01 
 9.052373E-04 8.764180E+01  2.673444E-03 8.595785E+01  9.980499E-01 -2.401348E+00 
5.371875E+01  9.969165E-01 -3.919255E+00  5.744065E-04 8.755987E+01  8.562891E-04 8.432840E+01 
 5.274032E-04 8.533978E+01  9.987901E-01 -2.529368E+00  3.298147E-03 8.375692E+01 
 8.520213E-04 8.600222E+01  3.291792E-03 8.457549E+01  9.983494E-01 -2.589448E+00 
5.743750E+01  9.968113E-01 -4.248527E+00  6.803240E-04 7.588339E+01  1.002912E-03 7.911394E+01 
 6.961894E-04 7.546052E+01  9.988798E-01 -2.756908E+00  3.255345E-03 8.735435E+01 
 9.859382E-04 7.983063E+01  3.250766E-03 8.765660E+01  9.979333E-01 -2.838322E+00 
6.115625E+01  9.967165E-01 -4.449869E+00  7.291821E-04 8.247798E+01  1.027782E-03 8.387633E+01 
 7.250634E-04 8.366581E+01  9.987229E-01 -2.848307E+00  3.303171E-03 8.457253E+01 
 1.039216E-03 8.427885E+01  3.252914E-03 8.495529E+01  9.981525E-01 -2.914755E+00 
6.487500E+01  9.962943E-01 -4.690317E+00  7.387028E-04 8.515590E+01  1.095292E-03 8.497562E+01 
 7.399532E-04 8.437485E+01  9.988755E-01 -3.083288E+00  3.690137E-03 8.291454E+01 
 1.091859E-03 8.548356E+01  3.682320E-03 8.299572E+01  9.978606E-01 -3.083324E+00 
6.859375E+01  9.969360E-01 -4.994663E+00  7.896671E-04 8.363349E+01  1.140888E-03 8.327798E+01 
 7.594493E-04 8.291279E+01  9.989219E-01 -3.289257E+00  3.739499E-03 8.553409E+01 
 1.133596E-03 8.383613E+01  3.699414E-03 8.585201E+01  9.983469E-01 -3.255996E+00 
7.231250E+01  9.967117E-01 -5.164318E+00  8.357853E-04 8.614651E+01  1.269877E-03 8.546968E+01 
 8.459103E-04 8.784604E+01  9.979231E-01 -3.279243E+00  3.551374E-03 8.300917E+01 
 1.288516E-03 8.545153E+01  3.580552E-03 8.303018E+01  9.978703E-01 -3.313299E+00 
7.603125E+01  9.973127E-01 -5.434664E+00  8.390561E-04 8.233551E+01  1.232157E-03 8.334541E+01 
 8.228883E-04 8.215901E+01  9.980644E-01 -3.541367E+00  4.071269E-03 8.168562E+01 
 1.246260E-03 8.377128E+01  4.114176E-03 8.172768E+01  9.980350E-01 -3.485286E+00 
7.975000E+01  9.968067E-01 -5.721522E+00  9.423230E-04 7.870338E+01  1.365818E-03 8.014950E+01 
 9.420237E-04 8.109458E+01  9.982922E-01 -3.687727E+00  4.320047E-03 8.410707E+01 
 1.385392E-03 8.174817E+01  4.299758E-03 8.403071E+01  9.984659E-01 -3.639034E+00 
8.346875E+01  9.964489E-01 -5.970756E+00  9.677644E-04 8.253738E+01  1.428306E-03 8.512466E+01 
 9.865000E-04 8.261543E+01  9.974708E-01 -3.868496E+00  4.607850E-03 8.191925E+01 
 1.414473E-03 8.520551E+01  4.583815E-03 8.190455E+01  9.989208E-01 -3.865515E+00 
8.718750E+01  9.971417E-01 -6.286797E+00  9.676733E-04 8.462377E+01  1.445526E-03 8.250648E+01 
 9.743108E-04 8.294651E+01  9.977463E-01 -4.016117E+00  4.593258E-03 8.482877E+01 
 1.457008E-03 8.252126E+01  4.593027E-03 8.481602E+01  9.983616E-01 -4.050944E+00 
9.090625E+01  9.961476E-01 -6.603832E+00  1.024749E-03 8.462870E+01  1.532285E-03 8.390163E+01 
 1.020910E-03 8.364685E+01  9.980384E-01 -4.160227E+00  4.836184E-03 8.392913E+01 
 1.542275E-03 8.415830E+01  4.818894E-03 8.407355E+01  9.985520E-01 -4.203928E+00 
9.462500E+01  9.968062E-01 -6.872710E+00  1.063844E-03 8.303362E+01  1.593038E-03 8.398062E+01 
 1.088894E-03 8.241981E+01  9.978359E-01 -4.410942E+00  5.204698E-03 8.258158E+01 
 1.575677E-03 8.362415E+01  5.209777E-03 8.269359E+01  9.970255E-01 -4.459335E+00 
9.834375E+01  9.959948E-01 -7.124885E+00  1.071597E-03 8.278365E+01  1.619771E-03 8.371484E+01 
 1.092389E-03 8.227971E+01  9.968516E-01 -4.544687E+00  5.075379E-03 8.414831E+01 
 1.613138E-03 8.393864E+01  5.037882E-03 8.377091E+01  9.977173E-01 -4.507210E+00 
1.020625E+02  9.964887E-01 -7.387861E+00  1.171389E-03 8.260804E+01  1.698924E-03 8.351564E+01 
 1.176332E-03 8.476199E+01  9.966619E-01 -4.740366E+00  5.329391E-03 8.169865E+01 
 1.729505E-03 8.367182E+01  5.337985E-03 8.149725E+01  9.980850E-01 -4.705631E+00 
1.057812E+02  9.962450E-01 -7.640969E+00  1.201012E-03 8.363447E+01  1.773802E-03 8.336233E+01 
 1.212908E-03 8.296940E+01  9.970803E-01 -4.886314E+00  5.709527E-03 8.337851E+01 
 1.750620E-03 8.309505E+01  5.708623E-03 8.351441E+01  9.981494E-01 -4.875452E+00 
1.095000E+02  9.956379E-01 -7.943983E+00  1.265745E-03 8.352908E+01  1.852102E-03 8.295500E+01 
 1.282859E-03 8.342735E+01  9.947504E-01 -5.313761E+00  5.689067E-03 8.287134E+01 
 1.872725E-03 8.302316E+01  5.679462E-03 8.291173E+01  9.979467E-01 -5.122830E+00 
1.132188E+02  9.954062E-01 -8.248461E+00  1.329062E-03 8.096665E+01  1.921120E-03 8.156604E+01 
 1.299924E-03 8.028518E+01  9.941733E-01 -5.462045E+00  5.890693E-03 8.209196E+01 
 1.923658E-03 8.168181E+01  5.873354E-03 8.242450E+01  9.978155E-01 -5.238544E+00 
1.169375E+02  9.954080E-01 -8.519015E+00  1.365338E-03 8.367209E+01  1.962830E-03 8.258657E+01 
 1.365215E-03 8.258431E+01  9.937769E-01 -5.720834E+00  6.322163E-03 8.069780E+01 
 1.953975E-03 8.300687E+01  6.331483E-03 8.130793E+01  9.979168E-01 -5.431609E+00 
1.206562E+02  9.954408E-01 -8.752270E+00  1.418534E-03 8.259313E+01  2.043827E-03 8.219368E+01 
 1.425727E-03 8.128389E+01  9.943957E-01 -5.757318E+00  6.347283E-03 8.244214E+01 
 2.039773E-03 8.177475E+01  6.358167E-03 8.269273E+01  9.974234E-01 -5.569033E+00 
1.243750E+02  9.944643E-01 -9.035549E+00  1.507550E-03 8.158748E+01  2.205513E-03 8.130722E+01 
 1.515412E-03 7.999536E+01  9.945821E-01 -5.941215E+00  6.295832E-03 8.142551E+01 
 2.210265E-03 8.182937E+01  6.328026E-03 8.133852E+01  9.974212E-01 -5.769431E+00 
1.280938E+02  9.944693E-01 -9.319336E+00  1.521229E-03 8.140778E+01  2.203413E-03 8.322314E+01 
 1.541061E-03 8.218931E+01  9.939092E-01 -6.141048E+00  6.679932E-03 8.230033E+01 
 2.192381E-03 8.279428E+01  6.681753E-03 8.266644E+01  9.972379E-01 -5.926836E+00 
1.318125E+02  9.948143E-01 -9.610039E+00  1.437227E-03 7.686480E+01  2.136812E-03 7.774143E+01 
 1.432394E-03 7.578007E+01  9.938333E-01 -6.366350E+00  6.932552E-03 8.337129E+01 
 2.132537E-03 7.810624E+01  6.980976E-03 8.359806E+01  9.980504E-01 -6.165827E+00 
1.355312E+02  9.949373E-01 -9.818158E+00  1.646372E-03 7.998226E+01  2.388152E-03 8.065517E+01 
 1.648785E-03 7.973275E+01  9.942352E-01 -6.523425E+00  7.138368E-03 8.243255E+01 
 2.382071E-03 8.116661E+01  7.121338E-03 8.269424E+01  9.979126E-01 -6.240233E+00 
1.392500E+02  9.952826E-01 -1.011153E+01  1.594777E-03 8.189060E+01  2.321131E-03 8.153630E+01 
 1.548259E-03 8.080403E+01  9.938098E-01 -6.689005E+00  7.323381E-03 8.276816E+01 
 2.299331E-03 8.218923E+01  7.345152E-03 8.279496E+01  9.974220E-01 -6.472742E+00 
1.429688E+02  9.937922E-01 -1.031439E+01  1.507846E-03 7.430163E+01  2.247448E-03 7.710154E+01 
 1.491364E-03 7.365855E+01  9.935975E-01 -6.866258E+00  7.813361E-03 7.994924E+01 
 2.269054E-03 7.628867E+01  7.798519E-03 8.009627E+01  9.965252E-01 -6.595716E+00 
1.466875E+02  9.947594E-01 -1.062631E+01  1.667499E-03 8.103387E+01  2.480718E-03 8.116157E+01 
 1.695696E-03 8.085616E+01  9.946670E-01 -6.963152E+00  7.579552E-03 8.176685E+01 
 2.462901E-03 8.238429E+01  7.553105E-03 8.211345E+01  9.974026E-01 -6.765759E+00 
1.504062E+02  9.942218E-01 -1.089429E+01  1.696504E-03 7.945288E+01  2.476627E-03 7.963727E+01 
 1.664554E-03 7.997995E+01  9.945648E-01 -7.081786E+00  7.946561E-03 8.157395E+01 
 2.492363E-03 7.987768E+01  7.916309E-03 8.209473E+01  9.976083E-01 -6.925896E+00 
1.541250E+02  9.949177E-01 -1.109447E+01  1.753667E-03 7.942233E+01  2.553445E-03 7.998698E+01 
 1.741798E-03 7.916195E+01  9.947202E-01 -7.249837E+00  7.917247E-03 8.144749E+01 
 2.587177E-03 8.014304E+01  7.928396E-03 8.160863E+01  9.973389E-01 -7.053673E+00 
1.578438E+02  9.948264E-01 -1.137318E+01  1.724298E-03 8.123601E+01  2.642382E-03 8.039670E+01 
 1.776607E-03 8.077815E+01  9.947191E-01 -7.391703E+00  8.244812E-03 8.167003E+01 
 2.599538E-03 8.074803E+01  8.258436E-03 8.217131E+01  9.976997E-01 -7.278838E+00 
1.615625E+02  9.961148E-01 -1.163562E+01  1.786986E-03 8.166227E+01  2.644494E-03 8.037564E+01 
 1.797178E-03 8.023749E+01  9.960472E-01 -7.533243E+00  8.490564E-03 8.178630E+01 
 2.693405E-03 8.074762E+01  8.474153E-03 8.201858E+01  9.984529E-01 -7.390842E+00 
1.652812E+02  9.953455E-01 -1.193913E+01  1.893144E-03 8.126163E+01  2.779788E-03 8.089092E+01 
 1.871955E-03 8.090002E+01  9.947717E-01 -7.771584E+00  8.792128E-03 8.072909E+01 
 2.780213E-03 8.021289E+01  8.785025E-03 8.114788E+01  9.969643E-01 -7.648423E+00 
1.690000E+02  9.948810E-01 -1.214828E+01  1.893172E-03 7.949819E+01  2.808114E-03 7.970800E+01 
 1.878586E-03 7.961242E+01  9.942553E-01 -7.830160E+00  8.765430E-03 7.977540E+01 
 2.805707E-03 7.979808E+01  8.795854E-03 8.020735E+01  9.970335E-01 -7.709884E+00 
1.727188E+02  9.950688E-01 -1.241164E+01  1.980045E-03 7.877977E+01  2.866096E-03 7.957899E+01 
 1.972788E-03 7.814623E+01  9.948972E-01 -7.984549E+00  9.060534E-03 8.111397E+01 
 2.873855E-03 7.960053E+01  9.067822E-03 8.136840E+01  9.970716E-01 -7.886540E+00 
1.764375E+02  9.944102E-01 -1.262323E+01  1.985901E-03 7.836892E+01  2.961995E-03 7.841753E+01 
 2.009929E-03 7.733238E+01  9.950052E-01 -8.131211E+00  9.141126E-03 8.109785E+01 
 2.922517E-03 7.838360E+01  9.161342E-03 8.132270E+01  9.969114E-01 -8.051964E+00 
1.801562E+02  9.952414E-01 -1.292962E+01  2.053165E-03 7.845479E+01  3.058670E-03 7.883434E+01 
 2.059736E-03 7.826196E+01  9.951644E-01 -8.287782E+00  9.320467E-03 8.065363E+01 
 3.065452E-03 7.890049E+01  9.328844E-03 8.101295E+01  9.971429E-01 -8.191045E+00 
1.838750E+02  9.955725E-01 -1.315358E+01  2.035160E-03 7.946124E+01  3.004680E-03 7.925811E+01 
 2.011487E-03 7.825068E+01  9.953767E-01 -8.416476E+00  9.681809E-03 8.118543E+01 
 3.029508E-03 7.883900E+01  9.679440E-03 8.116343E+01  9.964346E-01 -8.402284E+00 
1.875938E+02  9.957088E-01 -1.342273E+01  2.186143E-03 7.586658E+01  3.162966E-03 7.715127E+01 
 2.153963E-03 7.701472E+01  9.952367E-01 -8.592292E+00  9.852657E-03 8.112916E+01 
 3.195228E-03 7.727202E+01  9.848061E-03 8.119578E+01  9.971750E-01 -8.585088E+00 
1.913125E+02  9.953240E-01 -1.363508E+01  2.162194E-03 7.777101E+01  3.197416E-03 7.805474E+01 
 2.158939E-03 7.756203E+01  9.948203E-01 -8.739574E+00  1.001895E-02 7.961810E+01 
 3.184447E-03 7.824009E+01  1.000111E-02 7.967399E+01  9.967880E-01 -8.722543E+00 
1.950312E+02  9.950059E-01 -1.385620E+01  2.109428E-03 7.804570E+01  3.214657E-03 7.812214E+01 
 2.103600E-03 7.784017E+01  9.945442E-01 -8.830292E+00  1.021851E-02 8.024051E+01 
 3.197713E-03 7.852838E+01  1.024878E-02 8.021626E+01  9.955560E-01 -8.835792E+00 
1.987500E+02  9.952216E-01 -1.416462E+01  2.207029E-03 7.796356E+01  3.276686E-03 7.844572E+01 
 2.226268E-03 7.785646E+01  9.948070E-01 -8.975853E+00  1.045427E-02 8.023328E+01 
 3.273056E-03 7.860899E+01  1.041990E-02 8.061757E+01  9.970688E-01 -9.053620E+00 
2.024688E+02  9.952517E-01 -1.437803E+01  2.238565E-03 7.845744E+01  3.284813E-03 7.885590E+01 
 2.206857E-03 7.836738E+01  9.951483E-01 -9.196335E+00  1.059851E-02 7.926175E+01 
 3.327482E-03 7.836029E+01  1.059113E-02 7.960056E+01  9.965322E-01 -9.239245E+00 
2.061875E+02  9.956303E-01 -1.464944E+01  2.307781E-03 7.915608E+01  3.400088E-03 7.840801E+01 
 2.289264E-03 7.877829E+01  9.959766E-01 -9.353242E+00  1.074320E-02 7.976859E+01 
 3.423422E-03 7.831876E+01  1.074819E-02 8.002127E+01  9.971266E-01 -9.379388E+00 
2.099062E+02  9.964080E-01 -1.489582E+01  2.355896E-03 7.866752E+01  3.497127E-03 7.855731E+01 
 2.377855E-03 7.822485E+01  9.965966E-01 -9.469111E+00  1.098835E-02 8.017490E+01 
 3.507479E-03 7.843372E+01  1.103216E-02 8.033843E+01  9.980994E-01 -9.551096E+00 
2.136250E+02  9.948649E-01 -1.515065E+01  2.440985E-03 7.785521E+01  3.594465E-03 7.748153E+01 
 2.434282E-03 7.782702E+01  9.950198E-01 -9.704671E+00  1.142803E-02 7.855197E+01 
 3.595869E-03 7.754135E+01  1.146194E-02 7.880555E+01  9.958141E-01 -9.815304E+00 
2.173438E+02  9.948232E-01 -1.540501E+01  2.496882E-03 7.781647E+01  3.678840E-03 7.830061E+01 
 2.516375E-03 7.868681E+01  9.955179E-01 -9.765742E+00  1.130542E-02 7.945382E+01 
 3.686546E-03 7.803950E+01  1.128959E-02 7.948958E+01  9.971055E-01 -9.912001E+00 
2.210625E+02  9.944482E-01 -1.567150E+01  2.509071E-03 7.744944E+01  3.672729E-03 7.748825E+01 
 2.444626E-03 7.745647E+01  9.954467E-01 -9.899073E+00  1.144387E-02 7.867636E+01 
 3.686017E-03 7.761503E+01  1.142186E-02 7.871538E+01  9.974075E-01 -1.006247E+01 
2.247812E+02  9.949811E-01 -1.588374E+01  2.590863E-03 7.735020E+01  3.806873E-03 7.758085E+01 
 2.583475E-03 7.726801E+01  9.960486E-01 -1.008256E+01  1.169297E-02 7.916175E+01 
 3.795386E-03 7.756861E+01  1.171167E-02 7.932291E+01  9.972326E-01 -1.021506E+01 
2.285000E+02  9.958628E-01 -1.616197E+01  2.616131E-03 7.630213E+01  3.854594E-03 7.599118E+01 
 2.606534E-03 7.602444E+01  9.958942E-01 -1.022920E+01  1.184023E-02 7.968980E+01 
 3.857338E-03 7.652240E+01  1.187709E-02 7.988945E+01  9.974909E-01 -1.041710E+01 
2.322188E+02  9.946078E-01 -1.650348E+01  2.804716E-03 7.580580E+01  4.053794E-03 7.589382E+01 
 2.779315E-03 7.533766E+01  9.964589E-01 -1.040563E+01  1.209928E-02 7.907243E+01 
 4.048499E-03 7.580524E+01  1.210063E-02 7.921737E+01  9.973038E-01 -1.060661E+01 
2.359375E+02  9.952340E-01 -1.666810E+01  2.688107E-03 7.647739E+01  3.972493E-03 7.537594E+01 
 2.699522E-03 7.590389E+01  9.962336E-01 -1.058639E+01  1.253441E-02 7.887560E+01 
 3.972974E-03 7.530229E+01  1.252390E-02 7.907386E+01  9.975630E-01 -1.071293E+01 
2.396562E+02  9.953910E-01 -1.692650E+01  2.545687E-03 7.298790E+01  3.832285E-03 7.305536E+01 
 2.561124E-03 7.242827E+01  9.952374E-01 -1.068208E+01  1.265130E-02 7.874281E+01 
 3.832665E-03 7.336439E+01  1.265922E-02 7.885543E+01  9.966170E-01 -1.089011E+01 
2.433750E+02  9.948803E-01 -1.718552E+01  2.856948E-03 7.502235E+01  4.099566E-03 7.447862E+01 
 2.828642E-03 7.498802E+01  9.961877E-01 -1.088351E+01  1.258354E-02 7.758486E+01 
 4.059440E-03 7.465212E+01  1.260031E-02 7.786633E+01  9.969195E-01 -1.105596E+01 
2.470938E+02  9.953149E-01 -1.742569E+01  2.698433E-03 7.586394E+01  3.985652E-03 7.414928E+01 
 2.686323E-03 7.551413E+01  9.959517E-01 -1.104126E+01  1.304978E-02 7.689969E+01 
 3.973981E-03 7.401235E+01  1.306887E-02 7.694779E+01  9.969342E-01 -1.120562E+01 
2.508125E+02  9.956774E-01 -1.769356E+01  2.773137E-03 7.549029E+01  4.038498E-03 7.533030E+01 
 2.767376E-03 7.555160E+01  9.962307E-01 -1.118543E+01  1.317491E-02 7.775519E+01 
 4.038125E-03 7.557802E+01  1.322731E-02 7.792570E+01  9.972159E-01 -1.139037E+01 
2.545312E+02  9.956276E-01 -1.799534E+01  2.886090E-03 7.635325E+01  4.219080E-03 7.541534E+01 
 2.882029E-03 7.587884E+01  9.967827E-01 -1.134410E+01  1.304246E-02 7.715950E+01 
 4.217194E-03 7.531770E+01  1.306664E-02 7.736780E+01  9.967862E-01 -1.160407E+01 
2.582500E+02  9.957183E-01 -1.822457E+01  3.018388E-03 7.499163E+01  4.317068E-03 7.573310E+01 
 3.008093E-03 7.450869E+01  9.972417E-01 -1.155997E+01  1.357574E-02 7.692072E+01 
 4.306833E-03 7.590532E+01  1.361316E-02 7.716534E+01  9.969169E-01 -1.178129E+01 
2.619688E+02  9.941482E-01 -1.847674E+01  3.041331E-03 7.082556E+01  4.382962E-03 7.167052E+01 
 3.025323E-03 7.026980E+01  9.958628E-01 -1.168439E+01  1.336699E-02 7.691615E+01 
 4.363452E-03 7.183693E+01  1.336989E-02 7.713769E+01  9.959734E-01 -1.188031E+01 
2.656875E+02  9.949853E-01 -1.871798E+01  3.053225E-03 7.087776E+01  4.508878E-03 7.223547E+01 
 3.058634E-03 7.066191E+01  9.965924E-01 -1.186957E+01  1.363116E-02 7.749521E+01 
 4.507870E-03 7.214706E+01  1.365828E-02 7.769821E+01  9.966992E-01 -1.204012E+01 
2.694062E+02  9.949687E-01 -1.893899E+01  2.953290E-03 7.224932E+01  4.342135E-03 7.377258E+01 
 2.941669E-03 7.200086E+01  9.978300E-01 -1.199023E+01  1.387539E-02 7.697578E+01 
 4.320089E-03 7.380030E+01  1.388065E-02 7.728304E+01  9.967243E-01 -1.224075E+01 
2.731250E+02  9.959678E-01 -1.920239E+01  2.940432E-03 6.847424E+01  4.376018E-03 7.080634E+01 
 2.942495E-03 6.778397E+01  9.973235E-01 -1.213631E+01  1.397566E-02 7.734625E+01 
 4.371625E-03 7.077299E+01  1.399097E-02 7.741226E+01  9.967904E-01 -1.242221E+01 
2.768438E+02  9.955456E-01 -1.946970E+01  3.016402E-03 7.300777E+01  4.500441E-03 7.320422E+01 
 2.966683E-03 7.279251E+01  9.979709E-01 -1.236658E+01  1.439743E-02 7.732109E+01 
 4.506219E-03 7.328977E+01  1.438899E-02 7.738352E+01  9.972871E-01 -1.261347E+01 
2.805625E+02  9.953090E-01 -1.970023E+01  2.993745E-03 7.258604E+01  4.496927E-03 7.301748E+01 
 3.023475E-03 7.278931E+01  9.982879E-01 -1.249371E+01  1.460508E-02 7.740157E+01 
 4.502905E-03 7.305494E+01  1.465181E-02 7.757789E+01  9.975635E-01 -1.276482E+01 
2.842812E+02  9.951569E-01 -1.996640E+01  3.071917E-03 7.389839E+01  4.605425E-03 7.311294E+01 
 3.073062E-03 7.311262E+01  9.981589E-01 -1.271923E+01  1.486169E-02 7.631248E+01 
 4.563769E-03 7.338347E+01  1.488181E-02 7.642409E+01  9.958908E-01 -1.295916E+01 
2.880000E+02  9.951959E-01 -2.019770E+01  3.142477E-03 7.363390E+01  4.706073E-03 7.309001E+01 
 3.146701E-03 7.345190E+01  9.977845E-01 -1.284726E+01  1.507428E-02 7.600107E+01 
 4.687300E-03 7.330479E+01  1.506593E-02 7.598452E+01  9.960312E-01 -1.314089E+01 
2.917188E+02  9.959550E-01 -2.042899E+01  3.122626E-03 7.326575E+01  4.667397E-03 7.312696E+01 
 3.138538E-03 7.268897E+01  9.981086E-01 -1.298882E+01  1.506618E-02 7.658988E+01 
 4.658373E-03 7.309910E+01  1.509220E-02 7.662027E+01  9.965161E-01 -1.321591E+01 
2.954375E+02  9.957296E-01 -2.071914E+01  3.193139E-03 7.331903E+01  4.778393E-03 7.271968E+01 
 3.183829E-03 7.301367E+01  9.981693E-01 -1.313780E+01  1.512410E-02 7.623044E+01 
 4.803137E-03 7.285340E+01  1.511958E-02 7.625597E+01  9.964266E-01 -1.342615E+01 
2.991562E+02  9.960568E-01 -2.094252E+01  3.237292E-03 7.350425E+01  4.832079E-03 7.315837E+01 
 3.255118E-03 7.362163E+01  9.986568E-01 -1.332664E+01  1.549415E-02 7.597749E+01 
 4.855127E-03 7.361843E+01  1.544855E-02 7.594491E+01  9.964786E-01 -1.358413E+01 
3.028750E+02  9.956990E-01 -2.120524E+01  3.279177E-03 7.335060E+01  4.896759E-03 7.305641E+01 
 3.309469E-03 7.318921E+01  9.976472E-01 -1.354350E+01  1.579596E-02 7.589910E+01 
 4.901253E-03 7.351961E+01  1.576272E-02 7.589031E+01  9.971488E-01 -1.374262E+01 
3.065938E+02  9.955182E-01 -2.148083E+01  3.357193E-03 7.278700E+01  4.993046E-03 7.240417E+01 
 3.379855E-03 7.279332E+01  9.981273E-01 -1.365236E+01  1.582834E-02 7.583038E+01 
 4.959395E-03 7.209027E+01  1.581211E-02 7.577696E+01  9.962660E-01 -1.394458E+01 
3.103125E+02  9.954155E-01 -2.172257E+01  3.413611E-03 7.243311E+01  5.080041E-03 7.248138E+01 
 3.428298E-03 7.255638E+01  9.970669E-01 -1.379867E+01  1.607214E-02 7.474441E+01 
 5.058189E-03 7.238430E+01  1.603912E-02 7.483029E+01  9.956229E-01 -1.408542E+01 
3.140312E+02  9.950979E-01 -2.192431E+01  3.443196E-03 7.058638E+01  5.066701E-03 7.115453E+01 
 3.410062E-03 7.120831E+01  9.979041E-01 -1.378547E+01  1.629985E-02 7.535636E+01 
 5.057482E-03 7.065375E+01  1.628599E-02 7.525372E+01  9.959843E-01 -1.421694E+01 
3.177500E+02  9.948656E-01 -2.216994E+01  3.455795E-03 7.060213E+01  5.140604E-03 7.095951E+01 
 3.431542E-03 7.068483E+01  9.989249E-01 -1.390603E+01  1.636016E-02 7.545583E+01 
 5.117396E-03 7.091901E+01  1.632084E-02 7.546780E+01  9.960779E-01 -1.435220E+01 
3.214688E+02  9.957277E-01 -2.247089E+01  3.489002E-03 7.184230E+01  5.197040E-03 7.156453E+01 
 3.539609E-03 7.131982E+01  9.993696E-01 -1.408167E+01  1.655589E-02 7.552124E+01 
 5.188194E-03 7.148161E+01  1.651245E-02 7.544540E+01  9.966731E-01 -1.456276E+01 
3.251875E+02  9.953388E-01 -2.267068E+01  3.488455E-03 7.195355E+01  5.181944E-03 7.088608E+01 
