! Matrix data file written by TouchstoneData, EPCOS AG
! FILENAME: "B4304_Pcb01_NB.s3p_newformat"
! COMMENT: "(B4304_Pcb01_NB.s3p) Epcos AG 3/2/2011 3:58:"
! INFO: nport=3, nfreq=801
! DATE: "Mon Apr 18 15:57:21 2011"
! USER: "Sergey Rostovtsev"
!
! port | pin | signal
! -----|-----|--------
!   1  |  1  |  in
!   2  |  3  |  out
!   3  |  4  |  out
! --------------------
! 
# MHZ S MA R 50
! freq  magS11 angS11  magS12 angS12  magS13 angS13  ...
8.300000E+02  9.671692E-01 -1.111074E+02  2.370461E-03 -9.225313E+00  9.043136E-04 8.290982E+00 
 2.399256E-03 -8.604874E+00  9.716154E-01 -6.796095E+01  8.181953E-03 -1.710622E+02 
 8.965492E-04 7.762757E+00  8.142899E-03 -1.711002E+02  9.766134E-01 -6.801389E+01 
8.302500E+02  9.671452E-01 -1.111391E+02  2.427707E-03 -1.016274E+01  9.966856E-04 7.499412E+00 
 2.409834E-03 -1.020957E+01  9.720228E-01 -6.800862E+01  8.234172E-03 -1.753726E+02 
 1.005804E-03 5.488691E+00  8.222610E-03 -1.756007E+02  9.759024E-01 -6.811157E+01 
8.305000E+02  9.670432E-01 -1.112080E+02  2.478027E-03 -1.578585E+01  1.060433E-03 7.627918E-01 
 2.487953E-03 -1.578074E+01  9.713711E-01 -6.805355E+01  8.647515E-03 -1.792588E+02 
 1.051006E-03 1.208286E+00  8.628021E-03 -1.794694E+02  9.748852E-01 -6.818214E+01 
8.307500E+02  9.667657E-01 -1.112653E+02  2.272180E-03 -2.543959E+01  9.902223E-04 -3.937066E+00 
 2.251460E-03 -2.501224E+01  9.715383E-01 -6.804823E+01  8.768579E-03 1.724163E+02 
 9.804832E-04 -4.665199E+00  8.717648E-03 1.721306E+02  9.737828E-01 -6.822754E+01 
8.310000E+02  9.660900E-01 -1.113046E+02  1.855098E-03 -2.753166E+01  8.398691E-04 -3.964771E+00 
 1.900251E-03 -2.792074E+01  9.723043E-01 -6.804708E+01  8.047090E-03 1.663414E+02 
 8.549267E-04 -3.591475E+00  8.012245E-03 1.662511E+02  9.734201E-01 -6.818868E+01 
8.312500E+02  9.659067E-01 -1.113214E+02  1.671420E-03 -2.623849E+01  8.360172E-04 2.959980E-01 
 1.658447E-03 -2.628087E+01  9.731533E-01 -6.808029E+01  7.557204E-03 1.644047E+02 
 8.170276E-04 1.391815E+00  7.520440E-03 1.643679E+02  9.734759E-01 -6.822623E+01 
8.315000E+02  9.659503E-01 -1.113626E+02  1.491031E-03 -2.489920E+01  7.972866E-04 6.539525E+00 
 1.477274E-03 -2.438195E+01  9.739655E-01 -6.815944E+01  7.266890E-03 1.640795E+02 
 7.978879E-04 7.722132E+00  7.229334E-03 1.641050E+02  9.735978E-01 -6.826349E+01 
8.317500E+02  9.654404E-01 -1.114232E+02  1.364747E-03 -2.015069E+01  8.355532E-04 1.234166E+01 
 1.373020E-03 -2.005778E+01  9.743879E-01 -6.826286E+01  7.449311E-03 1.634960E+02 
 8.087871E-04 1.313182E+01  7.417089E-03 1.633003E+02  9.737151E-01 -6.833147E+01 
8.320000E+02  9.655952E-01 -1.114439E+02  1.284839E-03 -1.534557E+01  8.939788E-04 1.926763E+01 
 1.278753E-03 -1.462559E+01  9.740446E-01 -6.835023E+01  7.647916E-03 1.594399E+02 
 8.651191E-04 2.046441E+01  7.601434E-03 1.592658E+02  9.731935E-01 -6.838410E+01 
8.322500E+02  9.655527E-01 -1.115093E+02  1.299315E-03 -9.377631E+00  1.000441E-03 2.105159E+01 
 1.295574E-03 -9.932475E+00  9.737255E-01 -6.839015E+01  7.399611E-03 1.559378E+02 
 1.005921E-03 2.238042E+01  7.396194E-03 1.557602E+02  9.728197E-01 -6.841169E+01 
8.325000E+02  9.656313E-01 -1.115570E+02  1.345599E-03 -5.949944E+00  1.124678E-03 2.120925E+01 
 1.363003E-03 -5.775951E+00  9.734794E-01 -6.846664E+01  7.556358E-03 1.546024E+02 
 1.102424E-03 2.260190E+01  7.545646E-03 1.545019E+02  9.728215E-01 -6.846785E+01 
8.327500E+02  9.648867E-01 -1.116295E+02  1.408153E-03 -4.811899E+00  1.184557E-03 2.160427E+01 
 1.399566E-03 -4.906236E+00  9.724667E-01 -6.852840E+01  7.928220E-03 1.508027E+02 
 1.185232E-03 2.053158E+01  7.923043E-03 1.505707E+02  9.721725E-01 -6.850845E+01 
8.330000E+02  9.643245E-01 -1.116171E+02  1.436504E-03 -5.996853E+00  1.398878E-03 2.268570E+01 
 1.391010E-03 -5.823202E+00  9.717004E-01 -6.855125E+01  8.348082E-03 1.442262E+02 
 1.383348E-03 2.198714E+01  8.315211E-03 1.441044E+02  9.715134E-01 -6.853717E+01 
8.332500E+02  9.650544E-01 -1.116467E+02  1.390832E-03 -4.640268E+00  1.624654E-03 1.646635E+01 
 1.397547E-03 -3.817320E+00  9.702047E-01 -6.855382E+01  8.810173E-03 1.349776E+02 
 1.617012E-03 1.607966E+01  8.787716E-03 1.347527E+02  9.703391E-01 -6.854808E+01 
8.335000E+02  9.652197E-01 -1.116960E+02  1.493927E-03 -2.583465E+00  1.782930E-03 6.698269E+00 
 1.472143E-03 -2.004286E+00  9.700241E-01 -6.847583E+01  8.388094E-03 1.198257E+02 
 1.755880E-03 6.553337E+00  8.359160E-03 1.194685E+02  9.701975E-01 -6.847999E+01 
8.337500E+02  9.654405E-01 -1.117396E+02  1.537482E-03 -3.817452E+00  1.777064E-03 -1.808768E+00 
 1.537342E-03 -3.268886E+00  9.713525E-01 -6.842354E+01  6.949367E-03 1.079408E+02 
 1.727284E-03 -1.773204E+00  6.966595E-03 1.077840E+02  9.714307E-01 -6.845885E+01 
8.340000E+02  9.656757E-01 -1.118112E+02  1.606861E-03 -4.924647E+00  1.771385E-03 -9.796108E+00 
 1.578711E-03 -5.424751E+00  9.727168E-01 -6.846653E+01  5.654727E-03 1.030217E+02 
 1.793112E-03 -1.051640E+01  5.628096E-03 1.028748E+02  9.726914E-01 -6.852748E+01 
8.342500E+02  9.652655E-01 -1.118898E+02  1.580827E-03 -9.282465E+00  1.704011E-03 -1.695424E+01 
 1.594235E-03 -8.612669E+00  9.734827E-01 -6.854273E+01  4.736343E-03 1.007981E+02 
 1.700364E-03 -1.678977E+01  4.726811E-03 1.007649E+02  9.731984E-01 -6.859773E+01 
8.345000E+02  9.646047E-01 -1.119430E+02  1.491493E-03 -1.290095E+01  1.711522E-03 -2.245570E+01 
 1.494291E-03 -1.036998E+01  9.741416E-01 -6.859701E+01  4.150305E-03 9.863326E+01 
 1.699673E-03 -2.245713E+01  4.102121E-03 9.902978E+01  9.733012E-01 -6.868502E+01 
8.347500E+02  9.641535E-01 -1.119849E+02  1.350846E-03 -1.066723E+01  1.644769E-03 -3.075516E+01 
 1.344032E-03 -1.041536E+01  9.743321E-01 -6.866198E+01  3.454714E-03 9.684321E+01 
 1.671357E-03 -3.152213E+01  3.463343E-03 9.683314E+01  9.729833E-01 -6.876696E+01 
8.350000E+02  9.636680E-01 -1.120399E+02  1.274986E-03 -5.674112E+00  1.548880E-03 -3.650426E+01 
 1.298887E-03 -6.350711E+00  9.746839E-01 -6.875632E+01  2.889225E-03 9.934699E+01 
 1.547225E-03 -3.593766E+01  2.879752E-03 9.941682E+01  9.726833E-01 -6.883479E+01 
8.352500E+02  9.628832E-01 -1.120808E+02  1.325095E-03 -9.423004E-01  1.613266E-03 -3.849959E+01 
 1.311315E-03 -5.589578E-01  9.747660E-01 -6.883055E+01  2.648089E-03 1.038479E+02 
 1.616448E-03 -3.947566E+01  2.632084E-03 1.041350E+02  9.722064E-01 -6.894365E+01 
8.355000E+02  9.621520E-01 -1.120343E+02  1.417178E-03 9.990777E-01  1.850311E-03 -4.811793E+01 
 1.390990E-03 2.209719E+00  9.747585E-01 -6.891673E+01  2.452227E-03 1.069655E+02 
 1.835999E-03 -4.797646E+01  2.459473E-03 1.061889E+02  9.705531E-01 -6.903740E+01 
8.357500E+02  9.630924E-01 -1.119709E+02  1.478743E-03 2.815321E+00  1.978059E-03 -6.550900E+01 
 1.472175E-03 2.350574E+00  9.743891E-01 -6.899267E+01  2.447517E-03 1.098359E+02 
 1.951179E-03 -6.509219E+01  2.430066E-03 1.098811E+02  9.688638E-01 -6.904441E+01 
8.360000E+02  9.651446E-01 -1.119961E+02  1.555473E-03 3.104131E+00  1.919458E-03 -8.176857E+01 
 1.547455E-03 3.089301E+00  9.737360E-01 -6.905117E+01  2.580791E-03 1.038355E+02 
 1.921780E-03 -8.364413E+01  2.571829E-03 1.038264E+02  9.677346E-01 -6.898579E+01 
8.362500E+02  9.658580E-01 -1.120903E+02  1.629647E-03 1.494183E+00  1.868384E-03 -9.847043E+01 
 1.622596E-03 1.124184E+00  9.736534E-01 -6.910125E+01  2.283709E-03 9.932543E+01 
 1.892864E-03 -9.976732E+01  2.273853E-03 9.909706E+01  9.680124E-01 -6.892219E+01 
8.365000E+02  9.659636E-01 -1.121752E+02  1.599631E-03 7.666829E-01  1.894631E-03 -1.177220E+02 
 1.648578E-03 1.457166E-01  9.735172E-01 -6.913399E+01  2.199728E-03 8.934166E+01 
 1.881594E-03 -1.177487E+02  2.169094E-03 8.924964E+01  9.689737E-01 -6.888139E+01 
8.367500E+02  9.663758E-01 -1.122273E+02  1.653471E-03 3.345447E+00  1.779379E-03 -1.416802E+02 
 1.676269E-03 3.039416E+00  9.738556E-01 -6.918486E+01  1.540415E-03 7.417333E+01 
 1.724179E-03 -1.423987E+02  1.528947E-03 7.384369E+01  9.705184E-01 -6.886179E+01 
8.370000E+02  9.668737E-01 -1.123115E+02  1.842449E-03 1.595780E+00  1.492480E-03 -1.585492E+02 
 1.801170E-03 2.382431E+00  9.739018E-01 -6.922524E+01  9.000109E-04 8.626566E+01 
 1.469818E-03 -1.577854E+02  8.666425E-04 8.491135E+01  9.715646E-01 -6.891775E+01 
8.372500E+02  9.670767E-01 -1.123523E+02  1.922530E-03 -1.436267E-01  1.381900E-03 -1.694872E+02 
 1.909386E-03 -6.617879E-01  9.741522E-01 -6.929003E+01  9.366559E-04 1.116899E+02 
 1.382666E-03 -1.694310E+02  9.509018E-04 1.093419E+02  9.725241E-01 -6.897074E+01 
8.375000E+02  9.671730E-01 -1.124130E+02  1.990294E-03 -2.291432E+00  1.391197E-03 1.795512E+02 
 1.985049E-03 -1.124937E+00  9.742862E-01 -6.936315E+01  1.114670E-03 1.032594E+02 
 1.374536E-03 1.787541E+02  1.131020E-03 1.021115E+02  9.736664E-01 -6.904095E+01 
8.377500E+02  9.677683E-01 -1.124731E+02  2.087916E-03 -3.783570E+00  1.392697E-03 1.669591E+02 
 2.081245E-03 -4.338307E+00  9.740823E-01 -6.946610E+01  9.699617E-04 9.140765E+01 
 1.420107E-03 1.692804E+02  9.764800E-04 9.044020E+01  9.744386E-01 -6.912235E+01 
8.380000E+02  9.677520E-01 -1.125469E+02  2.149513E-03 -7.187578E+00  1.413077E-03 1.566497E+02 
 2.133647E-03 -7.677713E+00  9.733958E-01 -6.955864E+01  7.645239E-04 8.029711E+01 
 1.410435E-03 1.569289E+02  7.461519E-04 8.127613E+01  9.745410E-01 -6.922181E+01 
8.382500E+02  9.679850E-01 -1.126096E+02  2.136103E-03 -9.954862E+00  1.388785E-03 1.483835E+02 
 2.133961E-03 -9.514333E+00  9.724461E-01 -6.961171E+01  5.366292E-04 7.267384E+01 
 1.363503E-03 1.476795E+02  5.786240E-04 7.051637E+01  9.742326E-01 -6.928868E+01 
8.385000E+02  9.680051E-01 -1.126709E+02  2.191880E-03 -1.210644E+01  1.348053E-03 1.427319E+02 
 2.205409E-03 -1.168625E+01  9.715704E-01 -6.968846E+01  4.421715E-04 5.471453E+01 
 1.369399E-03 1.421446E+02  4.680940E-04 5.639684E+01  9.741571E-01 -6.933089E+01 
8.387500E+02  9.682323E-01 -1.127254E+02  2.262561E-03 -1.408622E+01  1.368794E-03 1.377067E+02 
 2.286113E-03 -1.461351E+01  9.700543E-01 -6.970294E+01  3.167772E-04 3.981685E+00 
 1.356434E-03 1.380176E+02  3.120565E-04 4.430477E+00  9.741552E-01 -6.940258E+01 
8.390000E+02  9.687367E-01 -1.128129E+02  2.242160E-03 -1.885597E+01  1.427806E-03 1.343695E+02 
 2.245132E-03 -1.816220E+01  9.691865E-01 -6.971140E+01  1.054177E-04 -5.113649E+01 
 1.407416E-03 1.338638E+02  1.099181E-04 -4.909442E+01  9.743632E-01 -6.943136E+01 
8.392500E+02  9.686847E-01 -1.128970E+02  2.156982E-03 -1.947437E+01  1.338839E-03 1.300680E+02 
 2.150441E-03 -1.918954E+01  9.678498E-01 -6.965402E+01  1.354573E-04 7.374690E-01 
 1.367706E-03 1.285474E+02  9.514311E-05 -2.459082E+00  9.745902E-01 -6.948359E+01 
8.395000E+02  9.688878E-01 -1.129747E+02  2.130294E-03 -1.745010E+01  1.372738E-03 1.326730E+02 
 2.142653E-03 -1.659508E+01  9.685218E-01 -6.956655E+01  4.595571E-04 1.878383E+00 
 1.362982E-03 1.331443E+02  4.589931E-04 4.328130E+00  9.751669E-01 -6.953953E+01 
8.397500E+02  9.687693E-01 -1.130608E+02  2.255591E-03 -1.525607E+01  1.500532E-03 1.359036E+02 
 2.247568E-03 -1.510613E+01  9.702894E-01 -6.955884E+01  8.738758E-04 -2.780159E+01 
 1.497926E-03 1.343541E+02  8.387862E-04 -2.691894E+01  9.755898E-01 -6.961417E+01 
8.400000E+02  9.687216E-01 -1.131534E+02  2.483180E-03 -1.642375E+01  1.731619E-03 1.350884E+02 
 2.474294E-03 -1.685735E+01  9.713075E-01 -6.962358E+01  1.156430E-03 -4.438160E+01 
 1.712893E-03 1.349346E+02  1.141906E-03 -4.457046E+01  9.758603E-01 -6.971993E+01 
8.402500E+02  9.686616E-01 -1.132156E+02  2.646025E-03 -1.962821E+01  1.975301E-03 1.326594E+02 
 2.650240E-03 -1.980249E+01  9.718394E-01 -6.966071E+01  1.361042E-03 -5.394063E+01 
 1.989766E-03 1.322832E+02  1.383956E-03 -5.428577E+01  9.757842E-01 -6.980123E+01 
8.405000E+02  9.684537E-01 -1.132961E+02  2.753389E-03 -2.115450E+01  2.193675E-03 1.306843E+02 
 2.776541E-03 -2.178955E+01  9.726500E-01 -6.970630E+01  1.528076E-03 -5.725864E+01 
 2.180360E-03 1.297130E+02  1.511510E-03 -5.632827E+01  9.754285E-01 -6.987599E+01 
8.407500E+02  9.683058E-01 -1.133609E+02  2.967095E-03 -2.389804E+01  2.507849E-03 1.278478E+02 
 2.953121E-03 -2.401300E+01  9.736336E-01 -6.978092E+01  1.942017E-03 -5.504293E+01 
 2.462379E-03 1.277900E+02  1.947422E-03 -5.568039E+01  9.750025E-01 -6.994795E+01 
8.410000E+02  9.680676E-01 -1.134380E+02  3.180256E-03 -2.749781E+01  2.764417E-03 1.240634E+02 
 3.195590E-03 -2.766041E+01  9.739718E-01 -6.988714E+01  2.510160E-03 -6.348786E+01 
 2.745000E-03 1.236653E+02  2.498259E-03 -6.390040E+01  9.745414E-01 -6.999900E+01 
8.412500E+02  9.676267E-01 -1.134847E+02  3.486874E-03 -3.098621E+01  3.120223E-03 1.213523E+02 
 3.490934E-03 -3.096525E+01  9.737182E-01 -6.997865E+01  2.848221E-03 -6.938083E+01 
 3.114405E-03 1.218941E+02  2.809826E-03 -7.035176E+01  9.743296E-01 -7.008198E+01 
8.415000E+02  9.671749E-01 -1.135651E+02  3.883720E-03 -3.751773E+01  3.699912E-03 1.184266E+02 
 3.899739E-03 -3.690666E+01  9.734187E-01 -7.005137E+01  3.281616E-03 -7.100340E+01 
 3.708306E-03 1.185347E+02  3.272983E-03 -7.118022E+01  9.735165E-01 -7.011744E+01 
8.417500E+02  9.669283E-01 -1.135907E+02  4.228055E-03 -4.528586E+01  4.465901E-03 1.105171E+02 
 4.244386E-03 -4.565491E+01  9.727847E-01 -7.009221E+01  4.053161E-03 -7.525485E+01 
 4.477073E-03 1.102600E+02  4.028489E-03 -7.501307E+01  9.724464E-01 -7.018659E+01 
8.420000E+02  9.664651E-01 -1.136311E+02  4.549811E-03 -5.594211E+01  5.224313E-03 9.764327E+01 
 4.546658E-03 -5.580547E+01  9.722491E-01 -7.014461E+01  5.002634E-03 -8.249855E+01 
 5.198194E-03 9.793600E+01  4.959519E-03 -8.286831E+01  9.711844E-01 -7.018527E+01 
8.422500E+02  9.665281E-01 -1.136564E+02  4.573955E-03 -6.707734E+01  5.418126E-03 8.373999E+01 
 4.585099E-03 -6.699981E+01  9.720074E-01 -7.017447E+01  5.672178E-03 -9.338883E+01 
 5.364104E-03 8.351526E+01  5.659527E-03 -9.383806E+01  9.707334E-01 -7.014757E+01 
8.425000E+02  9.665320E-01 -1.136898E+02  4.725656E-03 -7.732180E+01  5.398413E-03 7.173109E+01 
 4.685525E-03 -7.774000E+01  9.719447E-01 -7.020201E+01  6.187324E-03 -1.032316E+02 
 5.367489E-03 7.193701E+01  6.173477E-03 -1.032017E+02  9.712990E-01 -7.012630E+01 
8.427500E+02  9.666640E-01 -1.136880E+02  4.598368E-03 -9.317916E+01  5.284660E-03 5.993117E+01 
 4.570137E-03 -9.328268E+01  9.720323E-01 -7.019492E+01  6.690947E-03 -1.141772E+02 
 5.240825E-03 5.981756E+01  6.660726E-03 -1.143759E+02  9.721568E-01 -7.012762E+01 
8.430000E+02  9.679082E-01 -1.137121E+02  3.762216E-03 -1.070503E+02  4.696381E-03 4.847215E+01 
 3.756194E-03 -1.068139E+02  9.727619E-01 -7.021863E+01  6.564614E-03 -1.260854E+02 
 4.670528E-03 4.828500E+01  6.544225E-03 -1.267720E+02  9.734904E-01 -7.018186E+01 
8.432500E+02  9.690104E-01 -1.138121E+02  3.040946E-03 -1.097749E+02  3.994334E-03 4.280602E+01 
 3.084989E-03 -1.096041E+02  9.734754E-01 -7.029474E+01  6.010377E-03 -1.334737E+02 
 3.978367E-03 4.268834E+01  5.945315E-03 -1.334976E+02  9.740727E-01 -7.029442E+01 
8.435000E+02  9.692347E-01 -1.139021E+02  2.798054E-03 -1.090876E+02  3.638710E-03 4.256798E+01 
 2.818952E-03 -1.084836E+02  9.735031E-01 -7.037985E+01  5.612350E-03 -1.355741E+02 
 3.580284E-03 4.264660E+01  5.594503E-03 -1.357862E+02  9.740439E-01 -7.038025E+01 
8.437500E+02  9.692887E-01 -1.140033E+02  2.833602E-03 -1.117113E+02  3.553172E-03 4.099709E+01 
 2.834709E-03 -1.122719E+02  9.730526E-01 -7.039694E+01  5.610473E-03 -1.365893E+02 
 3.535091E-03 4.184760E+01  5.560400E-03 -1.364133E+02  9.737337E-01 -7.044516E+01 
8.440000E+02  9.691527E-01 -1.140451E+02  2.737358E-03 -1.189931E+02  3.442523E-03 3.727679E+01 
 2.775952E-03 -1.193711E+02  9.735275E-01 -7.042747E+01  5.665015E-03 -1.391654E+02 
 3.387035E-03 3.700990E+01  5.697108E-03 -1.395883E+02  9.736650E-01 -7.050755E+01 
8.442500E+02  9.693474E-01 -1.141081E+02  2.542665E-03 -1.256181E+02  3.148150E-03 3.503191E+01 
 2.542471E-03 -1.260238E+02  9.741116E-01 -7.049338E+01  5.592780E-03 -1.417896E+02 
 3.112182E-03 3.453952E+01  5.588165E-03 -1.423704E+02  9.736650E-01 -7.057673E+01 
8.445000E+02  9.696628E-01 -1.141826E+02  2.398360E-03 -1.304253E+02  2.998362E-03 3.543424E+01 
 2.380423E-03 -1.305518E+02  9.744467E-01 -7.056634E+01  5.660374E-03 -1.421536E+02 
 3.012798E-03 3.556567E+01  5.646416E-03 -1.424366E+02  9.733971E-01 -7.065302E+01 
8.447500E+02  9.700008E-01 -1.142620E+02  2.252763E-03 -1.379870E+02  3.013574E-03 3.479530E+01 
 2.266544E-03 -1.379602E+02  9.747138E-01 -7.061933E+01  5.914748E-03 -1.449994E+02 
 2.960646E-03 3.426806E+01  5.892323E-03 -1.448708E+02  9.730584E-01 -7.071240E+01 
8.450000E+02  9.706452E-01 -1.143457E+02  2.021456E-03 -1.449338E+02  2.973360E-03 3.152246E+01 
 2.058239E-03 -1.451134E+02  9.750211E-01 -7.067786E+01  6.197886E-03 -1.483024E+02 
 2.945757E-03 3.155593E+01  6.161051E-03 -1.488277E+02  9.727284E-01 -7.073483E+01 
8.452500E+02  9.709688E-01 -1.144447E+02  1.779072E-03 -1.513384E+02  2.817393E-03 2.951039E+01 
 1.793836E-03 -1.513645E+02  9.753892E-01 -7.075042E+01  6.277065E-03 -1.542833E+02 
 2.782993E-03 2.944153E+01  6.258856E-03 -1.546940E+02  9.731454E-01 -7.078868E+01 
8.455000E+02  9.712168E-01 -1.145660E+02  1.542134E-03 -1.536031E+02  2.731540E-03 2.986167E+01 
 1.540289E-03 -1.538501E+02  9.756222E-01 -7.084726E+01  6.070199E-03 -1.591342E+02 
 2.751517E-03 3.015384E+01  6.020733E-03 -1.591480E+02  9.727325E-01 -7.084788E+01 
8.457500E+02  9.710564E-01 -1.146502E+02  1.358670E-03 -1.580593E+02  2.777058E-03 2.944568E+01 
 1.385022E-03 -1.569018E+02  9.755917E-01 -7.089581E+01  5.879451E-03 -1.623060E+02 
 2.755538E-03 2.883561E+01  5.847410E-03 -1.625573E+02  9.729056E-01 -7.084967E+01 
8.460000E+02  9.708062E-01 -1.147640E+02  1.217794E-03 -1.556671E+02  2.765684E-03 2.748030E+01 
 1.264306E-03 -1.564235E+02  9.754669E-01 -7.098911E+01  5.661810E-03 -1.652216E+02 
 2.764052E-03 2.716470E+01  5.652985E-03 -1.653541E+02  9.729940E-01 -7.090463E+01 
8.462500E+02  9.706182E-01 -1.148506E+02  1.134585E-03 -1.572445E+02  2.804892E-03 2.355049E+01 
 1.149335E-03 -1.581358E+02  9.754442E-01 -7.104059E+01  5.475199E-03 -1.679302E+02 
 2.818139E-03 2.343601E+01  5.432673E-03 -1.681130E+02  9.734534E-01 -7.092827E+01 
8.465000E+02  9.704579E-01 -1.149480E+02  1.016136E-03 -1.563732E+02  2.703239E-03 1.905622E+01 
 9.937590E-04 -1.564301E+02  9.754006E-01 -7.113214E+01  5.151305E-03 -1.696769E+02 
 2.701462E-03 1.903998E+01  5.148944E-03 -1.700911E+02  9.740656E-01 -7.098166E+01 
8.467500E+02  9.703679E-01 -1.150212E+02  9.895710E-04 -1.525124E+02  2.561985E-03 1.615735E+01 
 1.003103E-03 -1.529640E+02  9.752690E-01 -7.115626E+01  4.965948E-03 -1.689616E+02 
 2.555219E-03 1.626114E+01  4.927078E-03 -1.694763E+02  9.747758E-01 -7.104601E+01 
8.470000E+02  9.701850E-01 -1.151191E+02  1.020512E-03 -1.525124E+02  2.391881E-03 1.507568E+01 
 1.010829E-03 -1.541144E+02  9.753134E-01 -7.122860E+01  4.888291E-03 -1.688792E+02 
 2.393835E-03 1.469199E+01  4.882726E-03 -1.692306E+02  9.749450E-01 -7.111485E+01 
8.472500E+02  9.699150E-01 -1.152056E+02  1.049499E-03 -1.521738E+02  2.304533E-03 1.561366E+01 
 1.058117E-03 -1.523875E+02  9.749350E-01 -7.129035E+01  4.799919E-03 -1.696516E+02 
 2.295320E-03 1.483573E+01  4.777974E-03 -1.696802E+02  9.750506E-01 -7.118477E+01 
8.475000E+02  9.695793E-01 -1.153148E+02  1.103159E-03 -1.562291E+02  2.343707E-03 1.480103E+01 
 1.123161E-03 -1.558282E+02  9.747144E-01 -7.134289E+01  4.812645E-03 -1.693215E+02 
 2.322372E-03 1.391104E+01  4.796810E-03 -1.695819E+02  9.753179E-01 -7.122603E+01 
8.477500E+02  9.693071E-01 -1.153777E+02  1.154516E-03 -1.628232E+02  2.263564E-03 1.024557E+01 
 1.159105E-03 -1.633497E+02  9.748633E-01 -7.138632E+01  4.841978E-03 -1.711239E+02 
 2.283200E-03 1.031218E+01  4.828344E-03 -1.713187E+02  9.757819E-01 -7.128186E+01 
8.480000E+02  9.686722E-01 -1.154661E+02  1.110259E-03 -1.676838E+02  2.090500E-03 6.846946E+00 
 1.099926E-03 -1.679274E+02  9.751309E-01 -7.144772E+01  4.761694E-03 -1.716380E+02 
 2.113414E-03 7.827954E+00  4.751459E-03 -1.719490E+02  9.758734E-01 -7.137612E+01 
8.482500E+02  9.681950E-01 -1.155415E+02  1.106764E-03 -1.724661E+02  1.947385E-03 7.575350E+00 
