! Matrix data file written by TouchstoneData, EPCOS AG
! FILENAME: "PLI.LY35A_WB.snp"
! COMMENT: "(LY35A_6_WB.s2p) EPCOS AG 19.03.2010 16:51:4"
! INFO: nport=2, nfreq=1601
! DATE: "Mon Jul 12 09:51:43 2010"
! USER: "Michael Schemies"
!
! port | pin | signal
! -----|-----|--------
!   1  |  1  |  in
!   2  |  4  |  out
! --------------------
! 
# MHZ S MA R 50
! freq  magS11 angS11  magS21 angS21  magS12 angS12  magS22 angS22
5.150000E+01  9.974964E-01 -4.220754E+00  5.302613E-04 7.613187E+01  5.685720E-04 7.923238E+01  9.956008E-01 -6.117457E+00 
5.334375E+01  9.965366E-01 -4.466348E+00  5.019229E-04 9.135444E+01  5.086614E-04 9.276874E+01  9.950268E-01 -6.405926E+00 
5.518750E+01  9.967434E-01 -4.616100E+00  4.996325E-04 7.455680E+01  5.214071E-04 7.536298E+01  9.946701E-01 -6.688678E+00 
5.703125E+01  9.971755E-01 -4.746090E+00  4.860400E-04 7.543704E+01  4.847899E-04 8.026008E+01  9.947263E-01 -6.897831E+00 
5.887500E+01  9.972440E-01 -4.907365E+00  4.992822E-04 7.679651E+01  5.122621E-04 7.827055E+01  9.949788E-01 -7.117839E+00 
6.071875E+01  9.973887E-01 -5.078796E+00  5.186836E-04 9.057429E+01  5.085138E-04 9.105255E+01  9.947422E-01 -7.364703E+00 
6.256250E+01  9.969872E-01 -5.227133E+00  6.249745E-04 7.331650E+01  5.989951E-04 7.357300E+01  9.941265E-01 -7.605595E+00 
6.440625E+01  9.971867E-01 -5.382773E+00  4.347065E-04 7.177528E+01  4.358831E-04 7.180291E+01  9.940552E-01 -7.837410E+00 
6.625000E+01  9.975290E-01 -5.506979E+00  5.707540E-04 9.469296E+01  5.616014E-04 9.342552E+01  9.939117E-01 -8.067964E+00 
6.809375E+01  9.980968E-01 -5.641814E+00  6.409761E-04 7.494909E+01  6.438149E-04 7.502852E+01  9.927996E-01 -8.258962E+00 
6.993750E+01  9.970525E-01 -5.818618E+00  5.244816E-04 7.450136E+01  5.372596E-04 7.385264E+01  9.926194E-01 -8.517615E+00 
7.178125E+01  9.976095E-01 -5.996564E+00  6.291427E-04 8.171400E+01  6.396747E-04 8.121745E+01  9.930400E-01 -8.811629E+00 
7.362500E+01  9.975567E-01 -6.139898E+00  6.228373E-04 7.859514E+01  6.042891E-04 7.825040E+01  9.923102E-01 -9.018260E+00 
7.546875E+01  9.973810E-01 -6.307411E+00  6.374282E-04 7.888008E+01  6.152273E-04 7.840633E+01  9.912495E-01 -9.284192E+00 
7.731250E+01  9.965720E-01 -6.413196E+00  6.026593E-04 7.938771E+01  6.199287E-04 7.820621E+01  9.905357E-01 -9.451357E+00 
7.915625E+01  9.955628E-01 -6.571723E+00  7.380194E-04 9.424804E+01  7.502885E-04 9.546418E+01  9.908932E-01 -9.659702E+00 
8.100000E+01  9.967854E-01 -6.745955E+00  7.029615E-04 8.326045E+01  6.993143E-04 8.274910E+01  9.907422E-01 -9.968108E+00 
8.284375E+01  9.965602E-01 -6.853020E+00  7.497730E-04 6.959465E+01  7.669146E-04 7.027070E+01  9.901678E-01 -1.017450E+01 
8.468750E+01  9.965269E-01 -7.021437E+00  6.645828E-04 6.894070E+01  6.767056E-04 7.032148E+01  9.894558E-01 -1.039169E+01 
8.653125E+01  9.964465E-01 -7.175545E+00  7.719857E-04 7.816828E+01  7.724529E-04 7.764704E+01  9.903521E-01 -1.062503E+01 
8.837500E+01  9.969206E-01 -7.361742E+00  7.280400E-04 7.564128E+01  7.411441E-04 7.572929E+01  9.897624E-01 -1.091604E+01 
9.021875E+01  9.967615E-01 -7.523897E+00  8.395657E-04 8.489018E+01  8.395702E-04 8.493974E+01  9.894652E-01 -1.113189E+01 
9.206250E+01  9.968002E-01 -7.694021E+00  7.530139E-04 8.206621E+01  7.504986E-04 8.130212E+01  9.889285E-01 -1.131394E+01 
9.390625E+01  9.968412E-01 -7.799316E+00  8.089796E-04 7.803702E+01  8.176310E-04 7.795522E+01  9.884613E-01 -1.159499E+01 
9.575000E+01  9.962852E-01 -7.986542E+00  8.625337E-04 7.801225E+01  8.851116E-04 7.932236E+01  9.878352E-01 -1.190350E+01 
9.759375E+01  9.967413E-01 -8.144355E+00  7.287781E-04 7.894864E+01  7.320428E-04 7.797485E+01  9.877019E-01 -1.207942E+01 
9.943750E+01  9.972417E-01 -8.278155E+00  8.602230E-04 7.659260E+01  8.474182E-04 7.811675E+01  9.877982E-01 -1.226997E+01 
1.012812E+02  9.962227E-01 -8.419639E+00  8.771660E-04 7.977964E+01  8.438492E-04 7.980493E+01  9.861496E-01 -1.256061E+01 
1.031250E+02  9.957473E-01 -8.543772E+00  8.089430E-04 7.904030E+01  8.166907E-04 7.896697E+01  9.865490E-01 -1.273833E+01 
1.049688E+02  9.961754E-01 -8.682212E+00  8.585448E-04 8.294168E+01  8.586365E-04 8.203759E+01  9.864897E-01 -1.299913E+01 
1.068125E+02  9.958769E-01 -8.886758E+00  9.617432E-04 7.750773E+01  9.649816E-04 7.812240E+01  9.853730E-01 -1.323607E+01 
1.086562E+02  9.958414E-01 -9.004332E+00  8.691332E-04 7.157179E+01  8.675378E-04 7.169213E+01  9.856279E-01 -1.344085E+01 
1.105000E+02  9.967069E-01 -9.169643E+00  8.976768E-04 7.829195E+01  8.835207E-04 7.782647E+01  9.851911E-01 -1.368997E+01 
1.123438E+02  9.964953E-01 -9.336344E+00  1.006773E-03 7.530734E+01  9.788239E-04 7.527619E+01  9.848781E-01 -1.392997E+01 
1.141875E+02  9.966817E-01 -9.475962E+00  9.670643E-04 7.436125E+01  9.794241E-04 7.355464E+01  9.847270E-01 -1.413193E+01 
1.160312E+02  9.971190E-01 -9.630402E+00  1.083760E-03 7.444257E+01  1.079610E-03 7.464763E+01  9.847721E-01 -1.437595E+01 
1.178750E+02  9.965728E-01 -9.795043E+00  1.186763E-03 5.919109E+01  1.179523E-03 5.951603E+01  9.822819E-01 -1.463118E+01 
1.197188E+02  9.966986E-01 -9.947028E+00  8.903990E-04 7.540337E+01  9.207345E-04 7.657126E+01  9.837418E-01 -1.479627E+01 
1.215625E+02  9.965795E-01 -1.010503E+01  1.027080E-03 7.462398E+01  1.032701E-03 7.516212E+01  9.835219E-01 -1.506505E+01 
1.234062E+02  9.965037E-01 -1.025776E+01  1.198423E-03 6.968652E+01  1.185551E-03 6.903509E+01  9.822148E-01 -1.535040E+01 
1.252500E+02  9.959590E-01 -1.043761E+01  9.710075E-04 7.990522E+01  9.727172E-04 8.151390E+01  9.819090E-01 -1.551434E+01 
1.270938E+02  9.955129E-01 -1.053181E+01  1.125208E-03 7.278820E+01  1.112938E-03 7.341258E+01  9.819211E-01 -1.568844E+01 
1.289375E+02  9.955252E-01 -1.063916E+01  1.135734E-03 7.053875E+01  1.141035E-03 7.194784E+01  9.819051E-01 -1.589271E+01 
1.307812E+02  9.966415E-01 -1.080601E+01  1.102669E-03 7.283888E+01  1.096375E-03 7.372494E+01  9.822106E-01 -1.610574E+01 
1.326250E+02  9.962166E-01 -1.099502E+01  1.116544E-03 7.339380E+01  1.058463E-03 7.453431E+01  9.826043E-01 -1.637657E+01 
1.344688E+02  9.960430E-01 -1.111446E+01  1.064889E-03 7.641940E+01  1.056240E-03 7.727358E+01  9.815043E-01 -1.658727E+01 
1.363125E+02  9.961548E-01 -1.127245E+01  1.027814E-03 7.350360E+01  1.050126E-03 7.322061E+01  9.818816E-01 -1.679349E+01 
1.381562E+02  9.966554E-01 -1.140919E+01  1.127198E-03 7.345154E+01  1.129406E-03 7.431828E+01  9.815706E-01 -1.702228E+01 
1.400000E+02  9.958896E-01 -1.154263E+01  1.212482E-03 7.567177E+01  1.206428E-03 7.634577E+01  9.815491E-01 -1.725887E+01 
1.418438E+02  9.959669E-01 -1.174322E+01  1.012692E-03 7.380201E+01  1.005948E-03 7.194013E+01  9.816475E-01 -1.746087E+01 
1.436875E+02  9.965289E-01 -1.190565E+01  1.262006E-03 7.463595E+01  1.267851E-03 7.376997E+01  9.814389E-01 -1.772323E+01 
1.455312E+02  9.966050E-01 -1.205949E+01  1.148267E-03 7.426516E+01  1.154883E-03 7.442393E+01  9.810381E-01 -1.794345E+01 
1.473750E+02  9.962413E-01 -1.219269E+01  1.292384E-03 7.523864E+01  1.264285E-03 7.368212E+01  9.810313E-01 -1.812917E+01 
1.492188E+02  9.962849E-01 -1.239506E+01  1.225608E-03 7.064601E+01  1.210011E-03 7.195632E+01  9.806951E-01 -1.839685E+01 
1.510625E+02  9.952791E-01 -1.254923E+01  1.350880E-03 7.240291E+01  1.328605E-03 7.269878E+01  9.789832E-01 -1.862465E+01 
1.529062E+02  9.956704E-01 -1.261860E+01  1.264123E-03 7.242485E+01  1.250266E-03 7.264056E+01  9.803455E-01 -1.875279E+01 
1.547500E+02  9.960022E-01 -1.277392E+01  1.238844E-03 7.335115E+01  1.252425E-03 7.409001E+01  9.797970E-01 -1.898071E+01 
1.565938E+02  9.963847E-01 -1.295696E+01  1.283375E-03 7.239321E+01  1.260213E-03 7.354705E+01  9.800898E-01 -1.922132E+01 
1.584375E+02  9.962423E-01 -1.312382E+01  1.404320E-03 7.317055E+01  1.402377E-03 7.354103E+01  9.803438E-01 -1.938028E+01 
1.602812E+02  9.959454E-01 -1.325862E+01  1.236921E-03 7.675631E+01  1.237674E-03 7.517682E+01  9.806053E-01 -1.961169E+01 
1.621250E+02  9.962112E-01 -1.337736E+01  1.402806E-03 7.304498E+01  1.409039E-03 7.455158E+01  9.811877E-01 -1.979864E+01 
1.639688E+02  9.974314E-01 -1.350350E+01  1.373384E-03 6.956909E+01  1.321512E-03 7.006810E+01  9.817540E-01 -1.999799E+01 
1.658125E+02  9.965555E-01 -1.368185E+01  1.453046E-03 7.206114E+01  1.444177E-03 7.283967E+01  9.806948E-01 -2.027474E+01 
1.676562E+02  9.962407E-01 -1.386937E+01  1.681764E-03 6.713910E+01  1.677488E-03 6.688936E+01  9.789203E-01 -2.061181E+01 
1.695000E+02  9.964323E-01 -1.403662E+01  1.413730E-03 7.091844E+01  1.391945E-03 7.124938E+01  9.808728E-01 -2.062165E+01 
1.713438E+02  9.960645E-01 -1.422154E+01  1.446727E-03 7.118765E+01  1.417887E-03 7.128066E+01  9.805124E-01 -2.091696E+01 
1.731875E+02  9.954866E-01 -1.436456E+01  1.659904E-03 6.160585E+01  1.633631E-03 6.192895E+01  9.788697E-01 -2.119088E+01 
1.750312E+02  9.950175E-01 -1.447925E+01  1.335441E-03 6.979782E+01  1.326623E-03 6.876545E+01  9.782041E-01 -2.121192E+01 
1.768750E+02  9.953977E-01 -1.455971E+01  1.430418E-03 6.936163E+01  1.430451E-03 6.936069E+01  9.797917E-01 -2.141196E+01 
1.787188E+02  9.960975E-01 -1.478474E+01  1.489004E-03 7.149104E+01  1.455955E-03 7.140908E+01  9.802718E-01 -2.173704E+01 
1.805625E+02  9.965000E-01 -1.493649E+01  1.444984E-03 7.137730E+01  1.399491E-03 7.172200E+01  9.810074E-01 -2.191926E+01 
1.824062E+02  9.961683E-01 -1.501173E+01  1.526011E-03 7.087551E+01  1.527098E-03 7.019643E+01  9.817435E-01 -2.203076E+01 
1.842500E+02  9.961545E-01 -1.517915E+01  1.564565E-03 6.889042E+01  1.574959E-03 6.832044E+01  9.815977E-01 -2.225185E+01 
1.860938E+02  9.967132E-01 -1.535605E+01  1.491351E-03 6.880245E+01  1.484122E-03 6.918321E+01  9.819439E-01 -2.247743E+01 
1.879375E+02  9.973123E-01 -1.549664E+01  1.522825E-03 6.940428E+01  1.485760E-03 6.842957E+01  9.827958E-01 -2.269700E+01 
1.897812E+02  9.958370E-01 -1.574297E+01  1.528548E-03 6.844587E+01  1.518201E-03 6.814357E+01  9.818617E-01 -2.293411E+01 
1.916250E+02  9.975274E-01 -1.582399E+01  1.525261E-03 6.775309E+01  1.521774E-03 6.763593E+01  9.834307E-01 -2.314276E+01 
1.934688E+02  9.973113E-01 -1.595830E+01  1.586142E-03 7.172212E+01  1.576676E-03 7.077712E+01  9.825071E-01 -2.335428E+01 
1.953125E+02  9.951512E-01 -1.612251E+01  1.597520E-03 6.855911E+01  1.601217E-03 6.871425E+01  9.804998E-01 -2.339503E+01 
1.971562E+02  9.963415E-01 -1.632797E+01  1.630586E-03 6.895711E+01  1.619352E-03 6.900292E+01  9.821110E-01 -2.374670E+01 
1.990000E+02  9.959616E-01 -1.649635E+01  1.752476E-03 7.123586E+01  1.721297E-03 7.020263E+01  9.822586E-01 -2.406330E+01 
2.008438E+02  9.946687E-01 -1.659019E+01  1.677557E-03 6.022559E+01  1.650104E-03 6.122623E+01  9.806629E-01 -2.418907E+01 
2.026875E+02  9.958128E-01 -1.665854E+01  1.663556E-03 6.677372E+01  1.634718E-03 6.710149E+01  9.814137E-01 -2.436367E+01 
2.045312E+02  9.965816E-01 -1.682842E+01  1.674422E-03 7.013630E+01  1.667268E-03 7.053962E+01  9.816507E-01 -2.456446E+01 
2.063750E+02  9.961437E-01 -1.702320E+01  1.751439E-03 6.153424E+01  1.763441E-03 6.055514E+01  9.814310E-01 -2.477849E+01 
2.082188E+02  9.968991E-01 -1.719534E+01  1.704913E-03 6.781353E+01  1.681080E-03 6.785980E+01  9.824628E-01 -2.489098E+01 
2.100625E+02  9.970189E-01 -1.727762E+01  1.685200E-03 6.982814E+01  1.694367E-03 6.974335E+01  9.840621E-01 -2.511536E+01 
2.119062E+02  9.968434E-01 -1.738038E+01  1.708055E-03 6.848073E+01  1.711816E-03 6.901666E+01  9.856213E-01 -2.532951E+01 
2.137500E+02  9.969998E-01 -1.762585E+01  1.816822E-03 6.829777E+01  1.781931E-03 6.725493E+01  9.835518E-01 -2.556638E+01 
2.155938E+02  9.967769E-01 -1.779766E+01  1.786038E-03 6.680110E+01  1.773397E-03 6.645892E+01  9.832019E-01 -2.572820E+01 
2.174375E+02  9.968244E-01 -1.795781E+01  1.879358E-03 6.289775E+01  1.853451E-03 6.230785E+01  9.816252E-01 -2.608142E+01 
2.192812E+02  9.964549E-01 -1.815494E+01  1.734047E-03 6.750459E+01  1.719101E-03 6.817957E+01  9.838542E-01 -2.613944E+01 
2.211250E+02  9.965103E-01 -1.830183E+01  1.854435E-03 6.722806E+01  1.819228E-03 6.707476E+01  9.838440E-01 -2.640588E+01 
2.229688E+02  9.956109E-01 -1.848871E+01  1.982026E-03 6.087577E+01  1.971390E-03 6.124549E+01  9.817906E-01 -2.671885E+01 
2.248125E+02  9.944972E-01 -1.857755E+01  1.762728E-03 6.165902E+01  1.733842E-03 6.193996E+01  9.818947E-01 -2.666890E+01 
2.266562E+02  9.970216E-01 -1.867639E+01  1.735385E-03 6.425417E+01  1.739285E-03 6.436141E+01  9.830370E-01 -2.689343E+01 
2.285000E+02  9.968106E-01 -1.885522E+01  1.834193E-03 6.687494E+01  1.823218E-03 6.747031E+01  9.837005E-01 -2.710711E+01 
2.303438E+02  9.957709E-01 -1.898660E+01  1.774749E-03 6.761588E+01  1.766241E-03 6.868077E+01  9.841011E-01 -2.737498E+01 
2.321875E+02  9.965275E-01 -1.910961E+01  1.887576E-03 6.574054E+01  1.882083E-03 6.590536E+01  9.845364E-01 -2.757371E+01 
2.340312E+02  9.980329E-01 -1.895377E+01  1.850822E-03 6.466335E+01  1.845112E-03 6.474582E+01  9.855271E-01 -2.746563E+01 
2.358750E+02  9.975632E-01 -1.928079E+01  1.862732E-03 6.541573E+01  1.868818E-03 6.557688E+01  9.851705E-01 -2.787720E+01 
2.377188E+02  9.962286E-01 -1.960699E+01  1.917958E-03 6.531226E+01  1.873238E-03 6.528620E+01  9.847176E-01 -2.820703E+01 
2.395625E+02  9.960709E-01 -1.978021E+01  1.872651E-03 6.647629E+01  1.875698E-03 6.623081E+01  9.848392E-01 -2.839456E+01 
2.414062E+02  9.959242E-01 -1.992746E+01  1.980384E-03 6.358163E+01  1.969237E-03 6.380671E+01  9.847986E-01 -2.862621E+01 
2.432500E+02  9.962616E-01 -2.013841E+01  1.975389E-03 6.380737E+01  1.951721E-03 6.429057E+01  9.847891E-01 -2.890245E+01 
2.450938E+02  9.961293E-01 -2.028372E+01  1.895741E-03 6.574111E+01  1.896894E-03 6.583916E+01  9.848352E-01 -2.911731E+01 
2.469375E+02  9.961059E-01 -2.046414E+01  2.006967E-03 6.368096E+01  2.041906E-03 6.372522E+01  9.845468E-01 -2.935846E+01 
2.487812E+02  9.942792E-01 -2.059545E+01  2.072721E-03 6.370997E+01  2.068434E-03 6.433769E+01  9.834011E-01 -2.956397E+01 
2.506250E+02  9.937730E-01 -2.071339E+01  2.186463E-03 6.096194E+01  2.175966E-03 6.091664E+01  9.827625E-01 -2.975954E+01 
2.524688E+02  9.944695E-01 -2.078880E+01  1.910050E-03 6.270135E+01  1.912916E-03 6.256808E+01  9.830181E-01 -2.987365E+01 
2.543125E+02  9.950424E-01 -2.096344E+01  2.088758E-03 6.368476E+01  2.097912E-03 6.409036E+01  9.837048E-01 -3.006660E+01 
2.561562E+02  9.943482E-01 -2.110479E+01  2.274881E-03 6.018882E+01  2.279035E-03 5.984977E+01  9.828243E-01 -3.035339E+01 
2.580000E+02  9.954713E-01 -2.123358E+01  1.979001E-03 6.176173E+01  1.981006E-03 6.067472E+01  9.839580E-01 -3.042804E+01 
2.598438E+02  9.950035E-01 -2.138652E+01  1.997980E-03 6.382328E+01  2.000162E-03 6.418475E+01  9.841334E-01 -3.068637E+01 
2.616875E+02  9.952550E-01 -2.157978E+01  2.073915E-03 6.213131E+01  2.069877E-03 6.210559E+01  9.841680E-01 -3.092941E+01 
2.635312E+02  9.949630E-01 -2.174648E+01  2.119465E-03 6.209946E+01  2.090201E-03 6.183390E+01  9.837677E-01 -3.118323E+01 
2.653750E+02  9.948190E-01 -2.190811E+01  2.139379E-03 6.261522E+01  2.145616E-03 6.270898E+01  9.836928E-01 -3.142674E+01 
2.672188E+02  9.947639E-01 -2.208609E+01  2.292971E-03 5.592031E+01  2.297090E-03 5.640947E+01  9.823794E-01 -3.170547E+01 
2.690625E+02  9.946839E-01 -2.224113E+01  1.918403E-03 5.994250E+01  1.908024E-03 6.008031E+01  9.832922E-01 -3.180422E+01 
2.709062E+02  9.943411E-01 -2.240266E+01  2.144658E-03 6.222150E+01  2.122556E-03 6.253294E+01  9.829376E-01 -3.206190E+01 
2.727500E+02  9.927620E-01 -2.263002E+01  2.154169E-03 5.867762E+01  2.159956E-03 5.907205E+01  9.810250E-01 -3.237737E+01 
2.745938E+02  9.921779E-01 -2.262069E+01  2.065463E-03 6.120363E+01  2.044148E-03 6.166793E+01  9.813184E-01 -3.235253E+01 
2.764375E+02  9.928470E-01 -2.280087E+01  2.171940E-03 6.182782E+01  2.166070E-03 6.168173E+01  9.818068E-01 -3.260130E+01 
2.782812E+02  9.931295E-01 -2.293184E+01  2.129596E-03 5.997788E+01  2.107390E-03 6.048060E+01  9.822558E-01 -3.283354E+01 
2.801250E+02  9.933015E-01 -2.307307E+01  2.162125E-03 6.210368E+01  2.153633E-03 6.185724E+01  9.820058E-01 -3.308061E+01 
2.819688E+02  9.936368E-01 -2.322524E+01  2.218430E-03 6.000077E+01  2.204768E-03 6.011357E+01  9.815222E-01 -3.330500E+01 
2.838125E+02  9.937164E-01 -2.339759E+01  2.205834E-03 6.187980E+01  2.191397E-03 6.183817E+01  9.813953E-01 -3.353547E+01 
2.856562E+02  9.937866E-01 -2.359454E+01  2.245049E-03 6.073331E+01  2.246968E-03 6.050419E+01  9.813016E-01 -3.375808E+01 
2.875000E+02  9.932907E-01 -2.372235E+01  2.239430E-03 5.962830E+01  2.236052E-03 5.985018E+01  9.811493E-01 -3.397590E+01 
2.893438E+02  9.926438E-01 -2.390651E+01  2.198550E-03 5.941560E+01  2.178712E-03 5.961239E+01  9.810627E-01 -3.420580E+01 
2.911875E+02  9.933026E-01 -2.402033E+01  2.334247E-03 5.993735E+01  2.290787E-03 5.962606E+01  9.807677E-01 -3.441603E+01 
2.930312E+02  9.928493E-01 -2.420585E+01  2.282152E-03 6.070242E+01  2.295953E-03 6.003862E+01  9.802506E-01 -3.465886E+01 
2.948750E+02  9.921271E-01 -2.440503E+01  2.359492E-03 5.920664E+01  2.350591E-03 5.929636E+01  9.802794E-01 -3.492443E+01 
2.967188E+02  9.926980E-01 -2.458810E+01  2.392384E-03 5.975841E+01  2.401577E-03 5.928042E+01  9.795897E-01 -3.518073E+01 
2.985625E+02  9.903497E-01 -2.467372E+01  2.314221E-03 5.792010E+01  2.273549E-03 5.751009E+01  9.779782E-01 -3.533240E+01 
3.004062E+02  9.920756E-01 -2.479654E+01  2.313914E-03 5.874849E+01  2.317639E-03 5.817302E+01  9.777049E-01 -3.556758E+01 
3.022500E+02  9.912468E-01 -2.494321E+01  2.352576E-03 5.864807E+01  2.361227E-03 5.929318E+01  9.778684E-01 -3.571736E+01 
3.040938E+02  9.920832E-01 -2.507546E+01  2.443741E-03 5.899015E+01  2.448514E-03 5.938866E+01  9.775621E-01 -3.592529E+01 
3.059375E+02  9.908150E-01 -2.525041E+01  2.437695E-03 5.426682E+01  2.431555E-03 5.377788E+01  9.765382E-01 -3.619028E+01 
3.077812E+02  9.917316E-01 -2.539242E+01  2.194980E-03 5.824554E+01  2.188124E-03 5.779431E+01  9.780508E-01 -3.629383E+01 
3.096250E+02  9.921158E-01 -2.555916E+01  2.336407E-03 6.012305E+01  2.332343E-03 5.971948E+01  9.776658E-01 -3.656197E+01 
3.114688E+02  9.913116E-01 -2.573225E+01  2.467574E-03 5.756720E+01  2.469616E-03 5.745262E+01  9.777099E-01 -3.680299E+01 
3.133125E+02  9.919537E-01 -2.589322E+01  2.442011E-03 5.741024E+01  2.458694E-03 5.747479E+01  9.774585E-01 -3.706401E+01 
3.151562E+02  9.917174E-01 -2.604137E+01  2.477990E-03 5.740217E+01  2.490812E-03 5.760835E+01  9.768745E-01 -3.727880E+01 
3.170000E+02  9.916939E-01 -2.618827E+01  2.532504E-03 5.418135E+01  2.541565E-03 5.444321E+01  9.758456E-01 -3.752711E+01 
3.188438E+02  9.913827E-01 -2.632560E+01  2.282950E-03 5.640338E+01  2.260042E-03 5.608770E+01  9.766874E-01 -3.764413E+01 
3.206875E+02  9.914773E-01 -2.652149E+01  2.523269E-03 5.810103E+01  2.510375E-03 5.808682E+01  9.758673E-01 -3.794625E+01 
3.225312E+02  9.901308E-01 -2.677462E+01  2.634139E-03 5.248710E+01  2.610308E-03 5.290802E+01  9.735278E-01 -3.825961E+01 
3.243750E+02  9.902324E-01 -2.679458E+01  2.348188E-03 5.438944E+01  2.345503E-03 5.442218E+01  9.746281E-01 -3.827246E+01 
3.262188E+02  9.902689E-01 -2.693694E+01  2.381032E-03 5.612880E+01  2.414932E-03 5.624171E+01  9.748301E-01 -3.848260E+01 
3.280625E+02  9.899503E-01 -2.704966E+01  2.488133E-03 5.660758E+01  2.465854E-03 5.690992E+01  9.745314E-01 -3.869963E+01 
3.299062E+02  9.906102E-01 -2.718469E+01  2.466554E-03 5.616452E+01  2.459259E-03 5.650025E+01  9.745174E-01 -3.890864E+01 
3.317500E+02  9.905863E-01 -2.734788E+01  2.517037E-03 5.578974E+01  2.516064E-03 5.530363E+01  9.743189E-01 -3.912496E+01 
3.335938E+02  9.906623E-01 -2.752368E+01  2.547298E-03 5.585719E+01  2.537359E-03 5.552078E+01  9.738739E-01 -3.937388E+01 
3.354375E+02  9.906263E-01 -2.767498E+01  2.593055E-03 5.373068E+01  2.539537E-03 5.400934E+01  9.740705E-01 -3.958581E+01 
3.372812E+02  9.903800E-01 -2.782655E+01  2.548245E-03 5.601565E+01  2.516254E-03 5.604745E+01  9.738930E-01 -3.981282E+01 
3.391250E+02  9.899833E-01 -2.796944E+01  2.573854E-03 5.478274E+01  2.609440E-03 5.508194E+01  9.738312E-01 -3.998810E+01 
