! Matrix data file written by TouchstoneData, EPCOS AG
! FILENAME: "newformat_LY98B_3_P1011407_Pcb01_WB.s3p"
! COMMENT: "(LY98B_3_P1011407_Pcb01_WB.s3p) Epcos AG 9/1"
! INFO: nport=3, nfreq=1601
! DATE: "Wed Oct 12 10:01:04 2011"
! USER: "WeiLong Lin"
!
! port | pin | signal
! -----|-----|--------
!   1  |  1  |  in
!   2  |  2  |  out
!   3  |  4  |  out
! --------------------
! 
# MHZ S MA R 50
! freq  magS11 angS11  magS12 angS12  magS13 angS13  ...
5.000000E+01  9.945988E-01 -3.073552E+00  5.265960E-04 8.847588E+01  6.095488E-04 9.161417E+01 
 5.168382E-04 9.241973E+01  9.971747E-01 -1.515456E+00  1.291240E-02 8.886802E+01 
 5.405337E-04 8.867967E+01  1.280299E-02 8.874977E+01  9.974369E-01 -1.968804E+00 
5.146875E+01  9.944582E-01 -3.208917E+00  4.983525E-04 8.583765E+01  5.208196E-04 8.396307E+01 
 5.283464E-04 8.562299E+01  9.961810E-01 -1.652835E+00  1.335505E-02 8.886457E+01 
 5.356034E-04 8.818260E+01  1.336912E-02 8.886763E+01  9.966410E-01 -2.135350E+00 
5.293750E+01  9.954586E-01 -3.222064E+00  4.978611E-04 8.903494E+01  5.143611E-04 8.741527E+01 
 5.218425E-04 8.729177E+01  9.968054E-01 -1.650227E+00  1.374365E-02 8.828079E+01 
 5.154702E-04 8.272947E+01  1.377676E-02 8.804443E+01  9.973350E-01 -2.138001E+00 
5.440625E+01  9.953929E-01 -3.304867E+00  5.531472E-04 8.362144E+01  5.718210E-04 8.865949E+01 
 5.265231E-04 8.677977E+01  9.969147E-01 -1.651324E+00  1.399120E-02 8.837456E+01 
 5.440580E-04 8.549572E+01  1.401798E-02 8.846954E+01  9.978923E-01 -2.161310E+00 
5.587500E+01  9.952087E-01 -3.420437E+00  5.416654E-04 8.714639E+01  5.401334E-04 8.734259E+01 
 5.579351E-04 8.675749E+01  9.965002E-01 -1.666321E+00  1.450324E-02 8.869735E+01 
 5.851276E-04 8.790041E+01  1.452599E-02 8.874111E+01  9.975168E-01 -2.197672E+00 
5.734375E+01  9.954973E-01 -3.543643E+00  5.776054E-04 8.811814E+01  5.893136E-04 9.048785E+01 
 6.063466E-04 8.623552E+01  9.969629E-01 -1.792164E+00  1.491843E-02 8.824408E+01 
 5.860094E-04 9.034092E+01  1.489798E-02 8.838674E+01  9.976184E-01 -2.334035E+00 
5.881250E+01  9.957170E-01 -3.572559E+00  5.830939E-04 8.942235E+01  6.072765E-04 8.594580E+01 
 5.850066E-04 8.759145E+01  9.971465E-01 -1.797154E+00  1.519845E-02 8.782905E+01 
 6.142061E-04 8.632823E+01  1.517856E-02 8.785733E+01  9.972265E-01 -2.365738E+00 
6.028125E+01  9.958587E-01 -3.678471E+00  6.220272E-04 8.735078E+01  6.342538E-04 8.594663E+01 
 6.546388E-04 8.594075E+01  9.974595E-01 -1.814071E+00  1.546115E-02 8.825189E+01 
 6.337066E-04 8.933188E+01  1.542389E-02 8.835676E+01  9.967629E-01 -2.407278E+00 
6.175000E+01  9.957403E-01 -3.799247E+00  6.121650E-04 8.716826E+01  6.348723E-04 8.457587E+01 
 6.380022E-04 8.408906E+01  9.976208E-01 -1.856547E+00  1.600445E-02 8.837510E+01 
 6.523607E-04 8.713240E+01  1.596375E-02 8.845847E+01  9.966563E-01 -2.474050E+00 
6.321875E+01  9.960775E-01 -3.895862E+00  6.432770E-04 8.387563E+01  6.384996E-04 7.955700E+01 
 6.323627E-04 8.340055E+01  9.975268E-01 -1.931913E+00  1.635022E-02 8.781483E+01 
 6.393256E-04 8.169251E+01  1.632217E-02 8.796526E+01  9.967058E-01 -2.536079E+00 
6.468750E+01  9.964962E-01 -3.948730E+00  6.450177E-04 8.701537E+01  6.338770E-04 8.820872E+01 
 6.314763E-04 8.704861E+01  9.972676E-01 -2.003133E+00  1.657724E-02 8.741356E+01 
 6.501990E-04 9.128447E+01  1.654647E-02 8.761979E+01  9.968349E-01 -2.573916E+00 
6.615625E+01  9.965069E-01 -3.884630E+00  6.614052E-04 8.605230E+01  7.048286E-04 8.695073E+01 
 6.725183E-04 8.741081E+01  9.969786E-01 -1.925211E+00  1.699295E-02 8.848190E+01 
 6.596658E-04 8.512862E+01  1.697783E-02 8.834669E+01  9.976364E-01 -2.516998E+00 
6.762500E+01  9.965572E-01 -4.062185E+00  6.779539E-04 8.632758E+01  6.780729E-04 8.783215E+01 
 7.208869E-04 8.772667E+01  9.972615E-01 -2.055254E+00  1.764111E-02 8.819832E+01 
 6.979676E-04 8.716114E+01  1.763156E-02 8.811512E+01  9.976803E-01 -2.672741E+00 
6.909375E+01  9.964340E-01 -4.256113E+00  7.297021E-04 8.745789E+01  7.328305E-04 8.630594E+01 
 7.466752E-04 8.802298E+01  9.974200E-01 -2.245494E+00  1.783843E-02 8.760310E+01 
 7.250142E-04 8.771355E+01  1.784740E-02 8.771958E+01  9.975835E-01 -2.843970E+00 
7.056250E+01  9.969082E-01 -4.337402E+00  7.615257E-04 8.780902E+01  7.974113E-04 8.704036E+01 
 7.659392E-04 8.576748E+01  9.969684E-01 -2.237749E+00  1.814919E-02 8.764189E+01 
 8.047033E-04 8.658870E+01  1.811386E-02 8.773144E+01  9.973503E-01 -2.883082E+00 
7.203125E+01  9.942327E-01 -4.300056E+00  6.957239E-04 6.203566E+01  6.499011E-04 7.633489E+01 
 7.060454E-04 6.386738E+01  9.954917E-01 -2.207135E+00  1.896598E-02 8.893078E+01 
 6.285735E-04 7.479232E+01  1.898189E-02 8.910685E+01  9.956637E-01 -2.833139E+00 
7.350000E+01  9.971868E-01 -4.366524E+00  7.419370E-04 8.242985E+01  7.479956E-04 8.295504E+01 
 7.272568E-04 8.423917E+01  9.969622E-01 -2.266018E+00  1.910386E-02 8.755469E+01 
 7.280086E-04 8.260987E+01  1.910812E-02 8.760350E+01  9.969358E-01 -2.875615E+00 
7.496875E+01  9.974654E-01 -4.461984E+00  7.273532E-04 8.441483E+01  7.289246E-04 8.509024E+01 
 7.153822E-04 8.500845E+01  9.971967E-01 -2.323007E+00  1.952924E-02 8.743088E+01 
 7.080017E-04 8.375264E+01  1.952816E-02 8.749257E+01  9.972742E-01 -2.940928E+00 
7.643750E+01  9.970210E-01 -4.567769E+00  7.587308E-04 8.438935E+01  7.456983E-04 8.480222E+01 
 7.805043E-04 8.511661E+01  9.970646E-01 -2.319869E+00  1.975024E-02 8.746341E+01 
 7.589091E-04 8.456358E+01  1.976103E-02 8.755279E+01  9.975760E-01 -3.017694E+00 
7.790625E+01  9.969124E-01 -4.700650E+00  8.227288E-04 8.609852E+01  7.979936E-04 8.746309E+01 
 7.889790E-04 8.598980E+01  9.973260E-01 -2.380411E+00  2.022498E-02 8.721894E+01 
 7.861901E-04 8.702462E+01  2.020901E-02 8.733613E+01  9.977078E-01 -3.101419E+00 
7.937500E+01  9.970137E-01 -4.761834E+00  7.698500E-04 8.594478E+01  7.824264E-04 8.547355E+01 
 7.650903E-04 8.684132E+01  9.970163E-01 -2.431827E+00  2.058836E-02 8.728971E+01 
 7.807674E-04 8.640437E+01  2.057797E-02 8.736961E+01  9.972954E-01 -3.129098E+00 
8.084375E+01  9.970220E-01 -4.874136E+00  8.225379E-04 8.578655E+01  8.255970E-04 8.471951E+01 
 8.154325E-04 8.504422E+01  9.968812E-01 -2.466829E+00  2.093352E-02 8.717150E+01 
 8.264937E-04 8.406090E+01  2.092594E-02 8.719545E+01  9.971943E-01 -3.194271E+00 
8.231250E+01  9.969632E-01 -4.966485E+00  8.431541E-04 8.681300E+01  8.109980E-04 8.665269E+01 
 8.216790E-04 8.569265E+01  9.963259E-01 -2.504717E+00  2.125009E-02 8.715934E+01 
 8.511775E-04 8.756477E+01  2.123288E-02 8.718268E+01  9.968973E-01 -3.266758E+00 
8.378125E+01  9.967258E-01 -5.078215E+00  8.592387E-04 8.176181E+01  8.492361E-04 8.199876E+01 
 8.666878E-04 8.384436E+01  9.958455E-01 -2.574580E+00  2.173589E-02 8.784434E+01 
 8.555350E-04 8.183050E+01  2.169777E-02 8.766795E+01  9.966906E-01 -3.324118E+00 
8.525000E+01  9.970002E-01 -5.148188E+00  8.263705E-04 8.598690E+01  8.341482E-04 8.537896E+01 
 8.355710E-04 8.678367E+01  9.969381E-01 -2.667548E+00  2.203198E-02 8.701887E+01 
 8.250009E-04 8.504369E+01  2.199029E-02 8.708089E+01  9.967166E-01 -3.372497E+00 
8.671875E+01  9.977750E-01 -5.241876E+00  8.431039E-04 8.509652E+01  8.658290E-04 8.577098E+01 
 8.845361E-04 8.518524E+01  9.967315E-01 -2.736165E+00  2.257376E-02 8.668159E+01 
 8.547033E-04 8.482048E+01  2.253949E-02 8.674303E+01  9.969241E-01 -3.467973E+00 
8.818750E+01  9.974012E-01 -5.357543E+00  8.902237E-04 8.186705E+01  9.360637E-04 8.280911E+01 
 9.001854E-04 8.322971E+01  9.965061E-01 -2.741741E+00  2.256751E-02 8.710000E+01 
 9.075423E-04 8.286458E+01  2.251247E-02 8.693859E+01  9.967651E-01 -3.505650E+00 
8.965625E+01  9.970491E-01 -5.433378E+00  9.035332E-04 8.339087E+01  9.278627E-04 8.317726E+01 
 8.963656E-04 8.291246E+01  9.964954E-01 -2.705937E+00  2.342787E-02 8.715946E+01 
 9.141867E-04 8.327857E+01  2.338919E-02 8.719220E+01  9.962822E-01 -3.501645E+00 
9.112500E+01  9.971209E-01 -5.532520E+00  8.916688E-04 8.659201E+01  8.983825E-04 8.567278E+01 
 9.099891E-04 8.574822E+01  9.966538E-01 -2.769143E+00  2.360653E-02 8.688766E+01 
 8.948747E-04 8.752357E+01  2.355086E-02 8.692650E+01  9.958593E-01 -3.594774E+00 
9.259375E+01  9.971818E-01 -5.636867E+00  9.429314E-04 8.735820E+01  9.502833E-04 8.601368E+01 
 9.286711E-04 8.643858E+01  9.959356E-01 -2.919291E+00  2.393786E-02 8.611359E+01 
 9.353983E-04 8.605412E+01  2.386153E-02 8.604507E+01  9.953982E-01 -3.674739E+00 
9.406250E+01  9.963796E-01 -5.731609E+00  9.813549E-04 8.412860E+01  9.605352E-04 8.368193E+01 
 9.705214E-04 8.448339E+01  9.961215E-01 -2.986452E+00  2.421457E-02 8.687231E+01 
 9.867338E-04 8.448930E+01  2.420152E-02 8.690012E+01  9.956413E-01 -3.745373E+00 
9.553125E+01  9.961948E-01 -5.842836E+00  9.872983E-04 8.611563E+01  9.852107E-04 8.125233E+01 
 9.904888E-04 8.555726E+01  9.953468E-01 -3.034796E+00  2.459134E-02 8.693519E+01 
 1.006106E-03 8.184444E+01  2.459219E-02 8.687563E+01  9.949173E-01 -3.835951E+00 
9.700000E+01  9.967351E-01 -5.890581E+00  9.791222E-04 8.987242E+01  9.462285E-04 8.837779E+01 
 9.611545E-04 8.926573E+01  9.957735E-01 -3.032360E+00  2.505080E-02 8.640313E+01 
 9.375993E-04 8.836369E+01  2.502895E-02 8.637855E+01  9.958506E-01 -3.859772E+00 
9.846875E+01  9.970437E-01 -5.980925E+00  9.382470E-04 8.357419E+01  9.452529E-04 8.288044E+01 
 9.131836E-04 8.517507E+01  9.961414E-01 -3.055438E+00  2.527210E-02 8.639367E+01 
 9.468460E-04 8.441313E+01  2.522579E-02 8.637489E+01  9.960117E-01 -3.887185E+00 
9.993750E+01  9.968611E-01 -6.096611E+00  9.951116E-04 8.666662E+01  1.001664E-03 8.688131E+01 
 9.738134E-04 8.641077E+01  9.958872E-01 -3.132787E+00  2.570464E-02 8.651790E+01 
 1.013950E-03 8.537523E+01  2.567313E-02 8.643862E+01  9.964625E-01 -3.977168E+00 
1.014062E+02  9.970502E-01 -6.172306E+00  1.034834E-03 8.700240E+01  1.058694E-03 8.417726E+01 
 1.028833E-03 8.548115E+01  9.958989E-01 -3.177984E+00  2.613317E-02 8.651920E+01 
 1.038177E-03 8.537396E+01  2.608804E-02 8.640542E+01  9.964670E-01 -4.020104E+00 
1.028750E+02  9.969751E-01 -6.294451E+00  1.023247E-03 8.386386E+01  1.048897E-03 8.341392E+01 
 1.051873E-03 8.455588E+01  9.963469E-01 -3.201799E+00  2.659075E-02 8.634689E+01 
 1.051891E-03 8.433006E+01  2.654729E-02 8.636172E+01  9.962269E-01 -4.085831E+00 
1.043438E+02  9.970343E-01 -6.366805E+00  1.112717E-03 8.517588E+01  1.093220E-03 8.441084E+01 
 1.068499E-03 8.585161E+01  9.963490E-01 -3.251393E+00  2.666101E-02 8.623066E+01 
 1.087199E-03 8.425351E+01  2.661800E-02 8.626199E+01  9.963836E-01 -4.131877E+00 
1.058125E+02  9.968909E-01 -6.451357E+00  1.029987E-03 8.198934E+01  1.064973E-03 8.017018E+01 
 1.025521E-03 8.080505E+01  9.958236E-01 -3.315602E+00  2.726776E-02 8.686255E+01 
 1.032519E-03 8.244970E+01  2.725788E-02 8.680055E+01  9.960100E-01 -4.203505E+00 
1.072812E+02  9.964290E-01 -6.582991E+00  1.034933E-03 8.586265E+01  1.067883E-03 8.522944E+01 
 1.035020E-03 8.460210E+01  9.957601E-01 -3.384262E+00  2.768131E-02 8.617310E+01 
 1.045812E-03 8.503124E+01  2.762901E-02 8.613491E+01  9.956771E-01 -4.300775E+00 
1.087500E+02  9.965969E-01 -6.672309E+00  1.095273E-03 8.536097E+01  1.093422E-03 8.333664E+01 
 1.091736E-03 8.531697E+01  9.965365E-01 -3.437915E+00  2.810407E-02 8.599592E+01 
 1.118090E-03 8.542736E+01  2.803894E-02 8.603159E+01  9.958782E-01 -4.357992E+00 
1.102188E+02  9.967799E-01 -6.754867E+00  1.123703E-03 8.440007E+01  1.110749E-03 8.401391E+01 
 1.121287E-03 8.360569E+01  9.965917E-01 -3.470041E+00  2.821251E-02 8.614438E+01 
 1.128037E-03 8.384311E+01  2.809210E-02 8.608537E+01  9.958605E-01 -4.394608E+00 
1.116875E+02  9.964314E-01 -6.853008E+00  1.059611E-03 7.966168E+01  1.083883E-03 8.060039E+01 
 1.084720E-03 8.011644E+01  9.960075E-01 -3.546862E+00  2.889269E-02 8.635975E+01 
 1.078236E-03 7.788123E+01  2.875269E-02 8.645319E+01  9.956527E-01 -4.452833E+00 
1.131562E+02  9.969220E-01 -6.928623E+00  1.138627E-03 8.632178E+01  1.137364E-03 8.567852E+01 
 1.131819E-03 8.480441E+01  9.955466E-01 -3.614095E+00  2.923575E-02 8.591648E+01 
 1.130396E-03 8.506527E+01  2.909694E-02 8.599676E+01  9.959273E-01 -4.505672E+00 
1.146250E+02  9.971324E-01 -7.006414E+00  1.173653E-03 8.658483E+01  1.159746E-03 8.576609E+01 
 1.149199E-03 8.505419E+01  9.951286E-01 -3.651419E+00  2.964960E-02 8.572448E+01 
 1.148527E-03 8.424409E+01  2.950910E-02 8.573063E+01  9.958799E-01 -4.536089E+00 
1.160938E+02  9.971064E-01 -7.115573E+00  1.156897E-03 8.396792E+01  1.188369E-03 8.404679E+01 
 1.148767E-03 8.411625E+01  9.952906E-01 -3.699627E+00  2.982869E-02 8.586570E+01 
 1.167438E-03 8.423920E+01  2.971692E-02 8.586551E+01  9.962479E-01 -4.592615E+00 
1.175625E+02  9.964343E-01 -7.216679E+00  1.156885E-03 8.436073E+01  1.181029E-03 8.257174E+01 
 1.175883E-03 8.649483E+01  9.947164E-01 -3.773870E+00  3.024290E-02 8.575060E+01 
 1.182308E-03 8.362457E+01  3.014400E-02 8.575691E+01  9.959509E-01 -4.693322E+00 
1.190312E+02  9.962203E-01 -7.314264E+00  1.198726E-03 8.420107E+01  1.248655E-03 8.315895E+01 
 1.233949E-03 8.302860E+01  9.946142E-01 -3.825240E+00  3.058054E-02 8.565299E+01 
 1.239324E-03 8.234689E+01  3.050366E-02 8.568333E+01  9.959580E-01 -4.782369E+00 
1.205000E+02  9.956947E-01 -7.348452E+00  1.157486E-03 7.842205E+01  1.166709E-03 7.862193E+01 
 1.149905E-03 7.861957E+01  9.946767E-01 -3.784760E+00  3.091924E-02 8.530018E+01 
 1.149797E-03 7.914329E+01  3.080738E-02 8.530507E+01  9.949996E-01 -4.794209E+00 
1.219688E+02  9.970109E-01 -7.433325E+00  1.134973E-03 8.130572E+01  1.178501E-03 8.143793E+01 
 1.184508E-03 8.266434E+01  9.957051E-01 -3.846813E+00  3.117717E-02 8.584891E+01 
 1.180956E-03 8.220586E+01  3.107645E-02 8.578455E+01  9.955228E-01 -4.864839E+00 
1.234375E+02  9.969432E-01 -7.526696E+00  1.194427E-03 8.647955E+01  1.233035E-03 8.375723E+01 
 1.145390E-03 8.654123E+01  9.952407E-01 -3.861982E+00  3.182050E-02 8.572846E+01 
 1.210469E-03 8.490229E+01  3.175988E-02 8.569007E+01  9.956705E-01 -4.911491E+00 
1.249062E+02  9.970145E-01 -7.606477E+00  1.231598E-03 8.551831E+01  1.256422E-03 8.424054E+01 
 1.237158E-03 8.508055E+01  9.953391E-01 -3.930151E+00  3.215216E-02 8.552004E+01 
 1.231978E-03 8.450118E+01  3.207484E-02 8.546459E+01  9.955316E-01 -4.976523E+00 
1.263750E+02  9.974352E-01 -7.719291E+00  1.250144E-03 8.436989E+01  1.254620E-03 8.395958E+01 
 1.248383E-03 8.514512E+01  9.951583E-01 -3.985410E+00  3.239217E-02 8.537318E+01 
 1.278131E-03 8.481878E+01  3.230933E-02 8.536240E+01  9.954391E-01 -5.035178E+00 
1.278438E+02  9.972359E-01 -7.811073E+00  1.304260E-03 8.390070E+01  1.311574E-03 8.335334E+01 
 1.274426E-03 8.362170E+01  9.952752E-01 -4.056529E+00  3.268245E-02 8.606345E+01 
 1.292989E-03 8.345844E+01  3.263051E-02 8.597380E+01  9.952132E-01 -5.086565E+00 
1.293125E+02  9.967868E-01 -7.902604E+00  1.280564E-03 8.409735E+01  1.283451E-03 8.415622E+01 
 1.267689E-03 8.320416E+01  9.959619E-01 -4.094243E+00  3.343188E-02 8.543429E+01 
 1.309004E-03 8.395218E+01  3.336461E-02 8.534635E+01  9.953968E-01 -5.114749E+00 
1.307812E+02  9.964211E-01 -8.015506E+00  1.263975E-03 8.463969E+01  1.276288E-03 8.405563E+01 
 1.303873E-03 8.386950E+01  9.962565E-01 -4.188343E+00  3.379902E-02 8.539845E+01 
 1.290988E-03 8.423348E+01  3.373014E-02 8.531769E+01  9.953879E-01 -5.184695E+00 
1.322500E+02  9.969645E-01 -8.114010E+00  1.323423E-03 8.287714E+01  1.345417E-03 8.332656E+01 
 1.320413E-03 8.255361E+01  9.956943E-01 -4.235410E+00  3.394850E-02 8.496575E+01 
 1.327906E-03 8.384804E+01  3.388264E-02 8.493813E+01  9.956382E-01 -5.261408E+00 
1.337188E+02  9.968479E-01 -8.177886E+00  1.285089E-03 7.953340E+01  1.300473E-03 7.854805E+01 
 1.257193E-03 7.858537E+01  9.958280E-01 -4.224986E+00  3.452389E-02 8.551056E+01 
 1.278183E-03 7.907355E+01  3.441812E-02 8.546032E+01  9.958269E-01 -5.275898E+00 
1.351875E+02  9.969747E-01 -8.239798E+00  1.304496E-03 8.472775E+01  1.313248E-03 8.345225E+01 
 1.307332E-03 8.472157E+01  9.958957E-01 -4.305601E+00  3.481849E-02 8.512244E+01 
 1.289785E-03 8.455851E+01  3.475962E-02 8.509532E+01  9.956744E-01 -5.341634E+00 
1.366562E+02  9.972733E-01 -8.350838E+00  1.329274E-03 8.446900E+01  1.350265E-03 8.412545E+01 
 1.352053E-03 8.419722E+01  9.961052E-01 -4.417821E+00  3.521100E-02 8.495321E+01 
 1.356056E-03 8.296006E+01  3.510694E-02 8.484764E+01  9.956684E-01 -5.481790E+00 
1.381250E+02  9.969624E-01 -8.472767E+00  1.378790E-03 8.504969E+01  1.403575E-03 8.475660E+01 
 1.415003E-03 8.413982E+01  9.955497E-01 -4.455284E+00  3.529237E-02 8.467683E+01 
 1.375186E-03 8.399582E+01  3.521490E-02 8.470059E+01  9.955808E-01 -5.506548E+00 
1.395938E+02  9.971201E-01 -8.527858E+00  1.398911E-03 8.516023E+01  1.412077E-03 8.241213E+01 
 1.394781E-03 8.349741E+01  9.955253E-01 -4.479691E+00  3.585294E-02 8.504605E+01 
 1.391902E-03 8.402056E+01  3.573284E-02 8.512189E+01  9.959031E-01 -5.552847E+00 
1.410625E+02  9.973822E-01 -8.617284E+00  1.433289E-03 8.381974E+01  1.449479E-03 8.471058E+01 
 1.446025E-03 8.442221E+01  9.951284E-01 -4.514373E+00  3.632750E-02 8.499445E+01 
 1.449644E-03 8.440856E+01  3.620245E-02 8.495924E+01  9.958093E-01 -5.610209E+00 
1.425312E+02  9.971135E-01 -8.728434E+00  1.472212E-03 8.328988E+01  1.502421E-03 8.313917E+01 
 1.464111E-03 8.400118E+01  9.948495E-01 -4.594374E+00  3.658804E-02 8.450752E+01 
 1.497914E-03 8.200316E+01  3.646910E-02 8.454115E+01  9.954629E-01 -5.697892E+00 
1.440000E+02  9.965855E-01 -8.736860E+00  1.336644E-03 8.433161E+01  1.417337E-03 8.242039E+01 
 1.355604E-03 8.305494E+01  9.947747E-01 -4.595355E+00  3.648465E-02 8.472867E+01 
 1.420429E-03 8.301363E+01  3.640214E-02 8.474483E+01  9.948125E-01 -5.664024E+00 
1.454688E+02  9.966804E-01 -8.832357E+00  1.313270E-03 7.942372E+01  1.331987E-03 8.022207E+01 
 1.327802E-03 7.973388E+01  9.954603E-01 -4.648164E+00  3.745960E-02 8.481043E+01 
 1.320683E-03 7.926206E+01  3.735653E-02 8.483873E+01  9.951786E-01 -5.720932E+00 
1.469375E+02  9.966962E-01 -8.940757E+00  1.379134E-03 8.322986E+01  1.395704E-03 8.351981E+01 
 1.383553E-03 8.424550E+01  9.955779E-01 -4.738524E+00  3.767936E-02 8.470646E+01 
 1.415226E-03 8.384072E+01  3.761712E-02 8.468400E+01  9.953593E-01 -5.809305E+00 
1.484062E+02  9.964217E-01 -9.035623E+00  1.455574E-03 8.252123E+01  1.473750E-03 8.121618E+01 
 1.408787E-03 8.378649E+01  9.953690E-01 -4.784262E+00  3.802538E-02 8.467889E+01 
 1.494058E-03 8.222265E+01  3.795693E-02 8.463850E+01  9.950786E-01 -5.873495E+00 
1.498750E+02  9.967784E-01 -9.112838E+00  1.425709E-03 8.342343E+01  1.486610E-03 8.370750E+01 
 1.422082E-03 8.392296E+01  9.950859E-01 -4.851092E+00  3.825836E-02 8.496432E+01 
 1.446869E-03 8.397028E+01  3.815010E-02 8.492341E+01  9.952127E-01 -5.916473E+00 
1.513438E+02  9.966841E-01 -9.198118E+00  1.435737E-03 8.341388E+01  1.452367E-03 8.188561E+01 
 1.476850E-03 8.493072E+01  9.950796E-01 -4.895641E+00  3.891682E-02 8.453379E+01 
 1.482967E-03 8.371849E+01  3.879454E-02 8.448532E+01  9.952087E-01 -5.950408E+00 
1.528125E+02  9.964816E-01 -9.282149E+00  1.493458E-03 8.265067E+01  1.511598E-03 8.309120E+01 
 1.488668E-03 8.227604E+01  9.952043E-01 -4.944551E+00  3.930852E-02 8.462647E+01 
 1.515783E-03 8.334726E+01  3.915426E-02 8.455290E+01  9.952748E-01 -6.002143E+00 
1.542812E+02  9.963712E-01 -9.336353E+00  1.481237E-03 8.443428E+01  1.544735E-03 8.356784E+01 
 1.520507E-03 8.311675E+01  9.955527E-01 -4.983874E+00  3.963858E-02 8.435329E+01 
 1.528215E-03 8.299121E+01  3.956314E-02 8.429035E+01  9.951814E-01 -6.044142E+00 
1.557500E+02  9.968487E-01 -9.442297E+00  1.521439E-03 8.396800E+01  1.527412E-03 8.387070E+01 
 1.514292E-03 8.440869E+01  9.953850E-01 -5.021260E+00  3.984386E-02 8.446298E+01 
 1.514034E-03 8.410003E+01  3.975933E-02 8.442270E+01  9.954053E-01 -6.107840E+00 
1.572188E+02  9.969189E-01 -9.521437E+00  1.571168E-03 8.362138E+01  1.600664E-03 8.276542E+01 
 1.573487E-03 8.359772E+01  9.951726E-01 -5.047464E+00  4.023786E-02 8.442389E+01 
 1.548265E-03 8.265380E+01  4.018312E-02 8.435282E+01  9.956043E-01 -6.181805E+00 
1.586875E+02  9.970006E-01 -9.621436E+00  1.549950E-03 8.382636E+01  1.633676E-03 8.314278E+01 
