! Matrix data file written by TouchstoneData, EPCOS AG
! FILENAME: "newformat_B4303_x50y50_pcb06_WB.s3p"
! COMMENT: "(B4303_x50y50_pcb06_WB.s3p) Epcos AG 6/23/20"
! INFO: nport=3, nfreq=1601
! DATE: "Wed Oct 12 10:29:05 2011"
! USER: "WeiLong Lin"
!
! port | pin | signal
! -----|-----|--------
!   1  |  1  |  in
!   2  |  2  |  out
!   3  |  4  |  out
! --------------------
! 
# MHZ S MA R 50
! freq  magS11 angS11  magS12 angS12  magS13 angS13  ...
5.000000E+01  9.959150E-01 -8.274273E+00  5.385480E-04 8.496399E+01  9.256874E-04 8.267338E+01 
 5.415900E-04 7.992915E+01  9.992168E-01 -4.290312E+00  2.640536E-05 1.155168E+02 
 7.987829E-04 7.924551E+01  1.317868E-04 1.447831E+02  9.976984E-01 -4.262648E+00 
5.371875E+01  9.965000E-01 -8.850835E+00  5.175020E-04 7.989710E+01  8.424371E-04 8.137340E+01 
 5.396670E-04 8.100875E+01  9.987100E-01 -4.639013E+00  2.130076E-04 1.109171E+02 
 8.404995E-04 8.157526E+01  1.975945E-04 1.161198E+02  9.980916E-01 -4.641569E+00 
5.743750E+01  9.961292E-01 -9.546074E+00  5.170597E-04 7.878660E+01  8.746983E-04 8.073297E+01 
 5.294541E-04 7.862584E+01  9.987533E-01 -4.995323E+00  2.262270E-04 9.061034E+01 
 8.726553E-04 8.030773E+01  2.163744E-04 8.464601E+01  9.984308E-01 -5.011714E+00 
6.115625E+01  9.966931E-01 -1.012171E+01  6.469519E-04 8.248749E+01  9.937060E-04 8.344976E+01 
 6.379450E-04 8.125111E+01  9.997987E-01 -5.277738E+00  1.861272E-04 9.045905E+01 
 1.001174E-03 8.272094E+01  2.082109E-04 9.437998E+01  9.989471E-01 -5.281601E+00 
6.487500E+01  9.969780E-01 -1.071980E+01  6.319952E-04 8.380222E+01  1.015097E-03 8.071534E+01 
 6.028029E-04 8.136930E+01  9.991310E-01 -5.604864E+00  4.861608E-04 7.386810E+01 
 1.018005E-03 8.144650E+01  5.008936E-04 7.466402E+01  9.990497E-01 -5.587032E+00 
6.859375E+01  9.975174E-01 -1.131915E+01  6.575449E-04 7.822760E+01  1.052269E-03 8.030302E+01 
 6.543751E-04 7.972443E+01  9.990334E-01 -5.962816E+00  2.705730E-04 9.806905E+01 
 1.055213E-03 8.115351E+01  2.608211E-04 9.534035E+01  9.983571E-01 -5.916348E+00 
7.231250E+01  9.974971E-01 -1.189882E+01  8.186093E-04 7.975252E+01  1.223824E-03 8.163313E+01 
 8.129808E-04 8.119659E+01  9.995421E-01 -6.238283E+00  7.603491E-05 -9.540034E+00 
 1.220912E-03 7.917701E+01  7.418434E-05 -2.007208E+00  9.985012E-01 -6.178562E+00 
7.603125E+01  9.975503E-01 -1.239372E+01  5.977479E-04 7.315346E+01  1.048602E-03 7.774432E+01 
 6.140952E-04 7.101546E+01  9.988228E-01 -6.524047E+00  2.490381E-04 8.445861E+01 
 1.073265E-03 7.560440E+01  2.719358E-04 7.733246E+01  9.978123E-01 -6.450444E+00 
7.975000E+01  9.975713E-01 -1.301093E+01  6.264757E-04 7.198659E+01  1.083450E-03 7.482956E+01 
 6.074475E-04 7.032457E+01  9.986588E-01 -6.790922E+00  5.696469E-04 1.166147E+02 
 1.109578E-03 7.488196E+01  5.788245E-04 1.171480E+02  9.979664E-01 -6.780187E+00 
8.346875E+01  9.969551E-01 -1.365794E+01  7.223216E-04 7.405809E+01  1.220074E-03 7.750338E+01 
 7.148216E-04 7.594051E+01  9.990001E-01 -7.131235E+00  2.964858E-04 1.096243E+02 
 1.235687E-03 7.755676E+01  3.179100E-04 1.090467E+02  9.987698E-01 -7.053611E+00 
8.718750E+01  9.973561E-01 -1.427268E+01  8.312483E-04 8.100260E+01  1.336162E-03 7.922258E+01 
 8.021552E-04 8.065515E+01  9.993563E-01 -7.451281E+00  3.497106E-04 8.815995E+01 
 1.335548E-03 7.958412E+01  3.586681E-04 8.433142E+01  9.979268E-01 -7.406637E+00 
9.090625E+01  9.970418E-01 -1.486451E+01  8.316643E-04 8.237170E+01  1.377197E-03 8.094760E+01 
 8.490195E-04 8.009106E+01  9.991794E-01 -7.708499E+00  1.891684E-04 8.202361E+01 
 1.392075E-03 7.971226E+01  1.771336E-04 7.537848E+01  9.980453E-01 -7.754175E+00 
9.462500E+01  9.976838E-01 -1.549378E+01  9.294734E-04 7.804743E+01  1.462037E-03 7.755679E+01 
 8.827747E-04 7.866165E+01  9.990518E-01 -8.090018E+00  3.107167E-04 8.433809E+01 
 1.489442E-03 7.765791E+01  3.114593E-04 7.824556E+01  9.977040E-01 -8.029068E+00 
9.834375E+01  9.976507E-01 -1.608495E+01  9.301842E-04 7.480091E+01  1.545922E-03 7.633304E+01 
 9.401982E-04 7.452419E+01  9.989667E-01 -8.443833E+00  2.082325E-04 8.533253E+01 
 1.570185E-03 7.653311E+01  1.977736E-04 8.748432E+01  9.978942E-01 -8.350823E+00 
1.020625E+02  9.975675E-01 -1.666258E+01  9.358096E-04 7.793911E+01  1.535047E-03 7.696740E+01 
 9.335558E-04 7.973118E+01  9.984129E-01 -8.738489E+00  3.413326E-04 6.033414E+01 
 1.547358E-03 7.701972E+01  3.584748E-04 6.255491E+01  9.971572E-01 -8.663387E+00 
1.057812E+02  9.976183E-01 -1.726191E+01  9.709399E-04 7.383481E+01  1.598897E-03 7.570617E+01 
 9.920608E-04 7.420464E+01  9.981055E-01 -9.011511E+00  2.108740E-04 7.642017E+01 
 1.603176E-03 7.593533E+01  1.996544E-04 7.328163E+01  9.972403E-01 -8.949667E+00 
1.095000E+02  9.979750E-01 -1.789261E+01  1.048481E-03 7.604677E+01  1.701309E-03 7.603738E+01 
 1.034325E-03 7.632289E+01  9.961436E-01 -9.561305E+00  3.745365E-04 7.496023E+01 
 1.715805E-03 7.606548E+01  3.882391E-04 7.281743E+01  9.979557E-01 -9.287393E+00 
1.132188E+02  9.971896E-01 -1.849075E+01  1.311083E-03 6.934453E+01  1.938082E-03 7.111588E+01 
 1.290267E-03 6.960022E+01  9.956807E-01 -9.958158E+00  2.759855E-04 1.470175E+02 
 1.946860E-03 7.152296E+01  2.729580E-04 1.555970E+02  9.970545E-01 -9.651174E+00 
1.169375E+02  9.970993E-01 -1.907139E+01  1.104788E-03 7.218020E+01  1.817828E-03 7.443488E+01 
 1.103956E-03 7.146347E+01  9.957819E-01 -1.027142E+01  2.320851E-04 9.817172E+01 
 1.841882E-03 7.448981E+01  2.663370E-04 9.407817E+01  9.971794E-01 -9.951166E+00 
1.206562E+02  9.971589E-01 -1.968687E+01  9.710053E-04 7.391058E+01  1.695444E-03 7.450219E+01 
 9.663101E-04 7.359823E+01  9.951933E-01 -1.053983E+01  7.641887E-04 8.509486E+01 
 1.711463E-03 7.529456E+01  7.913512E-04 8.402605E+01  9.967528E-01 -1.024053E+01 
1.243750E+02  9.968812E-01 -2.022946E+01  1.000872E-03 7.432921E+01  1.742244E-03 7.144560E+01 
 1.002501E-03 7.286515E+01  9.950976E-01 -1.078214E+01  3.925257E-04 9.253283E+01 
 1.736198E-03 7.186843E+01  4.117967E-04 8.801059E+01  9.961284E-01 -1.054412E+01 
1.280938E+02  9.971755E-01 -2.081521E+01  1.091539E-03 7.343770E+01  1.938764E-03 7.542918E+01 
 1.115735E-03 7.235789E+01  9.949655E-01 -1.108995E+01  7.347851E-04 -5.311618E+01 
 1.936864E-03 7.566407E+01  7.256668E-04 -5.476059E+01  9.968117E-01 -1.085071E+01 
1.318125E+02  9.968886E-01 -2.143146E+01  1.120005E-03 7.199386E+01  1.942944E-03 7.244570E+01 
 1.134058E-03 7.387625E+01  9.954354E-01 -1.149130E+01  4.536295E-04 7.369881E+01 
 1.908736E-03 7.279868E+01  4.592573E-04 7.536303E+01  9.964041E-01 -1.119946E+01 
1.355312E+02  9.973779E-01 -2.202500E+01  1.286735E-03 7.350895E+01  2.100735E-03 7.249446E+01 
 1.261610E-03 7.293645E+01  9.957209E-01 -1.181582E+01  2.709610E-04 1.117993E+02 
 2.065285E-03 7.231976E+01  3.076604E-04 1.060318E+02  9.963479E-01 -1.143684E+01 
1.392500E+02  9.972254E-01 -2.264501E+01  1.239117E-03 7.416669E+01  2.067980E-03 7.294594E+01 
 1.252673E-03 7.412315E+01  9.960885E-01 -1.215932E+01  4.273079E-04 7.496804E+01 
 2.068617E-03 7.239746E+01  4.040041E-04 7.351768E+01  9.969813E-01 -1.186337E+01 
1.429688E+02  9.972844E-01 -2.322669E+01  1.277810E-03 7.202545E+01  2.114729E-03 7.140037E+01 
 1.278839E-03 7.311051E+01  9.962115E-01 -1.248291E+01  4.233496E-04 7.502078E+01 
 2.111121E-03 7.196119E+01  4.252490E-04 7.298902E+01  9.969713E-01 -1.214408E+01 
1.466875E+02  9.962527E-01 -2.376761E+01  1.390346E-03 7.200842E+01  2.273017E-03 7.135781E+01 
 1.389957E-03 7.022348E+01  9.954670E-01 -1.274103E+01  3.369188E-04 8.893419E+01 
 2.236713E-03 7.102319E+01  3.511419E-04 9.081303E+01  9.960170E-01 -1.247879E+01 
1.504062E+02  9.964496E-01 -2.431844E+01  1.274780E-03 6.972369E+01  2.172745E-03 7.017067E+01 
 1.316642E-03 7.074979E+01  9.955325E-01 -1.299966E+01  4.003809E-04 7.100526E+01 
 2.187627E-03 7.029814E+01  4.172397E-04 6.398689E+01  9.962185E-01 -1.271374E+01 
1.541250E+02  9.972632E-01 -2.493931E+01  1.391738E-03 6.984617E+01  2.272999E-03 6.968105E+01 
 1.414504E-03 7.018527E+01  9.955638E-01 -1.327255E+01  5.177876E-04 8.881755E+01 
 2.280754E-03 7.041675E+01  4.786457E-04 8.884140E+01  9.969119E-01 -1.301965E+01 
1.578438E+02  9.969750E-01 -2.551168E+01  1.519184E-03 7.068761E+01  2.414870E-03 6.983260E+01 
 1.471455E-03 7.044505E+01  9.960515E-01 -1.364248E+01  3.950832E-04 8.142308E+01 
 2.409899E-03 6.913161E+01  3.919404E-04 8.936359E+01  9.969972E-01 -1.335737E+01 
1.615625E+02  9.976317E-01 -2.608811E+01  1.345286E-03 7.105067E+01  2.405586E-03 6.740195E+01 
 1.295963E-03 7.109411E+01  9.961356E-01 -1.394663E+01  1.265915E-03 6.397245E+01 
 2.415940E-03 6.829575E+01  1.267408E-03 6.210036E+01  9.974365E-01 -1.365873E+01 
1.652812E+02  9.968601E-01 -2.674833E+01  1.553742E-03 6.859778E+01  2.373996E-03 6.947407E+01 
 1.482396E-03 7.048513E+01  9.957825E-01 -1.423563E+01  5.714256E-04 7.029214E+01 
 2.386025E-03 6.934605E+01  5.870280E-04 7.031318E+01  9.966409E-01 -1.402114E+01 
1.690000E+02  9.961095E-01 -2.728174E+01  1.576544E-03 6.809480E+01  2.622629E-03 6.948322E+01 
 1.529833E-03 6.740711E+01  9.946352E-01 -1.447462E+01  1.015131E-04 4.352160E+01 
 2.622526E-03 6.886866E+01  1.255039E-04 3.915751E+01  9.962249E-01 -1.426164E+01 
1.727188E+02  9.967593E-01 -2.775057E+01  1.440602E-03 6.540088E+01  2.408234E-03 6.743303E+01 
 1.457897E-03 6.452386E+01  9.949586E-01 -1.477635E+01  4.336508E-04 6.036864E+01 
 2.433540E-03 6.784701E+01  4.287274E-04 5.994479E+01  9.957017E-01 -1.451656E+01 
1.764375E+02  9.965568E-01 -2.832482E+01  1.311661E-03 5.743423E+01  2.360254E-03 6.231012E+01 
 1.301103E-03 5.698754E+01  9.949450E-01 -1.500428E+01  1.418312E-03 1.062848E+02 
 2.379595E-03 6.237519E+01  1.407642E-03 1.065788E+02  9.952335E-01 -1.479785E+01 
1.801562E+02  9.967693E-01 -2.894380E+01  1.569102E-03 6.739038E+01  2.616455E-03 6.736776E+01 
 1.576685E-03 6.828316E+01  9.954440E-01 -1.535715E+01  4.252047E-04 7.341096E+01 
 2.587270E-03 6.753812E+01  4.245334E-04 7.436916E+01  9.953483E-01 -1.513524E+01 
1.838750E+02  9.972729E-01 -2.952095E+01  1.476595E-03 6.714186E+01  2.618499E-03 6.675149E+01 
 1.419591E-03 6.635966E+01  9.961093E-01 -1.565441E+01  8.708720E-04 6.756819E+01 
 2.645614E-03 6.654133E+01  8.725254E-04 6.727026E+01  9.956719E-01 -1.550964E+01 
1.875938E+02  9.973557E-01 -3.013054E+01  1.659456E-03 6.547361E+01  2.706115E-03 6.589749E+01 
 1.656580E-03 6.686355E+01  9.962217E-01 -1.598831E+01  4.937873E-04 8.283272E+01 
 2.709809E-03 6.684228E+01  4.703467E-04 8.599250E+01  9.955862E-01 -1.575307E+01 
1.913125E+02  9.973611E-01 -3.068554E+01  1.632169E-03 6.484210E+01  2.765299E-03 6.631060E+01 
 1.616221E-03 6.589053E+01  9.962008E-01 -1.627088E+01  4.504036E-04 7.554141E+01 
 2.772702E-03 6.558425E+01  4.232171E-04 7.545433E+01  9.966244E-01 -1.610543E+01 
1.950312E+02  9.957660E-01 -3.118146E+01  1.727745E-03 6.478757E+01  2.838046E-03 6.616033E+01 
 1.721639E-03 6.437897E+01  9.945134E-01 -1.654424E+01  4.129548E-04 6.687058E+01 
 2.868691E-03 6.582287E+01  4.109558E-04 6.303196E+01  9.947119E-01 -1.636827E+01 
1.987500E+02  9.966540E-01 -3.179993E+01  1.638191E-03 6.198944E+01  2.777787E-03 6.397322E+01 
 1.647584E-03 6.162645E+01  9.952189E-01 -1.688375E+01  5.495367E-04 9.005285E+01 
 2.779933E-03 6.319237E+01  5.411369E-04 9.162936E+01  9.955561E-01 -1.665477E+01 
2.024688E+02  9.964485E-01 -3.238532E+01  1.813574E-03 6.455648E+01  2.824647E-03 6.452567E+01 
 1.784290E-03 6.404948E+01  9.953424E-01 -1.717270E+01  4.050241E-04 6.610952E+01 
 2.850798E-03 6.502522E+01  4.319845E-04 6.621627E+01  9.958180E-01 -1.699915E+01 
2.061875E+02  9.964833E-01 -3.288653E+01  1.866508E-03 6.469845E+01  2.935497E-03 6.563016E+01 
 1.867954E-03 6.377435E+01  9.951087E-01 -1.748815E+01  6.359318E-04 6.694739E+01 
 2.920889E-03 6.540074E+01  6.112970E-04 6.581717E+01  9.958364E-01 -1.733393E+01 
2.099062E+02  9.957503E-01 -3.346477E+01  2.399812E-03 5.292923E+01  3.686029E-03 5.493765E+01 
 2.386131E-03 5.245637E+01  9.959380E-01 -1.774566E+01  6.042756E-04 1.794835E+02 
 3.680279E-03 5.488111E+01  6.146224E-04 1.785679E+02  9.962221E-01 -1.758853E+01 
2.136250E+02  9.956717E-01 -3.401262E+01  1.724576E-03 6.243792E+01  3.085444E-03 6.343206E+01 
 1.714980E-03 6.199095E+01  9.963916E-01 -1.805541E+01  2.499178E-04 9.227253E+01 
 3.087288E-03 6.367683E+01  2.570906E-04 9.090729E+01  9.964953E-01 -1.791618E+01 
2.173438E+02  9.959415E-01 -3.461955E+01  1.710404E-03 6.309625E+01  2.961768E-03 6.378029E+01 
 1.714823E-03 6.349145E+01  9.955792E-01 -1.841403E+01  1.108460E-03 7.048226E+01 
 2.963705E-03 6.347471E+01  1.104222E-03 7.119192E+01  9.963230E-01 -1.823085E+01 
2.210625E+02  9.952096E-01 -3.512897E+01  1.743842E-03 6.363422E+01  2.988109E-03 6.210201E+01 
 1.736284E-03 6.279265E+01  9.946292E-01 -1.869179E+01  5.132732E-04 1.018124E+02 
 2.982956E-03 6.258035E+01  5.338862E-04 9.891769E+01  9.953032E-01 -1.849647E+01 
2.247812E+02  9.958386E-01 -3.572904E+01  1.884114E-03 6.157887E+01  3.113869E-03 6.202776E+01 
 1.901023E-03 6.108239E+01  9.952229E-01 -1.893060E+01  3.612778E-04 -5.956115E+01 
 3.107668E-03 6.239351E+01  3.963543E-04 -5.848564E+01  9.953207E-01 -1.870784E+01 
2.285000E+02  9.953895E-01 -3.625403E+01  1.956098E-03 6.191519E+01  3.204836E-03 6.205006E+01 
 1.962769E-03 6.155212E+01  9.959360E-01 -1.927629E+01  5.912207E-04 7.936566E+01 
 3.214679E-03 6.180909E+01  6.126516E-04 8.069522E+01  9.965303E-01 -1.907605E+01 
2.322188E+02  9.951308E-01 -3.686727E+01  2.117327E-03 5.592451E+01  3.496663E-03 5.836536E+01 
 2.112766E-03 5.563050E+01  9.948979E-01 -1.961263E+01  2.818461E-04 1.444871E+02 
 3.486709E-03 5.831312E+01  2.850310E-04 1.457367E+02  9.954030E-01 -1.943621E+01 
2.359375E+02  9.954291E-01 -3.735526E+01  1.862968E-03 6.158339E+01  3.189198E-03 6.100325E+01 
 1.836545E-03 6.127759E+01  9.956244E-01 -1.988362E+01  5.464381E-04 6.899407E+01 
 3.189888E-03 6.112678E+01  5.451003E-04 6.965707E+01  9.960883E-01 -1.964712E+01 
2.396562E+02  9.960447E-01 -3.797204E+01  1.919944E-03 6.025738E+01  3.263009E-03 6.058525E+01 
 1.934084E-03 5.938852E+01  9.961509E-01 -2.023497E+01  6.034591E-04 7.132673E+01 
 3.284222E-03 5.998817E+01  5.881854E-04 7.420810E+01  9.962983E-01 -1.999850E+01 
2.433750E+02  9.944645E-01 -3.854774E+01  1.998389E-03 5.808335E+01  3.372329E-03 5.944474E+01 
 2.013199E-03 5.756479E+01  9.952013E-01 -2.058537E+01  5.549809E-04 7.068971E+01 
 3.384986E-03 5.940402E+01  5.394869E-04 6.773120E+01  9.953820E-01 -2.030711E+01 
2.470938E+02  9.950235E-01 -3.905164E+01  2.019737E-03 6.030808E+01  3.317717E-03 6.022374E+01 
 2.022618E-03 6.030344E+01  9.950325E-01 -2.084974E+01  6.114194E-04 4.149545E+01 
 3.327286E-03 6.023389E+01  5.912505E-04 4.216130E+01  9.956579E-01 -2.056784E+01 
2.508125E+02  9.946227E-01 -3.961437E+01  1.992418E-03 5.873922E+01  3.360257E-03 5.871890E+01 
 1.977283E-03 5.927892E+01  9.956400E-01 -2.117060E+01  6.999855E-04 7.087547E+01 
 3.340917E-03 5.866026E+01  7.088974E-04 7.241156E+01  9.966201E-01 -2.085126E+01 
2.545312E+02  9.949936E-01 -4.020697E+01  2.354478E-03 5.430266E+01  3.774867E-03 5.673918E+01 
 2.332850E-03 5.457351E+01  9.953286E-01 -2.153950E+01  3.381812E-04 1.347183E+02 
 3.756762E-03 5.674118E+01  3.427322E-04 1.381612E+02  9.961553E-01 -2.120949E+01 
2.582500E+02  9.952224E-01 -4.074228E+01  2.019841E-03 6.042964E+01  3.365874E-03 5.725568E+01 
 2.011376E-03 6.016236E+01  9.958359E-01 -2.180749E+01  7.957785E-04 3.229172E+01 
 3.377437E-03 5.735277E+01  8.001183E-04 3.206001E+01  9.957349E-01 -2.150844E+01 
2.619688E+02  9.949695E-01 -4.132424E+01  2.298313E-03 5.802554E+01  3.558164E-03 5.887323E+01 
 2.305532E-03 5.793573E+01  9.960951E-01 -2.216804E+01  1.085845E-03 6.379317E+01 
 3.537561E-03 5.897470E+01  1.079136E-03 6.466095E+01  9.961921E-01 -2.178452E+01 
2.656875E+02  9.949024E-01 -4.184754E+01  2.138547E-03 5.599794E+01  3.808136E-03 5.723873E+01 
 2.128885E-03 5.613355E+01  9.958071E-01 -2.245456E+01  6.568939E-05 1.252874E+02 
 3.773442E-03 5.734677E+01  7.329063E-05 1.071368E+02  9.963364E-01 -2.211254E+01 
2.694062E+02  9.950552E-01 -4.236656E+01  2.213739E-03 5.285841E+01  3.632401E-03 5.853434E+01 
 2.211957E-03 5.247166E+01  9.944416E-01 -2.278357E+01  9.512951E-04 4.301938E+00 
 3.655948E-03 5.873073E+01  9.481540E-04 5.014354E+00  9.955632E-01 -2.238368E+01 
2.731250E+02  9.945072E-01 -4.292503E+01  1.800264E-03 5.185866E+01  3.317461E-03 5.430359E+01 
 1.782887E-03 5.184489E+01  9.966853E-01 -2.298478E+01  1.564630E-03 8.220444E+01 
 3.325116E-03 5.414521E+01  1.596858E-03 8.163296E+01  9.965940E-01 -2.259455E+01 
2.768438E+02  9.948063E-01 -4.347586E+01  2.222099E-03 5.461395E+01  3.655074E-03 5.549914E+01 
 2.219731E-03 5.393355E+01  9.965828E-01 -2.337571E+01  6.913054E-04 7.498495E+01 
 3.666587E-03 5.564597E+01  6.937594E-04 7.407040E+01  9.964105E-01 -2.297325E+01 
2.805625E+02  9.945550E-01 -4.399034E+01  2.103644E-03 5.555880E+01  3.665831E-03 5.400584E+01 
 2.107045E-03 5.508105E+01  9.964534E-01 -2.369121E+01  8.607426E-04 4.415705E+01 
 3.682546E-03 5.375461E+01  8.659544E-04 4.464314E+01  9.960802E-01 -2.331144E+01 
2.842812E+02  9.949311E-01 -4.459242E+01  2.260313E-03 5.571621E+01  3.670679E-03 5.610582E+01 
 2.247206E-03 5.536511E+01  9.970103E-01 -2.402175E+01  5.857026E-04 6.276937E+01 
 3.686237E-03 5.647967E+01  5.825102E-04 5.831678E+01  9.968987E-01 -2.358335E+01 
2.880000E+02  9.948174E-01 -4.512583E+01  2.196327E-03 5.424356E+01  3.812130E-03 5.462716E+01 
 2.210811E-03 5.345520E+01  9.970526E-01 -2.432446E+01  5.656731E-04 6.759471E+01 
 3.799666E-03 5.459669E+01  5.730167E-04 6.986221E+01  9.961740E-01 -2.395635E+01 
2.917188E+02  9.937295E-01 -4.564279E+01  2.216583E-03 5.149052E+01  3.850607E-03 5.391051E+01 
 2.225943E-03 5.103393E+01  9.962234E-01 -2.459176E+01  5.969888E-04 7.625437E+01 
 3.880041E-03 5.399628E+01  6.025908E-04 7.652916E+01  9.957700E-01 -2.420798E+01 
2.954375E+02  9.941892E-01 -4.614640E+01  2.108595E-03 5.011217E+01  3.696954E-03 5.234268E+01 
 2.082462E-03 4.939658E+01  9.972182E-01 -2.490520E+01  8.365926E-04 7.465248E+01 
 3.729742E-03 5.330326E+01  8.149352E-04 7.303098E+01  9.966149E-01 -2.449393E+01 
2.991562E+02  9.945117E-01 -4.669998E+01  2.318855E-03 5.445059E+01  3.771531E-03 5.457506E+01 
 2.307672E-03 5.367327E+01  9.973222E-01 -2.522365E+01  6.915805E-04 5.763259E+01 
 3.808582E-03 5.421249E+01  6.906055E-04 5.811482E+01  9.964483E-01 -2.480330E+01 
3.028750E+02  9.942064E-01 -4.725017E+01  2.615985E-03 5.091052E+01  3.753194E-03 5.576091E+01 
 2.581117E-03 5.105699E+01  9.968102E-01 -2.558322E+01  1.285281E-03 5.483387E+01 
 3.731144E-03 5.565482E+01  1.293531E-03 5.350775E+01  9.964618E-01 -2.515248E+01 
3.065938E+02  9.939851E-01 -4.773781E+01  2.132608E-03 4.096731E+01  3.749232E-03 4.185147E+01 
 2.162976E-03 4.085252E+01  9.971133E-01 -2.587339E+01  8.616080E-04 1.159504E+02 
 3.769995E-03 4.184870E+01  8.431865E-04 1.141270E+02  9.952151E-01 -2.541722E+01 
3.103125E+02  9.946492E-01 -4.826983E+01  2.272056E-03 4.981012E+01  4.118547E-03 5.244739E+01 
 2.263578E-03 5.008546E+01  9.967392E-01 -2.616399E+01  1.348288E-04 1.669634E+02 
 4.154340E-03 5.270076E+01  1.425936E-04 1.738712E+02  9.964840E-01 -2.574757E+01 
3.140312E+02  9.941870E-01 -4.887094E+01  2.264053E-03 5.236779E+01  4.065863E-03 5.220626E+01 
 2.270965E-03 5.267130E+01  9.969075E-01 -2.634143E+01  1.178074E-03 6.640350E+01 
 4.060573E-03 5.214423E+01  1.142944E-03 6.576859E+01  9.965670E-01 -2.606531E+01 
3.177500E+02  9.938923E-01 -4.932406E+01  2.392412E-03 4.531707E+01  4.062127E-03 4.787341E+01 
 2.388950E-03 4.541521E+01  9.959083E-01 -2.659017E+01  1.116527E-03 9.876827E+01 
 4.055757E-03 4.812671E+01  1.136748E-03 9.939644E+01  9.955178E-01 -2.625680E+01 
3.214688E+02  9.936846E-01 -4.987005E+01  2.499810E-03 5.279526E+01  3.940886E-03 5.123886E+01 
 2.492305E-03 5.252637E+01  9.974389E-01 -2.681098E+01  3.072141E-04 -3.961087E+01 
 3.955075E-03 5.120088E+01  3.208592E-04 -4.145526E+01  9.962969E-01 -2.653187E+01 
3.251875E+02  9.936426E-01 -5.041000E+01  2.586057E-03 4.976360E+01  4.023478E-03 5.164780E+01 
