! Matrix data file written by TouchstoneData, EPCOS AG
! FILENAME: "newformat_LY82C_01_NB.s3p"
! COMMENT: "(LY82C_01_NB.s3p) Epcos AG 10/11/2011 5:08:5"
! INFO: nport=3, nfreq=801
! DATE: "Wed Oct 12 11:08:33 2011"
! USER: "WeiLong Lin"
!
! port | pin | signal
! -----|-----|--------
!   1  |  1  |  in
!   2  |  2  |  out
!   3  |  4  |  out
! --------------------
! 
# MHZ S MA R 50
! freq  magS11 angS11  magS12 angS12  magS13 angS13  ...
1.940000E+03  9.555659E-01 -1.224449E+02  7.403597E-03 9.783313E+01  5.339588E-03 1.304928E+02 
 7.068817E-03 9.779090E+01  9.367023E-01 -8.493321E+01  4.222847E-02 4.365059E+01 
 5.224953E-03 1.306375E+02  4.214772E-02 4.359808E+01  9.405957E-01 -8.499053E+01 
1.940500E+03  9.550895E-01 -1.224970E+02  7.133495E-03 9.560098E+01  5.598569E-03 1.278737E+02 
 6.834508E-03 9.562346E+01  9.370636E-01 -8.498011E+01  4.208278E-02 4.369249E+01 
 5.515775E-03 1.277383E+02  4.211076E-02 4.363370E+01  9.406260E-01 -8.505810E+01 
1.941000E+03  9.548717E-01 -1.225273E+02  6.954463E-03 9.332483E+01  5.781797E-03 1.269010E+02 
 6.656410E-03 9.307826E+01  9.363763E-01 -8.500601E+01  4.299552E-02 4.412998E+01 
 5.705761E-03 1.267336E+02  4.301250E-02 4.412369E+01  9.397726E-01 -8.504417E+01 
1.941500E+03  9.551920E-01 -1.225700E+02  6.748543E-03 9.182637E+01  5.976792E-03 1.244323E+02 
 6.461813E-03 9.201574E+01  9.362662E-01 -8.501614E+01  4.348146E-02 4.350675E+01 
 5.879870E-03 1.243477E+02  4.348310E-02 4.339665E+01  9.404716E-01 -8.505275E+01 
1.942000E+03  9.552374E-01 -1.226160E+02  6.658429E-03 8.914394E+01  6.179366E-03 1.229896E+02 
 6.354108E-03 8.907778E+01  9.358135E-01 -8.503975E+01  4.366577E-02 4.358246E+01 
 6.087909E-03 1.230953E+02  4.370321E-02 4.349297E+01  9.405616E-01 -8.511232E+01 
1.942500E+03  9.553013E-01 -1.226696E+02  5.987680E-03 8.689886E+01  6.153657E-03 1.224314E+02 
 5.725309E-03 8.700427E+01  9.355134E-01 -8.508770E+01  4.456156E-02 4.331113E+01 
 6.058911E-03 1.222009E+02  4.463724E-02 4.323295E+01  9.399924E-01 -8.513499E+01 
1.943000E+03  9.555068E-01 -1.227281E+02  5.558768E-03 9.010708E+01  6.233377E-03 1.225630E+02 
 5.336026E-03 8.985821E+01  9.356870E-01 -8.510797E+01  4.489358E-02 4.194209E+01 
 6.162808E-03 1.226244E+02  4.491305E-02 4.190527E+01  9.402474E-01 -8.513661E+01 
1.943500E+03  9.554384E-01 -1.228043E+02  5.759072E-03 9.169685E+01  6.687681E-03 1.217779E+02 
 5.493960E-03 9.155796E+01  9.349111E-01 -8.514843E+01  4.511977E-02 4.146494E+01 
 6.573473E-03 1.216418E+02  4.518846E-02 4.134949E+01  9.400924E-01 -8.517531E+01 
1.944000E+03  9.552024E-01 -1.228625E+02  5.655563E-03 8.949341E+01  6.830471E-03 1.187915E+02 
 5.375442E-03 8.937454E+01  9.346994E-01 -8.511175E+01  4.516591E-02 4.045401E+01 
 6.716313E-03 1.189184E+02  4.510631E-02 4.041152E+01  9.398011E-01 -8.518863E+01 
1.944500E+03  9.555429E-01 -1.229238E+02  5.325558E-03 9.155556E+01  6.994939E-03 1.193632E+02 
 5.073274E-03 9.140610E+01  9.353241E-01 -8.513219E+01  4.476714E-02 4.009188E+01 
 6.909348E-03 1.193987E+02  4.478951E-02 4.002216E+01  9.400294E-01 -8.520845E+01 
1.945000E+03  9.550659E-01 -1.229956E+02  5.497781E-03 9.449626E+01  7.554141E-03 1.172251E+02 
 5.254994E-03 9.424437E+01  9.359858E-01 -8.515297E+01  4.469323E-02 3.983480E+01 
 7.454603E-03 1.173619E+02  4.460092E-02 3.971473E+01  9.401775E-01 -8.523563E+01 
1.945500E+03  9.550401E-01 -1.230120E+02  5.723270E-03 9.089758E+01  7.758533E-03 1.118201E+02 
 5.469238E-03 9.083646E+01  9.365753E-01 -8.518657E+01  4.487263E-02 3.963099E+01 
 7.634652E-03 1.120135E+02  4.485329E-02 3.964679E+01  9.407834E-01 -8.524839E+01 
1.946000E+03  9.555861E-01 -1.230777E+02  5.550384E-03 8.799480E+01  7.690748E-03 1.084553E+02 
 5.301470E-03 8.803439E+01  9.373743E-01 -8.522964E+01  4.470984E-02 3.899134E+01 
 7.602882E-03 1.084164E+02  4.462727E-02 3.887520E+01  9.410366E-01 -8.529837E+01 
1.946500E+03  9.549982E-01 -1.231430E+02  5.286420E-03 8.802107E+01  7.763139E-03 1.060713E+02 
 5.049178E-03 8.808225E+01  9.380003E-01 -8.530790E+01  4.435778E-02 3.929495E+01 
 7.644844E-03 1.061165E+02  4.436811E-02 3.916772E+01  9.413314E-01 -8.532700E+01 
1.947000E+03  9.548182E-01 -1.231505E+02  5.305846E-03 8.715755E+01  7.747563E-03 1.021704E+02 
 5.080023E-03 8.710830E+01  9.380048E-01 -8.537933E+01  4.483855E-02 3.926699E+01 
 7.603324E-03 1.021756E+02  4.482366E-02 3.921482E+01  9.415489E-01 -8.537389E+01 
1.947500E+03  9.552008E-01 -1.231826E+02  5.125497E-03 8.474408E+01  7.467692E-03 9.872822E+01 
 4.908791E-03 8.456261E+01  9.377929E-01 -8.544760E+01  4.491542E-02 3.894972E+01 
 7.379603E-03 9.884084E+01  4.490838E-02 3.883145E+01  9.418875E-01 -8.536582E+01 
1.948000E+03  9.559143E-01 -1.232352E+02  4.713317E-03 8.328521E+01  7.077318E-03 9.661451E+01 
 4.493989E-03 8.329139E+01  9.372049E-01 -8.548039E+01  4.533682E-02 3.861755E+01 
 6.949765E-03 9.647870E+01  4.531297E-02 3.861335E+01  9.425249E-01 -8.540593E+01 
1.948500E+03  9.561641E-01 -1.233083E+02  4.560622E-03 8.437438E+01  6.841148E-03 9.570904E+01 
 4.363843E-03 8.448877E+01  9.375297E-01 -8.547937E+01  4.556802E-02 3.749586E+01 
 6.727821E-03 9.563866E+01  4.555120E-02 3.749691E+01  9.432767E-01 -8.543686E+01 
1.949000E+03  9.561719E-01 -1.233842E+02  4.377947E-03 8.576451E+01  6.647946E-03 9.599226E+01 
 4.202505E-03 8.558573E+01  9.381315E-01 -8.553953E+01  4.533782E-02 3.667173E+01 
 6.543640E-03 9.575189E+01  4.528968E-02 3.658702E+01  9.441468E-01 -8.551147E+01 
1.949500E+03  9.564220E-01 -1.234420E+02  4.227592E-03 8.475222E+01  6.570043E-03 9.496595E+01 
 4.043079E-03 8.478533E+01  9.380598E-01 -8.557916E+01  4.500743E-02 3.586386E+01 
 6.465475E-03 9.503715E+01  4.494878E-02 3.583155E+01  9.443875E-01 -8.559159E+01 
1.950000E+03  9.564998E-01 -1.235201E+02  3.859804E-03 8.575900E+01  6.375104E-03 9.429260E+01 
 3.692008E-03 8.570925E+01  9.387553E-01 -8.562315E+01  4.452053E-02 3.533027E+01 
 6.278987E-03 9.441513E+01  4.439758E-02 3.531503E+01  9.447613E-01 -8.564716E+01 
1.950500E+03  9.565612E-01 -1.236050E+02  3.697736E-03 9.123363E+01  6.412526E-03 9.497271E+01 
 3.541656E-03 9.130927E+01  9.394246E-01 -8.567072E+01  4.389937E-02 3.497512E+01 
 6.322922E-03 9.513667E+01  4.387232E-02 3.490478E+01  9.452465E-01 -8.571070E+01 
1.951000E+03  9.561306E-01 -1.236712E+02  3.802684E-03 9.399851E+01  6.425500E-03 9.197961E+01 
 3.633649E-03 9.393821E+01  9.402289E-01 -8.573885E+01  4.341233E-02 3.489756E+01 
 6.349962E-03 9.214162E+01  4.337446E-02 3.491123E+01  9.454517E-01 -8.576905E+01 
1.951500E+03  9.560227E-01 -1.237169E+02  3.848801E-03 9.528831E+01  6.104260E-03 9.010391E+01 
 3.699347E-03 9.542382E+01  9.406293E-01 -8.582888E+01  4.302140E-02 3.486415E+01 
 6.005646E-03 9.017375E+01  4.299395E-02 3.478069E+01  9.460070E-01 -8.585055E+01 
1.952000E+03  9.567225E-01 -1.237833E+02  3.772383E-03 9.660081E+01  5.873710E-03 9.027093E+01 
 3.604459E-03 9.686802E+01  9.410152E-01 -8.589929E+01  4.258476E-02 3.473352E+01 
 5.818103E-03 9.002901E+01  4.251931E-02 3.463234E+01  9.457634E-01 -8.593539E+01 
1.952500E+03  9.567092E-01 -1.238552E+02  3.934638E-03 9.904380E+01  5.736862E-03 8.928550E+01 
 3.738502E-03 9.893087E+01  9.412169E-01 -8.598030E+01  4.215772E-02 3.507599E+01 
 5.636643E-03 8.924838E+01  4.211748E-02 3.488875E+01  9.457970E-01 -8.601986E+01 
1.953000E+03  9.570031E-01 -1.239446E+02  3.978103E-03 9.826153E+01  5.439498E-03 8.920729E+01 
 3.799374E-03 9.771177E+01  9.413876E-01 -8.606454E+01  4.202454E-02 3.492732E+01 
 5.377294E-03 8.943915E+01  4.199718E-02 3.490013E+01  9.458468E-01 -8.608832E+01 
1.953500E+03  9.568897E-01 -1.240283E+02  4.002890E-03 9.746563E+01  5.272681E-03 8.996833E+01 
 3.821167E-03 9.779473E+01  9.415546E-01 -8.614194E+01  4.166738E-02 3.491191E+01 
 5.175010E-03 9.021548E+01  4.169871E-02 3.483839E+01  9.461786E-01 -8.618664E+01 
1.954000E+03  9.570764E-01 -1.240993E+02  3.935769E-03 9.635458E+01  5.065274E-03 9.078676E+01 
 3.763180E-03 9.630442E+01  9.418690E-01 -8.621795E+01  4.130586E-02 3.486833E+01 
 5.003212E-03 9.073681E+01  4.131627E-02 3.471155E+01  9.460617E-01 -8.625747E+01 
1.954500E+03  9.572082E-01 -1.241771E+02  3.807348E-03 9.805068E+01  4.900129E-03 9.204971E+01 
 3.626128E-03 9.795114E+01  9.422802E-01 -8.630104E+01  4.095961E-02 3.490684E+01 
 4.824727E-03 9.193831E+01  4.085103E-02 3.493667E+01  9.468699E-01 -8.635203E+01 
1.955000E+03  9.570946E-01 -1.242572E+02  3.865671E-03 9.885317E+01  4.781261E-03 9.369680E+01 
 3.705210E-03 9.872745E+01  9.424858E-01 -8.641012E+01  4.067270E-02 3.499715E+01 
 4.728577E-03 9.422754E+01  4.059649E-02 3.502570E+01  9.472166E-01 -8.645314E+01 
1.955500E+03  9.571511E-01 -1.243286E+02  3.873841E-03 9.811491E+01  4.758071E-03 9.544736E+01 
 3.715247E-03 9.830713E+01  9.424604E-01 -8.649633E+01  4.020313E-02 3.532383E+01 
 4.674520E-03 9.565520E+01  4.016735E-02 3.515270E+01  9.475351E-01 -8.655795E+01 
1.956000E+03  9.572316E-01 -1.243637E+02  3.799193E-03 9.867733E+01  4.725336E-03 9.745450E+01 
 3.631031E-03 9.848980E+01  9.423533E-01 -8.656898E+01  3.988429E-02 3.568210E+01 
 4.660485E-03 9.751165E+01  3.983482E-02 3.560150E+01  9.476124E-01 -8.664674E+01 
1.956500E+03  9.574954E-01 -1.244484E+02  3.851765E-03 1.001659E+02  4.807063E-03 9.871555E+01 
 3.669200E-03 9.964589E+01  9.424618E-01 -8.663595E+01  3.956352E-02 3.629736E+01 
 4.730416E-03 9.861099E+01  3.955569E-02 3.618888E+01  9.477791E-01 -8.674633E+01 
1.957000E+03  9.575363E-01 -1.245306E+02  3.888044E-03 9.922138E+01  4.740690E-03 9.851717E+01 
 3.744021E-03 9.891290E+01  9.426325E-01 -8.673413E+01  3.953092E-02 3.660533E+01 
 4.688458E-03 9.875514E+01  3.947004E-02 3.664518E+01  9.475415E-01 -8.681544E+01 
1.957500E+03  9.572380E-01 -1.246128E+02  3.904692E-03 9.737984E+01  4.616522E-03 1.007226E+02 
 3.735675E-03 9.749768E+01  9.424592E-01 -8.684146E+01  3.941002E-02 3.695910E+01 
 4.556263E-03 1.006542E+02  3.932711E-02 3.703903E+01  9.472645E-01 -8.691031E+01 
1.958000E+03  9.569659E-01 -1.246729E+02  3.779979E-03 9.558585E+01  4.760741E-03 1.030764E+02 
 3.622984E-03 9.537719E+01  9.420336E-01 -8.692348E+01  3.928853E-02 3.726756E+01 
 4.687516E-03 1.031694E+02  3.931717E-02 3.739917E+01  9.467353E-01 -8.699417E+01 
1.958500E+03  9.569797E-01 -1.247483E+02  3.598757E-03 9.570472E+01  4.831416E-03 1.036915E+02 
 3.419983E-03 9.550125E+01  9.422045E-01 -8.702749E+01  3.919431E-02 3.760218E+01 
 4.732263E-03 1.037516E+02  3.913037E-02 3.773852E+01  9.462041E-01 -8.709762E+01 
1.959000E+03  9.568879E-01 -1.248461E+02  3.493244E-03 9.722974E+01  4.914578E-03 1.045917E+02 
 3.347704E-03 9.730967E+01  9.419738E-01 -8.713180E+01  3.977668E-02 3.797573E+01 
 4.863595E-03 1.046828E+02  3.907831E-02 3.787738E+01  9.457864E-01 -8.717618E+01 
1.959500E+03  9.567825E-01 -1.249244E+02  3.531169E-03 9.685201E+01  4.965649E-03 1.052168E+02 
 3.371119E-03 9.730681E+01  9.416593E-01 -8.724271E+01  3.902833E-02 3.810126E+01 
 4.872901E-03 1.055294E+02  3.893841E-02 3.802924E+01  9.453558E-01 -8.726354E+01 
1.960000E+03  9.567122E-01 -1.250015E+02  3.461110E-03 9.587579E+01  5.131051E-03 1.064491E+02 
 3.301995E-03 9.619202E+01  9.414227E-01 -8.733954E+01  3.881651E-02 3.864965E+01 
 5.031298E-03 1.065082E+02  3.881562E-02 3.854566E+01  9.444636E-01 -8.736577E+01 
1.960500E+03  9.568381E-01 -1.250739E+02  3.309946E-03 9.531787E+01  5.311174E-03 1.063770E+02 
 3.168691E-03 9.541428E+01  9.410396E-01 -8.742919E+01  3.881899E-02 3.894667E+01 
 5.219933E-03 1.065535E+02  3.875019E-02 3.892906E+01  9.436982E-01 -8.746635E+01 
1.961000E+03  9.569281E-01 -1.251751E+02  3.136854E-03 9.544668E+01  5.519520E-03 1.049417E+02 
 3.001169E-03 9.595792E+01  9.403541E-01 -8.752044E+01  3.870314E-02 3.926060E+01 
 5.425143E-03 1.052224E+02  3.862562E-02 3.926418E+01  9.432103E-01 -8.753524E+01 
1.961500E+03  9.566143E-01 -1.252588E+02  3.049483E-03 9.775176E+01  5.464914E-03 1.028975E+02 
 2.909897E-03 9.792455E+01  9.393914E-01 -8.761738E+01  3.864621E-02 3.969482E+01 
 5.381178E-03 1.027917E+02  3.862780E-02 3.966251E+01  9.426165E-01 -8.760708E+01 
1.962000E+03  9.565952E-01 -1.253352E+02  2.988355E-03 9.701629E+01  5.486972E-03 1.038992E+02 
 2.873935E-03 9.674357E+01  9.384607E-01 -8.768193E+01  3.878171E-02 4.005131E+01 
 5.413591E-03 1.041741E+02  3.871534E-02 4.000564E+01  9.418541E-01 -8.770827E+01 
1.962500E+03  9.567892E-01 -1.253949E+02  2.759655E-03 9.724416E+01  5.702258E-03 1.023437E+02 
 2.656920E-03 9.736679E+01  9.378399E-01 -8.775755E+01  3.876285E-02 4.032015E+01 
 5.605719E-03 1.023153E+02  3.869065E-02 4.021940E+01  9.410743E-01 -8.777377E+01 
1.963000E+03  9.567773E-01 -1.254810E+02  2.664084E-03 1.014833E+02  5.702166E-03 1.010361E+02 
 2.541872E-03 1.011337E+02  9.371345E-01 -8.785822E+01  3.875784E-02 4.058116E+01 
 5.644741E-03 1.010091E+02  3.876427E-02 4.053742E+01  9.406704E-01 -8.786848E+01 
1.963500E+03  9.568951E-01 -1.255676E+02  2.681805E-03 1.049425E+02  5.772821E-03 9.806109E+01 
 2.571578E-03 1.048197E+02  9.358218E-01 -8.791677E+01  3.890038E-02 4.067760E+01 
 5.682378E-03 9.814712E+01  3.889127E-02 4.064508E+01  9.392379E-01 -8.794718E+01 
1.964000E+03  9.568979E-01 -1.256482E+02  2.766997E-03 1.033912E+02  5.542891E-03 9.671419E+01 
 2.646706E-03 1.036638E+02  9.357823E-01 -8.795805E+01  3.895113E-02 4.053591E+01 
 5.446601E-03 9.688077E+01  3.886332E-02 4.037279E+01  9.386491E-01 -8.796666E+01 
1.964500E+03  9.570823E-01 -1.257334E+02  2.608908E-03 9.894917E+01  5.553022E-03 9.724911E+01 
 2.498462E-03 9.941032E+01  9.359704E-01 -8.806570E+01  3.869596E-02 4.062121E+01 
 5.463781E-03 9.742484E+01  3.868589E-02 4.061965E+01  9.382956E-01 -8.806690E+01 
1.965000E+03  9.569744E-01 -1.258238E+02  2.278675E-03 9.829855E+01  5.619015E-03 9.552881E+01 
 2.177301E-03 9.851739E+01  9.352835E-01 -8.818199E+01  3.846713E-02 4.039200E+01 
 5.537924E-03 9.583536E+01  3.842415E-02 4.039979E+01  9.375202E-01 -8.810835E+01 
1.965500E+03  9.567268E-01 -1.259028E+02  1.940519E-03 1.052350E+02  5.590957E-03 9.367280E+01 
 1.844072E-03 1.055152E+02  9.341279E-01 -8.828429E+01  3.797315E-02 4.063505E+01 
 5.498268E-03 9.387415E+01  3.797528E-02 4.065461E+01  9.373258E-01 -8.817862E+01 
1.966000E+03  9.565842E-01 -1.259574E+02  1.811815E-03 1.132545E+02  5.472351E-03 9.196133E+01 
 1.704058E-03 1.134826E+02  9.328934E-01 -8.834674E+01  3.758705E-02 4.107277E+01 
 5.379575E-03 9.187176E+01  3.766230E-02 4.119158E+01  9.362594E-01 -8.828112E+01 
1.966500E+03  9.563661E-01 -1.260302E+02  1.692850E-03 1.234095E+02  5.397602E-03 9.103933E+01 
 1.634219E-03 1.228960E+02  9.318702E-01 -8.841207E+01  3.719713E-02 4.144135E+01 
 5.341799E-03 9.148017E+01  3.723462E-02 4.130929E+01  9.353103E-01 -8.833365E+01 
1.967000E+03  9.566651E-01 -1.261081E+02  1.922326E-03 1.343090E+02  5.370990E-03 8.782774E+01 
 1.817152E-03 1.343834E+02  9.314977E-01 -8.846644E+01  3.645299E-02 4.265719E+01 
 5.260742E-03 8.787268E+01  3.647325E-02 4.260847E+01  9.348164E-01 -8.839462E+01 
1.967500E+03  9.566372E-01 -1.261893E+02  2.003243E-03 1.372981E+02  5.043953E-03 8.571997E+01 
 1.925144E-03 1.371854E+02  9.301861E-01 -8.857765E+01  3.651088E-02 4.464512E+01 
 4.967825E-03 8.579389E+01  3.648589E-02 4.469301E+01  9.339254E-01 -8.845728E+01 
1.968000E+03  9.559730E-01 -1.262851E+02  2.199173E-03 1.450306E+02  4.951088E-03 8.357929E+01 
 2.069894E-03 1.451379E+02  9.287800E-01 -8.860111E+01  3.664126E-02 4.542558E+01 
 4.882280E-03 8.360305E+01  3.665819E-02 4.543032E+01  9.325759E-01 -8.853798E+01 
1.968500E+03  9.560089E-01 -1.263556E+02  2.369666E-03 1.435640E+02  4.452078E-03 8.148259E+01 
 2.288995E-03 1.437133E+02  9.283691E-01 -8.864306E+01  3.705817E-02 4.730875E+01 
 4.384013E-03 8.144122E+01  3.694654E-02 4.725287E+01  9.310372E-01 -8.852739E+01 
1.969000E+03  9.559796E-01 -1.264458E+02  2.343661E-03 1.486447E+02  4.183310E-03 8.251278E+01 
 2.262713E-03 1.490608E+02  9.271667E-01 -8.869395E+01  3.803914E-02 4.811932E+01 
 4.136669E-03 8.256387E+01  3.798701E-02 4.806599E+01  9.299703E-01 -8.855526E+01 
1.969500E+03  9.558968E-01 -1.265536E+02  2.741468E-03 1.525640E+02  3.981943E-03 8.309591E+01 
 2.637034E-03 1.520598E+02  9.261981E-01 -8.870217E+01  3.872846E-02 4.791426E+01 
 3.932253E-03 8.335929E+01  3.863003E-02 4.795015E+01  9.285570E-01 -8.855035E+01 
1.970000E+03  9.559255E-01 -1.266590E+02  2.936031E-03 1.504577E+02  3.793667E-03 8.258915E+01 
 2.811993E-03 1.504833E+02  9.255974E-01 -8.873845E+01  3.908734E-02 4.761975E+01 
 3.732175E-03 8.267571E+01  3.903658E-02 4.774782E+01  9.289133E-01 -8.854309E+01 
1.970500E+03  9.560265E-01 -1.267274E+02  3.018324E-03 1.469093E+02  3.485069E-03 8.090434E+01 
 2.888102E-03 1.466640E+02  9.251345E-01 -8.877654E+01  3.897240E-02 4.772971E+01 
 3.468860E-03 8.136770E+01  3.894412E-02 4.775731E+01  9.279821E-01 -8.862003E+01 
1.971000E+03  9.560567E-01 -1.268141E+02  2.845810E-03 1.490724E+02  3.152500E-03 8.537987E+01 
 2.694742E-03 1.488907E+02  9.241275E-01 -8.883925E+01  3.911727E-02 4.770749E+01 
 3.109861E-03 8.558586E+01  3.903591E-02 4.790822E+01  9.273825E-01 -8.858761E+01 
1.971500E+03  9.560523E-01 -1.268974E+02  2.996359E-03 1.535031E+02  3.160827E-03 8.671592E+01 
 2.863461E-03 1.531443E+02  9.231406E-01 -8.882443E+01  3.876777E-02 4.832846E+01 
 3.125589E-03 8.688880E+01  3.863228E-02 4.831911E+01  9.276905E-01 -8.865727E+01 
1.972000E+03  9.557085E-01 -1.269940E+02  3.145719E-03 1.573747E+02  2.808997E-03 8.617878E+01 
 2.995595E-03 1.571146E+02  9.221543E-01 -8.883270E+01  3.897920E-02 4.903264E+01 
 2.793599E-03 8.589363E+01  3.892662E-02 4.908999E+01  9.262328E-01 -8.870200E+01 
1.972500E+03  9.553465E-01 -1.270572E+02  3.459887E-03 1.569284E+02  2.628491E-03 8.683078E+01 
 3.303192E-03 1.569105E+02  9.224869E-01 -8.883567E+01  3.837532E-02 4.916866E+01 
 2.569161E-03 8.712066E+01  3.829400E-02 4.924177E+01  9.261607E-01 -8.870910E+01 
1.973000E+03  9.553836E-01 -1.271233E+02  3.540427E-03 1.542705E+02  2.333241E-03 8.936783E+01 
 3.398213E-03 1.544805E+02  9.228276E-01 -8.891906E+01  3.802744E-02 5.169272E+01 
 2.289961E-03 8.944816E+01  3.796306E-02 5.167738E+01  9.257715E-01 -8.873402E+01 
1.973500E+03  9.555571E-01 -1.272075E+02  3.505785E-03 1.559618E+02  1.991859E-03 9.230768E+01 
 3.348818E-03 1.559432E+02  9.217702E-01 -8.899980E+01  3.910544E-02 5.325793E+01 
 1.959782E-03 9.271501E+01  3.915146E-02 5.319389E+01  9.259661E-01 -8.880557E+01 
1.974000E+03  9.556403E-01 -1.272897E+02  3.705989E-03 1.575356E+02  1.597482E-03 1.017209E+02 
 3.555300E-03 1.577184E+02  9.216053E-01 -8.901308E+01  3.988552E-02 5.467548E+01 
 1.565782E-03 1.019340E+02  3.985234E-02 5.464796E+01  9.246308E-01 -8.885394E+01 
1.974500E+03  9.554192E-01 -1.274120E+02  3.706071E-03 1.579242E+02  1.420194E-03 1.204941E+02 
 3.520945E-03 1.581422E+02  9.209912E-01 -8.910309E+01  4.144233E-02 5.586603E+01 
 1.374162E-03 1.209874E+02  4.144261E-02 5.581187E+01  9.239297E-01 -8.885741E+01 
1.975000E+03  9.549723E-01 -1.274930E+02  3.787254E-03 1.608555E+02  1.563668E-03 1.390692E+02 
 3.626033E-03 1.609620E+02  9.202141E-01 -8.912492E+01  4.266753E-02 5.608161E+01 
 1.523944E-03 1.392874E+02  4.264026E-02 5.601786E+01  9.225290E-01 -8.887471E+01 
1.975500E+03  9.548180E-01 -1.275917E+02  4.114387E-03 1.643700E+02  1.895440E-03 1.521649E+02 
 3.953998E-03 1.643675E+02  9.192103E-01 -8.912500E+01  4.456492E-02 5.577706E+01 
 1.858390E-03 1.521617E+02  4.456708E-02 5.577878E+01  9.222016E-01 -8.878607E+01 
1.976000E+03  9.549516E-01 -1.276893E+02  4.337261E-03 1.612156E+02  2.148257E-03 1.543776E+02 
 4.165384E-03 1.608812E+02  9.195114E-01 -8.915195E+01  4.464995E-02 5.443457E+01 
 2.124970E-03 1.548379E+02  4.463207E-02 5.442227E+01  9.231293E-01 -8.879563E+01 
1.976500E+03  9.545802E-01 -1.277888E+02  4.500715E-03 1.663262E+02  2.637936E-03 1.677607E+02 
 4.296202E-03 1.664232E+02  9.183064E-01 -8.917835E+01  4.612742E-02 5.560745E+01 
 2.594325E-03 1.677218E+02  4.619011E-02 5.560720E+01  9.217361E-01 -8.876689E+01 
1.977000E+03  9.542781E-01 -1.278637E+02  5.007243E-03 1.637806E+02  3.269412E-03 1.630317E+02 
