! Matrix data file written by TouchstoneData, EPCOS AG
! FILENAME: "B4305_Pcb01_WB.s3p_newformat"
! COMMENT: "(B4305_Pcb01_WB.s3p) Epcos AG 3/7/2011 2:08:"
! INFO: nport=3, nfreq=1601
! DATE: "Mon Apr 18 16:11:36 2011"
! USER: "Sergey Rostovtsev"
!
! port | pin | signal
! -----|-----|--------
!   1  |  1  |  in
!   2  |  3  |  out
!   3  |  4  |  out
! --------------------
! 
# MHZ S MA R 50
! freq  magS11 angS11  magS12 angS12  magS13 angS13  ...
5.000000E+01  9.964804E-01 -3.884051E+00  4.633218E-04 8.581197E+01  6.735413E-04 8.289340E+01 
 4.401284E-04 8.601445E+01  9.990205E-01 -2.604180E+00  3.723468E-03 8.301619E+01 
 6.706750E-04 8.788838E+01  3.644747E-03 8.300661E+01  9.989888E-01 -2.572321E+00 
5.371875E+01  9.957771E-01 -4.199375E+00  4.367073E-04 8.081043E+01  7.056232E-04 8.079536E+01 
 4.188787E-04 8.544551E+01  9.980423E-01 -2.843249E+00  4.530973E-03 8.233472E+01 
 6.399793E-04 8.217971E+01  4.460808E-03 8.304472E+01  9.983016E-01 -2.811421E+00 
5.743750E+01  9.971553E-01 -4.553535E+00  4.903896E-04 8.265318E+01  7.504757E-04 8.407425E+01 
 5.029804E-04 8.292130E+01  9.987846E-01 -3.041782E+00  4.399527E-03 8.667775E+01 
 7.276827E-04 8.548917E+01  4.405486E-03 8.634134E+01  9.989542E-01 -3.027906E+00 
6.115625E+01  9.963497E-01 -4.786915E+00  5.526117E-04 8.450771E+01  8.038646E-04 8.439301E+01 
 5.468589E-04 8.169849E+01  9.993425E-01 -3.175318E+00  4.612933E-03 8.518144E+01 
 8.445175E-04 8.419777E+01  4.624241E-03 8.546232E+01  9.985263E-01 -3.195038E+00 
6.487500E+01  9.967928E-01 -5.070600E+00  5.380582E-04 8.561070E+01  8.597325E-04 8.753126E+01 
 5.741575E-04 8.509261E+01  9.971043E-01 -3.352406E+00  5.273018E-03 8.224449E+01 
 8.384682E-04 8.535667E+01  5.263122E-03 8.232566E+01  9.986185E-01 -3.371325E+00 
6.859375E+01  9.970801E-01 -5.391934E+00  6.701118E-04 8.415407E+01  9.610597E-04 8.545264E+01 
 6.402616E-04 8.530627E+01  9.975267E-01 -3.636081E+00  5.056529E-03 8.842911E+01 
 9.426117E-04 8.518161E+01  5.040676E-03 8.871721E+01  9.979412E-01 -3.607827E+00 
7.231250E+01  9.968123E-01 -5.662175E+00  6.507990E-04 8.515269E+01  9.506970E-04 8.520609E+01 
 6.597564E-04 8.480276E+01  9.975678E-01 -3.795020E+00  5.350010E-03 8.482172E+01 
 9.574228E-04 8.579443E+01  5.342156E-03 8.502405E+01  9.982481E-01 -3.766595E+00 
7.603125E+01  9.965708E-01 -5.892151E+00  6.866696E-04 8.412419E+01  1.009885E-03 8.557787E+01 
 6.947403E-04 8.408019E+01  9.980719E-01 -3.948935E+00  6.123026E-03 8.421312E+01 
 1.001819E-03 8.455089E+01  6.113220E-03 8.461876E+01  9.979958E-01 -3.868650E+00 
7.975000E+01  9.962407E-01 -6.195637E+00  7.304469E-04 8.153986E+01  1.067619E-03 8.294834E+01 
 7.441869E-04 8.079730E+01  9.981030E-01 -4.094892E+00  6.087955E-03 8.469919E+01 
 1.023582E-03 8.257376E+01  6.067625E-03 8.470881E+01  9.980961E-01 -4.068580E+00 
8.346875E+01  9.965901E-01 -6.489584E+00  7.369618E-04 8.058504E+01  1.092360E-03 8.304206E+01 
 7.258542E-04 8.010045E+01  9.970425E-01 -4.275085E+00  6.028087E-03 8.219896E+01 
 1.075710E-03 8.361186E+01  5.987579E-03 8.235803E+01  9.980970E-01 -4.236327E+00 
8.718750E+01  9.966846E-01 -6.773905E+00  7.592143E-04 8.556986E+01  1.185751E-03 8.486223E+01 
 7.569199E-04 8.633748E+01  9.976123E-01 -4.452341E+00  6.517419E-03 8.438884E+01 
 1.150776E-03 8.491489E+01  6.473525E-03 8.426323E+01  9.974643E-01 -4.436715E+00 
9.090625E+01  9.960070E-01 -7.103863E+00  7.987160E-04 8.242118E+01  1.164570E-03 7.986578E+01 
 7.912645E-04 8.139972E+01  9.973740E-01 -4.604355E+00  6.809583E-03 8.343381E+01 
 1.145463E-03 8.154890E+01  6.832766E-03 8.374903E+01  9.977076E-01 -4.628790E+00 
9.462500E+01  9.969201E-01 -7.367320E+00  7.847192E-04 8.566002E+01  1.256241E-03 8.461821E+01 
 7.964001E-04 8.430245E+01  9.963712E-01 -4.841412E+00  6.843393E-03 7.627218E+01 
 1.263535E-03 8.471934E+01  6.844123E-03 7.647327E+01  9.970410E-01 -4.750216E+00 
9.834375E+01  9.952685E-01 -7.664991E+00  1.013316E-03 8.182347E+01  1.398454E-03 8.331040E+01 
 1.011535E-03 8.275482E+01  9.965103E-01 -5.026082E+00  7.211313E-03 8.076113E+01 
 1.405577E-03 8.347722E+01  7.205414E-03 8.113310E+01  9.973380E-01 -4.918438E+00 
1.020625E+02  9.960358E-01 -7.931017E+00  9.144701E-04 8.194998E+01  1.336038E-03 8.352900E+01 
 9.121387E-04 8.123127E+01  9.962722E-01 -5.204583E+00  7.510665E-03 8.270943E+01 
 1.331639E-03 8.282041E+01  7.511734E-03 8.284852E+01  9.976891E-01 -5.126881E+00 
1.057812E+02  9.965879E-01 -8.237732E+00  9.563347E-04 8.222727E+01  1.433155E-03 8.445740E+01 
 9.706717E-04 8.214826E+01  9.960596E-01 -5.394969E+00  7.948602E-03 7.936586E+01 
 1.417939E-03 8.452843E+01  7.919989E-03 7.950116E+01  9.970290E-01 -5.291597E+00 
1.095000E+02  9.960807E-01 -8.500006E+00  1.000370E-03 8.112102E+01  1.454052E-03 8.253431E+01 
 9.783476E-04 8.263624E+01  9.940474E-01 -5.793105E+00  8.039540E-03 8.226473E+01 
 1.421001E-03 8.371904E+01  8.022743E-03 8.278041E+01  9.973919E-01 -5.490619E+00 
1.132188E+02  9.960250E-01 -8.839381E+00  1.104052E-03 8.230077E+01  1.546766E-03 8.256521E+01 
 1.050653E-03 8.222244E+01  9.937916E-01 -5.972520E+00  8.519169E-03 8.296105E+01 
 1.527088E-03 8.234982E+01  8.524102E-03 8.330658E+01  9.983008E-01 -5.695203E+00 
1.169375E+02  9.950762E-01 -9.125683E+00  1.064431E-03 8.247424E+01  1.542375E-03 8.032454E+01 
 1.064921E-03 8.146322E+01  9.937007E-01 -6.251103E+00  8.938165E-03 8.032101E+01 
 1.546737E-03 8.010037E+01  8.924084E-03 8.033571E+01  9.981580E-01 -5.896816E+00 
1.206562E+02  9.955117E-01 -9.375817E+00  9.715695E-04 8.042013E+01  1.536252E-03 8.024660E+01 
 9.740037E-04 7.833367E+01  9.940671E-01 -6.390510E+00  9.051455E-03 8.246453E+01 
 1.535077E-03 8.091413E+01  9.003061E-03 8.270278E+01  9.984749E-01 -6.102557E+00 
1.243750E+02  9.959401E-01 -9.711630E+00  1.139642E-03 7.723863E+01  1.666365E-03 7.873090E+01 
 1.154770E-03 7.711390E+01  9.937240E-01 -6.478228E+00  8.880213E-03 8.054786E+01 
 1.691192E-03 7.826202E+01  8.870057E-03 8.066683E+01  9.990108E-01 -6.201833E+00 
1.280938E+02  9.955398E-01 -9.921110E+00  1.112837E-03 8.108775E+01  1.675013E-03 8.026124E+01 
 1.080914E-03 8.144126E+01  9.936951E-01 -6.753954E+00  9.737470E-03 8.132266E+01 
 1.668742E-03 8.053090E+01  9.708716E-03 8.161090E+01  9.991824E-01 -6.441315E+00 
1.318125E+02  9.953311E-01 -1.022016E+01  1.001347E-03 7.852613E+01  1.593664E-03 7.897702E+01 
 1.004667E-03 7.658798E+01  9.947195E-01 -7.032657E+00  9.997724E-03 8.229978E+01 
 1.567049E-03 7.912187E+01  1.004273E-02 8.263789E+01  9.995931E-01 -6.599356E+00 
1.355312E+02  9.958203E-01 -1.050997E+01  1.134274E-03 8.207850E+01  1.757051E-03 8.084108E+01 
 1.148611E-03 8.072440E+01  9.954373E-01 -7.120787E+00  9.755759E-03 8.129368E+01 
 1.732685E-03 8.160517E+01  9.725368E-03 8.143262E+01  1.001243E+00 -6.741216E+00 
1.392500E+02  9.963901E-01 -1.082086E+01  1.204827E-03 8.201420E+01  1.791077E-03 8.275252E+01 
 1.254552E-03 7.960554E+01  9.960281E-01 -7.345590E+00  1.038639E-02 8.164053E+01 
 1.823978E-03 8.297272E+01  1.037055E-02 8.187496E+01  1.001647E+00 -7.006562E+00 
1.429688E+02  9.970141E-01 -1.110765E+01  1.232950E-03 8.103890E+01  1.844017E-03 8.094057E+01 
 1.231158E-03 8.196677E+01  9.953289E-01 -7.577629E+00  1.072378E-02 8.183024E+01 
 1.832067E-03 8.085558E+01  1.069845E-02 8.215808E+01  1.002040E+00 -7.200801E+00 
1.466875E+02  9.959276E-01 -1.140303E+01  1.361902E-03 7.998810E+01  2.012982E-03 8.121290E+01 
 1.374452E-03 8.025109E+01  9.948926E-01 -7.754981E+00  1.084664E-02 8.114789E+01 
 2.033144E-03 8.051617E+01  1.083813E-02 8.119477E+01  1.001221E+00 -7.360189E+00 
1.504062E+02  9.965252E-01 -1.164126E+01  1.366789E-03 8.150660E+01  1.985217E-03 8.067033E+01 
 1.356894E-03 8.102900E+01  9.956037E-01 -7.887708E+00  1.149576E-02 8.079967E+01 
 1.978305E-03 8.172077E+01  1.147386E-02 8.101235E+01  1.002304E+00 -7.508907E+00 
1.541250E+02  9.965252E-01 -1.164126E+01  1.366789E-03 8.150660E+01  1.985217E-03 8.067033E+01 
 1.356894E-03 8.102900E+01  9.956037E-01 -7.887708E+00  1.149576E-02 8.079967E+01 
 1.978305E-03 8.172077E+01  1.147386E-02 8.101235E+01  1.002304E+00 -7.508907E+00 
1.578438E+02  9.965252E-01 -1.164126E+01  1.366789E-03 8.150660E+01  1.985217E-03 8.067033E+01 
 1.356894E-03 8.102900E+01  9.956037E-01 -7.887708E+00  1.149576E-02 8.079967E+01 
 1.978305E-03 8.172077E+01  1.147386E-02 8.101235E+01  1.002304E+00 -7.508907E+00 
1.615625E+02 9.958984E-01 -1.336671E+01  1.484453E-03 7.831165E+01  2.253708E-03 7.854338E+01 
 1.465560E-03 7.814799E+01  9.951896E-01 -8.952705E+00  1.287557E-02 7.990546E+01 
 2.210551E-03 7.912777E+01  1.281684E-02 8.018827E+01  1.002071E+00 -8.656481E+00 
1.652812E+02  9.958984E-01 -1.336671E+01  1.484453E-03 7.831165E+01  2.253708E-03 7.854338E+01 
 1.465560E-03 7.814799E+01  9.951896E-01 -8.952705E+00  1.287557E-02 7.990546E+01 
 2.210551E-03 7.912777E+01  1.281684E-02 8.018827E+01  1.002071E+00 -8.656481E+00 
1.690000E+02  9.958984E-01 -1.336671E+01  1.484453E-03 7.831165E+01  2.253708E-03 7.854338E+01 
 1.465560E-03 7.814799E+01  9.951896E-01 -8.952705E+00  1.287557E-02 7.990546E+01 
 2.210551E-03 7.912777E+01  1.281684E-02 8.018827E+01  1.002071E+00 -8.656481E+00 
1.727188E+02  9.958984E-01 -1.336671E+01  1.484453E-03 7.831165E+01  2.253708E-03 7.854338E+01 
 1.465560E-03 7.814799E+01  9.951896E-01 -8.952705E+00  1.287557E-02 7.990546E+01 
 2.210551E-03 7.912777E+01  1.281684E-02 8.018827E+01  1.002071E+00 -8.656481E+00 
1.764375E+02  9.963527E-01 -1.448253E+01  1.691684E-03 7.341488E+01  2.550620E-03 7.589792E+01 
 1.684110E-03 7.303561E+01  9.961243E-01 -9.691641E+00  1.380737E-02 7.986945E+01 
 2.504038E-03 7.619664E+01  1.378034E-02 8.005145E+01  1.002261E+00 -9.460961E+00
1.801562E+02 9.963527E-01 -1.448253E+01  1.691684E-03 7.341488E+01  2.550620E-03 7.589792E+01 
 1.684110E-03 7.303561E+01  9.961243E-01 -9.691641E+00  1.380737E-02 7.986945E+01 
 2.504038E-03 7.619664E+01  1.378034E-02 8.005145E+01  1.002261E+00 -9.460961E+00
1.838750E+02  9.963527E-01 -1.448253E+01  1.691684E-03 7.341488E+01  2.550620E-03 7.589792E+01 
 1.684110E-03 7.303561E+01  9.961243E-01 -9.691641E+00  1.380737E-02 7.986945E+01 
 2.504038E-03 7.619664E+01  1.378034E-02 8.005145E+01  1.002261E+00 -9.460961E+00
1.875938E+02  9.963527E-01 -1.448253E+01  1.691684E-03 7.341488E+01  2.550620E-03 7.589792E+01 
 1.684110E-03 7.303561E+01  9.961243E-01 -9.691641E+00  1.380737E-02 7.986945E+01 
 2.504038E-03 7.619664E+01  1.378034E-02 8.005145E+01  1.002261E+00 -9.460961E+00 
1.913125E+02  9.967407E-01 -1.479335E+01  1.767243E-03 7.628347E+01  2.572317E-03 7.719022E+01 
 1.743328E-03 7.705028E+01  9.957331E-01 -9.879714E+00  1.385618E-02 7.715309E+01 
 2.560740E-03 7.852181E+01  1.389224E-02 7.737324E+01  1.001564E+00 -9.656942E+00 
1.950312E+02  9.945563E-01 -1.501723E+01  1.718233E-03 7.415439E+01  2.482933E-03 7.496800E+01 
 1.752338E-03 7.430007E+01  9.941677E-01 -1.002371E+01  1.455240E-02 7.858079E+01 
 2.508553E-03 7.470556E+01  1.451393E-02 7.876848E+01  9.992858E-01 -9.897470E+00 
1.987500E+02  9.950959E-01 -1.531126E+01  1.634200E-03 7.400504E+01  2.567664E-03 7.242118E+01 
 1.613951E-03 7.355861E+01  9.952219E-01 -1.019579E+01  1.476646E-02 7.885889E+01 
 2.554153E-03 7.213581E+01  1.469475E-02 7.911584E+01  9.998623E-01 -1.002001E+01 
2.024688E+02  9.952348E-01 -1.552394E+01  1.623617E-03 7.561208E+01  2.581732E-03 7.668907E+01 
 1.646373E-03 7.479029E+01  9.943290E-01 -1.044276E+01  1.546562E-02 7.611107E+01 
 2.525015E-03 7.628515E+01  1.541966E-02 7.627424E+01  9.998200E-01 -1.021324E+01 
2.061875E+02  9.951141E-01 -1.575732E+01  1.722885E-03 7.788292E+01  2.469999E-03 7.646169E+01 
 1.724774E-03 7.803054E+01  9.947777E-01 -1.054676E+01  1.504274E-02 7.775928E+01 
 2.456168E-03 7.703650E+01  1.503054E-02 7.803255E+01  9.998165E-01 -1.040132E+01 
2.099062E+02  9.955187E-01 -1.609551E+01  1.719771E-03 7.873726E+01  2.717255E-03 7.647688E+01 
 1.721496E-03 7.802838E+01  9.953726E-01 -1.068394E+01  1.519247E-02 7.788978E+01 
 2.693532E-03 7.572863E+01  1.515820E-02 7.801164E+01  1.000231E+00 -1.054585E+01 
2.136250E+02  9.949805E-01 -1.633428E+01  1.824757E-03 7.517391E+01  2.735126E-03 7.646925E+01 
 1.822184E-03 7.580554E+01  9.942246E-01 -1.091610E+01  1.614208E-02 7.768703E+01 
 2.711614E-03 7.636971E+01  1.606568E-02 7.810388E+01  9.998080E-01 -1.081024E+01 
2.173438E+02  9.950861E-01 -1.668563E+01  1.909063E-03 7.685025E+01  2.775543E-03 7.647709E+01 
 1.933368E-03 7.746942E+01  9.934408E-01 -1.112412E+01  1.595032E-02 7.611748E+01 
 2.779248E-03 7.650031E+01  1.586942E-02 7.631192E+01  9.977847E-01 -1.098741E+01 
2.210625E+02  9.941719E-01 -1.685703E+01  1.870970E-03 7.615009E+01  2.795269E-03 7.614130E+01 
 1.834364E-03 7.658097E+01  9.936506E-01 -1.122496E+01  1.606644E-02 7.741087E+01 
 2.794028E-03 7.670590E+01  1.603396E-02 7.756546E+01  9.972790E-01 -1.107215E+01 
2.247812E+02  9.949064E-01 -1.714006E+01  1.874419E-03 7.712016E+01  2.824650E-03 7.626549E+01 
 1.869316E-03 7.652088E+01  9.944084E-01 -1.138319E+01  1.652075E-02 7.678305E+01 
 2.789007E-03 7.622517E+01  1.647678E-02 7.705308E+01  9.976057E-01 -1.121499E+01 
2.285000E+02  9.957433E-01 -1.740680E+01  1.939865E-03 7.749828E+01  2.931706E-03 7.683864E+01 
 1.923071E-03 7.666862E+01  9.938373E-01 -1.152793E+01  1.649083E-02 7.608540E+01 
 2.910895E-03 7.650716E+01  1.645344E-02 7.637330E+01  9.969963E-01 -1.143527E+01 
2.322188E+02  9.944489E-01 -1.767914E+01  1.972082E-03 7.662355E+01  2.945410E-03 7.603250E+01 
 1.978856E-03 7.572126E+01  9.936898E-01 -1.166145E+01  1.643128E-02 7.688073E+01 
 2.897506E-03 7.532739E+01  1.637427E-02 7.708388E+01  9.968689E-01 -1.158236E+01 
2.359375E+02  9.948309E-01 -1.791944E+01  2.009338E-03 7.631652E+01  3.003484E-03 7.533620E+01 
 2.002260E-03 7.596713E+01  9.943215E-01 -1.190117E+01  1.733989E-02 7.696173E+01 
 3.007921E-03 7.563159E+01  1.731351E-02 7.718911E+01  9.967349E-01 -1.174751E+01 
2.396562E+02  9.946975E-01 -1.823154E+01  2.089842E-03 7.611337E+01  3.064654E-03 7.517871E+01 
 2.098690E-03 7.559530E+01  9.943805E-01 -1.211695E+01  1.764543E-02 7.628516E+01 
 3.074500E-03 7.557634E+01  1.759291E-02 7.650098E+01  9.957780E-01 -1.193256E+01 
2.433750E+02  9.937309E-01 -1.848138E+01  2.104060E-03 7.412891E+01  3.153343E-03 7.462846E+01 
 2.117698E-03 7.430441E+01  9.926081E-01 -1.225967E+01  1.761244E-02 7.543344E+01 
 3.151883E-03 7.436723E+01  1.756132E-02 7.561103E+01  9.956636E-01 -1.213904E+01 
2.470938E+02  9.949421E-01 -1.871828E+01  2.161610E-03 7.508584E+01  3.138364E-03 7.493676E+01 
 2.147660E-03 7.464980E+01  9.934384E-01 -1.232882E+01  1.796036E-02 7.645631E+01 
 3.110904E-03 7.515364E+01  1.792004E-02 7.657902E+01  9.965485E-01 -1.226254E+01 
2.508125E+02  9.951401E-01 -1.900164E+01  2.158708E-03 7.543778E+01  3.200294E-03 7.397010E+01 
 2.159496E-03 7.490999E+01  9.941375E-01 -1.254728E+01  1.827531E-02 7.592736E+01 
 3.183732E-03 7.364517E+01  1.824819E-02 7.608972E+01  9.960639E-01 -1.241396E+01 
2.545312E+02  9.957108E-01 -1.928712E+01  2.227488E-03 7.570904E+01  3.299267E-03 7.505924E+01 
 2.209341E-03 7.563941E+01  9.941738E-01 -1.274782E+01  1.835117E-02 7.565158E+01 
 3.301140E-03 7.500486E+01  1.832062E-02 7.596003E+01  9.964683E-01 -1.265834E+01 
2.582500E+02  9.952147E-01 -1.953752E+01  2.224994E-03 7.456859E+01  3.259209E-03 7.510149E+01 
 2.242551E-03 7.451485E+01  9.952728E-01 -1.292949E+01  1.897118E-02 7.599347E+01 
 3.235071E-03 7.468005E+01  1.895466E-02 7.620100E+01  9.963653E-01 -1.278723E+01 
2.619688E+02  9.961148E-01 -1.984858E+01  2.303365E-03 7.516650E+01  3.383700E-03 7.460289E+01 
 2.296632E-03 7.453659E+01  9.948878E-01 -1.313867E+01  1.901839E-02 7.510636E+01 
 3.373603E-03 7.482061E+01  1.893494E-02 7.529988E+01  9.962317E-01 -1.298207E+01 
2.656875E+02  9.959190E-01 -2.013251E+01  2.470194E-03 7.375400E+01  3.416966E-03 7.379602E+01 
 2.481790E-03 7.299324E+01  9.949695E-01 -1.334895E+01  1.919612E-02 7.524520E+01 
 3.411416E-03 7.402041E+01  1.914667E-02 7.534783E+01  9.962793E-01 -1.319268E+01 
2.694062E+02  9.952824E-01 -2.037063E+01  2.349683E-03 7.228967E+01  3.687582E-03 7.132581E+01 
 2.358756E-03 7.329657E+01  9.951314E-01 -1.346339E+01  1.967142E-02 7.510415E+01 
 3.687355E-03 7.139850E+01  1.959222E-02 7.545810E+01  9.953674E-01 -1.336023E+01 
2.731250E+02  9.951640E-01 -2.058564E+01  2.336134E-03 6.026661E+01  3.576598E-03 7.154308E+01 
 2.319961E-03 6.041291E+01  9.951361E-01 -1.357778E+01  1.965265E-02 7.426963E+01 
 3.563559E-03 7.136759E+01  1.960992E-02 7.457474E+01  9.962229E-01 -1.347324E+01 
2.768438E+02  9.962521E-01 -2.089013E+01  2.517056E-03 7.134663E+01  3.513297E-03 7.095695E+01 
 2.510214E-03 7.107080E+01  9.959501E-01 -1.372811E+01  1.956270E-02 7.410603E+01 
 3.492307E-03 7.090929E+01  1.950094E-02 7.426733E+01  9.958476E-01 -1.368245E+01 
2.805625E+02  9.964048E-01 -2.116767E+01  2.225218E-03 7.035365E+01  3.554895E-03 7.076713E+01 
 2.239467E-03 6.965990E+01  9.965747E-01 -1.394162E+01  2.017642E-02 7.561904E+01 
 3.513932E-03 7.080292E+01  2.014112E-02 7.588970E+01  9.972045E-01 -1.391600E+01 
2.842812E+02  9.959693E-01 -2.144030E+01  2.264412E-03 6.691128E+01  3.483363E-03 6.731428E+01 
 2.253288E-03 6.669063E+01  9.968342E-01 -1.413263E+01  2.097466E-02 7.508004E+01 
 3.489650E-03 6.709460E+01  2.090677E-02 7.523731E+01  9.975093E-01 -1.415318E+01 
2.880000E+02  9.967141E-01 -2.169821E+01  2.231010E-03 7.238449E+01  3.541136E-03 7.227265E+01 
 2.263163E-03 7.266886E+01  9.959745E-01 -1.431515E+01  2.120406E-02 7.358527E+01 
 3.538884E-03 7.230190E+01  2.109560E-02 7.361972E+01  9.974381E-01 -1.432508E+01 
2.917188E+02  9.959023E-01 -2.199782E+01  2.401024E-03 7.125291E+01  3.589207E-03 7.122639E+01 
 2.400989E-03 7.109182E+01  9.967353E-01 -1.433566E+01  2.115209E-02 7.430000E+01 
 3.584736E-03 7.115305E+01  2.109637E-02 7.437083E+01  9.968483E-01 -1.453841E+01 
2.954375E+02  9.959646E-01 -2.224115E+01  2.370310E-03 7.208605E+01  3.642332E-03 7.073055E+01 
 2.341340E-03 7.114770E+01  9.973211E-01 -1.448987E+01  2.141302E-02 7.404575E+01 
 3.601313E-03 7.126019E+01  2.133944E-02 7.401951E+01  9.972104E-01 -1.468836E+01 
2.991562E+02  9.961276E-01 -2.250899E+01  2.417879E-03 7.233804E+01  3.632370E-03 7.166832E+01 
 2.366839E-03 7.281195E+01  9.978328E-01 -1.469087E+01  2.203112E-02 7.392803E+01 
 3.659800E-03 7.204595E+01  2.198248E-02 7.394857E+01  9.971399E-01 -1.491676E+01 
3.028750E+02  9.961444E-01 -2.281690E+01  2.491816E-03 7.179896E+01  3.778064E-03 7.189043E+01 
 2.476902E-03 7.132878E+01  9.980623E-01 -1.484663E+01  2.140792E-02 7.387121E+01 
 3.723722E-03 7.108746E+01  2.129256E-02 7.397557E+01  9.978421E-01 -1.506945E+01 
3.065938E+02  9.961844E-01 -2.312465E+01  2.494362E-03 7.301521E+01  3.818741E-03 7.177884E+01 
 2.519321E-03 7.359711E+01  9.984549E-01 -1.505374E+01  2.206716E-02 7.376410E+01 
 3.770208E-03 7.178630E+01  2.198491E-02 7.374594E+01  9.988752E-01 -1.532132E+01 
3.103125E+02  9.965327E-01 -2.336788E+01  2.571291E-03 7.314979E+01  3.888825E-03 7.166649E+01 
 2.592273E-03 7.255738E+01  9.987262E-01 -1.523492E+01  2.250041E-02 7.371613E+01 
 3.915114E-03 7.125926E+01  2.239290E-02 7.373036E+01  9.979513E-01 -1.554203E+01 
3.140312E+02  9.959471E-01 -2.367364E+01  2.624272E-03 7.082301E+01  3.931722E-03 7.107609E+01 
 2.639608E-03 7.135217E+01  9.977736E-01 -1.549401E+01  2.284699E-02 7.257196E+01 
 3.937581E-03 7.117969E+01  2.273394E-02 7.257270E+01  9.980896E-01 -1.570048E+01 
3.177500E+02  9.952970E-01 -2.391550E+01  2.706893E-03 6.907134E+01  4.038663E-03 6.956645E+01 
 2.714959E-03 6.896624E+01  9.975798E-01 -1.561039E+01  2.283823E-02 7.254771E+01 
 4.030456E-03 6.989082E+01  2.275134E-02 7.259973E+01  9.978281E-01 -1.587749E+01 
3.214688E+02  9.953673E-01 -2.418037E+01  2.618395E-03 7.036345E+01  3.988002E-03 6.958379E+01 
 2.629018E-03 6.974790E+01  9.977097E-01 -1.573326E+01  2.311545E-02 7.292324E+01 
 3.950985E-03 6.951642E+01  2.304121E-02 7.298765E+01  9.984095E-01 -1.603556E+01 
3.251875E+02  9.955098E-01 -2.447929E+01  2.649513E-03 7.038501E+01  3.992609E-03 7.015008E+01 
