! Matrix data file written by TouchstoneData, EPCOS AG
! FILENAME: "PLI.LY35A_NB.snp"
! COMMENT: "(LY35A_6_NB.s2p) EPCOS AG 19.03.2010 16:51:4"
! INFO: nport=2, nfreq=1601
! DATE: "Mon Jul 12 09:51:15 2010"
! USER: "Michael Schemies"
!
! port | pin | signal
! -----|-----|--------
!   1  |  1  |  in
!   2  |  4  |  out
! --------------------
! 
# MHZ S MA R 50
! freq  magS11 angS11  magS21 angS21  magS12 angS12  magS22 angS22
7.165000E+02  9.729352E-01 -6.078417E+01  3.735782E-03 2.479699E+01  3.738109E-03 2.457833E+01  9.474558E-01 -8.091736E+01 
7.167500E+02  9.722125E-01 -6.076844E+01  3.739564E-03 2.296795E+01  3.696488E-03 2.277166E+01  9.470815E-01 -8.095949E+01 
7.170000E+02  9.725425E-01 -6.076857E+01  3.774237E-03 2.430851E+01  3.775607E-03 2.393865E+01  9.463224E-01 -8.097964E+01 
7.172500E+02  9.727994E-01 -6.079684E+01  3.851019E-03 2.272185E+01  3.860656E-03 2.303647E+01  9.462124E-01 -8.096690E+01 
7.175000E+02  9.726515E-01 -6.082989E+01  3.853446E-03 2.022158E+01  3.833618E-03 2.045170E+01  9.462197E-01 -8.099445E+01 
7.177500E+02  9.725434E-01 -6.086598E+01  3.798217E-03 1.987836E+01  3.797204E-03 1.992371E+01  9.466209E-01 -8.102959E+01 
7.180000E+02  9.724608E-01 -6.089229E+01  3.824688E-03 1.965210E+01  3.789622E-03 1.910069E+01  9.460117E-01 -8.106966E+01 
7.182500E+02  9.722980E-01 -6.092330E+01  3.740242E-03 1.929356E+01  3.720028E-03 1.890497E+01  9.457240E-01 -8.105367E+01 
7.185000E+02  9.719905E-01 -6.095109E+01  3.730903E-03 1.860575E+01  3.709510E-03 1.910755E+01  9.464691E-01 -8.109304E+01 
7.187500E+02  9.717694E-01 -6.096540E+01  3.723166E-03 1.912130E+01  3.722040E-03 1.912928E+01  9.459370E-01 -8.115020E+01 
7.190000E+02  9.719893E-01 -6.097765E+01  3.678047E-03 1.876082E+01  3.675265E-03 1.889153E+01  9.453872E-01 -8.113779E+01 
7.192500E+02  9.720657E-01 -6.101053E+01  3.695574E-03 1.894303E+01  3.665616E-03 1.807675E+01  9.453641E-01 -8.114178E+01 
7.195000E+02  9.717608E-01 -6.106256E+01  3.703733E-03 1.875246E+01  3.671445E-03 1.867614E+01  9.459709E-01 -8.116018E+01 
7.197500E+02  9.711630E-01 -6.106301E+01  3.666758E-03 1.856802E+01  3.652073E-03 1.886509E+01  9.457345E-01 -8.120456E+01 
7.200000E+02  9.716927E-01 -6.107213E+01  3.654297E-03 1.872551E+01  3.675026E-03 1.841144E+01  9.457908E-01 -8.119753E+01 
7.202500E+02  9.710070E-01 -6.112398E+01  3.679017E-03 1.816034E+01  3.670203E-03 1.800725E+01  9.465215E-01 -8.125681E+01 
7.205000E+02  9.704150E-01 -6.112027E+01  3.551934E-03 1.885187E+01  3.513383E-03 1.882681E+01  9.464299E-01 -8.131528E+01 
7.207500E+02  9.709815E-01 -6.111889E+01  3.628046E-03 1.958643E+01  3.552994E-03 1.947152E+01  9.454951E-01 -8.136039E+01 
7.210000E+02  9.709687E-01 -6.114254E+01  3.688463E-03 1.947328E+01  3.691383E-03 1.880705E+01  9.452312E-01 -8.134724E+01 
7.212500E+02  9.704918E-01 -6.115285E+01  3.700721E-03 1.830175E+01  3.669734E-03 1.825079E+01  9.455551E-01 -8.138284E+01 
7.215000E+02  9.708917E-01 -6.112959E+01  3.658850E-03 1.708204E+01  3.634088E-03 1.733686E+01  9.450772E-01 -8.139831E+01 
7.217500E+02  9.716021E-01 -6.116294E+01  3.592926E-03 1.776364E+01  3.567255E-03 1.703718E+01  9.454130E-01 -8.140001E+01 
7.220000E+02  9.715849E-01 -6.121623E+01  3.618083E-03 1.854345E+01  3.596251E-03 1.843441E+01  9.454822E-01 -8.142562E+01 
7.222500E+02  9.713284E-01 -6.125794E+01  3.576273E-03 1.836511E+01  3.583904E-03 1.852737E+01  9.458112E-01 -8.146986E+01 
7.225000E+02  9.709224E-01 -6.126554E+01  3.639322E-03 1.805525E+01  3.630184E-03 1.821500E+01  9.451309E-01 -8.151055E+01 
7.227500E+02  9.711747E-01 -6.129721E+01  3.611766E-03 1.820754E+01  3.586624E-03 1.787640E+01  9.452342E-01 -8.149099E+01 
7.230000E+02  9.710136E-01 -6.134195E+01  3.656632E-03 1.801170E+01  3.632302E-03 1.760919E+01  9.460224E-01 -8.156263E+01 
7.232500E+02  9.707025E-01 -6.140349E+01  3.672347E-03 1.661416E+01  3.632874E-03 1.731808E+01  9.456308E-01 -8.162977E+01 
7.235000E+02  9.700777E-01 -6.145093E+01  3.612331E-03 1.617229E+01  3.604506E-03 1.630312E+01  9.448842E-01 -8.167486E+01 
7.237500E+02  9.698676E-01 -6.147865E+01  3.583807E-03 1.564974E+01  3.594826E-03 1.583796E+01  9.444317E-01 -8.167701E+01 
7.240000E+02  9.693046E-01 -6.149469E+01  3.580473E-03 1.577499E+01  3.586360E-03 1.570751E+01  9.453142E-01 -8.171697E+01 
7.242500E+02  9.697359E-01 -6.149883E+01  3.497708E-03 1.612155E+01  3.458771E-03 1.549283E+01  9.453855E-01 -8.175392E+01 
7.245000E+02  9.700793E-01 -6.153697E+01  3.471164E-03 1.656896E+01  3.474097E-03 1.610655E+01  9.453367E-01 -8.176245E+01 
7.247500E+02  9.698649E-01 -6.158140E+01  3.469380E-03 1.611385E+01  3.459071E-03 1.583227E+01  9.455940E-01 -8.181322E+01 
7.250000E+02  9.700836E-01 -6.162049E+01  3.480896E-03 1.640043E+01  3.452530E-03 1.685305E+01  9.453797E-01 -8.186052E+01 
7.252500E+02  9.692705E-01 -6.162754E+01  3.437003E-03 1.539946E+01  3.401434E-03 1.537237E+01  9.443387E-01 -8.186752E+01 
7.255000E+02  9.693057E-01 -6.161180E+01  3.384960E-03 1.754796E+01  3.357986E-03 1.735166E+01  9.453817E-01 -8.180947E+01 
7.257500E+02  9.697720E-01 -6.163742E+01  3.375449E-03 1.783666E+01  3.361270E-03 1.778227E+01  9.466825E-01 -8.185421E+01 
7.260000E+02  9.688588E-01 -6.164707E+01  3.425006E-03 1.869008E+01  3.395742E-03 1.861610E+01  9.469157E-01 -8.193688E+01 
7.262500E+02  9.694274E-01 -6.162183E+01  3.470990E-03 1.862601E+01  3.423610E-03 1.816516E+01  9.468462E-01 -8.198450E+01 
7.265000E+02  9.703778E-01 -6.164593E+01  3.449570E-03 1.806714E+01  3.489529E-03 1.866971E+01  9.468678E-01 -8.203886E+01 
7.267500E+02  9.706341E-01 -6.169776E+01  3.499362E-03 1.812100E+01  3.477993E-03 1.820498E+01  9.469852E-01 -8.208524E+01 
7.270000E+02  9.704946E-01 -6.170670E+01  3.498978E-03 1.738349E+01  3.503533E-03 1.757994E+01  9.468132E-01 -8.213478E+01 
7.272500E+02  9.711067E-01 -6.175574E+01  3.477426E-03 1.785054E+01  3.478343E-03 1.753535E+01  9.467609E-01 -8.217257E+01 
7.275000E+02  9.713258E-01 -6.180276E+01  3.478476E-03 1.699150E+01  3.491617E-03 1.729779E+01  9.466976E-01 -8.221028E+01 
7.277500E+02  9.713028E-01 -6.186260E+01  3.465963E-03 1.700053E+01  3.460874E-03 1.723682E+01  9.467400E-01 -8.224650E+01 
7.280000E+02  9.706628E-01 -6.191136E+01  3.443401E-03 1.748606E+01  3.456229E-03 1.699402E+01  9.469785E-01 -8.229324E+01 
7.282500E+02  9.703229E-01 -6.190710E+01  3.434139E-03 1.709188E+01  3.431248E-03 1.695900E+01  9.469442E-01 -8.235032E+01 
7.285000E+02  9.705870E-01 -6.192907E+01  3.420882E-03 1.673430E+01  3.400979E-03 1.648977E+01  9.467457E-01 -8.239480E+01 
7.287500E+02  9.700269E-01 -6.194939E+01  3.377581E-03 1.757892E+01  3.400153E-03 1.751030E+01  9.464447E-01 -8.245476E+01 
7.290000E+02  9.705898E-01 -6.193478E+01  3.435495E-03 1.791389E+01  3.417844E-03 1.770280E+01  9.458250E-01 -8.248906E+01 
7.292500E+02  9.709777E-01 -6.196531E+01  3.441440E-03 1.732803E+01  3.433411E-03 1.795171E+01  9.456903E-01 -8.252331E+01 
7.295000E+02  9.711770E-01 -6.200452E+01  3.439682E-03 1.785759E+01  3.419877E-03 1.760339E+01  9.457395E-01 -8.255679E+01 
7.297500E+02  9.711952E-01 -6.201424E+01  3.474265E-03 1.793497E+01  3.454858E-03 1.734347E+01  9.450251E-01 -8.263524E+01 
7.300000E+02  9.716458E-01 -6.206004E+01  3.427871E-03 1.678490E+01  3.465291E-03 1.701496E+01  9.446064E-01 -8.263276E+01 
7.302500E+02  9.718810E-01 -6.210587E+01  3.469966E-03 1.707519E+01  3.415260E-03 1.753619E+01  9.447770E-01 -8.265876E+01 
7.305000E+02  9.720559E-01 -6.214637E+01  3.439003E-03 1.614269E+01  3.410521E-03 1.655113E+01  9.449709E-01 -8.268090E+01 
7.307500E+02  9.719205E-01 -6.221157E+01  3.455531E-03 1.621124E+01  3.408984E-03 1.594813E+01  9.453204E-01 -8.275751E+01 
7.310000E+02  9.719334E-01 -6.224441E+01  3.416974E-03 1.591633E+01  3.367973E-03 1.595263E+01  9.444782E-01 -8.280265E+01 
7.312500E+02  9.720665E-01 -6.228828E+01  3.342003E-03 1.654732E+01  3.343964E-03 1.645037E+01  9.444229E-01 -8.283287E+01 
7.315000E+02  9.717559E-01 -6.235029E+01  3.369657E-03 1.718729E+01  3.340444E-03 1.720470E+01  9.442313E-01 -8.291031E+01 
7.317500E+02  9.715934E-01 -6.242065E+01  3.391128E-03 1.700223E+01  3.384853E-03 1.657385E+01  9.428358E-01 -8.294253E+01 
7.320000E+02  9.710476E-01 -6.248760E+01  3.448572E-03 1.676867E+01  3.414476E-03 1.668177E+01  9.425513E-01 -8.291350E+01 
7.322500E+02  9.695282E-01 -6.260168E+01  3.472150E-03 1.602656E+01  3.456605E-03 1.626335E+01  9.431002E-01 -8.294973E+01 
7.325000E+02  9.613926E-01 -6.262254E+01  3.445023E-03 1.331057E+01  3.440921E-03 1.355447E+01  9.422225E-01 -8.300392E+01 
7.327500E+02  9.692577E-01 -6.217456E+01  3.257806E-03 1.486721E+01  3.256985E-03 1.365621E+01  9.419386E-01 -8.295840E+01 
7.330000E+02  9.702767E-01 -6.232415E+01  3.222819E-03 1.631895E+01  3.175048E-03 1.532721E+01  9.432734E-01 -8.300722E+01 
7.332500E+02  9.707494E-01 -6.243031E+01  3.221024E-03 1.682903E+01  3.253764E-03 1.609252E+01  9.428524E-01 -8.306789E+01 
7.335000E+02  9.703498E-01 -6.251150E+01  3.270744E-03 1.686087E+01  3.258140E-03 1.693458E+01  9.429008E-01 -8.315722E+01 
7.337500E+02  9.700846E-01 -6.249338E+01  3.329299E-03 1.714797E+01  3.307090E-03 1.750330E+01  9.408558E-01 -8.317775E+01 
7.340000E+02  9.704839E-01 -6.254246E+01  3.323602E-03 1.499130E+01  3.314012E-03 1.553752E+01  9.408725E-01 -8.315452E+01 
7.342500E+02  9.705044E-01 -6.260726E+01  3.289557E-03 1.553121E+01  3.277821E-03 1.561973E+01  9.413983E-01 -8.323526E+01 
7.345000E+02  9.692406E-01 -6.263686E+01  3.297395E-03 1.373770E+01  3.308917E-03 1.409224E+01  9.387634E-01 -8.332299E+01 
7.347500E+02  9.703017E-01 -6.257959E+01  3.150694E-03 1.288687E+01  3.162681E-03 1.291677E+01  9.374780E-01 -8.318558E+01 
7.350000E+02  9.707864E-01 -6.262102E+01  3.065019E-03 1.353473E+01  3.044757E-03 1.401589E+01  9.383670E-01 -8.313622E+01 
7.352500E+02  9.710883E-01 -6.266995E+01  3.026328E-03 1.589839E+01  3.042503E-03 1.583499E+01  9.389327E-01 -8.324795E+01 
7.355000E+02  9.713066E-01 -6.270624E+01  3.001628E-03 1.512719E+01  2.971540E-03 1.526332E+01  9.354946E-01 -8.312398E+01 
7.357500E+02  9.715838E-01 -6.275140E+01  2.911794E-03 1.649137E+01  2.914864E-03 1.720886E+01  9.391281E-01 -8.303428E+01 
7.360000E+02  9.717102E-01 -6.280402E+01  2.901928E-03 1.791117E+01  2.892342E-03 1.765812E+01  9.393605E-01 -8.306963E+01 
7.362500E+02  9.718589E-01 -6.285082E+01  2.878663E-03 1.876170E+01  2.885506E-03 1.883315E+01  9.413996E-01 -8.311573E+01 
7.365000E+02  9.716408E-01 -6.289426E+01  2.764138E-03 2.024746E+01  2.753126E-03 1.999348E+01  9.406702E-01 -8.321079E+01 
7.367500E+02  9.710415E-01 -6.295612E+01  2.796829E-03 2.497001E+01  2.764556E-03 2.425991E+01  9.405553E-01 -8.316304E+01 
7.370000E+02  9.706838E-01 -6.299492E+01  2.798111E-03 2.580923E+01  2.796387E-03 2.604735E+01  9.416498E-01 -8.323889E+01 
7.372500E+02  9.697884E-01 -6.300603E+01  2.868688E-03 3.269007E+01  2.882820E-03 3.325730E+01  9.406212E-01 -8.329707E+01 
7.375000E+02  9.706944E-01 -6.296960E+01  3.392601E-03 3.259708E+01  3.354089E-03 3.211043E+01  9.409731E-01 -8.321053E+01 
7.377500E+02  9.711505E-01 -6.304645E+01  3.431769E-03 2.916418E+01  3.427410E-03 2.917773E+01  9.419321E-01 -8.327160E+01 
7.380000E+02  9.709091E-01 -6.312584E+01  3.516564E-03 2.710151E+01  3.464289E-03 2.708408E+01  9.418198E-01 -8.332361E+01 
7.382500E+02  9.707505E-01 -6.318896E+01  3.631512E-03 2.821985E+01  3.620995E-03 2.804812E+01  9.418770E-01 -8.332110E+01 
7.385000E+02  9.709063E-01 -6.325165E+01  3.672794E-03 2.369598E+01  3.666418E-03 2.390523E+01  9.432150E-01 -8.340324E+01 
7.387500E+02  9.706682E-01 -6.331146E+01  3.590552E-03 2.336824E+01  3.585240E-03 2.305333E+01  9.431118E-01 -8.350595E+01 
7.390000E+02  9.702804E-01 -6.339823E+01  3.555977E-03 2.235270E+01  3.529574E-03 2.176538E+01  9.429228E-01 -8.357411E+01 
7.392500E+02  9.700328E-01 -6.345270E+01  3.574327E-03 2.479164E+01  3.532142E-03 2.439796E+01  9.419194E-01 -8.366742E+01 
7.395000E+02  9.696883E-01 -6.351698E+01  3.802128E-03 2.220925E+01  3.815974E-03 2.181194E+01  9.413830E-01 -8.365370E+01 
7.397500E+02  9.697822E-01 -6.354344E+01  3.717059E-03 1.899577E+01  3.719408E-03 1.912344E+01  9.420700E-01 -8.369942E+01 
7.400000E+02  9.692267E-01 -6.358165E+01  3.654118E-03 1.748375E+01  3.644553E-03 1.727584E+01  9.419493E-01 -8.374639E+01 
7.402500E+02  9.690905E-01 -6.363136E+01  3.529584E-03 1.720085E+01  3.517645E-03 1.730769E+01  9.423023E-01 -8.374651E+01 
7.405000E+02  9.680578E-01 -6.370771E+01  3.427270E-03 1.858308E+01  3.429173E-03 1.811814E+01  9.430717E-01 -8.379287E+01 
7.407500E+02  9.661038E-01 -6.373571E+01  3.453729E-03 1.911918E+01  3.466536E-03 1.908664E+01  9.430448E-01 -8.383837E+01 
7.410000E+02  9.647313E-01 -6.362984E+01  3.466786E-03 1.952905E+01  3.422800E-03 1.977663E+01  9.427122E-01 -8.387643E+01 
7.412500E+02  9.658981E-01 -6.362315E+01  3.516863E-03 2.004774E+01  3.510231E-03 1.967064E+01  9.429838E-01 -8.388168E+01 
7.415000E+02  9.652657E-01 -6.368273E+01  3.550492E-03 1.856394E+01  3.527152E-03 1.865544E+01  9.434234E-01 -8.392157E+01 
7.417500E+02  9.647683E-01 -6.365724E+01  3.580133E-03 1.825383E+01  3.575056E-03 1.761739E+01  9.434564E-01 -8.393724E+01 
7.420000E+02  9.632040E-01 -6.365058E+01  3.529863E-03 1.799819E+01  3.508679E-03 1.766191E+01  9.435758E-01 -8.396048E+01 
7.422500E+02  9.635474E-01 -6.355948E+01  3.461679E-03 1.795904E+01  3.444465E-03 1.731849E+01  9.439269E-01 -8.399578E+01 
7.425000E+02  9.644509E-01 -6.355463E+01  3.504241E-03 1.859286E+01  3.511793E-03 1.872237E+01  9.442009E-01 -8.403709E+01 
7.427500E+02  9.645249E-01 -6.356295E+01  3.463840E-03 1.821506E+01  3.493410E-03 1.795146E+01  9.445351E-01 -8.407932E+01 
7.430000E+02  9.648389E-01 -6.359261E+01  3.548448E-03 1.788661E+01  3.567315E-03 1.759506E+01  9.446974E-01 -8.411894E+01 
7.432500E+02  9.646613E-01 -6.360668E+01  3.546802E-03 1.647889E+01  3.525696E-03 1.637153E+01  9.447912E-01 -8.416308E+01 
7.435000E+02  9.653044E-01 -6.361576E+01  3.509394E-03 1.601844E+01  3.518652E-03 1.619580E+01  9.449048E-01 -8.420673E+01 
7.437500E+02  9.650861E-01 -6.364718E+01  3.464060E-03 1.565483E+01  3.465006E-03 1.576721E+01  9.447649E-01 -8.425426E+01 
7.440000E+02  9.655929E-01 -6.367921E+01  3.400833E-03 1.508393E+01  3.417495E-03 1.566474E+01  9.446485E-01 -8.429979E+01 
7.442500E+02  9.654124E-01 -6.374814E+01  3.360128E-03 1.528191E+01  3.330541E-03 1.556523E+01  9.445385E-01 -8.435525E+01 
7.445000E+02  9.648702E-01 -6.376699E+01  3.349477E-03 1.570408E+01  3.301489E-03 1.615127E+01  9.442990E-01 -8.440318E+01 
7.447500E+02  9.645913E-01 -6.379432E+01  3.317673E-03 1.686638E+01  3.314675E-03 1.634170E+01  9.439014E-01 -8.443165E+01 
7.450000E+02  9.635342E-01 -6.376029E+01  3.345500E-03 1.633929E+01  3.328954E-03 1.634059E+01  9.437027E-01 -8.446987E+01 
7.452500E+02  9.648248E-01 -6.373201E+01  3.308724E-03 1.695503E+01  3.323223E-03 1.622931E+01  9.437596E-01 -8.450513E+01 
7.455000E+02  9.655459E-01 -6.376009E+01  3.329941E-03 1.605106E+01  3.306267E-03 1.664443E+01  9.433590E-01 -8.454696E+01 
7.457500E+02  9.660125E-01 -6.381507E+01  3.290734E-03 1.614064E+01  3.277702E-03 1.615507E+01  9.432118E-01 -8.456794E+01 
7.460000E+02  9.661611E-01 -6.384812E+01  3.250700E-03 1.602113E+01  3.231491E-03 1.614904E+01  9.432941E-01 -8.459274E+01 
7.462500E+02  9.660888E-01 -6.385687E+01  3.238367E-03 1.640111E+01  3.237879E-03 1.647287E+01  9.433305E-01 -8.461290E+01 
7.465000E+02  9.665399E-01 -6.388627E+01  3.229320E-03 1.736758E+01  3.240244E-03 1.692286E+01  9.433776E-01 -8.464173E+01 
7.467500E+02  9.669343E-01 -6.391256E+01  3.236812E-03 1.749360E+01  3.251875E-03 1.729352E+01  9.437924E-01 -8.465862E+01 
7.470000E+02  9.670666E-01 -6.396895E+01  3.216990E-03 1.762932E+01  3.214703E-03 1.746445E+01  9.439662E-01 -8.469502E+01 
7.472500E+02  9.667645E-01 -6.399427E+01  3.245001E-03 1.814373E+01  3.212228E-03 1.792863E+01  9.440389E-01 -8.474045E+01 
7.475000E+02  9.670203E-01 -6.403200E+01  3.187636E-03 1.750324E+01  3.173692E-03 1.755730E+01  9.441255E-01 -8.478171E+01 
7.477500E+02  9.670902E-01 -6.404962E+01  3.085144E-03 1.837694E+01  3.057321E-03 1.859693E+01  9.441528E-01 -8.481430E+01 
7.480000E+02  9.674762E-01 -6.410121E+01  3.162472E-03 2.070720E+01  3.108320E-03 2.006599E+01  9.440069E-01 -8.484998E+01 
7.482500E+02  9.673516E-01 -6.414114E+01  3.228404E-03 2.136468E+01  3.199627E-03 2.186880E+01  9.440350E-01 -8.487906E+01 
7.485000E+02  9.676302E-01 -6.417339E+01  3.314854E-03 2.130678E+01  3.310364E-03 2.162695E+01  9.442051E-01 -8.490983E+01 
7.487500E+02  9.675513E-01 -6.422082E+01  3.294436E-03 2.188503E+01  3.282574E-03 2.154292E+01  9.441704E-01 -8.497126E+01 
7.490000E+02  9.672780E-01 -6.424672E+01  3.363606E-03 2.171412E+01  3.337340E-03 2.181461E+01  9.443591E-01 -8.501991E+01 
7.492500E+02  9.675935E-01 -6.426581E+01  3.436519E-03 2.242702E+01  3.421298E-03 2.221812E+01  9.439280E-01 -8.505906E+01 
7.495000E+02  9.677612E-01 -6.431520E+01  3.576729E-03 2.080129E+01  3.575266E-03 2.129299E+01  9.439313E-01 -8.509691E+01 
7.497500E+02  9.678786E-01 -6.435966E+01  3.553672E-03 1.863865E+01  3.551775E-03 1.869550E+01  9.440326E-01 -8.515616E+01 
7.500000E+02  9.672665E-01 -6.438515E+01  3.497909E-03 1.749027E+01  3.473936E-03 1.709990E+01  9.440957E-01 -8.518024E+01 
7.502500E+02  9.674798E-01 -6.440753E+01  3.416773E-03 1.796839E+01  3.406534E-03 1.737041E+01  9.439214E-01 -8.523321E+01 
7.505000E+02  9.672470E-01 -6.441913E+01  3.524074E-03 1.880304E+01  3.504229E-03 1.899544E+01  9.437618E-01 -8.524685E+01 
7.507500E+02  9.676238E-01 -6.444409E+01  3.499419E-03 1.631705E+01  3.500531E-03 1.599691E+01  9.437723E-01 -8.527506E+01 
7.510000E+02  9.678923E-01 -6.448119E+01  3.452744E-03 1.653700E+01  3.439060E-03 1.636599E+01  9.437974E-01 -8.530260E+01 
7.512500E+02  9.678157E-01 -6.451406E+01  3.404638E-03 1.660610E+01  3.414037E-03 1.673260E+01  9.438482E-01 -8.533185E+01 
7.515000E+02  9.678694E-01 -6.455417E+01  3.451697E-03 1.627811E+01  3.418244E-03 1.673240E+01  9.438234E-01 -8.535858E+01 
7.517500E+02  9.678742E-01 -6.458797E+01  3.449243E-03 1.569196E+01  3.410539E-03 1.605991E+01  9.440867E-01 -8.539357E+01 
7.520000E+02  9.681023E-01 -6.464670E+01  3.376293E-03 1.599329E+01  3.413843E-03 1.551091E+01  9.442168E-01 -8.544045E+01 
7.522500E+02  9.679565E-01 -6.467693E+01  3.406269E-03 1.629443E+01  3.410476E-03 1.615677E+01  9.440886E-01 -8.548230E+01 
7.525000E+02  9.681454E-01 -6.472001E+01  3.408327E-03 1.582091E+01  3.421934E-03 1.609649E+01  9.441906E-01 -8.553906E+01 
7.527500E+02  9.676856E-01 -6.476680E+01  3.407769E-03 1.467696E+01  3.406465E-03 1.490756E+01  9.440796E-01 -8.557883E+01 
7.530000E+02  9.676913E-01 -6.479823E+01  3.356043E-03 1.467588E+01  3.345090E-03 1.414217E+01  9.438764E-01 -8.562721E+01 
7.532500E+02  9.675194E-01 -6.483712E+01  3.329960E-03 1.424633E+01  3.318335E-03 1.378737E+01  9.438316E-01 -8.568044E+01 
7.535000E+02  9.677273E-01 -6.486474E+01  3.286335E-03 1.505673E+01  3.305993E-03 1.500358E+01  9.438990E-01 -8.571271E+01 
7.537500E+02  9.677503E-01 -6.489054E+01  3.289916E-03 1.491633E+01  3.278706E-03 1.421435E+01  9.438336E-01 -8.576984E+01 
7.540000E+02  9.681282E-01 -6.493347E+01  3.305129E-03 1.477985E+01  3.283705E-03 1.428191E+01  9.441917E-01 -8.582057E+01 
7.542500E+02  9.683501E-01 -6.496624E+01  3.226427E-03 1.395515E+01  3.228863E-03 1.418829E+01  9.444515E-01 -8.587020E+01 
7.545000E+02  9.685916E-01 -6.500778E+01  3.194224E-03 1.474047E+01  3.170808E-03 1.442332E+01  9.447011E-01 -8.591220E+01 
7.547500E+02  9.688122E-01 -6.503656E+01  3.196748E-03 1.596242E+01  3.188516E-03 1.560638E+01  9.449420E-01 -8.597870E+01 
7.550000E+02  9.692538E-01 -6.505664E+01  3.201379E-03 1.605053E+01  3.181081E-03 1.618694E+01  9.451086E-01 -8.603060E+01 
7.552500E+02  9.696252E-01 -6.510600E+01  3.213514E-03 1.636417E+01  3.196984E-03 1.569095E+01  9.452362E-01 -8.609056E+01 
7.555000E+02  9.699773E-01 -6.517133E+01  3.235087E-03 1.565741E+01  3.207581E-03 1.593565E+01  9.454251E-01 -8.613757E+01 
