! Matrix data file written by TouchstoneData, EPCOS AG
! FILENAME: "newformat_LY82C_01_WB.s3p"
! COMMENT: "(LY82C_01_WB.s3p) Epcos AG 10/11/2011 5:08:5"
! INFO: nport=3, nfreq=1601
! DATE: "Wed Oct 12 11:08:37 2011"
! USER: "WeiLong Lin"
!
! port | pin | signal
! -----|-----|--------
!   1  |  1  |  in
!   2  |  2  |  out
!   3  |  4  |  out
! --------------------
! 
# MHZ S MA R 50
! freq  magS11 angS11  magS12 angS12  magS13 angS13  ...
5.000000E+01  9.972048E-01 -3.726466E+00  4.159015E-04 7.346760E+01  5.438291E-04 8.634483E+01 
 5.155743E-04 7.014798E+01  9.994678E-01 -2.197444E+00  2.279720E-03 8.127160E+01 
 5.693617E-04 8.370406E+01  2.345235E-03 8.261416E+01  9.985745E-01 -2.302067E+00 
5.371875E+01  9.969492E-01 -3.989381E+00  4.016479E-04 7.925647E+01  5.756083E-04 8.313156E+01 
 3.964705E-04 8.503938E+01  9.995317E-01 -2.393792E+00  2.741823E-03 8.262956E+01 
 5.285707E-04 8.461631E+01  2.690107E-03 8.246840E+01  9.990415E-01 -2.482495E+00 
5.743750E+01  9.968253E-01 -4.334545E+00  4.032282E-04 8.580395E+01  5.975932E-04 8.929658E+01 
 4.173645E-04 8.483206E+01  1.000342E+00 -2.561586E+00  2.593836E-03 8.660422E+01 
 6.152785E-04 8.587088E+01  2.583118E-03 8.728461E+01  9.995276E-01 -2.689206E+00 
6.115625E+01  9.969480E-01 -4.518143E+00  5.073678E-04 8.864790E+01  7.079748E-04 8.510343E+01 
 5.099721E-04 8.924565E+01  1.000037E+00 -2.705306E+00  2.668801E-03 8.501059E+01 
 6.975547E-04 8.370178E+01  2.653424E-03 8.569873E+01  9.987202E-01 -2.863762E+00 
6.487500E+01  9.981000E-01 -4.785634E+00  4.608451E-04 8.540278E+01  7.367904E-04 8.742917E+01 
 4.897110E-04 8.530654E+01  9.997306E-01 -2.841600E+00  2.975026E-03 8.282564E+01 
 7.403984E-04 8.626714E+01  2.988942E-03 8.262037E+01  9.975307E-01 -2.966512E+00 
6.859375E+01  9.977138E-01 -5.080868E+00  5.799278E-04 7.571235E+01  8.167505E-04 7.890386E+01 
 5.940279E-04 7.630429E+01  1.000182E+00 -3.039958E+00  2.998489E-03 8.646879E+01 
 8.079842E-04 7.801684E+01  2.994991E-03 8.705708E+01  9.993314E-01 -3.158836E+00 
7.231250E+01  9.980271E-01 -5.275284E+00  5.663615E-04 8.518009E+01  8.243491E-04 8.288037E+01 
 5.651043E-04 8.296704E+01  9.989610E-01 -3.222834E+00  3.258067E-03 8.371144E+01 
 7.957058E-04 8.171551E+01  3.216997E-03 8.422802E+01  9.985744E-01 -3.271154E+00 
7.603125E+01  9.983858E-01 -5.457316E+00  5.497691E-04 8.463806E+01  8.389447E-04 8.550657E+01 
 5.441827E-04 8.400293E+01  9.993236E-01 -3.335988E+00  3.564699E-03 8.362299E+01 
 8.263156E-04 8.629678E+01  3.559255E-03 8.413087E+01  9.993853E-01 -3.334325E+00 
7.975000E+01  9.985326E-01 -5.781815E+00  6.170992E-04 8.365034E+01  8.888535E-04 8.422573E+01 
 6.027613E-04 8.329120E+01  9.996942E-01 -3.494595E+00  3.557612E-03 8.509758E+01 
 8.746893E-04 8.200988E+01  3.545303E-03 8.527883E+01  9.993517E-01 -3.535426E+00 
8.346875E+01  9.982675E-01 -6.081359E+00  6.006155E-04 7.970383E+01  8.781028E-04 8.468217E+01 
 5.986443E-04 8.258120E+01  9.984890E-01 -3.612513E+00  3.878198E-03 8.330731E+01 
 8.983476E-04 8.400786E+01  3.899152E-03 8.302848E+01  9.988775E-01 -3.668664E+00 
8.718750E+01  9.986548E-01 -6.340155E+00  6.729588E-04 8.103869E+01  9.339714E-04 8.476255E+01 
 6.424914E-04 8.233439E+01  9.989099E-01 -3.755697E+00  3.871958E-03 8.421296E+01 
 9.487494E-04 8.384661E+01  3.872641E-03 8.466359E+01  9.991880E-01 -3.858174E+00 
9.090625E+01  9.978747E-01 -6.618608E+00  7.007970E-04 8.480448E+01  9.823494E-04 8.389443E+01 
 6.724431E-04 8.626312E+01  9.992193E-01 -3.856633E+00  4.067300E-03 8.496887E+01 
 9.866225E-04 8.395538E+01  4.083650E-03 8.491876E+01  9.988386E-01 -4.023521E+00 
9.462500E+01  9.982042E-01 -6.903215E+00  7.184817E-04 8.603549E+01  1.071839E-03 8.390602E+01 
 7.339391E-04 8.651996E+01  9.987206E-01 -4.130761E+00  4.332151E-03 8.267894E+01 
 1.057523E-03 8.476580E+01  4.348420E-03 8.302772E+01  9.991670E-01 -4.262890E+00 
9.834375E+01  9.981269E-01 -7.150589E+00  7.741526E-04 7.690812E+01  1.075047E-03 7.986611E+01 
 7.567786E-04 7.656952E+01  9.987613E-01 -4.273995E+00  4.295010E-03 8.284978E+01 
 1.081268E-03 8.104132E+01  4.311521E-03 8.254843E+01  9.980423E-01 -4.329814E+00 
1.020625E+02  9.978043E-01 -7.380919E+00  8.116438E-04 8.117631E+01  1.147568E-03 8.249017E+01 
 8.006379E-04 8.307974E+01  9.988735E-01 -4.433385E+00  4.556310E-03 8.398430E+01 
 1.162910E-03 8.121620E+01  4.533012E-03 8.401909E+01  9.983305E-01 -4.495669E+00 
1.057812E+02  9.973768E-01 -7.656084E+00  8.105032E-04 8.444273E+01  1.183152E-03 8.271631E+01 
 8.428507E-04 8.345231E+01  9.984414E-01 -4.544753E+00  4.838386E-03 8.358950E+01 
 1.191713E-03 8.288150E+01  4.839678E-03 8.359828E+01  9.982825E-01 -4.672140E+00 
1.095000E+02  9.969229E-01 -7.965651E+00  7.162157E-04 8.034921E+01  1.047042E-03 8.069213E+01 
 7.369450E-04 8.041007E+01  9.959156E-01 -4.909365E+00  4.875266E-03 8.353098E+01 
 1.077672E-03 8.149740E+01  4.892434E-03 8.375744E+01  9.990013E-01 -4.892412E+00 
1.132188E+02  9.980777E-01 -8.237181E+00  8.243491E-04 8.452657E+01  1.239428E-03 8.461024E+01 
 8.221788E-04 8.434492E+01  9.959633E-01 -5.163701E+00  5.028153E-03 8.288178E+01 
 1.235894E-03 8.318953E+01  5.051303E-03 8.330889E+01  9.981891E-01 -5.024084E+00 
1.169375E+02  9.972433E-01 -8.503676E+00  8.883144E-04 8.233185E+01  1.249514E-03 8.505854E+01 
 8.803235E-04 8.391327E+01  9.960928E-01 -5.330539E+00  5.375211E-03 8.349432E+01 
 1.255921E-03 8.545659E+01  5.388569E-03 8.378142E+01  9.980593E-01 -5.186439E+00 
1.206562E+02  9.967812E-01 -8.752705E+00  9.015773E-04 8.371002E+01  1.342979E-03 8.315189E+01 
 9.277211E-04 8.266858E+01  9.952746E-01 -5.448473E+00  5.426377E-03 8.335996E+01 
 1.343281E-03 8.420860E+01  5.455981E-03 8.352494E+01  9.979988E-01 -5.376084E+00 
1.243750E+02  9.967485E-01 -9.017393E+00  9.559595E-04 8.309420E+01  1.373908E-03 8.267219E+01 
 9.715551E-04 8.163060E+01  9.955616E-01 -5.531346E+00  5.372771E-03 8.208393E+01 
 1.385164E-03 8.226067E+01  5.389992E-03 8.216532E+01  9.973546E-01 -5.485943E+00 
1.280938E+02  9.969187E-01 -9.328434E+00  9.625959E-04 8.184313E+01  1.420925E-03 8.124551E+01 
 1.007495E-03 8.128267E+01  9.957183E-01 -5.699409E+00  5.779351E-03 8.292195E+01 
 1.407323E-03 8.121809E+01  5.789853E-03 8.316186E+01  9.973278E-01 -5.696684E+00 
1.318125E+02  9.967530E-01 -9.576226E+00  9.241086E-04 8.051080E+01  1.401060E-03 7.662044E+01 
 9.607605E-04 7.961030E+01  9.951296E-01 -5.977331E+00  5.922168E-03 8.349577E+01 
 1.418497E-03 7.832783E+01  5.931273E-03 8.417282E+01  9.975455E-01 -5.846874E+00 
1.355312E+02  9.959250E-01 -9.808125E+00  1.006078E-03 8.086093E+01  1.539752E-03 8.048493E+01 
 1.001368E-03 8.144576E+01  9.953752E-01 -6.090135E+00  6.086714E-03 8.294500E+01 
 1.510288E-03 8.120237E+01  6.133864E-03 8.346285E+01  9.969783E-01 -5.973786E+00 
1.392500E+02  9.963129E-01 -1.009209E+01  1.005137E-03 8.167740E+01  1.470421E-03 8.130764E+01 
 1.050490E-03 8.177604E+01  9.953170E-01 -6.302278E+00  6.246443E-03 8.341420E+01 
 1.463848E-03 8.205486E+01  6.248644E-03 8.359669E+01  9.971850E-01 -6.170866E+00 
1.429688E+02  9.956627E-01 -1.032097E+01  1.097777E-03 7.723213E+01  1.577385E-03 7.625796E+01 
 1.107060E-03 7.854344E+01  9.956757E-01 -6.453637E+00  6.491630E-03 8.311933E+01 
 1.560172E-03 7.611392E+01  6.513107E-03 8.359372E+01  9.974323E-01 -6.326635E+00 
1.466875E+02  9.963603E-01 -1.057825E+01  1.013273E-03 8.124132E+01  1.558360E-03 8.201977E+01 
 1.033154E-03 8.133593E+01  9.947508E-01 -6.561089E+00  6.538932E-03 8.108719E+01 
 1.552272E-03 8.339842E+01  6.542814E-03 8.127619E+01  9.970447E-01 -6.493237E+00 
1.504062E+02  9.966525E-01 -1.083405E+01  1.092610E-03 8.152971E+01  1.602569E-03 8.002217E+01 
 1.101485E-03 8.037437E+01  9.952861E-01 -6.690733E+00  6.773536E-03 8.280088E+01 
 1.589753E-03 8.231050E+01  6.755288E-03 8.288520E+01  9.971804E-01 -6.650235E+00 
1.541250E+02  9.969977E-01 -1.114982E+01  1.105602E-03 8.051208E+01  1.622159E-03 7.971746E+01 
 1.102898E-03 8.171691E+01  9.951716E-01 -6.854761E+00  6.800362E-03 8.209484E+01 
 1.617125E-03 7.873792E+01  6.802920E-03 8.223590E+01  9.976097E-01 -6.789600E+00 
1.578438E+02  9.972703E-01 -1.137033E+01  1.159886E-03 8.252229E+01  1.642848E-03 8.236731E+01 
 1.164454E-03 8.227951E+01  9.954307E-01 -6.985933E+00  6.982030E-03 8.161690E+01 
 1.688497E-03 8.192528E+01  6.950835E-03 8.168363E+01  9.971398E-01 -6.926090E+00 
1.615625E+02  9.976159E-01 -1.161345E+01  1.235703E-03 8.092402E+01  1.744206E-03 8.101451E+01 
 1.212700E-03 8.129679E+01  9.955793E-01 -7.126941E+00  7.155623E-03 8.204755E+01 
 1.756376E-03 8.166800E+01  7.220616E-03 8.237156E+01  9.977890E-01 -7.066850E+00 
1.652812E+02  9.964888E-01 -1.195409E+01  1.244609E-03 7.995315E+01  1.769462E-03 8.187300E+01 
 1.263206E-03 8.029019E+01  9.949341E-01 -7.329316E+00  7.319520E-03 8.201774E+01 
 1.803775E-03 8.243384E+01  7.344504E-03 8.205030E+01  9.970910E-01 -7.271221E+00 
1.690000E+02  9.960678E-01 -1.219498E+01  1.286542E-03 8.056221E+01  1.817008E-03 8.062664E+01 
 1.302477E-03 8.090032E+01  9.935446E-01 -7.471461E+00  7.670135E-03 8.037874E+01 
 1.859087E-03 8.044080E+01  7.675010E-03 8.058689E+01  9.953414E-01 -7.428170E+00 
1.727188E+02  9.963153E-01 -1.240544E+01  1.261958E-03 7.990637E+01  1.835560E-03 7.964401E+01 
 1.247228E-03 8.082556E+01  9.941041E-01 -7.534872E+00  7.757242E-03 8.170670E+01 
 1.818732E-03 8.081962E+01  7.711683E-03 8.206337E+01  9.967121E-01 -7.515576E+00 
1.764375E+02  9.968280E-01 -1.264772E+01  1.306963E-03 8.191997E+01  1.912699E-03 8.054342E+01 
 1.305241E-03 8.142357E+01  9.944792E-01 -7.691774E+00  7.598459E-03 8.061455E+01 
 1.895482E-03 8.014973E+01  7.588423E-03 8.079809E+01  9.962347E-01 -7.668993E+00 
1.801562E+02  9.964262E-01 -1.290331E+01  1.331706E-03 8.047876E+01  1.947242E-03 7.943064E+01 
 1.310455E-03 8.004495E+01  9.952410E-01 -7.817907E+00  7.970860E-03 8.085333E+01 
 1.948056E-03 8.110447E+01  7.918369E-03 8.103611E+01  9.965186E-01 -7.867272E+00 
1.838750E+02  9.969991E-01 -1.311802E+01  1.384796E-03 7.973759E+01  1.954977E-03 7.899233E+01 
 1.344321E-03 8.000371E+01  9.952335E-01 -7.961855E+00  8.101782E-03 8.181046E+01 
 1.956369E-03 7.858883E+01  8.134858E-03 8.220984E+01  9.972765E-01 -7.997568E+00 
1.875938E+02  9.970561E-01 -1.343630E+01  1.371749E-03 7.996434E+01  2.025687E-03 7.995464E+01 
 1.389683E-03 7.963317E+01  9.951475E-01 -8.176205E+00  8.271165E-03 8.156060E+01 
 2.072067E-03 7.939756E+01  8.342563E-03 8.178225E+01  9.973939E-01 -8.155183E+00 
1.913125E+02  9.969327E-01 -1.369401E+01  1.446035E-03 8.039610E+01  2.059177E-03 7.993096E+01 
 1.444321E-03 8.010595E+01  9.951012E-01 -8.350060E+00  8.563160E-03 8.094260E+01 
 2.040276E-03 8.044743E+01  8.586717E-03 8.141865E+01  9.969045E-01 -8.353819E+00 
1.950312E+02  9.959832E-01 -1.389551E+01  1.422388E-03 7.941126E+01  2.133886E-03 7.975671E+01 
 1.422659E-03 7.888453E+01  9.932008E-01 -8.450070E+00  8.641774E-03 8.050855E+01 
 2.122681E-03 7.963559E+01  8.644617E-03 8.062741E+01  9.954882E-01 -8.416926E+00 
1.987500E+02  9.962515E-01 -1.427464E+01  1.544027E-03 7.717778E+01  2.132343E-03 7.954579E+01 
 1.515569E-03 7.721835E+01  9.941508E-01 -8.625499E+00  8.719773E-03 8.018134E+01 
 2.155811E-03 7.820443E+01  8.699099E-03 8.050913E+01  9.967264E-01 -8.629903E+00 
2.024688E+02  9.962983E-01 -1.447253E+01  1.551198E-03 8.154925E+01  2.259718E-03 7.839157E+01 
 1.552064E-03 8.189655E+01  9.945359E-01 -8.748233E+00  8.925411E-03 8.007531E+01 
 2.233827E-03 7.852066E+01  8.982578E-03 8.012850E+01  9.966526E-01 -8.772139E+00 
2.061875E+02  9.964360E-01 -1.470819E+01  1.476320E-03 6.940317E+01  2.271178E-03 7.617642E+01 
 1.461975E-03 6.962132E+01  9.947316E-01 -8.907744E+00  8.930709E-03 8.072786E+01 
 2.240815E-03 7.667359E+01  8.938388E-03 8.073534E+01  9.972204E-01 -8.928870E+00 
2.099062E+02  9.966701E-01 -1.500426E+01  1.751288E-03 7.672247E+01  2.373466E-03 7.681356E+01 
 1.767490E-03 7.574570E+01  9.956753E-01 -9.003403E+00  9.183509E-03 8.037755E+01 
 2.376216E-03 7.720819E+01  9.210783E-03 8.042283E+01  9.981515E-01 -9.039184E+00 
2.136250E+02  9.974713E-01 -1.523620E+01  1.527235E-03 7.747811E+01  2.264165E-03 7.696719E+01 
 1.536271E-03 7.743343E+01  9.948714E-01 -9.236725E+00  9.419977E-03 8.062320E+01 
 2.278706E-03 7.789809E+01  9.440760E-03 8.108125E+01  9.977104E-01 -9.189967E+00 
2.173438E+02  9.961405E-01 -1.545929E+01  1.583564E-03 6.750536E+01  2.285764E-03 7.039938E+01 
 1.580941E-03 6.820330E+01  9.930863E-01 -9.313514E+00  9.501765E-03 7.989086E+01 
 2.296052E-03 7.015412E+01  9.524116E-03 8.002121E+01  9.966969E-01 -9.345768E+00 
2.210625E+02  9.960395E-01 -1.572174E+01  1.521342E-03 7.697446E+01  2.338701E-03 7.727128E+01 
 1.540201E-03 7.663218E+01  9.939151E-01 -9.489035E+00  9.768478E-03 7.972252E+01 
 2.338003E-03 7.645643E+01  9.819912E-03 7.996715E+01  9.972529E-01 -9.507577E+00 
2.247812E+02  9.962886E-01 -1.595506E+01  1.645449E-03 7.803251E+01  2.343126E-03 7.759531E+01 
 1.628031E-03 7.799462E+01  9.946009E-01 -9.627650E+00  9.816371E-03 7.921837E+01 
 2.342472E-03 7.724129E+01  9.841706E-03 7.950446E+01  9.977345E-01 -9.641456E+00 
2.285000E+02  9.960636E-01 -1.623712E+01  1.678643E-03 7.568571E+01  2.467093E-03 7.721498E+01 
 1.639065E-03 7.616760E+01  9.957967E-01 -9.806179E+00  9.949755E-03 8.044433E+01 
 2.448772E-03 7.707586E+01  9.976717E-03 8.049246E+01  9.983536E-01 -9.802204E+00 
2.322188E+02  9.967222E-01 -1.660234E+01  1.781193E-03 7.800148E+01  2.535763E-03 7.693937E+01 
 1.772588E-03 7.797006E+01  9.953984E-01 -9.944796E+00  1.022278E-02 8.007867E+01 
 2.564151E-03 7.743116E+01  1.025746E-02 8.013459E+01  9.974041E-01 -1.000118E+01 
2.359375E+02  9.966474E-01 -1.675257E+01  1.653796E-03 7.620941E+01  2.451852E-03 7.656344E+01 
 1.643933E-03 7.607512E+01  9.956074E-01 -1.012410E+01  1.046921E-02 7.995776E+01 
 2.453875E-03 7.641863E+01  1.048155E-02 8.009353E+01  9.985109E-01 -1.008886E+01 
2.396562E+02  9.961500E-01 -1.704893E+01  1.701351E-03 7.467006E+01  2.506541E-03 7.342852E+01 
 1.706850E-03 7.431409E+01  9.954672E-01 -1.031913E+01  1.065255E-02 7.974415E+01 
 2.503266E-03 7.363334E+01  1.066001E-02 7.965839E+01  9.984110E-01 -1.025106E+01 
2.433750E+02  9.959231E-01 -1.732376E+01  1.668639E-03 7.359014E+01  2.577387E-03 7.700821E+01 
 1.666852E-03 7.358222E+01  9.950187E-01 -1.039023E+01  1.080555E-02 7.856980E+01 
 2.570288E-03 7.711621E+01  1.079972E-02 7.883851E+01  9.981926E-01 -1.039488E+01 
2.470938E+02  9.958842E-01 -1.753709E+01  1.752907E-03 7.625753E+01  2.447010E-03 7.741236E+01 
 1.738305E-03 7.606412E+01  9.948824E-01 -1.057471E+01  1.087860E-02 7.863623E+01 
 2.453138E-03 7.725202E+01  1.089350E-02 7.888392E+01  9.990114E-01 -1.054761E+01 
2.508125E+02  9.964068E-01 -1.777867E+01  1.748408E-03 7.934589E+01  2.571797E-03 7.561548E+01 
 1.734927E-03 7.858897E+01  9.954442E-01 -1.074896E+01  1.083355E-02 7.912949E+01 
 2.577098E-03 7.597507E+01  1.086268E-02 7.943033E+01  9.995210E-01 -1.065625E+01 
2.545312E+02  9.965909E-01 -1.805802E+01  1.796277E-03 7.672139E+01  2.645953E-03 7.652017E+01 
 1.817038E-03 7.640864E+01  9.953733E-01 -1.094579E+01  1.110254E-02 7.895720E+01 
 2.654747E-03 7.697732E+01  1.113623E-02 7.907385E+01  1.000199E+00 -1.080607E+01 
2.582500E+02  9.965722E-01 -1.836330E+01  1.875116E-03 7.705233E+01  2.720448E-03 7.684060E+01 
 1.856546E-03 7.714726E+01  9.957877E-01 -1.107560E+01  1.138221E-02 7.913845E+01 
 2.714185E-03 7.641337E+01  1.141309E-02 7.946762E+01  1.000049E+00 -1.098683E+01 
2.619688E+02  9.963287E-01 -1.861850E+01  1.852890E-03 7.796532E+01  2.754117E-03 7.707165E+01 
 1.863706E-03 7.757351E+01  9.960034E-01 -1.125787E+01  1.160616E-02 7.883706E+01 
 2.735314E-03 7.632218E+01  1.162826E-02 7.900621E+01  9.994063E-01 -1.115003E+01 
2.656875E+02  9.955722E-01 -1.888086E+01  1.950139E-03 7.435840E+01  2.864671E-03 7.442548E+01 
 1.993661E-03 7.391979E+01  9.947155E-01 -1.137943E+01  1.168524E-02 7.784135E+01 
 2.870821E-03 7.407983E+01  1.170003E-02 7.780339E+01  9.987573E-01 -1.127950E+01 
2.694062E+02  9.961275E-01 -1.911058E+01  1.874787E-03 7.492565E+01  2.800889E-03 7.523279E+01 
 1.883903E-03 7.561090E+01  9.954456E-01 -1.153481E+01  1.187741E-02 7.782282E+01 
 2.817676E-03 7.525696E+01  1.190129E-02 7.795439E+01  9.989829E-01 -1.140515E+01 
2.731250E+02  9.969865E-01 -1.939248E+01  1.960092E-03 7.561279E+01  2.915102E-03 7.541340E+01 
 1.967468E-03 7.528153E+01  9.955681E-01 -1.171545E+01  1.193354E-02 7.737544E+01 
 2.903822E-03 7.509569E+01  1.194657E-02 7.751448E+01  9.997267E-01 -1.157459E+01 
2.768438E+02  9.961382E-01 -1.962378E+01  1.950634E-03 7.439467E+01  2.899313E-03 7.501598E+01 
 1.969087E-03 7.385781E+01  9.961018E-01 -1.182548E+01  1.208714E-02 7.839081E+01 
 2.893421E-03 7.489421E+01  1.206241E-02 7.836954E+01  1.000020E+00 -1.171126E+01 
2.805625E+02  9.962284E-01 -1.988604E+01  2.019667E-03 7.513099E+01  2.833157E-03 7.419157E+01 
 2.024725E-03 7.548442E+01  9.971426E-01 -1.192309E+01  1.227972E-02 7.842806E+01 
 2.847235E-03 7.414752E+01  1.232012E-02 7.833213E+01  1.000202E+00 -1.185912E+01 
2.842812E+02  9.960330E-01 -2.015358E+01  2.003661E-03 7.659124E+01  2.992301E-03 7.412354E+01 
 1.983147E-03 7.592506E+01  9.976988E-01 -1.203966E+01  1.250510E-02 7.794382E+01 
 2.996265E-03 7.426007E+01  1.253453E-02 7.780173E+01  9.992566E-01 -1.202342E+01 
2.880000E+02  9.959860E-01 -2.042989E+01  2.136202E-03 7.395205E+01  3.016813E-03 7.570776E+01 
 2.136119E-03 7.463692E+01  9.966637E-01 -1.218279E+01  1.282064E-02 7.761526E+01 
 3.040377E-03 7.554501E+01  1.281873E-02 7.762046E+01  9.999505E-01 -1.222460E+01 
2.917188E+02  9.957509E-01 -2.064502E+01  2.105015E-03 7.561274E+01  2.987976E-03 7.380465E+01 
 2.089542E-03 7.560836E+01  9.965545E-01 -1.228472E+01  1.276699E-02 7.694539E+01 
 2.984061E-03 7.367907E+01  1.279588E-02 7.697057E+01  9.992294E-01 -1.229061E+01 
2.954375E+02  9.962667E-01 -2.089930E+01  2.132337E-03 7.434368E+01  3.076835E-03 7.425864E+01 
 2.133357E-03 7.411667E+01  9.968475E-01 -1.245350E+01  1.285534E-02 7.684670E+01 
 3.063168E-03 7.461531E+01  1.286333E-02 7.683563E+01  9.991217E-01 -1.243657E+01 
2.991562E+02  9.965011E-01 -2.115401E+01  2.159791E-03 7.558354E+01  3.128211E-03 7.351074E+01 
 2.179702E-03 7.512240E+01  9.971942E-01 -1.262717E+01  1.310083E-02 7.702069E+01 
 3.138633E-03 7.321024E+01  1.307001E-02 7.695946E+01  9.995621E-01 -1.259936E+01 
3.028750E+02  9.966583E-01 -2.139333E+01  2.176110E-03 7.158293E+01  3.135013E-03 7.413477E+01 
 2.169269E-03 7.150134E+01  9.968309E-01 -1.275188E+01  1.312488E-02 7.740597E+01 
 3.124847E-03 7.383159E+01  1.312185E-02 7.746677E+01  9.992456E-01 -1.272744E+01 
3.065938E+02  9.953860E-01 -2.171762E+01  2.363526E-03 7.271934E+01  3.194733E-03 7.333954E+01 
 2.356769E-03 7.270890E+01  9.968913E-01 -1.294485E+01  1.331866E-02 7.719651E+01 
 3.158012E-03 7.352110E+01  1.332877E-02 7.715410E+01  9.999709E-01 -1.288209E+01 
3.103125E+02  9.953100E-01 -2.195139E+01  2.224309E-03 7.381449E+01  3.345846E-03 7.231529E+01 
 2.221551E-03 7.284703E+01  9.967053E-01 -1.308212E+01  1.350118E-02 7.716775E+01 
 3.314613E-03 7.233151E+01  1.351072E-02 7.711426E+01  9.998773E-01 -1.304251E+01 
3.140312E+02  9.945021E-01 -2.215389E+01  2.336645E-03 6.651154E+01  3.346570E-03 7.114887E+01 
 2.320238E-03 6.709186E+01  9.952504E-01 -1.320251E+01  1.353611E-02 7.658214E+01 
 3.347935E-03 7.121084E+01  1.356870E-02 7.650309E+01  9.988772E-01 -1.315105E+01 
3.177500E+02  9.952739E-01 -2.243593E+01  2.261433E-03 6.985673E+01  3.285555E-03 7.063403E+01 
 2.274640E-03 6.887386E+01  9.958859E-01 -1.334322E+01  1.367111E-02 7.639610E+01 
 3.278051E-03 7.034931E+01  1.368708E-02 7.640339E+01  9.995573E-01 -1.328761E+01 
3.214688E+02  9.955402E-01 -2.261184E+01  2.044741E-03 7.178781E+01  3.226159E-03 7.260129E+01 
 2.094297E-03 7.093444E+01  9.973184E-01 -1.348204E+01  1.382992E-02 7.689498E+01 
 3.240387E-03 7.251837E+01  1.386455E-02 7.676852E+01  1.000135E+00 -1.340719E+01 
3.251875E+02  9.959202E-01 -2.289415E+01  2.211756E-03 7.174113E+01  3.289329E-03 7.214625E+01 
