! Matrix data file written by TouchstoneData, EPCOS AG
! FILENAME: "B4309_NB.s2p"
! COMMENT: "(AI24B_R1C1_NB.s2p) Epcos AG 3/11/2011 10:50"
! INFO: nport=2, nfreq=1601
! DATE: "Thu Apr  7 08:25:53 2011"
! USER: "Jacques-Antoine Damy"
!
! port | pin | signal
! -----|-----|--------
!   1  |  1  |  IN
!   2  |  4  |  OUT
! --------------------
! 
# MHZ S RI R 50
! freq  reS11 imS11  reS21 imS21  reS12 imS12  reS22 imS22
1800  -0.604905784130096 -0.735188484191894  0.00504491943866013 -0.0014702477492392  0.00506915478035806 -0.00143198657315224  -0.422496974468231 -0.855579376220702 
1800.1875  -0.605652391910552 -0.73495066165924  0.00506966095417737 -0.00145150697790086  0.00504677416756748 -0.00149724376387894  -0.422870993614196 -0.85518968105316 
1800.375  -0.60638678073883 -0.734968245029448  0.00504377391189336 -0.00150293007027357  0.0050341817550361 -0.00147929671220481  -0.423120111227035 -0.855152249336242 
1800.5625  -0.607251286506652 -0.734458565711974  0.00501229986548423 -0.00147583347279578  0.00501684751361607 -0.0015146128134802  -0.423731535673141 -0.854901552200316 
1800.75  -0.608269035816192 -0.734256982803344  0.0050038257613778 -0.00148213328793645  0.00501891039311885 -0.00149856240022927  -0.424521416425704 -0.855084538459777 
1800.9375  -0.608874022960662 -0.73375105857849  0.00502062728628515 -0.00150327570736408  0.00501368707045912 -0.0015203250804916  -0.424695521593093 -0.85478240251541 
1801.125  -0.609323024749755 -0.733414232730864  0.00499188899993895 -0.00151012989226728  0.00499079003930091 -0.00155256479047238  -0.425459384918212 -0.855022966861724 
1801.3125  -0.610115945339202 -0.733338057994842  0.00492684869095682 -0.00153148861136287  0.00493316072970628 -0.00155719614122063  -0.426166206598281 -0.854226708412169 
1801.5  -0.611315190792083 -0.732972443103789  0.00489443819969891 -0.00149637076538056  0.0048677478916943 -0.00154942262452095  -0.427124470472335 -0.854181170463561 
1801.6875  -0.611871004104613 -0.732452809810637  0.00484078750014304 -0.00146333524025976  0.00483970064669846 -0.00148537615314126  -0.427795678377151 -0.853782415390014 
1801.875  -0.612809002399444 -0.731926023960112  0.00484864739701151 -0.00140766415279358  0.00482039852067827 -0.00144026649650186  -0.42828556895256 -0.853174924850463 
1802.0625  -0.613313734531402 -0.731283843517302  0.00480989599600433 -0.00141902815084904  0.00482166744768618 -0.00142700690776109  -0.428878754377364 -0.853108227252959 
1802.25  -0.6139897108078 -0.731196582317351  0.00479140924289822 -0.00140768522396683  0.00477995304390787 -0.00140385993290692  -0.429372161626815 -0.852729976177214 
1802.4375  -0.614880979061126 -0.73078691959381  0.00478132907301186 -0.00137137004639953  0.00477301003411411 -0.00136604497674852  -0.429609984159469 -0.852301359176635 
1802.625  -0.615932822227477 -0.730211257934569  0.00477377139031886 -0.00133510876912623  0.00477297278121113 -0.0013636436779052  -0.429967790842056 -0.851982712745665 
1802.8125  -0.616772592067718 -0.729770183563231  0.00474529294297098 -0.00130475149489939  0.00474595231935381 -0.00135033810511231  -0.430636793375015 -0.85203719139099 
1803  -0.617560505867004 -0.729158580303191  0.00470697274431585 -0.00134149147197604  0.0047200466506183 -0.00133472599554807  -0.431517899036407 -0.851887226104735 
1803.1875  -0.61840009689331 -0.728620648384093  0.00470893504098057 -0.00130136497318744  0.00471749901771544 -0.00128700886853039  -0.432758271694183 -0.85162317752838 
1803.375  -0.619149386882781 -0.728026330471038  0.00469636544585227 -0.00126662675756961  0.00469147507101296 -0.00128175353165716  -0.433290272951126 -0.851152956485747 
1803.5625  -0.619891703128814 -0.727597177028655  0.00469593657180666 -0.00122897431720048  0.00470110354945063 -0.00124606571625918  -0.43363407254219 -0.850630819797515 
1803.75  -0.620656788349151 -0.727176308631896  0.00472591118887066 -0.00122483156155795  0.00469815358519553 -0.0012616025051102  -0.434261977672576 -0.84998446702957 
1803.9375  -0.621514499187469 -0.726356327533721  0.00471891183406114 -0.00122632761485874  0.00470912037417292 -0.00121656898409128  -0.43521225452423 -0.849530458450316 
1804.125  -0.622021913528442 -0.725852370262145  0.00466813147068023 -0.00118765770457685  0.00466236658394336 -0.00119968131184578  -0.435654133558273 -0.849207162857054 
1804.3125  -0.622694432735442 -0.725244402885436  0.00470357947051524 -0.00118476047646254  0.00468810508027672 -0.00121158710680902  -0.43590024113655 -0.848765552043914 
1804.5  -0.623455643653869 -0.724736213684081  0.00466246157884597 -0.00119738082867115  0.00470175966620444 -0.00119667127728462  -0.436897039413452 -0.848591923713683 
1804.6875  -0.624004006385802 -0.724024832248687  0.00466644065454601 -0.00119653309229761  0.00465643545612692 -0.00117934262380004  -0.437811911106109 -0.848277449607848 
1804.875  -0.624899566173553 -0.723360061645507  0.00466895382851361 -0.00119789957534522  0.00466344412416219 -0.00118133402429521  -0.438365399837493 -0.847799420356749 
1805.0625  -0.625883817672729 -0.722684025764464  0.00468050036579369 -0.00113125774078071  0.00466984510421752 -0.0011956108501181  -0.438937246799468 -0.847422182559966 
1805.25  -0.626381456851958 -0.722244441509246  0.00466567184776067 -0.00118540530093014  0.00467442395165562 -0.00122388743329793  -0.439921170473098 -0.846769750118254 
1805.4375  -0.62687873840332 -0.721757352352141  0.00461647054180502 -0.00122216250747442  0.00463964417576789 -0.00123283581342548  -0.440795183181762 -0.846494793891906 
1805.625  -0.6277437210083 -0.721176743507384  0.00460647186264395 -0.00120000715833157  0.00460486486554145 -0.00123904051724821  -0.441546380519866 -0.845926582813262 
1805.8125  -0.62816286087036 -0.72078901529312  0.00456531299278139 -0.00120725412853062  0.00457845116034149 -0.0012384852161631  -0.442197173833846 -0.844838857650756 
1806  -0.62897753715515 -0.719967126846312  0.00453638797625898 -0.00123796565458178  0.00454911403357982 -0.0012036464177072  -0.442585617303848 -0.844203293323516 
1806.1875  -0.629661679267882 -0.719456911087035  0.00451721949502825 -0.00119669467676431  0.00450368737801908 -0.00118449574802071  -0.442838966846465 -0.843682289123534 
1806.375  -0.630203664302825 -0.718921780586242  0.00449543958529829 -0.00119067379273474  0.00452379276975988 -0.00119089847430587  -0.443544477224349 -0.843806385993956 
1806.5625  -0.630852043628692 -0.718237996101378  0.00446890480816363 -0.00118240143638104  0.00449330313131212 -0.00115969835314899  -0.443880647420883 -0.843579113483428 
1806.75  -0.631398856639861 -0.717386722564696  0.00446110544726252 -0.0011539205443114  0.00444876728579401 -0.00117911479901522  -0.444402277469634 -0.843231678009032 
1806.9375  -0.632197022438048 -0.717012345790862  0.00443675974383949 -0.0011812646407634  0.00443022232502698 -0.00116343540139496  -0.44563066959381 -0.842740833759307 
1807.125  -0.632805347442626 -0.716601192951201  0.00437180651351808 -0.00114534061867743  0.0044182352721691 -0.00116015481762588  -0.446379601955413 -0.842585325241088 
1807.3125  -0.633513689041137 -0.715817272663116  0.00439507653936743 -0.00114552373997867  0.0043888222426176 -0.00116931484080851  -0.447126418352126 -0.841856896877288 
1807.5  -0.634058952331542 -0.715210556983947  0.00434840703383087 -0.00118075113277882  0.00436534779146313 -0.00116057961713522  -0.447965621948242 -0.841154932975768 
1807.6875  -0.634744763374328 -0.714525282382964  0.00433390960097312 -0.00112611590884626  0.0043068928644061 -0.0011448678560555  -0.448544830083846 -0.840578615665435 
1807.875  -0.635476410388946 -0.714116930961608  0.00427471054717897 -0.00113089033402502  0.00431403517723082 -0.00111091311555356  -0.449105292558669 -0.839948058128356 
1808.0625  -0.636159181594848 -0.713246583938598  0.00428125401958822 -0.00109673349652439  0.00430182926356792 -0.00111463048961013  -0.44971540570259 -0.839396357536315 
1808.25  -0.636855125427245 -0.71230798959732  0.00423070369288324 -0.00112863350659609  0.00428845267742871 -0.00112946867011487  -0.450649172067642 -0.838484287261962 
1808.4375  -0.637778937816619 -0.711873114109038  0.00423751631751656 -0.0011234792182222  0.00420272443443536 -0.00114104058593511  -0.451408833265304 -0.837886691093444 
1808.625  -0.638587653636932 -0.711091756820678  0.00410612951964139 -0.00112722138874233  0.00415535969659685 -0.00112125824671238  -0.451712250709533 -0.83734905719757 
1808.8125  -0.63950878381729 -0.710200548171996  0.00409290567040442 -0.00108482397627085  0.00411050114780664 -0.00109735131263733  -0.452139019966125 -0.836577117443084 
1809  -0.640313684940337 -0.709401249885558  0.00408492516726254 -0.0010434192372486  0.00406978512182831 -0.00103461008984595  -0.45318180322647 -0.836236596107482 
1809.1875  -0.640934705734252 -0.708726227283477  0.0040854807011783 -0.000979978824034335  0.00404293695464729 -0.000989672378636899  -0.453679919242858 -0.835292637348174 
1809.375  -0.641890466213225 -0.707929551601409  0.00405199266970157 -0.000960628967732193  0.00402475195005535 -0.000992871471680703  -0.45432960987091 -0.834852039813994 
1809.5625  -0.642320156097411 -0.706963717937468  0.00403165956959128 -0.000961101264692845  0.0040056612342596 -0.000973443908151241  -0.454875797033309 -0.833865642547606 
1809.75  -0.643002152442931 -0.706063508987426  0.00400601094588636 -0.000934656593017282  0.00397222023457288 -0.000939520192332568  -0.455765396356582 -0.833070814609526 
1809.9375  -0.643568158149718 -0.705196022987365  0.0039340634830296 -0.000878568796906622  0.00392865622416138 -0.000890071736648681  -0.456486254930496 -0.832106411457061 
1810.125  -0.644348084926604 -0.704395174980163  0.00391432177275418 -0.000849995762109758  0.00394193595275282 -0.000847585790324958  -0.456777989864349 -0.830956399440764 
1810.3125  -0.644757330417632 -0.703548729419707  0.00392528809607028 -0.000809234683401884  0.00392343243584036 -0.000823791197035464  -0.457373589277267 -0.830381631851195 
1810.5  -0.64528453350067 -0.702809214591979  0.00391738303005694 -0.000756023859139534  0.00388297974132 -0.000798619119450452  -0.457190424203872 -0.829520761966704 
1810.6875  -0.646159291267394 -0.702103555202483  0.00390267418697476 -0.000735708163119854  0.00389068131335079 -0.000752784078940751  -0.457515954971313 -0.828699231147765 
1810.875  -0.646966874599456 -0.700986623764037  0.00392335839569568 -0.000709781539626421  0.00391402654349803 -0.000703435973264278  -0.458105087280273 -0.827861607074736 
1811.0625  -0.647573590278625 -0.699969589710235  0.00390276825055479 -0.00067642633803189  0.0039321151562035 -0.00067258585477248  -0.45865660905838 -0.826583385467528 
1811.25  -0.648225724697112 -0.698587834835052  0.00393695756793021 -0.000682553101796658  0.00395970698446034 -0.000698955496773125  -0.458241909742355 -0.825640857219695 
1811.4375  -0.648440480232238 -0.697518229484557  0.00396594684571027 -0.000658853095956148  0.00395211158320307 -0.000692289380822332  -0.458066701889037 -0.824868917465209 
1811.625  -0.648470640182494 -0.696100056171416  0.00392388692125677 -0.000677448813803496  0.0039438703097403 -0.000703572353813799  -0.458119004964828 -0.824817121028899 
1811.8125  -0.648515343666076 -0.695192873477935  0.00392707809805869 -0.000693478737957777  0.00389898079447447 -0.00066807947587222  -0.459090560674667 -0.824460446834563 
1812  -0.648532688617705 -0.694380939006804  0.00386260612867772 -0.000666344654746355  0.00386846810579299 -0.000676023482810707  -0.459152787923812 -0.823302447795867 
1812.1875  -0.648395240306853 -0.693554282188415  0.00386733608320355 -0.000607808586210014  0.00387116125784814 -0.00061985745560378  -0.458904296159744 -0.822281777858733 
1812.375  -0.648733556270598 -0.692800223827361  0.00389910419471561 -0.000545907532796265  0.00388169568032025 -0.000576357473619284  -0.458186149597167 -0.82210201025009 
1812.5625  -0.648621082305907 -0.69210648536682  0.00391358276829123 -0.000534649007022382  0.00393011001870035 -0.000569238676689566  -0.458441942930221 -0.821280360221862 
1812.75  -0.648732364177703 -0.691460132598876  0.00395230716094374 -0.000562138331588359  0.00394781539216637 -0.000586470298003407  -0.457638770341873 -0.82106989622116 
1812.9375  -0.648931264877318 -0.690653085708617  0.00391733879223465 -0.000627041270490737  0.00394770829007029 -0.000598178245127202  -0.457341611385345 -0.821342885494231 
1813.125  -0.649183750152587 -0.689777553081512  0.00389882526360451 -0.000606609857641162  0.00392526667565106 -0.000625604938250036  -0.457298278808593 -0.820877254009246 
1813.3125  -0.649241149425506 -0.689072370529174  0.0038906461559236 -0.00063500157557428  0.00391068495810031 -0.000642988947220148  -0.45734879374504 -0.821443498134612 
1813.5  -0.649607241153716 -0.688259005546569  0.00388703448697924 -0.000653446186333896  0.00390925537794828 -0.000659599842038007  -0.457811594009399 -0.821665465831756 
1813.6875  -0.64937663078308 -0.687265455722808  0.00385398138314485 -0.000681995181366803  0.00386948976665734 -0.000686346727889033  -0.458239555358886 -0.820953667163848 
1813.875  -0.649219334125518 -0.686047077178954  0.00383613165467977 -0.00067334348568693  0.00386006128974258 -0.000665207800921054  -0.458019375801086 -0.820639371871947 
1814.0625  -0.648496448993682 -0.685351490974425  0.0038680494762957 -0.000645396532490851  0.0038595211226493 -0.000660828140098603  -0.457408487796783 -0.820402979850768 
1814.25  -0.647999882698058 -0.684934198856353  0.00379818002693354 -0.00071677303640172  0.00382764963433146 -0.00073280598735437  -0.457023084163665 -0.821156442165374 
1814.4375  -0.647701978683471 -0.684966266155242  0.00376450759358703 -0.00069553649518639  0.0037673870101571 -0.000717335205990823  -0.457853406667709 -0.821794748306273 
1814.625  -0.647667527198791 -0.685243248939513  0.00375543581321835 -0.000742573523893954  0.00373885640874504 -0.00070875877281651  -0.458276212215423 -0.821938693523406 
1814.8125  -0.648195207118987 -0.685297012329101  0.00373341422528028 -0.000704515841789545  0.0037343909498304 -0.00073166092624888  -0.458959281444549 -0.821873605251311 
1815  -0.648620784282683 -0.68523347377777  0.00371608952991664 -0.000735400186385961  0.00374415307305752 -0.000715523958206178  -0.459567666053771 -0.822267711162566 
1815.1875  -0.649055421352386 -0.684930801391601  0.00364432367496192 -0.00075795251177624  0.00368881039321422 -0.000811346981208773  -0.460105150938033 -0.82292491197586 
1815.375  -0.649431586265563 -0.684746026992797  0.00362819456495344 -0.000782013463322075  0.00361807108856737 -0.000793181185144933  -0.460546880960464 -0.822548627853392 
1815.5625  -0.649673521518706 -0.685047090053557  0.00358834234066307 -0.000767456891480835  0.0035771308466792 -0.000788636214565487  -0.461022734642028 -0.822773277759551 
1815.75  -0.650369465351104 -0.685222387313842  0.00350167951546609 -0.000784071278758349  0.00351131916977464 -0.000771205872297289  -0.462099224328994 -0.82289433479309 
1815.9375  -0.651418924331664 -0.685158014297484  0.00347020337358116 -0.000731289968825878  0.00351418601348995 -0.000750256993342193  -0.462719410657882 -0.823242545127868 
1816.125  -0.652523934841155 -0.685099601745604  0.00348432618193328 -0.000782358576543631  0.00346458726562559 -0.000788470439147206  -0.463089138269424 -0.823025107383727 
1816.3125  -0.653857767581939 -0.684419095516204  0.00340863992460071 -0.000786273274570705  0.00341519503854214 -0.000807435484603049  -0.46375548839569 -0.823138773441314 
1816.5  -0.654825031757354 -0.683384239673614  0.00332167465239762 -0.0007959101931192  0.0033336083870381 -0.000791388156358154  -0.464041680097579 -0.823620259761809 
1816.6875  -0.655603647232055 -0.682270050048827  0.00329546397551893 -0.000759978720452638  0.00328945717774331 -0.00077672937186435  -0.464766561985015 -0.823449373245238 
1816.875  -0.656061172485351 -0.681232094764708  0.00325456261634826 -0.000751099141780289  0.00322992051951586 -0.000758571666665377  -0.465450018644332 -0.824036419391631 
1817.0625  -0.656348466873168 -0.680565893650054  0.00318197277374565 -0.000730770523659886  0.0031853811815381 -0.000737288733944298  -0.466991782188415 -0.824471473693846 
1817.25  -0.656480729579925 -0.680022597312926  0.00316649605520069 -0.000707892409991474  0.00315288151614367 -0.000705816433764996  -0.467820972204208 -0.8241229057312 
1817.4375  -0.656647384166717 -0.679784595966338  0.00312233762815594 -0.000666425446979703  0.00311516225337982 -0.000691455672495069  -0.468699634075164 -0.824483215808867 
1817.625  -0.657350301742553 -0.679486572742461  0.00306101469323038 -0.00062874221475795  0.00307966768741607 -0.000690574233885856  -0.470066279172897 -0.824266970157622 
1817.8125  -0.658161222934722 -0.679248511791228  0.00302016595378517 -0.000634113501291724  0.00302952318452298 -0.000641912396531554  -0.470929950475692 -0.823618054389952 
1818  -0.659008920192718 -0.678951799869536  0.00298337033018469 -0.000607042631600054  0.00301945279352366 -0.000602835032623262  -0.471643537282943 -0.823167502880095 
1818.1875  -0.660069465637206 -0.67856878042221  0.00298787211067974 -0.000591151998378338  0.00299082952551543 -0.000620753038674594  -0.472042590379714 -0.823880255222319 
1818.375  -0.66113269329071 -0.677655994892119  0.00292465463280677 -0.000594380486290903  0.00291674234904348 -0.000604711065534504  -0.473102271556854 -0.823449850082396 
1818.5625  -0.662268459796905 -0.676698327064513  0.00289207976311445 -0.000558577827177943  0.00287473108619451 -0.00057618459686637  -0.474013924598693 -0.823003888130187 
1818.75  -0.662877857685088 -0.67567616701126  0.00281072175130247 -0.00051742303185165  0.00282579497434198 -0.000544109265320004  -0.474444299936294 -0.822984158992766 
1818.9375  -0.663759231567382 -0.67480969429016  0.00280663068406283 -0.000521841575391592  0.00280199781991541 -0.000515887688379736  -0.475554198026656 -0.822992622852324 
1819.125  -0.664303481578826 -0.673951566219329  0.00275501376017928 -0.000467155128717424  0.00277393520809709 -0.000511660182382913  -0.476661771535873 -0.823143899440764 
1819.3125  -0.664707422256469 -0.672785639762878  0.00273217563517391 -0.000445556011982263  0.00272868108004331 -0.0004741222364828  -0.477738618850707 -0.823073744773864 
1819.5  -0.66512382030487 -0.672161102294921  0.00269469362683594 -0.000431858643423767  0.00269316625781357 -0.00044103094842285  -0.478696107864379 -0.822667121887206 
1819.6875  -0.665518105030059 -0.671436548233031  0.00267354096285998 -0.000420057040173561  0.00263224844820797 -0.000433801789768041  -0.480050593614578 -0.822390854358672 
1819.875  -0.665868818759917 -0.670374274253844  0.00260493834502994 -0.000396735296817497  0.00263773137703537 -0.000410683423979209  -0.480319589376449 -0.821710228919982 
1820.0625  -0.665984213352202 -0.66987246274948  0.00259136408567428 -0.000375972682377324  0.00260243797674775 -0.000393543828977273  -0.481235325336456 -0.821298480033873 
1820.25  -0.666249811649322 -0.669832885265349  0.00254046055488288 -0.000365222833352164  0.00255144829861819 -0.000386550993425772  -0.482283443212508 -0.821439683437346 
1820.4375  -0.666868805885314 -0.669468224048614  0.0025079867336899 -0.000339534017257393  0.00253286561928689 -0.00033631396945566  -0.483221441507339 -0.820562422275542 
1820.625  -0.667619109153747 -0.669266521930694  0.00248959148302674 -0.000312108342768625  0.00248354393988847 -0.000324065564200283  -0.484299898147582 -0.82043820619583 
1820.8125  -0.66862791776657 -0.668885111808776  0.00246417196467518 -0.000291724863927812  0.00244635483250021 -0.00028207790455781  -0.485269933938979 -0.820135831832885 
1821  -0.670312464237212 -0.66828018426895  0.00243764324113726 -0.000262742949416862  0.00242233113385736 -0.000267604016698897  -0.486226141452789 -0.820168077945708 
