! Matrix data file written by TouchstoneData, EPCOS AG
! FILENAME: "B4309_WB.s2p"
! COMMENT: "(AI24B_R1C1_WB.s2p) Epcos AG 3/11/2011 10:50"
! INFO: nport=2, nfreq=1601
! DATE: "Thu Apr  7 08:25:59 2011"
! USER: "Jacques-Antoine Damy"
!
! port | pin | signal
! -----|-----|--------
!   1  |  1  |  IN
!   2  |  4  |  OUT
! --------------------
! 
# MHZ S RI R 50
! freq  reS11 imS11  reS21 imS21  reS12 imS12  reS22 imS22
50  0.995537400245665 -0.0719532072544097  3.42428720614408e-05 0.00128425750881433  0.000137988026835956 0.00129692582413554  0.998300313949584 -0.0562278255820273 
53.71875  0.994690656661986 -0.0769634395837782  0.000133832538267598 0.00144270691089332  0.00010979922808474 0.00139745709020644  0.99928855895996 -0.0605640821158885 
57.4375  0.994957447052001 -0.082399897277355  0.000110972272523213 0.0014589405618608  0.000100875688076485 0.00150847830809652  0.997748792171477 -0.064494028687477 
61.15625  0.994427561759947 -0.0879345759749411  0.000167634716490284 0.00156839122064411  0.000114626098365989 0.00157002662308514  0.997482299804686 -0.0690275952219962 
64.875  0.993109941482543 -0.0937599241733549  0.000194644730072469 0.00169263605494052  0.000150195497553796 0.0016851871041581  0.997515618801116 -0.0732520967721938 
68.59375  0.992738723754882 -0.0990764275193213  0.000200574068003335 0.00179793185088783  0.000185078708454967 0.00176646234467625  0.996640980243682 -0.078270375728607 
72.3125  0.991323351860045 -0.103539429605007  0.000273643760010601 0.00191831460688263  0.000247043353738264 0.0019066915847361  0.994034767150878 -0.0802798867225646 
76.03125  0.99188321828842 -0.109517440199852  0.000193366315215826 0.00193432497326284  0.000176959336386063 0.00197957921773195  0.996037662029265 -0.0856523066759108 
79.75  0.990637958049773 -0.114906094968319  0.000148954946780578 0.00210031238384544  0.000169703882420436 0.0020946254953742  0.995256602764128 -0.0898106023669241 
83.46875  0.990510582923888 -0.120339810848236  0.000184182063094341 0.00213580788113176  0.000235423911362887 0.00217084609903395  0.997115731239318 -0.0944923385977743 
87.1875  0.990017652511595 -0.12536583840847  0.000247173797106371 0.00228679901920258  0.000273183715762571 0.00225768936797976  0.995209753513335 -0.096832253038883 
90.90625  0.987997114658354 -0.131379589438438  0.000304962450172753 0.00237687956541776  0.000262973888311536 0.00234181433916091  0.994039475917815 -0.102597437798977 
94.625  0.988261342048644 -0.136522158980369  0.000311681971652434 0.00248098582960665  0.000304137676721439 0.0024737340863794  0.993214726448058 -0.107914842665195 
98.34375  0.987774312496184 -0.141557291150093  0.000299624138278887 0.00256158621050417  0.000252183934208006 0.0025904569774866  0.993016600608824 -0.111777298152447 
102.0625  0.986628055572508 -0.146777674555778  0.000335931428708137 0.0026487570721656  0.000343067018548027 0.00262297270819544  0.992327392101286 -0.11555914580822 
105.78125  0.985825419425963 -0.152873009443283  0.000436263362644241 0.00272255134768783  0.000383441423764453 0.00275437044911086  0.991306662559508 -0.118237435817718 
109.5  0.98511517047882 -0.157257810235023  0.000374024384655059 0.0028213383629918  0.000395886396290735 0.00283146509900688  0.99208217859268 -0.123741924762726 
113.21875  0.98432022333145 -0.162268370389938  0.000457962712971495 0.00293360091745853  0.000417898991145194 0.00292483996599912  0.990447461605071 -0.127593368291855 
116.9375  0.983126044273375 -0.167907431721687  0.000518577813636513 0.00295580783858895  0.000455657544080169 0.00295027298852801  0.989488661289214 -0.132008001208305 
120.65625  0.981021344661711 -0.173373132944107  0.000475925276987256 0.00308615807443856  0.000484384770970793 0.00310326856561004  0.988165259361266 -0.136759385466575 
124.375  0.981107056140898 -0.178592845797538  0.000533461687155069 0.00315269106067716  0.000520463916473092 0.00315884966403245  0.989017784595488 -0.140435263514519 
128.09375  0.98043382167816 -0.183308959007263  0.000586510112043471 0.00325531885027885  0.000535299885086716 0.00329717597924172  0.988690078258513 -0.144692346453666 
131.8125  0.978684425354002 -0.188753366470337  0.000536590756382794 0.0033651974517852  0.000608210917562248 0.00334630953148007  0.990160942077635 -0.148941189050674 
135.53125  0.978519320487975 -0.193672254681587  0.000626746332272889 0.00350155821070074  0.000617658486589791 0.00345749058760702  0.987263441085814 -0.151398956775665 
139.25  0.976608395576476 -0.198956087231636  0.000627917295787485 0.00347041198983788  0.000666156585793944 0.00352424476295709  0.987416803836821 -0.157780408859253 
142.96875  0.975681364536284 -0.2050321996212  0.000733433465939017 0.00363894295878708  0.000680066063068809 0.0036443721037358  0.984772622585295 -0.160547956824302 
146.6875  0.974617540836333 -0.20895516872406  0.000705216254573317 0.00365398474968969  0.000681793724652381 0.00363176059909164  0.985122501850127 -0.163760975003242 
150.40625  0.974081575870513 -0.213519319891929  0.000748584454413505 0.00388506264425813  0.00071300833951682 0.00382083118893205  0.985029458999632 -0.168253287672996 
154.125  0.973542630672454 -0.219448983669281  0.000849559146445246 0.00385687011294066  0.000778840563725682 0.00389767321757971  0.983657658100127 -0.173039123415947 
157.84375  0.971162259578704 -0.225555196404457  0.000731953768990936 0.00398994702845811  0.000815501494798811 0.0039386274293065  0.98209375143051 -0.17661489546299 
161.5625  0.970808506011962 -0.230030179023742  0.000876025645993652 0.00412090169265865  0.000880718871485444 0.00406823446974157  0.983015060424803 -0.180663138628006 
165.28125  0.968635261058806 -0.235093340277672  0.000953751441556962 0.00421496341004967  0.00090384448412806 0.00414568418636917  0.981807887554167 -0.183011174201965 
169  0.968056678771971 -0.239808201789856  0.000942273647524418 0.00427129724994301  0.000923097541090103 0.00424430053681134  0.9810494184494 -0.186818778514862 
172.71875  0.966289162635802 -0.243951573967933  0.000924090563785287 0.00433331495150923  0.000974337686784568 0.00432010460644959  0.980085253715514 -0.192152082920074 
176.4375  0.964307129383086 -0.250132650136947  0.00101443275343627 0.00440393947064876  0.00103440671227872 0.00440153572708367  0.98025345802307 -0.196174547076225 
180.15625  0.963635385036467 -0.254978448152542  0.00109879404772073 0.00448281131684779  0.0010627923766151 0.004501074552536  0.978009998798369 -0.201137661933899 
183.875  0.962083876132964 -0.260957330465316  0.00110192585270852 0.00462315836921333  0.0011009284062311 0.0045583383180201  0.97653955221176 -0.204469591379165 
187.59375  0.961520612239836 -0.266046524047851  0.00111813703551888 0.00464044325053691  0.00113067589700222 0.00464701931923627  0.977525234222411 -0.20966237783432 
191.3125  0.959279119968413 -0.271501362323761  0.00119839422404766 0.00468135438859462  0.0012139604659751 0.00475311884656547  0.976623594760893 -0.212870150804519 
195.03125  0.958111286163329 -0.274949133396148  0.0012007727054879 0.00475784856826066  0.00125468045007437 0.00480837747454642  0.972615838050841 -0.215388253331184 
198.75  0.956239163875578 -0.279845029115676  0.00127213692758232 0.00487671280279754  0.00127319060266018 0.00490309484302996  0.974017679691313 -0.221341356635093 
202.46875  0.955145120620726 -0.285632908344268  0.00135373824741691 0.0049865748733282  0.00132115790620446 0.0049831443466246  0.973030984401702 -0.224533692002296 
206.1875  0.953763723373412 -0.29002621769905  0.00138098059687763 0.00506534241139888  0.00136581785045564 0.00506346486508845  0.973315834999083 -0.226904705166816 
209.90625  0.95254737138748 -0.295046716928482  0.00142170721665024 0.00514634652063249  0.00141003250610083 0.00514832837507128  0.972508370876311 -0.231016099452972 
213.625  0.948855102062224 -0.300629377365112  0.0014611764345318 0.00522393826395272  0.00144133309368044 0.00524659082293509  0.969976603984831 -0.235707998275756 
217.34375  0.947785437107085 -0.304542422294616  0.00149319833144545 0.00531043903902172  0.00150714674964547 0.00529094459488987  0.968693792819976 -0.240922510623932 
221.0625  0.946843802928923 -0.309113770723342  0.00156132329721003 0.00536619406193494  0.00157755985856056 0.00537954736500977  0.967912614345549 -0.244802147150039 
224.78125  0.945837974548338 -0.31369525194168  0.00159196881577372 0.00549821136519312  0.00162780180107802 0.00551177654415368  0.966808438301085 -0.24736525118351 
228.5  0.944692015647887 -0.319572210311889  0.00167721847537905 0.00559047469869255  0.00165406498126685 0.00556458719074725  0.96646475791931 -0.251700490713119 
232.21875  0.94198179244995 -0.325504809617996  0.00173251284286379 0.00570070184767245  0.00174830912146717 0.00567006319761275  0.964105248451232 -0.257088750600814 
235.9375  0.94020515680313 -0.329851508140564  0.00178861583117395 0.00571864843368529  0.00178457039874047 0.00569969601929186  0.96272987127304 -0.26014444231987 
239.65625  0.938557684421538 -0.334376275539398  0.00175993877928704 0.00578728551045059  0.00182985921856016 0.00577502977102994  0.961172699928282 -0.264464050531387 
243.375  0.937027990818022 -0.338042497634887  0.00185925047844648 0.00586986308917402  0.00186864775605499 0.00586303882300852  0.960275232791899 -0.266216725111007 
247.09375  0.93597501516342 -0.343761175870895  0.00189651665277779 0.00595060642808674  0.00192705600056797 0.00593635998666285  0.959923863410948 -0.270709306001663 
250.8125  0.934302747249602 -0.348282247781753  0.00199758284725248 0.0060103186406195  0.00200065178796649 0.00601846445351838  0.959534347057341 -0.275238692760467 
254.53125  0.932630240917204 -0.353291511535644  0.00204290356487035 0.0061154500581324  0.00205327523872256 0.00609433138743042  0.957231581211089 -0.278877079486847 
258.25  0.930945515632628 -0.358160376548767  0.00210167653858661 0.00618390226736663  0.0020958068780601 0.0061703249812126  0.956644475460051 -0.28421613574028 
261.96875  0.927947521209716 -0.364492982625961  0.00217704148963093 0.00625954940915106  0.00217400630936026 0.00625337939709424  0.956170797348021 -0.287324398756027 
265.6875  0.926335930824278 -0.366825610399246  0.00220327638089656 0.00633098883554338  0.00220083654858171 0.00633523380383848  0.955214977264403 -0.28991949558258 
269.40625  0.92613923549652 -0.371862143278121  0.00222971965558826 0.00639310386031865  0.00225521717220544 0.00641838507726787  0.953715860843657 -0.293767750263214 
273.125  0.92341101169586 -0.375964730978012  0.00233383895829319 0.00648169219493864  0.0023205610923469 0.00647978158667682  0.952561855316161 -0.29949951171875 
276.84375  0.921570599079131 -0.381901293992996  0.0024190682452172 0.0064973598346114  0.00238821445964276 0.00652610650286077  0.951151609420775 -0.301867574453353 
280.5625  0.9196839928627 -0.386056542396545  0.00247348984703421 0.00661475490778683  0.00245797703973948 0.00660519953817128  0.950776457786559 -0.308128714561462 
284.28125  0.918209135532378 -0.392006069421768  0.00251616281457245 0.00664878031238912  0.00253914878703653 0.00667355209589003  0.94827914237976 -0.310302913188934 
288  0.915368854999541 -0.395456701517105  0.0025755853857845 0.00679198838770388  0.0025721036363393 0.0067697102203965  0.947880327701567 -0.314589321613311 
291.71875  0.913152217864989 -0.400473088026046  0.00266462797299027 0.00677235331386326  0.00262955855578184 0.00677106902003287  0.944868743419646 -0.317891210317611 
295.4375  0.911740481853484 -0.405432522296905  0.00269092223607003 0.00688220607116817  0.00271357782185077 0.00687112240120767  0.944442570209502 -0.320744454860687 
299.15625  0.908916234970092 -0.410336017608642  0.00281038344837725 0.00698912609368561  0.00279164034873247 0.00693999649956821  0.942727684974669 -0.327122777700424 
302.875  0.907310247421263 -0.41454729437828  0.00286947423592209 0.00702254706993698  0.00282900896854698 0.00704660732299088  0.943461835384368 -0.33040052652359 
306.59375  0.904818475246428 -0.419268518686294  0.00295776268467306 0.0070464853197336  0.00293568708002567 0.00707246875390409  0.941046237945555 -0.334093481302261 
310.3125  0.901157975196837 -0.425012320280074  0.00294329714961349 0.00715242046862839  0.0029813137371093 0.00716446107253431  0.938976645469664 -0.338032722473144 
314.03125  0.90024310350418 -0.427192658185958  0.00304624577984213 0.00728192087262867  0.00303237373009323 0.00725234672427176  0.937041044235228 -0.342139720916748 
317.75  0.89781880378723 -0.43219256401062  0.00306293671019375 0.00725583219900726  0.00308110332116484 0.00723994569852947  0.93515521287918 -0.343595951795578 
321.46875  0.896021425724028 -0.436686635017394  0.00313808443024754 0.00730945216491817  0.00316306576132774 0.00733097596094011  0.934107422828673 -0.348653316497802 
325.1875  0.893397092819213 -0.441542983055114  0.00325583107769489 0.00741357263177632  0.00321430154144763 0.00740688294172285  0.932317078113555 -0.352109193801879 
328.90625  0.89098161458969 -0.446306943893432  0.00333580886945128 0.00754654966294764  0.00331167737022042 0.00748267769813536  0.931511759757994 -0.35679268836975 
332.625  0.888959407806395 -0.450886160135269  0.00338255194947123 0.00756824761629103  0.00333209708333015 0.00750971818342803  0.930227398872374 -0.359097748994827 
336.34375  0.885603249073027 -0.45476821064949  0.00345351570285856 0.00758127076551316  0.0034596191253513 0.00760436197742818  0.928682386875151 -0.363926351070404 
340.0625  0.883252501487731 -0.460114300251006  0.00355854257941245 0.0076564187183976  0.00350549886934458 0.00765449460595844  0.925734043121337 -0.367304474115371 
343.78125  0.881404161453246 -0.463882148265838  0.00360898440703749 0.00767715182155369  0.0035826067905873 0.00770136294886468  0.924761652946471 -0.370742976665496 
347.5  0.878749549388884 -0.469727963209152  0.00360856717452406 0.00776049168780444  0.00368509697727858 0.00780461356043814  0.924795567989348 -0.374397963285446 
351.21875  0.876491844654082 -0.473717302083968  0.00372250634245574 0.00778473867103456  0.00373179023154079 0.00783731881529091  0.922742128372191 -0.379408061504364 
354.9375  0.872976183891295 -0.478474617004394  0.00376783427782356 0.00788025744259356  0.0037851242814213 0.00786833744496105  0.920389771461486 -0.383077174425125 
358.65625  0.869045317173003 -0.481748938560485  0.00384881277568637 0.00795434881001709  0.00384519156068563 0.00790695566684006  0.918990433216094 -0.386645764112472 
362.375  0.86865210533142 -0.486456274986266  0.00389004684984683 0.00795421749353407  0.00392231484875082 0.0079934326931834  0.91631519794464 -0.389521569013595 
366.09375  0.86542248725891 -0.49063828587532  0.00396841159090399 0.00807976350188254  0.00402033003047108 0.00806532520800827  0.915464818477629 -0.394028782844543 
369.8125  0.862987101078032 -0.495682179927825  0.00403191288933157 0.0080443602055311  0.00409824866801499 0.00813230779021976  0.913342118263243 -0.397261083126068 
373.53125  0.860565841197966 -0.500386476516723  0.00418470706790685 0.00813032127916811  0.00413662521168589 0.00814841967076061  0.911359012126921 -0.401502907276153 
377.25  0.856796324253081 -0.504321932792663  0.00425948528572916 0.00820732116699217  0.00424274615943431 0.00820845272392033  0.909869372844695 -0.405421644449233 
380.96875  0.854197740554808 -0.509152710437774  0.00433820113539695 0.00825787615031002  0.00430838577449321 0.00825619697570799  0.909697830677031 -0.410389244556426 
384.6875  0.851826608180999 -0.51241248846054  0.00436947681009768 0.00835315883159636  0.00439255079254507 0.00832456909120081  0.90695947408676 -0.413026809692382 
388.40625  0.848710656166076 -0.516632199287414  0.00444429740309714 0.0083704302087426  0.00445812847465276 0.00835811533033846  0.905988812446593 -0.415915638208389 
392.125  0.846578955650328 -0.521452248096465  0.00451636919751762 0.00844239164143799  0.00457286508753895 0.00843920093029736  0.904226481914519 -0.420264363288879 
395.84375  0.843502044677733 -0.525250077247619  0.00465247547253965 0.00846503023058174  0.00462292274460195 0.00847775116562841  0.902062237262725 -0.422642469406127 
399.5625  0.841113626956938 -0.529581606388091  0.00475387554615735 0.00849848985671995  0.00472475960850715 0.00852177757769821  0.900844573974608 -0.427405506372451 
403.28125  0.8372945189476 -0.534902691841125  0.00482904631644486 0.00853295531123875  0.00476327165961264 0.00853407662361858  0.898507177829741 -0.431272268295288 
407  0.834367871284484 -0.537579178810119  0.00482186302542685 0.00854929350316523  0.0047979219816625 0.00856345798820255  0.895238518714904 -0.434056997299194 
410.71875  0.831993579864501 -0.539913475513458  0.00487798172980546 0.00865411199629305  0.00484165363013743 0.00870463810861109  0.894413888454436 -0.433104842901229 
414.4375  0.829326570034026 -0.54762041568756  0.00490427948534488 0.00867876969277857  0.00496239867061375 0.00868925638496874  0.893354356288909 -0.441091358661651 
418.15625  0.826470792293548 -0.551501154899596  0.00503110140562056 0.00871818792074917  0.00504206027835606 0.00875904411077497  0.890591800212859 -0.446077525615692 
421.875  0.822830379009246 -0.555554687976836  0.00507518975064157 0.00879739411175249  0.00511704804375767 0.00874521397054194  0.889318823814391 -0.448626101016998 
425.59375  0.819420218467711 -0.559457898139953  0.00521850073710083 0.00883714389055965  0.00516324583441018 0.00879081338644026  0.886865913867949 -0.452986925840377 
429.3125  0.815983653068541 -0.563466727733611  0.00529888132587074 0.00879279617220161  0.00529218558222054 0.00883080344647167  0.885163545608519 -0.456175059080123 
433.03125  0.815119385719298 -0.566268384456634  0.00530556123703717 0.00884801801294086  0.00528385629877447 0.00889238249510525  0.882748246192931 -0.458114862442016 
436.75  0.812683224678038 -0.570133328437804  0.00542429834604262 0.00896885152906177  0.00540181761607526 0.00895477551966904  0.881216347217559 -0.462982237339019 
440.46875  0.81014847755432 -0.57511955499649  0.0055030989460647 0.00897697266191242  0.00558739434927701 0.00895483512431381  0.880060851573943 -0.467685252428054 
444.1875  0.806319296360015 -0.578429460525512  0.00561648653820156 0.00893806386739014  0.00562297599390148 0.00899194274097679  0.87697809934616 -0.468752026557922 
447.90625  0.803629994392394 -0.582843422889709  0.00568307749927043 0.00900670979171989  0.00569096719846128 0.00902792811393736  0.875908255577086 -0.472032845020294 
451.625  0.799798250198363 -0.587990820407867  0.00577918253839015 0.00903134886175392  0.00575919728726147 0.00909080076962707  0.874111354351042 -0.477104544639587 
455.34375  0.796966075897216 -0.590280890464782  0.00584581540897487 0.00911572482436893  0.00583952711895107 0.00906970351934431  0.871010601520537 -0.47977539896965 
459.0625  0.794574320316314 -0.595019042491912  0.00590137299150227 0.0091428132727742  0.00590301817283033 0.00916568376123903  0.870450496673583 -0.48364558815956 
462.78125  0.791460990905761 -0.598874986171722  0.00604124506935476 0.00921769160777328  0.00603589927777647 0.00915714073926208  0.869203984737395 -0.48606789112091 
466.5  0.788941502571105 -0.602940559387206  0.00610644230619072 0.00921713840216396  0.00611884985119103 0.00920897722244261  0.866287171840666 -0.489087790250778 
470.21875  0.785422265529632 -0.606511771678924  0.00617518927901982 0.0092531908303499  0.00613891426473855 0.00921412743628023  0.863650441169738 -0.494567483663558 
473.9375  0.782414853572844 -0.61084485054016  0.00626210309565066 0.00919782277196644  0.00624307803809641 0.00928116030991075  0.862233877182006 -0.497696608304977 
477.65625  0.778401136398314 -0.614054918289184  0.0063523445278406 0.00926352757960556  0.00633883709087966 0.00929417368024586  0.860450208187102 -0.501539647579192 
