! Matrix data file written by TouchstoneData, EPCOS AG
! FILENAME: "LY26A_9_NB.s2p_newformat"
! COMMENT: "(LY26A_9_NB.s2p) EPCOS AG 23.02.2010 15:22:2"
! INFO: nport=2, nfreq=1601
! DATE: "Thu May 20 11:04:03 2010"
! USER: "Michael Schemies"
!
! port | pin | signal
! -----|-----|--------
!   1  |  1  |  in
!   2  |  4  |  out
! --------------------
! 
# MHZ S MA R 50
! freq  magS11 angS11  magS21 angS21  magS12 angS12  magS22 angS22
1.375420E+03  9.637459E-01 -9.718777E+01  4.265924E-03 -1.788754E+00  4.232908E-03 -1.731710E+00  9.610610E-01 -9.896160E+01 
1.375670E+03  9.633295E-01 -9.723411E+01  4.260923E-03 -1.532326E+00  4.236291E-03 -1.820200E+00  9.614071E-01 -9.900283E+01 
1.375920E+03  9.629929E-01 -9.722925E+01  4.261683E-03 -1.654001E+00  4.249585E-03 -1.456419E+00  9.608398E-01 -9.901379E+01 
1.376170E+03  9.625472E-01 -9.725671E+01  4.263901E-03 -1.744375E+00  4.281247E-03 -1.919062E+00  9.612634E-01 -9.901482E+01 
1.376420E+03  9.620459E-01 -9.726043E+01  4.251540E-03 -1.726455E+00  4.268776E-03 -2.151679E+00  9.614263E-01 -9.905963E+01 
1.376670E+03  9.616327E-01 -9.724611E+01  4.277715E-03 -1.971557E+00  4.245997E-03 -2.276995E+00  9.611827E-01 -9.909277E+01 
1.376920E+03  9.616838E-01 -9.719778E+01  4.277272E-03 -2.260244E+00  4.245305E-03 -2.787143E+00  9.613644E-01 -9.907835E+01 
1.377170E+03  9.622089E-01 -9.716358E+01  4.217759E-03 -1.760249E+00  4.229292E-03 -2.440766E+00  9.616608E-01 -9.908625E+01 
1.377420E+03  9.628163E-01 -9.717497E+01  4.210988E-03 -1.959320E+00  4.238876E-03 -2.426665E+00  9.623200E-01 -9.910364E+01 
1.377670E+03  9.628277E-01 -9.720015E+01  4.215545E-03 -1.567512E+00  4.236082E-03 -2.007904E+00  9.625240E-01 -9.915076E+01 
1.377920E+03  9.627434E-01 -9.721997E+01  4.241622E-03 -2.152953E+00  4.243627E-03 -2.226389E+00  9.625317E-01 -9.920216E+01 
1.378170E+03  9.621570E-01 -9.724603E+01  4.199843E-03 -2.294052E+00  4.220780E-03 -2.574819E+00  9.623667E-01 -9.926198E+01 
1.378420E+03  9.621886E-01 -9.722684E+01  4.191206E-03 -1.930240E+00  4.201653E-03 -2.160785E+00  9.620848E-01 -9.929661E+01 
1.378670E+03  9.620835E-01 -9.723401E+01  4.184511E-03 -1.615490E+00  4.209974E-03 -2.011770E+00  9.615302E-01 -9.932229E+01 
1.378920E+03  9.627611E-01 -9.724219E+01  4.195297E-03 -1.772534E+00  4.172867E-03 -2.283535E+00  9.614209E-01 -9.930707E+01 
1.379170E+03  9.631042E-01 -9.727680E+01  4.173088E-03 -2.194114E+00  4.136921E-03 -1.657725E+00  9.616687E-01 -9.934191E+01 
1.379420E+03  9.629633E-01 -9.733004E+01  4.197494E-03 -1.644922E+00  4.166890E-03 -2.128664E+00  9.613634E-01 -9.941689E+01 
1.379670E+03  9.628820E-01 -9.736012E+01  4.170347E-03 -1.993754E+00  4.158205E-03 -2.170115E+00  9.607026E-01 -9.944189E+01 
1.379920E+03  9.630214E-01 -9.737748E+01  4.136071E-03 -1.891832E+00  4.169652E-03 -2.104219E+00  9.604714E-01 -9.945518E+01 
1.380170E+03  9.636558E-01 -9.740212E+01  4.182176E-03 -2.267727E+00  4.156889E-03 -1.779369E+00  9.605950E-01 -9.947629E+01 
1.380420E+03  9.637799E-01 -9.746822E+01  4.150032E-03 -1.951416E+00  4.191001E-03 -1.919003E+00  9.602624E-01 -9.949305E+01 
1.380670E+03  9.634023E-01 -9.751711E+01  4.177294E-03 -1.950938E+00  4.163790E-03 -2.014455E+00  9.598980E-01 -9.949339E+01 
1.380920E+03  9.628216E-01 -9.752929E+01  4.170017E-03 -1.815636E+00  4.146177E-03 -1.825494E+00  9.598502E-01 -9.952201E+01 
1.381170E+03  9.630491E-01 -9.754598E+01  4.142265E-03 -2.222917E+00  4.172757E-03 -2.300703E+00  9.599508E-01 -9.952923E+01 
1.381420E+03  9.630030E-01 -9.757806E+01  4.149972E-03 -1.954059E+00  4.162180E-03 -2.266767E+00  9.597841E-01 -9.955335E+01 
1.381670E+03  9.628924E-01 -9.759812E+01  4.138366E-03 -1.951051E+00  4.134946E-03 -2.237448E+00  9.600448E-01 -9.952882E+01 
1.381920E+03  9.627881E-01 -9.761400E+01  4.134631E-03 -1.706492E+00  4.125046E-03 -1.881928E+00  9.601638E-01 -9.955879E+01 
1.382170E+03  9.628000E-01 -9.761481E+01  4.105336E-03 -1.723208E+00  4.106670E-03 -1.961030E+00  9.599797E-01 -9.958389E+01 
1.382420E+03  9.627104E-01 -9.764682E+01  4.138721E-03 -1.662533E+00  4.126696E-03 -2.160010E+00  9.596541E-01 -9.958678E+01 
1.382670E+03  9.629479E-01 -9.767813E+01  4.120842E-03 -1.766413E+00  4.097419E-03 -1.529509E+00  9.598256E-01 -9.959093E+01 
1.382920E+03  9.630602E-01 -9.770526E+01  4.133422E-03 -1.787008E+00  4.110630E-03 -1.814612E+00  9.603589E-01 -9.959679E+01 
1.383170E+03  9.630115E-01 -9.771399E+01  4.109843E-03 -1.704465E+00  4.119311E-03 -2.230265E+00  9.609852E-01 -9.962659E+01 
1.383420E+03  9.628679E-01 -9.772660E+01  4.113508E-03 -2.068908E+00  4.106827E-03 -2.308777E+00  9.607636E-01 -9.964943E+01 
1.383670E+03  9.631972E-01 -9.771221E+01  4.098302E-03 -1.873612E+00  4.101594E-03 -1.849175E+00  9.610496E-01 -9.964253E+01 
1.383920E+03  9.633940E-01 -9.775939E+01  4.069264E-03 -1.530459E+00  4.045993E-03 -2.096673E+00  9.616721E-01 -9.968813E+01 
1.384170E+03  9.637037E-01 -9.780941E+01  4.068991E-03 -1.672503E+00  4.091914E-03 -1.906255E+00  9.619404E-01 -9.972880E+01 
1.384420E+03  9.638189E-01 -9.783159E+01  4.103882E-03 -1.563211E+00  4.081033E-03 -1.748984E+00  9.621345E-01 -9.977955E+01 
1.384670E+03  9.637816E-01 -9.784278E+01  4.109767E-03 -1.381377E+00  4.078770E-03 -1.067396E+00  9.623112E-01 -9.980478E+01 
1.384920E+03  9.637199E-01 -9.786278E+01  4.071951E-03 -1.451608E+00  4.082895E-03 -1.630216E+00  9.621964E-01 -9.983937E+01 
1.385170E+03  9.637455E-01 -9.787316E+01  4.086486E-03 -1.184377E+00  4.088623E-03 -1.553645E+00  9.619601E-01 -9.985730E+01 
1.385420E+03  9.641499E-01 -9.787944E+01  4.052653E-03 -1.583216E+00  4.063453E-03 -2.052798E+00  9.622814E-01 -9.990271E+01 
1.385670E+03  9.648396E-01 -9.791142E+01  4.070290E-03 -1.451684E+00  4.065084E-03 -1.579742E+00  9.624332E-01 -9.994357E+01 
1.385920E+03  9.654299E-01 -9.795457E+01  4.056090E-03 -1.421288E+00  4.077209E-03 -1.334521E+00  9.626695E-01 -9.998395E+01 
1.386170E+03  9.653327E-01 -9.800687E+01  4.100719E-03 -1.108804E+00  4.070549E-03 -1.597715E+00  9.627985E-01 -1.000127E+02 
1.386420E+03  9.651061E-01 -9.804369E+01  4.087589E-03 -1.475822E+00  4.063427E-03 -2.016632E+00  9.629187E-01 -1.000321E+02 
1.386670E+03  9.651688E-01 -9.804998E+01  4.059559E-03 -1.375331E+00  4.057864E-03 -1.525248E+00  9.632175E-01 -1.000918E+02 
1.386920E+03  9.657946E-01 -9.809561E+01  4.102022E-03 -1.633870E+00  4.058165E-03 -1.418598E+00  9.630199E-01 -1.001533E+02 
1.387170E+03  9.657574E-01 -9.814745E+01  4.104964E-03 -1.620029E+00  4.072153E-03 -1.514416E+00  9.628675E-01 -1.001913E+02 
1.387420E+03  9.659529E-01 -9.816780E+01  4.075250E-03 -1.519776E+00  4.034927E-03 -2.070527E+00  9.627180E-01 -1.002251E+02 
1.387670E+03  9.661736E-01 -9.819486E+01  4.065276E-03 -1.783678E+00  4.047539E-03 -2.220206E+00  9.629950E-01 -1.002309E+02 
1.387920E+03  9.661298E-01 -9.822197E+01  4.059045E-03 -1.632200E+00  4.030463E-03 -2.222579E+00  9.629404E-01 -1.002713E+02 
1.388170E+03  9.664414E-01 -9.825585E+01  4.054725E-03 -1.685636E+00  4.035696E-03 -2.058346E+00  9.628862E-01 -1.003074E+02 
1.388420E+03  9.666147E-01 -9.830350E+01  4.055388E-03 -1.865329E+00  4.044634E-03 -1.741353E+00  9.628618E-01 -1.003585E+02 
1.388670E+03  9.665386E-01 -9.836141E+01  4.011538E-03 -1.397318E+00  4.032380E-03 -1.880397E+00  9.629134E-01 -1.004073E+02 
1.388920E+03  9.663948E-01 -9.839417E+01  4.054097E-03 -1.111102E+00  4.026261E-03 -1.520351E+00  9.626952E-01 -1.004167E+02 
1.389170E+03  9.665330E-01 -9.841970E+01  4.083941E-03 -1.557090E+00  4.052599E-03 -1.627314E+00  9.628772E-01 -1.004307E+02 
1.389420E+03  9.664590E-01 -9.846257E+01  4.073361E-03 -1.467847E+00  4.079934E-03 -1.783130E+00  9.632097E-01 -1.004654E+02 
1.389670E+03  9.664147E-01 -9.849546E+01  4.064704E-03 -1.654224E+00  4.047191E-03 -1.713552E+00  9.632916E-01 -1.005001E+02 
1.389920E+03  9.665110E-01 -9.854021E+01  4.041696E-03 -1.649601E+00  4.046872E-03 -1.850197E+00  9.631814E-01 -1.005608E+02 
1.390170E+03  9.664746E-01 -9.858226E+01  4.043062E-03 -1.356716E+00  4.049628E-03 -2.080740E+00  9.631374E-01 -1.006141E+02 
1.390420E+03  9.664594E-01 -9.861659E+01  4.050896E-03 -1.787873E+00  4.045762E-03 -1.459382E+00  9.632631E-01 -1.006261E+02 
1.390670E+03  9.663781E-01 -9.864727E+01  4.051315E-03 -1.591760E+00  4.037951E-03 -1.795062E+00  9.634296E-01 -1.006537E+02 
1.390920E+03  9.665492E-01 -9.867008E+01  4.084459E-03 -2.221231E+00  4.066802E-03 -2.186377E+00  9.633636E-01 -1.006854E+02 
1.391170E+03  9.663532E-01 -9.873179E+01  4.055051E-03 -2.061081E+00  4.043727E-03 -2.141434E+00  9.632411E-01 -1.007499E+02 
1.391420E+03  9.662550E-01 -9.877556E+01  4.008942E-03 -2.420760E+00  4.041175E-03 -2.341871E+00  9.629249E-01 -1.007636E+02 
1.391670E+03  9.660135E-01 -9.883411E+01  4.035464E-03 -2.163638E+00  4.018547E-03 -2.216220E+00  9.631803E-01 -1.008174E+02 
1.391920E+03  9.657480E-01 -9.884505E+01  4.016897E-03 -2.542378E+00  4.024182E-03 -2.423897E+00  9.631982E-01 -1.008380E+02 
1.392170E+03  9.656940E-01 -9.886843E+01  4.010769E-03 -2.122411E+00  4.028394E-03 -2.151091E+00  9.631233E-01 -1.008630E+02 
1.392420E+03  9.656761E-01 -9.888354E+01  4.007581E-03 -2.047816E+00  4.005131E-03 -1.960882E+00  9.631891E-01 -1.008888E+02 
1.392670E+03  9.655216E-01 -9.890845E+01  4.031362E-03 -1.845957E+00  4.030908E-03 -2.014112E+00  9.633658E-01 -1.009379E+02 
1.392920E+03  9.656235E-01 -9.894975E+01  4.049607E-03 -2.342998E+00  4.061293E-03 -2.174996E+00  9.636634E-01 -1.009797E+02 
1.393170E+03  9.657686E-01 -9.898736E+01  4.015674E-03 -2.325588E+00  4.011005E-03 -2.332174E+00  9.636518E-01 -1.010274E+02 
1.393420E+03  9.656527E-01 -9.902176E+01  4.031855E-03 -2.212734E+00  4.047416E-03 -2.650726E+00  9.635294E-01 -1.010601E+02 
1.393670E+03  9.657044E-01 -9.903883E+01  4.013674E-03 -2.980484E+00  4.040609E-03 -3.231772E+00  9.634444E-01 -1.010792E+02 
1.393920E+03  9.656551E-01 -9.906709E+01  4.010285E-03 -3.152236E+00  4.019037E-03 -3.152417E+00  9.634346E-01 -1.011015E+02 
1.394170E+03  9.657201E-01 -9.908804E+01  3.991801E-03 -2.724022E+00  4.001466E-03 -2.768508E+00  9.635724E-01 -1.011350E+02 
1.394420E+03  9.658091E-01 -9.913142E+01  3.967869E-03 -2.273827E+00  3.984392E-03 -2.642361E+00  9.636113E-01 -1.011893E+02 
1.394670E+03  9.658908E-01 -9.915595E+01  3.964303E-03 -2.515730E+00  3.984366E-03 -2.689025E+00  9.639329E-01 -1.012502E+02 
1.394920E+03  9.659374E-01 -9.920862E+01  3.989121E-03 -2.946038E+00  3.965114E-03 -2.685690E+00  9.638170E-01 -1.012907E+02 
1.395170E+03  9.660170E-01 -9.921879E+01  4.005921E-03 -2.957864E+00  3.943498E-03 -2.972302E+00  9.638468E-01 -1.013071E+02 
1.395420E+03  9.660280E-01 -9.924180E+01  3.978843E-03 -2.724305E+00  3.963313E-03 -3.209998E+00  9.638982E-01 -1.013641E+02 
1.395670E+03  9.659813E-01 -9.928120E+01  3.996423E-03 -2.818268E+00  3.948748E-03 -2.809063E+00  9.637681E-01 -1.014097E+02 
1.395920E+03  9.659560E-01 -9.932446E+01  3.958206E-03 -3.435179E+00  3.957983E-03 -3.352305E+00  9.634944E-01 -1.014689E+02 
1.396170E+03  9.659844E-01 -9.934698E+01  3.986820E-03 -2.953003E+00  3.921491E-03 -3.141743E+00  9.631296E-01 -1.015049E+02 
1.396420E+03  9.660482E-01 -9.938428E+01  3.964001E-03 -2.872160E+00  3.948358E-03 -3.189625E+00  9.634134E-01 -1.015217E+02 
1.396670E+03  9.661572E-01 -9.942601E+01  3.957200E-03 -3.109227E+00  3.941746E-03 -2.906125E+00  9.632842E-01 -1.015496E+02 
1.396920E+03  9.658221E-01 -9.945377E+01  3.972187E-03 -3.130782E+00  3.960875E-03 -3.426782E+00  9.631900E-01 -1.015911E+02 
1.397170E+03  9.657011E-01 -9.948617E+01  3.938366E-03 -2.910729E+00  3.933615E-03 -3.538847E+00  9.629266E-01 -1.016259E+02 
1.397420E+03  9.657803E-01 -9.953123E+01  3.950350E-03 -3.549270E+00  3.900543E-03 -3.788076E+00  9.625083E-01 -1.016729E+02 
1.397670E+03  9.656580E-01 -9.956950E+01  3.891152E-03 -3.379492E+00  3.887276E-03 -3.761138E+00  9.624471E-01 -1.017031E+02 
1.397920E+03  9.654898E-01 -9.961482E+01  3.904812E-03 -3.945376E+00  3.915630E-03 -3.498018E+00  9.622613E-01 -1.017217E+02 
1.398170E+03  9.657190E-01 -9.963065E+01  3.910827E-03 -3.832559E+00  3.891495E-03 -3.349769E+00  9.620315E-01 -1.017469E+02 
1.398420E+03  9.653151E-01 -9.967784E+01  3.884820E-03 -3.717756E+00  3.866761E-03 -3.632725E+00  9.616047E-01 -1.017555E+02 
1.398670E+03  9.651109E-01 -9.970987E+01  3.891772E-03 -3.517977E+00  3.867294E-03 -3.693259E+00  9.616361E-01 -1.017817E+02 
1.398920E+03  9.650097E-01 -9.975041E+01  3.879069E-03 -3.463184E+00  3.840840E-03 -3.594124E+00  9.615701E-01 -1.018146E+02 
1.399170E+03  9.649045E-01 -9.980333E+01  3.891172E-03 -3.638220E+00  3.858139E-03 -3.714982E+00  9.616277E-01 -1.018573E+02 
1.399420E+03  9.649944E-01 -9.983431E+01  3.827841E-03 -3.878344E+00  3.848069E-03 -4.345508E+00  9.615357E-01 -1.018758E+02 
1.399670E+03  9.646014E-01 -9.986654E+01  3.853763E-03 -3.540947E+00  3.828771E-03 -3.632385E+00  9.612121E-01 -1.019027E+02 
1.399920E+03  9.643230E-01 -9.989840E+01  3.843443E-03 -3.841324E+00  3.829915E-03 -3.618088E+00  9.613659E-01 -1.019287E+02 
1.400170E+03  9.640510E-01 -9.994284E+01  3.805551E-03 -3.723609E+00  3.811481E-03 -3.573296E+00  9.607980E-01 -1.019696E+02 
1.400420E+03  9.637422E-01 -9.997155E+01  3.811171E-03 -3.837496E+00  3.825010E-03 -3.780492E+00  9.607117E-01 -1.020118E+02 
1.400670E+03  9.636386E-01 -9.999008E+01  3.776522E-03 -3.690389E+00  3.774706E-03 -3.861822E+00  9.602679E-01 -1.020476E+02 
1.400920E+03  9.636670E-01 -1.000355E+02  3.763306E-03 -3.269575E+00  3.778304E-03 -3.633313E+00  9.601109E-01 -1.020965E+02 
1.401170E+03  9.634470E-01 -1.000705E+02  3.776696E-03 -3.444444E+00  3.766839E-03 -3.459718E+00  9.598057E-01 -1.021151E+02 
1.401420E+03  9.633695E-01 -1.000595E+02  3.778271E-03 -3.127693E+00  3.756356E-03 -2.926263E+00  9.597613E-01 -1.021316E+02 
1.401670E+03  9.635834E-01 -1.000988E+02  3.787488E-03 -3.350272E+00  3.810065E-03 -2.903112E+00  9.596848E-01 -1.021772E+02 
1.401920E+03  9.634634E-01 -1.001465E+02  3.814511E-03 -2.996870E+00  3.805170E-03 -3.464686E+00  9.596395E-01 -1.022487E+02 
1.402170E+03  9.629388E-01 -1.001890E+02  3.783401E-03 -3.754591E+00  3.785503E-03 -3.484412E+00  9.593984E-01 -1.023136E+02 
1.402420E+03  9.626683E-01 -1.001845E+02  3.747850E-03 -3.712345E+00  3.783359E-03 -3.576497E+00  9.584604E-01 -1.023113E+02 
1.402670E+03  9.629211E-01 -1.001977E+02  3.756527E-03 -3.607877E+00  3.747137E-03 -3.317732E+00  9.586391E-01 -1.023282E+02 
1.402920E+03  9.630406E-01 -1.002298E+02  3.735163E-03 -3.142155E+00  3.760833E-03 -3.318339E+00  9.585781E-01 -1.023490E+02 
1.403170E+03  9.628154E-01 -1.002719E+02  3.759199E-03 -3.298117E+00  3.746805E-03 -3.920652E+00  9.581616E-01 -1.023947E+02 
1.403420E+03  9.625841E-01 -1.002932E+02  3.738944E-03 -3.297805E+00  3.733986E-03 -3.598118E+00  9.575996E-01 -1.024455E+02 
1.403670E+03  9.627204E-01 -1.003387E+02  3.748575E-03 -3.224776E+00  3.732580E-03 -3.395936E+00  9.575115E-01 -1.024649E+02 
1.403920E+03  9.624360E-01 -1.003726E+02  3.727381E-03 -3.380619E+00  3.701697E-03 -3.665149E+00  9.577584E-01 -1.024924E+02 
1.404170E+03  9.621088E-01 -1.003851E+02  3.747781E-03 -3.178466E+00  3.729691E-03 -3.233765E+00  9.576200E-01 -1.025306E+02 
1.404420E+03  9.621264E-01 -1.003822E+02  3.695813E-03 -3.551086E+00  3.716242E-03 -3.789030E+00  9.572107E-01 -1.025411E+02 
1.404670E+03  9.621628E-01 -1.004279E+02  3.704691E-03 -3.749252E+00  3.697108E-03 -4.030134E+00  9.573436E-01 -1.025504E+02 
1.404920E+03  9.619983E-01 -1.004881E+02  3.683060E-03 -3.211483E+00  3.702629E-03 -3.080667E+00  9.571060E-01 -1.025984E+02 
1.405170E+03  9.616276E-01 -1.005147E+02  3.682034E-03 -3.342061E+00  3.686842E-03 -3.601575E+00  9.567944E-01 -1.026079E+02 
1.405420E+03  9.615332E-01 -1.005375E+02  3.670403E-03 -3.210817E+00  3.662422E-03 -2.857476E+00  9.566873E-01 -1.026424E+02 
1.405670E+03  9.616207E-01 -1.005488E+02  3.682799E-03 -2.954679E+00  3.707185E-03 -2.704145E+00  9.561722E-01 -1.026361E+02 
1.405920E+03  9.615132E-01 -1.006090E+02  3.669709E-03 -3.507760E+00  3.675407E-03 -3.846100E+00  9.559918E-01 -1.026142E+02 
1.406170E+03  9.607938E-01 -1.006220E+02  3.691599E-03 -3.394684E+00  3.660117E-03 -3.656789E+00  9.558527E-01 -1.025986E+02 
1.406420E+03  9.609375E-01 -1.006426E+02  3.656254E-03 -3.155781E+00  3.676963E-03 -3.112538E+00  9.563223E-01 -1.026089E+02 
1.406670E+03  9.609192E-01 -1.006854E+02  3.668274E-03 -3.571525E+00  3.652805E-03 -3.490773E+00  9.571798E-01 -1.026396E+02 
1.406920E+03  9.605508E-01 -1.007249E+02  3.636147E-03 -3.228982E+00  3.664725E-03 -3.535175E+00  9.574810E-01 -1.027146E+02 
1.407170E+03  9.602244E-01 -1.007361E+02  3.646280E-03 -2.973031E+00  3.630333E-03 -3.341648E+00  9.570165E-01 -1.027265E+02 
1.407420E+03  9.597440E-01 -1.007550E+02  3.639009E-03 -3.019483E+00  3.642216E-03 -3.285157E+00  9.571903E-01 -1.027330E+02 
1.407670E+03  9.595671E-01 -1.007557E+02  3.645360E-03 -3.213940E+00  3.675911E-03 -3.325323E+00  9.569209E-01 -1.027447E+02 
1.407920E+03  9.596055E-01 -1.007716E+02  3.637483E-03 -4.131667E+00  3.647604E-03 -3.544646E+00  9.570717E-01 -1.027897E+02 
1.408170E+03  9.597735E-01 -1.007814E+02  3.614494E-03 -3.664871E+00  3.636364E-03 -3.569330E+00  9.571258E-01 -1.028043E+02 
1.408420E+03  9.602052E-01 -1.008397E+02  3.642359E-03 -3.639940E+00  3.639030E-03 -3.571913E+00  9.570449E-01 -1.028563E+02 
1.408670E+03  9.599798E-01 -1.008702E+02  3.612369E-03 -3.653574E+00  3.596953E-03 -3.609892E+00  9.564671E-01 -1.028647E+02 
1.408920E+03  9.594310E-01 -1.008795E+02  3.611660E-03 -3.346120E+00  3.588653E-03 -3.604793E+00  9.562638E-01 -1.028901E+02 
1.409170E+03  9.600012E-01 -1.008939E+02  3.586581E-03 -3.384711E+00  3.581883E-03 -3.276250E+00  9.564966E-01 -1.029084E+02 
1.409420E+03  9.599277E-01 -1.009590E+02  3.599234E-03 -3.623693E+00  3.589087E-03 -3.593478E+00  9.565963E-01 -1.029686E+02 
1.409670E+03  9.595650E-01 -1.009940E+02  3.573279E-03 -3.325877E+00  3.591783E-03 -3.269424E+00  9.564499E-01 -1.030090E+02 
1.409920E+03  9.597610E-01 -1.010190E+02  3.595693E-03 -3.593469E+00  3.549967E-03 -3.555029E+00  9.563328E-01 -1.030296E+02 
1.410170E+03  9.601289E-01 -1.010635E+02  3.557134E-03 -3.408343E+00  3.570859E-03 -3.319452E+00  9.565818E-01 -1.030706E+02 
1.410420E+03  9.596599E-01 -1.011266E+02  3.567517E-03 -2.778205E+00  3.536507E-03 -2.905568E+00  9.563459E-01 -1.031109E+02 
1.410670E+03  9.591771E-01 -1.011227E+02  3.556484E-03 -3.373303E+00  3.556827E-03 -3.143054E+00  9.561070E-01 -1.031312E+02 
1.410920E+03  9.593247E-01 -1.011292E+02  3.561184E-03 -3.565282E+00  3.573234E-03 -3.310374E+00  9.562077E-01 -1.031782E+02 
1.411170E+03  9.594912E-01 -1.011617E+02  3.566289E-03 -3.288174E+00  3.559831E-03 -3.305209E+00  9.560296E-01 -1.032084E+02 
1.411420E+03  9.593042E-01 -1.011814E+02  3.562760E-03 -3.605041E+00  3.547157E-03 -3.585527E+00  9.560880E-01 -1.032281E+02 
1.411670E+03  9.588396E-01 -1.012086E+02  3.572570E-03 -4.160731E+00  3.535654E-03 -3.866698E+00  9.558318E-01 -1.032644E+02 
1.411920E+03  9.588498E-01 -1.011902E+02  3.537534E-03 -3.402833E+00  3.536346E-03 -3.926277E+00  9.554671E-01 -1.032833E+02 
1.412170E+03  9.589888E-01 -1.012138E+02  3.531247E-03 -3.744252E+00  3.539494E-03 -3.784428E+00  9.551172E-01 -1.032945E+02 
1.412420E+03  9.587135E-01 -1.012399E+02  3.510807E-03 -3.357468E+00  3.504754E-03 -3.417365E+00  9.551677E-01 -1.033031E+02 
1.412670E+03  9.585521E-01 -1.012657E+02  3.523315E-03 -3.777315E+00  3.529883E-03 -3.185351E+00  9.553356E-01 -1.033560E+02 
1.412920E+03  9.585596E-01 -1.012848E+02  3.500603E-03 -3.718597E+00  3.528564E-03 -3.209203E+00  9.556695E-01 -1.033739E+02 
1.413170E+03  9.585358E-01 -1.013021E+02  3.509717E-03 -3.558783E+00  3.508951E-03 -3.968640E+00  9.557882E-01 -1.034315E+02 
1.413420E+03  9.582168E-01 -1.013184E+02  3.472264E-03 -4.153258E+00  3.470275E-03 -4.429812E+00  9.554864E-01 -1.034615E+02 
1.413670E+03  9.577366E-01 -1.013322E+02  3.446604E-03 -3.950211E+00  3.457262E-03 -3.904670E+00  9.550847E-01 -1.034884E+02 
1.413920E+03  9.578316E-01 -1.013052E+02  3.461227E-03 -3.581070E+00  3.438446E-03 -3.797766E+00  9.550467E-01 -1.034852E+02 
