! Matrix data file written by TouchstoneData, EPCOS AG
! FILENAME: "B4315_NB_matched.s2p"
! COMMENT: "including matching"
! INFO: nport=2, nfreq=1601
! DATE: "Thu Jan 31 14:55:53 2013"
! USER: "Michael Schemies"
!
! port | pin | signal
! -----|-----|--------
!   1  |  1  |  in
!   2  |  4  |  out
! --------------------
!
# MHZ S MA R 50
! freq  magS11 angS11  magS21 angS21  magS12 angS12  magS22 angS22
1.780000E+03  8.623459E-01 -1.194308E+02  1.191992E-02 1.747757E+02  1.191992E-02 1.747757E+02  8.920986E-01 -9.731790E+01
1.780125E+03  8.621381E-01 -1.194839E+02  1.185975E-02 1.734065E+02  1.185975E-02 1.734065E+02  8.936780E-01 -9.737356E+01
1.780250E+03  8.620271E-01 -1.195088E+02  1.184414E-02 1.717074E+02  1.184414E-02 1.717074E+02  8.955485E-01 -9.747581E+01
1.780375E+03  8.617926E-01 -1.195534E+02  1.177222E-02 1.700069E+02  1.177222E-02 1.700069E+02  8.975538E-01 -9.755817E+01
1.780500E+03  8.616485E-01 -1.195744E+02  1.165896E-02 1.684915E+02  1.165896E-02 1.684915E+02  8.994708E-01 -9.764795E+01
1.780625E+03  8.615543E-01 -1.196027E+02  1.154081E-02 1.669287E+02  1.154081E-02 1.669287E+02  9.014422E-01 -9.778735E+01
1.780750E+03  8.619213E-01 -1.196348E+02  1.143524E-02 1.650614E+02  1.143524E-02 1.650614E+02  9.029910E-01 -9.792565E+01
1.780875E+03  8.622822E-01 -1.196869E+02  1.131138E-02 1.633944E+02  1.131138E-02 1.633944E+02  9.038889E-01 -9.805294E+01
1.781000E+03  8.623454E-01 -1.197469E+02  1.112460E-02 1.617116E+02  1.112460E-02 1.617116E+02  9.048202E-01 -9.822082E+01
1.781125E+03  8.622294E-01 -1.198142E+02  1.093305E-02 1.601321E+02  1.093305E-02 1.601321E+02  9.056679E-01 -9.835483E+01
1.781250E+03  8.622052E-01 -1.198899E+02  1.073273E-02 1.586546E+02  1.073273E-02 1.586546E+02  9.058196E-01 -9.847000E+01
1.781375E+03  8.619400E-01 -1.199426E+02  1.048775E-02 1.569425E+02  1.048775E-02 1.569425E+02  9.062690E-01 -9.860154E+01
1.781500E+03  8.621116E-01 -1.199869E+02  1.024252E-02 1.555954E+02  1.024252E-02 1.555954E+02  9.063870E-01 -9.867138E+01
1.781625E+03  8.619998E-01 -1.200348E+02  9.988754E-03 1.541940E+02  9.988754E-03 1.541940E+02  9.064334E-01 -9.873432E+01
1.781750E+03  8.615891E-01 -1.200669E+02  9.673548E-03 1.531333E+02  9.673548E-03 1.531333E+02  9.068760E-01 -9.878816E+01
1.781875E+03  8.619789E-01 -1.201321E+02  9.344321E-03 1.524119E+02  9.344321E-03 1.524119E+02  9.080558E-01 -9.879714E+01
1.782000E+03  8.619995E-01 -1.202034E+02  9.088887E-03 1.520869E+02  9.088887E-03 1.520869E+02  9.092439E-01 -9.889739E+01
1.782125E+03  8.620718E-01 -1.202558E+02  8.865239E-03 1.519904E+02  8.865239E-03 1.519904E+02  9.112913E-01 -9.896117E+01
1.782250E+03  8.621729E-01 -1.203223E+02  8.671145E-03 1.519581E+02  8.671145E-03 1.519581E+02  9.126048E-01 -9.904575E+01
1.782375E+03  8.619351E-01 -1.203971E+02  8.517941E-03 1.514687E+02  8.517941E-03 1.514687E+02  9.140666E-01 -9.916048E+01
1.782500E+03  8.617587E-01 -1.204539E+02  8.331039E-03 1.512445E+02  8.331039E-03 1.512445E+02  9.152887E-01 -9.927133E+01
1.782625E+03  8.620092E-01 -1.205207E+02  8.162159E-03 1.509032E+02  8.162159E-03 1.509032E+02  9.159403E-01 -9.939924E+01
1.782750E+03  8.618722E-01 -1.205761E+02  7.974891E-03 1.507475E+02  7.974891E-03 1.507475E+02  9.175578E-01 -9.953467E+01
1.782875E+03  8.619154E-01 -1.206528E+02  7.767049E-03 1.507621E+02  7.767049E-03 1.507621E+02  9.184301E-01 -9.967325E+01
1.783000E+03  8.615261E-01 -1.207322E+02  7.599285E-03 1.511942E+02  7.599285E-03 1.511942E+02  9.193896E-01 -9.977881E+01
1.783125E+03  8.611951E-01 -1.207993E+02  7.476332E-03 1.516318E+02  7.476332E-03 1.516318E+02  9.202559E-01 -9.992698E+01
1.783250E+03  8.613062E-01 -1.208643E+02  7.412579E-03 1.522588E+02  7.412579E-03 1.522588E+02  9.207115E-01 -1.000742E+02
1.783375E+03  8.610367E-01 -1.209146E+02  7.345979E-03 1.526467E+02  7.345979E-03 1.526467E+02  9.212584E-01 -1.001829E+02
1.783500E+03  8.607778E-01 -1.209459E+02  7.284060E-03 1.530500E+02  7.284060E-03 1.530500E+02  9.219067E-01 -1.003231E+02
1.783625E+03  8.609562E-01 -1.210220E+02  7.222107E-03 1.534039E+02  7.222107E-03 1.534039E+02  9.222889E-01 -1.004590E+02
1.783750E+03  8.603476E-01 -1.210748E+02  7.194541E-03 1.538829E+02  7.194541E-03 1.538829E+02  9.227385E-01 -1.005793E+02
1.783875E+03  8.604969E-01 -1.211193E+02  7.211662E-03 1.539240E+02  7.211662E-03 1.539240E+02  9.229789E-01 -1.007068E+02
1.784000E+03  8.604418E-01 -1.211635E+02  7.210226E-03 1.538409E+02  7.210226E-03 1.538409E+02  9.233010E-01 -1.008255E+02
1.784125E+03  8.605742E-01 -1.212156E+02  7.181494E-03 1.537069E+02  7.181494E-03 1.537069E+02  9.236342E-01 -1.009344E+02
1.784250E+03  8.605560E-01 -1.212976E+02  7.187189E-03 1.537864E+02  7.187189E-03 1.537864E+02  9.237745E-01 -1.010274E+02
1.784375E+03  8.607213E-01 -1.213337E+02  7.177845E-03 1.537391E+02  7.177845E-03 1.537391E+02  9.241545E-01 -1.011262E+02
1.784500E+03  8.608982E-01 -1.213857E+02  7.155608E-03 1.535426E+02  7.155608E-03 1.535426E+02  9.245067E-01 -1.012371E+02
1.784625E+03  8.610541E-01 -1.214505E+02  7.149292E-03 1.532249E+02  7.149292E-03 1.532249E+02  9.250523E-01 -1.013402E+02
1.784750E+03  8.613549E-01 -1.215326E+02  7.157997E-03 1.529842E+02  7.157997E-03 1.529842E+02  9.251477E-01 -1.014512E+02
1.784875E+03  8.611757E-01 -1.215863E+02  7.136902E-03 1.525796E+02  7.136902E-03 1.525796E+02  9.256861E-01 -1.015717E+02
1.785000E+03  8.613731E-01 -1.216581E+02  7.115238E-03 1.522151E+02  7.115238E-03 1.522151E+02  9.257900E-01 -1.016438E+02
1.785125E+03  8.610544E-01 -1.217216E+02  7.098782E-03 1.516993E+02  7.098782E-03 1.516993E+02  9.256807E-01 -1.017598E+02
1.785250E+03  8.608942E-01 -1.217916E+02  7.070614E-03 1.511544E+02  7.070614E-03 1.511544E+02  9.260809E-01 -1.018591E+02
1.785375E+03  8.609968E-01 -1.218433E+02  6.991604E-03 1.507595E+02  6.991604E-03 1.507595E+02  9.263109E-01 -1.019595E+02
1.785500E+03  8.611952E-01 -1.218745E+02  6.964017E-03 1.501352E+02  6.964017E-03 1.501352E+02  9.263754E-01 -1.020499E+02
1.785625E+03  8.611297E-01 -1.219444E+02  6.930345E-03 1.497241E+02  6.930345E-03 1.497241E+02  9.263117E-01 -1.021525E+02
1.785750E+03  8.614560E-01 -1.220091E+02  6.841650E-03 1.492307E+02  6.841650E-03 1.492307E+02  9.267073E-01 -1.022498E+02
1.785875E+03  8.613755E-01 -1.220683E+02  6.771004E-03 1.487293E+02  6.771004E-03 1.487293E+02  9.269361E-01 -1.023268E+02
1.786000E+03  8.612747E-01 -1.221547E+02  6.691710E-03 1.482441E+02  6.691710E-03 1.482441E+02  9.272337E-01 -1.024021E+02
1.786125E+03  8.613602E-01 -1.222384E+02  6.571851E-03 1.481515E+02  6.571851E-03 1.481515E+02  9.275390E-01 -1.025261E+02
1.786250E+03  8.613269E-01 -1.222973E+02  6.488562E-03 1.480381E+02  6.488562E-03 1.480381E+02  9.278002E-01 -1.026067E+02
1.786375E+03  8.610914E-01 -1.223641E+02  6.422036E-03 1.481022E+02  6.422036E-03 1.481022E+02  9.277131E-01 -1.026948E+02
1.786500E+03  8.607104E-01 -1.224277E+02  6.328875E-03 1.479378E+02  6.328875E-03 1.479378E+02  9.277891E-01 -1.028000E+02
1.786625E+03  8.607563E-01 -1.224758E+02  6.288575E-03 1.480038E+02  6.288575E-03 1.480038E+02  9.285133E-01 -1.029101E+02
1.786750E+03  8.604288E-01 -1.225355E+02  6.205703E-03 1.479166E+02  6.205703E-03 1.479166E+02  9.284316E-01 -1.030207E+02
1.786875E+03  8.606619E-01 -1.226003E+02  6.135528E-03 1.478979E+02  6.135528E-03 1.478979E+02  9.288767E-01 -1.031065E+02
1.787000E+03  8.603373E-01 -1.226592E+02  6.024587E-03 1.480303E+02  6.024587E-03 1.480303E+02  9.288617E-01 -1.032517E+02
1.787125E+03  8.601790E-01 -1.227123E+02  5.950897E-03 1.480857E+02  5.950897E-03 1.480857E+02  9.290136E-01 -1.033600E+02
1.787250E+03  8.599403E-01 -1.227473E+02  5.856826E-03 1.485108E+02  5.856826E-03 1.485108E+02  9.290020E-01 -1.034928E+02
1.787375E+03  8.599515E-01 -1.228001E+02  5.775543E-03 1.488897E+02  5.775543E-03 1.488897E+02  9.290950E-01 -1.035985E+02
1.787500E+03  8.603073E-01 -1.228567E+02  5.717569E-03 1.497472E+02  5.717569E-03 1.497472E+02  9.293703E-01 -1.037223E+02
1.787625E+03  8.606042E-01 -1.229162E+02  5.671396E-03 1.501892E+02  5.671396E-03 1.501892E+02  9.294888E-01 -1.038287E+02
1.787750E+03  8.605134E-01 -1.230106E+02  5.650928E-03 1.508676E+02  5.650928E-03 1.508676E+02  9.292885E-01 -1.039460E+02
1.787875E+03  8.607637E-01 -1.230757E+02  5.617523E-03 1.516974E+02  5.617523E-03 1.516974E+02  9.299484E-01 -1.040648E+02
1.788000E+03  8.607112E-01 -1.231445E+02  5.611430E-03 1.523568E+02  5.611430E-03 1.523568E+02  9.298049E-01 -1.041825E+02
1.788125E+03  8.608364E-01 -1.232318E+02  5.616915E-03 1.528291E+02  5.616915E-03 1.528291E+02  9.295409E-01 -1.042912E+02
1.788250E+03  8.606691E-01 -1.232892E+02  5.636775E-03 1.533019E+02  5.636775E-03 1.533019E+02  9.295029E-01 -1.044181E+02
1.788375E+03  8.604631E-01 -1.233965E+02  5.657439E-03 1.539871E+02  5.657439E-03 1.539871E+02  9.296033E-01 -1.045245E+02
1.788500E+03  8.600627E-01 -1.234619E+02  5.679098E-03 1.543664E+02  5.679098E-03 1.543664E+02  9.292261E-01 -1.046486E+02
1.788625E+03  8.597453E-01 -1.235293E+02  5.709149E-03 1.547106E+02  5.709149E-03 1.547106E+02  9.290030E-01 -1.047528E+02
1.788750E+03  8.593485E-01 -1.235973E+02  5.730910E-03 1.546946E+02  5.730910E-03 1.546946E+02  9.292454E-01 -1.048625E+02
1.788875E+03  8.593276E-01 -1.236485E+02  5.729085E-03 1.548033E+02  5.729085E-03 1.548033E+02  9.289018E-01 -1.049736E+02
1.789000E+03  8.590981E-01 -1.236914E+02  5.737135E-03 1.548912E+02  5.737135E-03 1.548912E+02  9.289813E-01 -1.050870E+02
1.789125E+03  8.591681E-01 -1.237599E+02  5.716117E-03 1.545749E+02  5.716117E-03 1.545749E+02  9.291582E-01 -1.051839E+02
1.789250E+03  8.592159E-01 -1.238035E+02  5.713206E-03 1.549123E+02  5.713206E-03 1.549123E+02  9.290409E-01 -1.052936E+02
1.789375E+03  8.590591E-01 -1.238584E+02  5.719417E-03 1.551900E+02  5.719417E-03 1.551900E+02  9.287731E-01 -1.054171E+02
1.789500E+03  8.595182E-01 -1.239005E+02  5.708074E-03 1.554712E+02  5.708074E-03 1.554712E+02  9.287823E-01 -1.055263E+02
1.789625E+03  8.597659E-01 -1.239745E+02  5.697360E-03 1.556675E+02  5.697360E-03 1.556675E+02  9.288655E-01 -1.056308E+02
1.789750E+03  8.603524E-01 -1.240450E+02  5.679961E-03 1.556832E+02  5.679961E-03 1.556832E+02  9.287893E-01 -1.057541E+02
1.789875E+03  8.603013E-01 -1.241216E+02  5.668705E-03 1.562960E+02  5.668705E-03 1.562960E+02  9.284277E-01 -1.058638E+02
1.790000E+03  8.601083E-01 -1.242038E+02  5.653010E-03 1.567303E+02  5.653010E-03 1.567303E+02  9.282840E-01 -1.059446E+02
1.790125E+03  8.601752E-01 -1.242494E+02  5.658930E-03 1.574009E+02  5.658930E-03 1.574009E+02  9.282220E-01 -1.060629E+02
1.790250E+03  8.602074E-01 -1.243335E+02  5.667808E-03 1.580481E+02  5.667808E-03 1.580481E+02  9.277250E-01 -1.061454E+02
1.790375E+03  8.604304E-01 -1.243919E+02  5.699528E-03 1.587213E+02  5.699528E-03 1.587213E+02  9.272631E-01 -1.062613E+02
1.790500E+03  8.606384E-01 -1.244620E+02  5.715058E-03 1.594214E+02  5.715058E-03 1.594214E+02  9.272270E-01 -1.063510E+02
1.790625E+03  8.610393E-01 -1.245374E+02  5.804857E-03 1.599048E+02  5.804857E-03 1.599048E+02  9.272744E-01 -1.064606E+02
1.790750E+03  8.612110E-01 -1.246116E+02  5.862632E-03 1.604037E+02  5.862632E-03 1.604037E+02  9.271297E-01 -1.065714E+02
1.790875E+03  8.613022E-01 -1.247053E+02  5.895276E-03 1.611946E+02  5.895276E-03 1.611946E+02  9.264976E-01 -1.066354E+02
1.791000E+03  8.616690E-01 -1.247754E+02  5.981343E-03 1.615630E+02  5.981343E-03 1.615630E+02  9.263424E-01 -1.067770E+02
1.791125E+03  8.617675E-01 -1.248512E+02  6.062627E-03 1.620573E+02  6.062627E-03 1.620573E+02  9.255784E-01 -1.068382E+02
1.791250E+03  8.620763E-01 -1.249377E+02  6.155277E-03 1.626688E+02  6.155277E-03 1.626688E+02  9.255025E-01 -1.069662E+02
1.791375E+03  8.621482E-01 -1.250290E+02  6.275867E-03 1.629844E+02  6.275867E-03 1.629844E+02  9.252637E-01 -1.070272E+02
1.791500E+03  8.622867E-01 -1.251143E+02  6.413135E-03 1.633183E+02  6.413135E-03 1.633183E+02  9.247474E-01 -1.071224E+02
1.791625E+03  8.624834E-01 -1.252245E+02  6.578156E-03 1.632202E+02  6.578156E-03 1.632202E+02  9.244958E-01 -1.071855E+02
1.791750E+03  8.624470E-01 -1.253253E+02  6.731303E-03 1.631051E+02  6.731303E-03 1.631051E+02  9.241530E-01 -1.072816E+02
1.791875E+03  8.620946E-01 -1.254348E+02  6.901488E-03 1.626326E+02  6.901488E-03 1.626326E+02  9.240637E-01 -1.073257E+02
1.792000E+03  8.617534E-01 -1.255122E+02  7.074260E-03 1.617760E+02  7.074260E-03 1.617760E+02  9.239280E-01 -1.074112E+02
1.792125E+03  8.615529E-01 -1.255915E+02  7.231954E-03 1.607072E+02  7.231954E-03 1.607072E+02  9.238921E-01 -1.074575E+02
1.792250E+03  8.614194E-01 -1.256506E+02  7.283748E-03 1.597025E+02  7.283748E-03 1.597025E+02  9.240876E-01 -1.075567E+02
1.792375E+03  8.614063E-01 -1.257525E+02  7.387090E-03 1.588137E+02  7.387090E-03 1.588137E+02  9.242533E-01 -1.076221E+02
1.792500E+03  8.612791E-01 -1.258401E+02  7.435090E-03 1.578454E+02  7.435090E-03 1.578454E+02  9.243972E-01 -1.076889E+02
1.792625E+03  8.611827E-01 -1.259160E+02  7.522880E-03 1.568482E+02  7.522880E-03 1.568482E+02  9.249632E-01 -1.077738E+02
1.792750E+03  8.609876E-01 -1.260088E+02  7.569099E-03 1.555746E+02  7.569099E-03 1.555746E+02  9.252670E-01 -1.078517E+02
1.792875E+03  8.609593E-01 -1.260856E+02  7.581176E-03 1.543488E+02  7.581176E-03 1.543488E+02  9.253712E-01 -1.079524E+02
1.793000E+03  8.609138E-01 -1.261514E+02  7.577851E-03 1.533945E+02  7.577851E-03 1.533945E+02  9.257052E-01 -1.080638E+02
1.793125E+03  8.607142E-01 -1.262256E+02  7.540685E-03 1.525896E+02  7.540685E-03 1.525896E+02  9.259971E-01 -1.081485E+02
1.793250E+03  8.606820E-01 -1.263152E+02  7.539657E-03 1.520326E+02  7.539657E-03 1.520326E+02  9.264347E-01 -1.082709E+02
1.793375E+03  8.607702E-01 -1.263793E+02  7.505132E-03 1.515042E+02  7.505132E-03 1.515042E+02  9.262256E-01 -1.083533E+02
1.793500E+03  8.611328E-01 -1.264352E+02  7.541031E-03 1.509515E+02  7.541031E-03 1.509515E+02  9.263801E-01 -1.084709E+02
1.793625E+03  8.612167E-01 -1.265235E+02  7.524069E-03 1.501982E+02  7.524069E-03 1.501982E+02  9.264221E-01 -1.085753E+02
1.793750E+03  8.613071E-01 -1.266079E+02  7.519793E-03 1.497690E+02  7.519793E-03 1.497690E+02  9.265790E-01 -1.086914E+02
1.793875E+03  8.615002E-01 -1.267225E+02  7.533945E-03 1.492490E+02  7.533945E-03 1.492490E+02  9.266339E-01 -1.087986E+02
1.794000E+03  8.614112E-01 -1.267977E+02  7.524978E-03 1.486964E+02  7.524978E-03 1.486964E+02  9.263067E-01 -1.089089E+02
1.794125E+03  8.618725E-01 -1.268877E+02  7.549410E-03 1.484236E+02  7.549410E-03 1.484236E+02  9.264134E-01 -1.089986E+02
1.794250E+03  8.617342E-01 -1.269707E+02  7.563939E-03 1.478284E+02  7.563939E-03 1.478284E+02  9.264611E-01 -1.090977E+02
1.794375E+03  8.624420E-01 -1.270571E+02  7.577078E-03 1.472984E+02  7.577078E-03 1.472984E+02  9.261853E-01 -1.092034E+02
1.794500E+03  8.624406E-01 -1.271644E+02  7.599715E-03 1.466582E+02  7.599715E-03 1.466582E+02  9.261736E-01 -1.093176E+02
1.794625E+03  8.627314E-01 -1.272697E+02  7.620566E-03 1.460231E+02  7.620566E-03 1.460231E+02  9.261993E-01 -1.094234E+02
1.794750E+03  8.629755E-01 -1.273665E+02  7.640983E-03 1.454368E+02  7.640983E-03 1.454368E+02  9.257632E-01 -1.095096E+02
1.794875E+03  8.632986E-01 -1.274863E+02  7.661417E-03 1.445410E+02  7.661417E-03 1.445410E+02  9.258407E-01 -1.096349E+02
1.795000E+03  8.636060E-01 -1.275947E+02  7.678619E-03 1.438937E+02  7.678619E-03 1.438937E+02  9.254452E-01 -1.097369E+02
1.795125E+03  8.636313E-01 -1.277175E+02  7.671732E-03 1.433585E+02  7.671732E-03 1.433585E+02  9.253122E-01 -1.098512E+02
1.795250E+03  8.638566E-01 -1.278360E+02  7.710085E-03 1.424188E+02  7.710085E-03 1.424188E+02  9.250692E-01 -1.099523E+02
1.795375E+03  8.637389E-01 -1.279612E+02  7.726128E-03 1.414282E+02  7.726128E-03 1.414282E+02  9.250564E-01 -1.100500E+02
1.795500E+03  8.637633E-01 -1.280868E+02  7.732247E-03 1.402765E+02  7.732247E-03 1.402765E+02  9.245538E-01 -1.101340E+02
1.795625E+03  8.633954E-01 -1.281992E+02  7.742821E-03 1.391176E+02  7.742821E-03 1.391176E+02  9.244378E-01 -1.102531E+02
1.795750E+03  8.633350E-01 -1.283217E+02  7.715032E-03 1.379434E+02  7.715032E-03 1.379434E+02  9.239323E-01 -1.103492E+02
1.795875E+03  8.630346E-01 -1.284415E+02  7.663373E-03 1.368622E+02  7.663373E-03 1.368622E+02  9.235690E-01 -1.104496E+02
1.796000E+03  8.626427E-01 -1.285560E+02  7.630334E-03 1.355703E+02  7.630334E-03 1.355703E+02  9.230175E-01 -1.105576E+02
1.796125E+03  8.624625E-01 -1.286886E+02  7.571024E-03 1.340777E+02  7.571024E-03 1.340777E+02  9.224776E-01 -1.106373E+02
1.796250E+03  8.623802E-01 -1.287833E+02  7.449130E-03 1.327661E+02  7.449130E-03 1.327661E+02  9.222806E-01 -1.107107E+02
1.796375E+03  8.622957E-01 -1.288976E+02  7.293938E-03 1.313678E+02  7.293938E-03 1.313678E+02  9.222629E-01 -1.107685E+02
1.796500E+03  8.617911E-01 -1.290101E+02  7.160731E-03 1.303562E+02  7.160731E-03 1.303562E+02  9.219291E-01 -1.108415E+02
1.796625E+03  8.613899E-01 -1.291166E+02  6.975002E-03 1.294730E+02  6.975002E-03 1.294730E+02  9.219681E-01 -1.109105E+02
1.796750E+03  8.611100E-01 -1.292345E+02  6.814111E-03 1.290519E+02  6.814111E-03 1.290519E+02  9.222253E-01 -1.109597E+02
1.796875E+03  8.604485E-01 -1.293435E+02  6.630493E-03 1.285542E+02  6.630493E-03 1.285542E+02  9.226127E-01 -1.110750E+02
1.797000E+03  8.601489E-01 -1.294397E+02  6.498602E-03 1.284728E+02  6.498602E-03 1.284728E+02  9.229611E-01 -1.111545E+02
1.797125E+03  8.593399E-01 -1.295761E+02  6.358251E-03 1.283215E+02  6.358251E-03 1.283215E+02  9.236631E-01 -1.112468E+02
1.797250E+03  8.591449E-01 -1.296622E+02  6.243248E-03 1.282923E+02  6.243248E-03 1.282923E+02  9.237226E-01 -1.113598E+02
1.797375E+03  8.587591E-01 -1.297502E+02  6.133800E-03 1.280685E+02  6.133800E-03 1.280685E+02  9.244931E-01 -1.114598E+02
1.797500E+03  8.582229E-01 -1.298626E+02  6.001759E-03 1.279163E+02  6.001759E-03 1.279163E+02  9.247460E-01 -1.115547E+02
1.797625E+03  8.576450E-01 -1.299514E+02  5.860490E-03 1.281841E+02  5.860490E-03 1.281841E+02  9.250042E-01 -1.116701E+02
1.797750E+03  8.573325E-01 -1.300456E+02  5.757775E-03 1.287558E+02  5.757775E-03 1.287558E+02  9.258095E-01 -1.117702E+02
1.797875E+03  8.570540E-01 -1.301140E+02  5.676731E-03 1.289968E+02  5.676731E-03 1.289968E+02  9.259255E-01 -1.119026E+02
1.798000E+03  8.569404E-01 -1.302322E+02  5.625134E-03 1.296065E+02  5.625134E-03 1.296065E+02  9.263766E-01 -1.120064E+02
1.798125E+03  8.570065E-01 -1.303072E+02  5.499836E-03 1.299105E+02  5.499836E-03 1.299105E+02  9.265053E-01 -1.121324E+02
1.798250E+03  8.567797E-01 -1.304193E+02  5.455157E-03 1.308414E+02  5.455157E-03 1.308414E+02  9.268084E-01 -1.122591E+02
1.798375E+03  8.569561E-01 -1.305440E+02  5.424791E-03 1.317131E+02  5.424791E-03 1.317131E+02  9.271360E-01 -1.123675E+02
1.798500E+03  8.566805E-01 -1.306701E+02  5.421481E-03 1.324121E+02  5.421481E-03 1.324121E+02  9.274131E-01 -1.125062E+02
1.798625E+03  8.562429E-01 -1.307963E+02  5.446154E-03 1.327532E+02  5.446154E-03 1.327532E+02  9.273228E-01 -1.126179E+02
1.798750E+03  8.560858E-01 -1.308965E+02  5.485739E-03 1.331165E+02  5.485739E-03 1.331165E+02  9.275811E-01 -1.127551E+02
1.798875E+03  8.556937E-01 -1.310203E+02  5.506545E-03 1.329012E+02  5.506545E-03 1.329012E+02  9.277445E-01 -1.128668E+02
1.799000E+03  8.554888E-01 -1.311574E+02  5.513315E-03 1.325959E+02  5.513315E-03 1.325959E+02  9.282582E-01 -1.130030E+02
1.799125E+03  8.552140E-01 -1.312869E+02  5.508770E-03 1.321979E+02  5.508770E-03 1.321979E+02  9.283400E-01 -1.131102E+02
1.799250E+03  8.548731E-01 -1.314217E+02  5.510937E-03 1.316763E+02  5.510937E-03 1.316763E+02  9.284367E-01 -1.132405E+02
1.799375E+03  8.540842E-01 -1.315461E+02  5.487492E-03 1.313513E+02  5.487492E-03 1.313513E+02  9.287340E-01 -1.133797E+02
1.799500E+03  8.539268E-01 -1.316728E+02  5.479823E-03 1.307344E+02  5.479823E-03 1.307344E+02  9.284501E-01 -1.134832E+02
1.799625E+03  8.534710E-01 -1.318027E+02  5.440446E-03 1.301661E+02  5.440446E-03 1.301661E+02  9.286778E-01 -1.136092E+02
1.799750E+03  8.531814E-01 -1.319257E+02  5.404794E-03 1.290881E+02  5.404794E-03 1.290881E+02  9.285003E-01 -1.137283E+02
