! Matrix data file written by TouchstoneData, EPCOS AG
! FILENAME: "LZ41A_NB.s2p_newformat"
! COMMENT: "(LZ41A_NB.s2p) EPCOS AG 19.07.2011 16:03:21"
! INFO: nport=2, nfreq=1601
! DATE: "Thu Jul 21 17:56:10 2011"
! USER: "Michael Schemies"
!
! port | pin | signal
! -----|-----|--------
!   1  |  1  |  in
!   2  |  4  |  out
! --------------------
!
# MHZ S MA R 50
! freq  magS11 angS11  magS21 angS21  magS12 angS12  magS22 angS22
7.815000E+02  9.733633E-01 -8.947953E+01  7.417659E-04 1.834867E-01  7.355449E-04 2.932776E-01  9.638006E-01 -8.314763E+01
7.816250E+02  9.743942E-01 -8.948738E+01  7.364651E-04 2.813422E+00  7.473919E-04 3.240445E+00  9.644096E-01 -8.316196E+01
7.817500E+02  9.748338E-01 -8.958955E+01  7.594994E-04 3.215619E+00  7.612856E-04 2.589714E+00  9.654366E-01 -8.317671E+01
7.818750E+02  9.741861E-01 -8.960531E+01  7.246717E-04 2.641923E+00  7.275979E-04 2.390855E+00  9.663887E-01 -8.325757E+01
7.820000E+02  9.743390E-01 -8.963574E+01  7.192234E-04 5.569727E+00  7.229676E-04 6.305751E+00  9.662617E-01 -8.332095E+01
7.821250E+02  9.741458E-01 -8.966276E+01  7.448639E-04 8.469641E+00  7.435019E-04 8.940992E+00  9.659299E-01 -8.333728E+01
7.822500E+02  9.745335E-01 -8.966791E+01  7.802309E-04 9.711843E+00  7.854186E-04 9.771046E+00  9.667980E-01 -8.334007E+01
7.823750E+02  9.751791E-01 -8.972910E+01  8.494437E-04 8.572079E+00  8.416366E-04 8.744473E+00  9.681067E-01 -8.340303E+01
7.825000E+02  9.747663E-01 -8.981126E+01  8.624159E-04 4.313488E+00  8.509541E-04 4.255344E+00  9.689366E-01 -8.351966E+01
7.826250E+02  9.743226E-01 -8.980749E+01  8.556744E-04 2.609490E+00  8.436129E-04 2.272399E+00  9.684528E-01 -8.365407E+01
7.827500E+02  9.746572E-01 -8.987474E+01  8.230658E-04 9.238294E-01  8.249411E-04 1.229944E+00  9.667914E-01 -8.373849E+01
7.828750E+02  9.741318E-01 -8.992972E+01  8.015393E-04 1.603616E-01  7.883095E-04 -5.413657E-01  9.654379E-01 -8.372678E+01
7.830000E+02  9.733980E-01 -8.995156E+01  7.606898E-04 2.913174E+00  7.671670E-04 2.105560E+00  9.651950E-01 -8.369303E+01
7.831250E+02  9.731552E-01 -8.996964E+01  7.729291E-04 5.698091E+00  7.691884E-04 4.961121E+00  9.657772E-01 -8.367621E+01
7.832500E+02  9.732945E-01 -8.997424E+01  8.174450E-04 7.318664E+00  8.044549E-04 6.969409E+00  9.667622E-01 -8.370284E+01
7.833750E+02  9.730177E-01 -9.001723E+01  8.450922E-04 5.604781E+00  8.323414E-04 4.033993E+00  9.671658E-01 -8.378092E+01
7.835000E+02  9.729168E-01 -9.001378E+01  8.510025E-04 3.619306E+00  8.305529E-04 2.872014E+00  9.670218E-01 -8.386110E+01
7.836250E+02  9.733278E-01 -9.003110E+01  8.195807E-04 3.942402E+00  8.300595E-04 4.601749E+00  9.661847E-01 -8.391625E+01
7.837500E+02  9.741860E-01 -9.007456E+01  8.358377E-04 5.400607E+00  8.323279E-04 5.711825E+00  9.654013E-01 -8.392497E+01
7.838750E+02  9.750073E-01 -9.015959E+01  8.748685E-04 4.523854E+00  8.690800E-04 4.976685E+00  9.654444E-01 -8.389654E+01
7.840000E+02  9.749789E-01 -9.031261E+01  8.923009E-04 3.148916E+00  8.784650E-04 3.336123E+00  9.660015E-01 -8.390396E+01
7.841250E+02  9.733885E-01 -9.045794E+01  8.972760E-04 2.820693E+00  8.957883E-04 3.126553E+00  9.667853E-01 -8.393403E+01
7.842500E+02  9.704741E-01 -9.055760E+01  8.986148E-04 9.388214E-01  9.120604E-04 1.305726E+00  9.673966E-01 -8.398837E+01
7.843750E+02  9.662829E-01 -9.053907E+01  9.053504E-04 -7.884899E-01  8.955090E-04 -5.937886E-01  9.675189E-01 -8.405556E+01
7.845000E+02  9.635114E-01 -9.032712E+01  8.930210E-04 -6.735824E-01  8.907600E-04 -5.323318E-01  9.676218E-01 -8.412565E+01
7.846250E+02  9.646994E-01 -9.007369E+01  8.898393E-04 -1.870098E+00  8.939124E-04 -2.538053E+00  9.671852E-01 -8.418199E+01
7.847500E+02  9.678328E-01 -9.000823E+01  8.787357E-04 -3.428251E+00  8.955322E-04 -2.884134E+00  9.668973E-01 -8.421204E+01
7.848750E+02  9.702607E-01 -9.005032E+01  8.564395E-04 -4.218941E+00  8.651216E-04 -4.511115E+00  9.668917E-01 -8.425103E+01
7.850000E+02  9.714193E-01 -9.013901E+01  8.312794E-04 -4.981386E+00  8.364457E-04 -4.751744E+00  9.668177E-01 -8.429669E+01
7.851250E+02  9.718694E-01 -9.024134E+01  8.204814E-04 -2.933544E+00  8.264303E-04 -3.483973E+00  9.669106E-01 -8.433916E+01
7.852500E+02  9.715849E-01 -9.032375E+01  8.208070E-04 -2.823428E+00  7.970028E-04 -3.227434E+00  9.670105E-01 -8.440204E+01
7.853750E+02  9.703873E-01 -9.036081E+01  8.174918E-04 2.994740E-02  8.215608E-04 9.800005E-02  9.664285E-01 -8.448081E+01
7.855000E+02  9.702975E-01 -9.031853E+01  8.509158E-04 1.228647E+00  8.457053E-04 -1.355674E-01  9.657952E-01 -8.452748E+01
7.856250E+02  9.716041E-01 -9.031445E+01  8.980202E-04 -8.266868E-01  8.911920E-04 -6.838140E-01  9.651119E-01 -8.457324E+01
7.857500E+02  9.727684E-01 -9.042123E+01  9.140083E-04 -4.060111E+00  9.098736E-04 -3.849751E+00  9.641725E-01 -8.462348E+01
7.858750E+02  9.725707E-01 -9.053681E+01  8.937783E-04 -6.098321E+00  8.980779E-04 -5.945620E+00  9.630515E-01 -8.462226E+01
7.860000E+02  9.712618E-01 -9.064398E+01  8.563959E-04 -7.160825E+00  8.557173E-04 -7.679555E+00  9.625814E-01 -8.460350E+01
7.861250E+02  9.689000E-01 -9.066650E+01  8.370375E-04 -8.136530E+00  8.487499E-04 -6.536658E+00  9.626366E-01 -8.461234E+01
7.862500E+02  9.680007E-01 -9.055244E+01  8.082732E-04 -7.556343E+00  8.011719E-04 -8.105594E+00  9.624956E-01 -8.462236E+01
7.863750E+02  9.692453E-01 -9.049702E+01  8.101849E-04 -5.185287E+00  8.012944E-04 -5.731256E+00  9.622484E-01 -8.464765E+01
7.865000E+02  9.707726E-01 -9.052895E+01  8.102633E-04 -7.010241E+00  7.935491E-04 -6.124561E+00  9.621683E-01 -8.468481E+01
7.866250E+02  9.715673E-01 -9.062253E+01  7.897053E-04 -6.974083E+00  7.726311E-04 -6.834907E+00  9.606435E-01 -8.471027E+01
7.867500E+02  9.711924E-01 -9.074493E+01  7.768670E-04 -3.117881E+00  7.773993E-04 -3.998364E+00  9.595987E-01 -8.461133E+01
7.868750E+02  9.687345E-01 -9.082692E+01  7.510520E-04 -7.664231E+00  7.512743E-04 -7.068892E+00  9.611291E-01 -8.454347E+01
7.870000E+02  9.668980E-01 -9.070992E+01  6.986297E-04 -1.169147E+00  7.073761E-04 -1.542809E-01  9.615854E-01 -8.456901E+01
7.871250E+02  9.681360E-01 -9.062337E+01  7.457772E-04 4.691684E+00  7.395731E-04 4.843757E+00  9.620172E-01 -8.454805E+01
7.872500E+02  9.695880E-01 -9.065653E+01  8.615607E-04 6.691189E+00  8.521763E-04 6.512970E+00  9.630757E-01 -8.450357E+01
7.873750E+02  9.689730E-01 -9.073705E+01  9.228660E-04 1.534465E+00  9.374741E-04 1.140860E+00  9.649541E-01 -8.452150E+01
7.875000E+02  9.678771E-01 -9.064892E+01  8.822404E-04 -2.180432E+00  9.010911E-04 -1.357519E+00  9.663277E-01 -8.461843E+01
7.876250E+02  9.693433E-01 -9.058569E+01  9.161771E-04 -6.666369E-01  9.142514E-04 -1.296161E+00  9.664971E-01 -8.470245E+01
7.877500E+02  9.714339E-01 -9.059411E+01  9.185933E-04 -2.301116E+00  9.262385E-04 -2.114551E+00  9.663846E-01 -8.474815E+01
7.878750E+02  9.733585E-01 -9.066753E+01  9.429084E-04 -3.934928E+00  9.222589E-04 -4.179946E+00  9.668798E-01 -8.478573E+01
7.880000E+02  9.741560E-01 -9.081432E+01  9.484351E-04 -4.837792E+00  9.605477E-04 -5.033458E+00  9.673252E-01 -8.483958E+01
7.881250E+02  9.731697E-01 -9.095519E+01  9.602364E-04 -8.337868E+00  9.627446E-04 -8.475605E+00  9.677342E-01 -8.491784E+01
7.882500E+02  9.720040E-01 -9.093225E+01  9.034226E-04 -1.179198E+01  8.858509E-04 -1.241877E+01  9.672460E-01 -8.501265E+01
7.883750E+02  9.724036E-01 -9.097000E+01  8.513925E-04 -9.334393E+00  8.480154E-04 -9.550418E+00  9.657117E-01 -8.504986E+01
7.885000E+02  9.721931E-01 -9.103758E+01  8.753279E-04 -7.153035E+00  8.765856E-04 -6.495318E+00  9.653925E-01 -8.499688E+01
7.886250E+02  9.717491E-01 -9.104165E+01  8.779513E-04 -7.655361E+00  8.767313E-04 -8.778769E+00  9.662481E-01 -8.498355E+01
7.887500E+02  9.719920E-01 -9.106674E+01  8.877242E-04 -7.243505E+00  8.902055E-04 -7.161637E+00  9.673429E-01 -8.502456E+01
7.888750E+02  9.720004E-01 -9.111473E+01  8.933135E-04 -7.225435E+00  8.943761E-04 -7.994691E+00  9.678710E-01 -8.509443E+01
7.890000E+02  9.712533E-01 -9.114791E+01  9.113853E-04 -8.873163E+00  9.036193E-04 -8.457529E+00  9.677210E-01 -8.516745E+01
7.891250E+02  9.711836E-01 -9.111700E+01  8.898120E-04 -9.574992E+00  9.082887E-04 -9.603403E+00  9.673474E-01 -8.521100E+01
7.892500E+02  9.723229E-01 -9.112647E+01  9.040946E-04 -8.731857E+00  8.889528E-04 -8.526728E+00  9.669740E-01 -8.520984E+01
7.893750E+02  9.733036E-01 -9.120689E+01  9.324996E-04 -8.928755E+00  9.284967E-04 -8.767877E+00  9.674651E-01 -8.521979E+01
7.895000E+02  9.733240E-01 -9.132600E+01  9.651459E-04 -1.023448E+01  9.672051E-04 -9.840539E+00  9.682803E-01 -8.524678E+01
7.896250E+02  9.720917E-01 -9.144192E+01  1.005653E-03 -1.258767E+01  9.930175E-04 -1.243196E+01  9.687853E-01 -8.529499E+01
7.897500E+02  9.700296E-01 -9.148659E+01  1.038922E-03 -1.641759E+01  1.031211E-03 -1.557462E+01  9.694580E-01 -8.534972E+01
7.898750E+02  9.677311E-01 -9.144861E+01  1.011722E-03 -2.224158E+01  1.011764E-03 -2.182613E+01  9.699189E-01 -8.542994E+01
7.900000E+02  9.665491E-01 -9.132520E+01  9.236246E-04 -2.533817E+01  9.399418E-04 -2.560518E+01  9.699052E-01 -8.551625E+01
7.901250E+02  9.674628E-01 -9.118018E+01  8.247110E-04 -2.579222E+01  8.363777E-04 -2.593653E+01  9.697668E-01 -8.559381E+01
7.902500E+02  9.703134E-01 -9.111532E+01  7.771963E-04 -2.307356E+01  7.730921E-04 -2.349500E+01  9.690982E-01 -8.565849E+01
7.903750E+02  9.726163E-01 -9.120234E+01  7.708431E-04 -2.053720E+01  7.684656E-04 -2.119359E+01  9.684737E-01 -8.570422E+01
7.905000E+02  9.735376E-01 -9.131396E+01  7.783460E-04 -1.857798E+01  7.697056E-04 -2.016090E+01  9.682726E-01 -8.572725E+01
7.906250E+02  9.734860E-01 -9.141086E+01  7.624238E-04 -1.857772E+01  7.587155E-04 -1.896862E+01  9.681272E-01 -8.575373E+01
7.907500E+02  9.730934E-01 -9.146871E+01  7.627959E-04 -1.770727E+01  7.511858E-04 -1.760166E+01  9.683568E-01 -8.579347E+01
7.908750E+02  9.728963E-01 -9.146880E+01  7.556596E-04 -1.675414E+01  7.577355E-04 -1.626896E+01  9.681697E-01 -8.584269E+01
7.910000E+02  9.737511E-01 -9.148599E+01  7.557334E-04 -1.502701E+01  7.582323E-04 -1.430136E+01  9.678442E-01 -8.589468E+01
7.911250E+02  9.747222E-01 -9.159545E+01  8.041738E-04 -1.500293E+01  7.991858E-04 -1.459691E+01  9.676818E-01 -8.592516E+01
7.912500E+02  9.739871E-01 -9.172104E+01  8.203362E-04 -1.702149E+01  8.162524E-04 -1.749726E+01  9.673769E-01 -8.596913E+01
7.913750E+02  9.722751E-01 -9.177785E+01  8.364254E-04 -1.881481E+01  8.364575E-04 -2.043722E+01  9.669021E-01 -8.599826E+01
7.915000E+02  9.711108E-01 -9.173306E+01  8.074870E-04 -2.108207E+01  8.084618E-04 -2.195680E+01  9.667823E-01 -8.600880E+01
7.916250E+02  9.709782E-01 -9.168831E+01  7.938514E-04 -2.230882E+01  7.873981E-04 -2.245505E+01  9.663352E-01 -8.602437E+01
7.917500E+02  9.719856E-01 -9.166583E+01  7.718521E-04 -2.438205E+01  7.784737E-04 -2.495046E+01  9.667140E-01 -8.601560E+01
7.918750E+02  9.732497E-01 -9.169590E+01  7.365624E-04 -2.657648E+01  7.375655E-04 -2.625349E+01  9.674165E-01 -8.604716E+01
7.920000E+02  9.736923E-01 -9.178198E+01  6.932757E-04 -2.324779E+01  6.777985E-04 -2.395439E+01  9.676808E-01 -8.610290E+01
7.921250E+02  9.732971E-01 -9.184553E+01  6.726221E-04 -2.468159E+01  6.582449E-04 -2.426346E+01  9.677102E-01 -8.615468E+01
7.922500E+02  9.724640E-01 -9.187226E+01  6.461786E-04 -2.227843E+01  6.605908E-04 -2.104457E+01  9.671661E-01 -8.618208E+01
7.923750E+02  9.723140E-01 -9.185890E+01  6.570247E-04 -1.897423E+01  6.433266E-04 -1.954061E+01  9.674128E-01 -8.618420E+01
7.925000E+02  9.723624E-01 -9.185725E+01  6.335225E-04 -2.209256E+01  6.355403E-04 -2.184057E+01  9.680874E-01 -8.621148E+01
7.926250E+02  9.734064E-01 -9.182736E+01  5.997621E-04 -1.515967E+01  6.034201E-04 -1.350336E+01  9.681791E-01 -8.626412E+01
7.927500E+02  9.747917E-01 -9.187379E+01  6.608496E-04 -1.183073E+01  6.584593E-04 -1.208430E+01  9.683194E-01 -8.629192E+01
7.928750E+02  9.753405E-01 -9.196663E+01  6.988773E-04 -1.193763E+01  6.940479E-04 -1.325327E+01  9.687185E-01 -8.631381E+01
7.930000E+02  9.746790E-01 -9.203596E+01  7.174506E-04 -1.811692E+01  6.997021E-04 -1.765416E+01  9.694040E-01 -8.636024E+01
7.931250E+02  9.745636E-01 -9.200366E+01  6.535331E-04 -1.722588E+01  6.450554E-04 -1.935553E+01  9.697773E-01 -8.642852E+01
7.932500E+02  9.761043E-01 -9.202975E+01  6.581339E-04 -1.485311E+01  6.390899E-04 -1.383177E+01  9.697184E-01 -8.648244E+01
7.933750E+02  9.770472E-01 -9.211603E+01  6.707562E-04 -1.242719E+01  6.696255E-04 -1.320280E+01  9.697611E-01 -8.652902E+01
7.935000E+02  9.777425E-01 -9.221835E+01  7.031871E-04 -1.328505E+01  6.956387E-04 -1.345487E+01  9.697467E-01 -8.657550E+01
7.936250E+02  9.775561E-01 -9.234461E+01  7.225238E-04 -1.520773E+01  7.214122E-04 -1.539181E+01  9.700569E-01 -8.663014E+01
7.937500E+02  9.763331E-01 -9.243887E+01  7.265410E-04 -1.879442E+01  7.260800E-04 -1.906345E+01  9.701031E-01 -8.667305E+01
7.938750E+02  9.752208E-01 -9.247322E+01  6.627979E-04 -2.155968E+01  6.660581E-04 -2.145753E+01  9.698570E-01 -8.672800E+01
7.940000E+02  9.749587E-01 -9.248812E+01  6.155562E-04 -1.933281E+01  6.100984E-04 -1.813939E+01  9.699226E-01 -8.675569E+01
7.941250E+02  9.746898E-01 -9.251746E+01  6.052070E-04 -1.459024E+01  6.013725E-04 -1.475150E+01  9.702108E-01 -8.678890E+01
7.942500E+02  9.744506E-01 -9.256339E+01  6.150976E-04 -1.328969E+01  6.225728E-04 -1.412095E+01  9.705166E-01 -8.684593E+01
7.943750E+02  9.740910E-01 -9.262213E+01  6.492365E-04 -1.359813E+01  6.459439E-04 -1.377558E+01  9.707621E-01 -8.689598E+01
7.945000E+02  9.728701E-01 -9.265840E+01  6.363938E-04 -1.328342E+01  6.450330E-04 -1.393100E+01  9.705110E-01 -8.695889E+01
7.946250E+02  9.719602E-01 -9.265164E+01  6.243113E-04 -1.352474E+01  6.316503E-04 -1.395970E+01  9.705397E-01 -8.699991E+01
7.947500E+02  9.717305E-01 -9.259549E+01  6.124686E-04 -1.125832E+01  6.161243E-04 -1.113355E+01  9.706859E-01 -8.704657E+01
7.948750E+02  9.724221E-01 -9.259555E+01  6.343747E-04 -9.656016E+00  6.508668E-04 -9.726284E+00  9.705965E-01 -8.709570E+01
7.950000E+02  9.726479E-01 -9.261790E+01  6.567705E-04 -9.384562E+00  6.548531E-04 -1.106494E+01  9.708383E-01 -8.713990E+01
7.951250E+02  9.722741E-01 -9.264499E+01  6.593187E-04 -1.028409E+01  6.666393E-04 -1.074583E+01  9.709327E-01 -8.719294E+01
7.952500E+02  9.723605E-01 -9.262040E+01  6.562423E-04 -1.169456E+01  6.617835E-04 -1.227501E+01  9.710008E-01 -8.723976E+01
7.953750E+02  9.733359E-01 -9.259635E+01  6.533547E-04 -1.055416E+01  6.623205E-04 -1.071684E+01  9.710823E-01 -8.729618E+01
7.955000E+02  9.744374E-01 -9.265451E+01  6.564091E-04 -1.178173E+01  6.504811E-04 -1.237784E+01  9.709795E-01 -8.735582E+01
7.956250E+02  9.744683E-01 -9.272577E+01  6.368314E-04 -1.159247E+01  6.428046E-04 -1.216855E+01  9.709366E-01 -8.741232E+01
7.957500E+02  9.740295E-01 -9.272539E+01  6.194391E-04 -9.262053E+00  6.048422E-04 -1.053133E+01  9.707372E-01 -8.745854E+01
7.958750E+02  9.752243E-01 -9.270601E+01  6.335641E-04 -4.498900E+00  6.268828E-04 -5.966639E+00  9.704567E-01 -8.749970E+01
7.960000E+02  9.764461E-01 -9.278688E+01  6.814493E-04 -4.162665E+00  6.756887E-04 -4.079037E+00  9.705854E-01 -8.753285E+01
7.961250E+02  9.763221E-01 -9.288087E+01  6.980554E-04 -6.620439E+00  7.002093E-04 -6.460314E+00  9.708059E-01 -8.756971E+01
7.962500E+02  9.757444E-01 -9.292802E+01  6.945481E-04 -8.788690E+00  6.950734E-04 -9.641385E+00  9.709795E-01 -8.761821E+01
7.963750E+02  9.755828E-01 -9.292978E+01  6.818971E-04 -9.362769E+00  6.664810E-04 -9.514492E+00  9.711362E-01 -8.766799E+01
7.965000E+02  9.756169E-01 -9.293224E+01  6.684167E-04 -7.734779E+00  6.616344E-04 -9.492670E+00  9.711460E-01 -8.772981E+01
7.966250E+02  9.763816E-01 -9.292982E+01  6.702291E-04 -4.806767E+00  6.824690E-04 -3.947062E+00  9.709640E-01 -8.778833E+01
7.967500E+02  9.773088E-01 -9.298213E+01  7.238135E-04 -5.195790E+00  7.163351E-04 -6.297250E+00  9.710893E-01 -8.783625E+01
7.968750E+02  9.774622E-01 -9.303614E+01  7.266949E-04 -8.065077E+00  7.247215E-04 -8.004459E+00  9.708970E-01 -8.789908E+01
7.970000E+02  9.777341E-01 -9.306100E+01  7.143537E-04 -8.783328E+00  7.181751E-04 -8.186437E+00  9.705720E-01 -8.794734E+01
7.971250E+02  9.785763E-01 -9.308517E+01  7.072502E-04 -7.088792E+00  7.152832E-04 -7.525877E+00  9.704664E-01 -8.799674E+01
7.972500E+02  9.794289E-01 -9.314612E+01  7.319439E-04 -8.651274E+00  7.169147E-04 -7.270835E+00  9.701653E-01 -8.803652E+01
7.973750E+02  9.799191E-01 -9.323151E+01  7.305231E-04 -7.587531E+00  7.234497E-04 -8.618880E+00  9.703845E-01 -8.806715E+01
7.975000E+02  9.798701E-01 -9.330640E+01  7.319592E-04 -7.860510E+00  7.306551E-04 -6.655223E+00  9.704436E-01 -8.811407E+01
7.976250E+02  9.794746E-01 -9.336842E+01  7.215420E-04 -6.266998E+00  7.297482E-04 -7.583322E+00  9.704420E-01 -8.816218E+01
7.977500E+02  9.791767E-01 -9.339627E+01  7.282857E-04 -6.369013E+00  7.315034E-04 -7.581965E+00  9.704681E-01 -8.821271E+01
7.978750E+02  9.792792E-01 -9.339892E+01  7.652793E-04 -6.270307E+00  7.609150E-04 -5.842742E+00  9.705551E-01 -8.826597E+01
7.980000E+02  9.800755E-01 -9.341210E+01  7.763991E-04 -6.680945E+00  7.840288E-04 -7.248394E+00  9.705509E-01 -8.832236E+01
7.981250E+02  9.809814E-01 -9.346556E+01  8.026109E-04 -8.904126E+00  8.039056E-04 -9.469424E+00  9.705064E-01 -8.837417E+01
7.982500E+02  9.817704E-01 -9.352850E+01  8.064611E-04 -9.462257E+00  7.918086E-04 -1.087590E+01  9.703379E-01 -8.842823E+01
7.983750E+02  9.824029E-01 -9.361890E+01  8.076973E-04 -1.105494E+01  8.064807E-04 -1.143449E+01  9.701989E-01 -8.847466E+01
7.985000E+02  9.825675E-01 -9.369887E+01  8.109405E-04 -1.185549E+01  8.299197E-04 -1.252934E+01  9.700453E-01 -8.851424E+01
7.986250E+02  9.823778E-01 -9.378255E+01  8.068439E-04 -1.490205E+01  8.217046E-04 -1.362815E+01  9.699381E-01 -8.855995E+01
7.987500E+02  9.822270E-01 -9.382915E+01  7.837882E-04 -1.605577E+01  7.721940E-04 -1.552034E+01  9.702614E-01 -8.859122E+01
7.988750E+02  9.822580E-01 -9.388131E+01  7.644267E-04 -1.426702E+01  7.749030E-04 -1.522539E+01  9.703719E-01 -8.864308E+01
7.990000E+02  9.822181E-01 -9.395442E+01  7.718756E-04 -1.356077E+01  7.642217E-04 -1.394389E+01  9.705024E-01 -8.870699E+01
7.991250E+02  9.822965E-01 -9.399871E+01  7.779146E-04 -1.551621E+01  7.813729E-04 -1.378970E+01  9.706766E-01 -8.876013E+01
7.992500E+02  9.819791E-01 -9.407005E+01  7.928284E-04 -1.487473E+01  7.908721E-04 -1.467155E+01  9.705024E-01 -8.883129E+01
7.993750E+02  9.818435E-01 -9.410005E+01  7.923915E-04 -1.544346E+01  7.867987E-04 -1.616047E+01  9.705639E-01 -8.888866E+01
7.995000E+02  9.819522E-01 -9.412023E+01  7.810182E-04 -1.701753E+01  7.775769E-04 -1.686603E+01  9.705260E-01 -8.895355E+01
7.996250E+02  9.823182E-01 -9.417734E+01  7.826806E-04 -1.686302E+01  7.793249E-04 -1.765375E+01  9.701460E-01 -8.902576E+01
7.997500E+02  9.826813E-01 -9.422812E+01  7.779417E-04 -1.712187E+01  7.733792E-04 -1.753232E+01  9.699300E-01 -8.906771E+01
7.998750E+02  9.829246E-01 -9.428723E+01  7.648510E-04 -1.832828E+01  7.588980E-04 -2.011639E+01  9.695485E-01 -8.910742E+01
8.000000E+02  9.830539E-01 -9.435288E+01  7.487889E-04 -1.876772E+01  7.453125E-04 -1.883584E+01  9.697309E-01 -8.913453E+01
8.001250E+02  9.831499E-01 -9.441855E+01  7.259286E-04 -1.762142E+01  7.375528E-04 -1.922863E+01  9.700532E-01 -8.918330E+01
8.002500E+02  9.829731E-01 -9.448489E+01  7.310077E-04 -1.689966E+01  7.349958E-04 -1.685692E+01  9.702264E-01 -8.925174E+01
8.003750E+02  9.828901E-01 -9.453326E+01  7.528646E-04 -1.435236E+01  7.425055E-04 -1.582260E+01  9.703378E-01 -8.931595E+01
8.005000E+02  9.827415E-01 -9.458054E+01  7.468915E-04 -1.493860E+01  7.506344E-04 -1.608228E+01  9.702980E-01 -8.939103E+01
8.006250E+02  9.825422E-01 -9.462585E+01  7.620374E-04 -1.487628E+01  7.496254E-04 -1.565577E+01  9.701617E-01 -8.946186E+01
8.007500E+02  9.827752E-01 -9.465778E+01  7.709526E-04 -1.602925E+01  7.676585E-04 -1.601870E+01  9.701217E-01 -8.952613E+01
8.008750E+02  9.830683E-01 -9.470362E+01  7.816719E-04 -1.608638E+01  7.818505E-04 -1.648279E+01  9.699533E-01 -8.960358E+01
