!EPCOS AG 16.05.2012 17:10:27
!Calibration: group1-4 06.03.2011
!NWA IDN: Rohde&Schwarz,ZVT8-4Port,1300000008100235,2.76
!NWA-Port 1: 78.0 ps , NWA-Port 2: 76.0 ps , NWA-Port 3: 76.0 ps , 
!
! port | pin | signal
! -----|-----|--------
!   1  |  1  |  IN
!   2  |  3  |  OUT
!   3  |  4  |  OUT
! --------------------
! 
# Hz S RI R 50
10000000.000  0.994282663 -0.028257269  0.000042155  0.000048939 -0.000005903  0.000017893 
0.000043118 -0.000002542  0.992223382 -0.013155593  0.000113812  0.003979877 
0.000008890 -0.000006700  0.000016653  0.004018349  0.992302358 -0.013547229 
11868750.000  0.997509181 -0.030196115 -0.000020436  0.000012589 -0.000009108  0.000003421 
0.000016514  0.000075452  0.996885061 -0.011809284 -0.000007053  0.004712947 
0.000076204  0.000050300  0.000101746  0.004768861  0.995499313 -0.012482118 
13737500.000  0.993217230 -0.031206893  0.000150403  0.000095718  0.000158232  0.000090520 
0.000044617  0.000046067  0.992707849 -0.009838692  0.000039454  0.005409364 
0.000076257  0.000028923  0.000057231  0.005431243  0.993934155 -0.008504682 
15606250.000  0.994770169 -0.036581464  0.000064567  0.000045283 -0.000024670  0.000115044 
0.000113366  0.000142496  0.995404005 -0.011750763  0.000105873  0.006188806 
-0.000031621  0.000048565  0.000076526  0.006176861  0.996209145 -0.011476894 
17475000.000  0.997412264 -0.040420830 -0.000018958  0.000029843  0.000097097  0.000063755 
0.000065315  0.000006644  0.999948291 -0.010169297  0.000035667  0.006997158 
-0.000041386  0.000044497  0.000157991  0.006923023  0.997533500 -0.014203046 
19343750.000  0.998301089 -0.042657942  0.000015274  0.000043779  0.000012891  0.000037620 
0.000088466  0.000083634  0.999551833 -0.011468078  0.000127696  0.007695438 
0.000060724  0.000024460  0.000028485  0.007713811  0.999834001 -0.014167326 
21212500.000  0.996304512 -0.050156664  0.000028781  0.000070133  0.000061775  0.000034613 
-0.000001112  0.000082225  0.999864286 -0.016474528  0.000090294  0.008497702 
0.000045881 -0.000022198  0.000106504  0.008567248  0.999826425 -0.018631152 
23081250.000  0.998392490 -0.056678363  0.000058092  0.000091097  0.000087536  0.000015487 
0.000031974 -0.000013155  0.999831781 -0.018341492  0.000042090  0.009186424 
0.000039029  0.000021052  0.000203023  0.009235227  0.998983741 -0.019722410 
24950000.000  0.997919647 -0.064469986 -0.000067666  0.000094580  0.000001350  0.000027734 
-0.000048017  0.000087526  0.999783586 -0.020803402  0.000196570  0.010018843 
0.000019505  0.000053242  0.000195272  0.010159433  0.997979343 -0.025006050 
26818750.000  0.997174978 -0.068522595  0.000036173  0.000016953  0.000020481  0.000049466 
0.000043581  0.000061668  0.999672014 -0.025609846  0.000271362  0.010821520 
-0.000002851  0.000040597  0.000229663  0.010784938  0.999396443 -0.029018119 
28687500.000  0.997486746 -0.070853313  0.000013333  0.000058491  0.000028428  0.000139479 
0.000060169  0.000074248  0.999657788 -0.026159278  0.000282191  0.011600010 
0.000076179  0.000146500  0.000265545  0.011619748  0.998981297 -0.026785932 
30556250.000  0.997210051 -0.074646595 -0.000035716  0.000022075  0.000011221  0.000028056 
-0.000021867  0.000024834  0.999624327 -0.027408119  0.000540999  0.012350660 
0.000027404  0.000018415  0.000505166  0.012400893  0.999602039 -0.028209283 
32425000.000  0.996865362 -0.079116691 -0.000009372  0.000086777  0.000054990  0.000092692 
-0.000032124  0.000071211  0.998501480 -0.029443257  0.000512846  0.013016376 
-0.000011718  0.000109030  0.000540314  0.013040958  0.997987926 -0.029513422 
34293750.000  0.994666338 -0.086509071 -0.000022002  0.000041311  0.000029089  0.000000890 
0.000000675  0.000006893  0.997498393 -0.032981869  0.000279287  0.013744490 
-0.000034187  0.000036772  0.000749069  0.013742913  0.997348070 -0.034869917 
36162500.000  0.996022836 -0.089098312  0.000099037  0.000022395  0.000092281  0.000017230 
0.000054173  0.000030853  0.998046339 -0.032693785  0.000767123  0.014277702 
0.000106004  0.000019979  0.000775353  0.014292482  0.996754706 -0.031774193 
38031250.000  0.995580177 -0.093915444  0.000029112  0.000054731  0.000042124  0.000151401 
0.000078636  0.000056285  0.999099731 -0.034966715  0.000610633  0.015365307 
0.000065905  0.000062948  0.000596150  0.015396294  0.997933865 -0.034770355 
39900000.000  0.995145904 -0.098410521  0.000001571  0.000026913  0.000000719  0.000074388 
0.000029488  0.000001564  0.998330891 -0.036285486  0.000546388  0.016128426 
-0.000017330  0.000059759  0.000581613  0.016081253  0.997285604 -0.035812628 
41768750.000  0.994680732 -0.103006024  0.000023556  0.000070185 -0.000026419  0.000082656 
0.000012496  0.000062520  0.997897744 -0.037692621  0.001395303  0.016604422 
-0.000045358  0.000114830  0.001443516  0.016604101  0.996689439 -0.037331659 
43637500.000  0.994174636 -0.107781231 -0.000005999  0.000073983 -0.000022308  0.000077230 
0.000069058  0.000063460  0.998392165 -0.039455298  0.000719625  0.017408868 
0.000022273  0.000058975  0.000698327  0.017376026  0.997273088 -0.038769428 
45506250.000  0.993537784 -0.112398542  0.000039733  0.000071028 -0.000030852  0.000102552 
0.000004145  0.000102713  0.997677743 -0.041303925  0.000843990  0.018362409 
0.000033841  0.000069050  0.000856941  0.018323125  0.996930003 -0.040748920 
47375000.000  0.992734790 -0.116861686 -0.000025276  0.000124442  0.000003824  0.000101888 
-0.000024799  0.000052937  0.997139096 -0.042934354  0.001286746  0.018929994 
-0.000012987  0.000082286  0.001340424  0.018948326  0.996747971 -0.041921616 
49243750.000  0.992004573 -0.120446824 -0.000007208  0.000067428 -0.000044722  0.000062296 
0.000026745  0.000078479  0.997300982 -0.043011785  0.000872011  0.019477086 
0.000040080 -0.000018208  0.000892115  0.019453902  0.997565031 -0.041897070 
51112500.000  0.991104901 -0.124456473  0.000004917  0.000047963 -0.000001730  0.000082501 
-0.000016341  0.000047235  0.997073412 -0.044127345  0.000763529  0.020611018 
-0.000017899  0.000083206  0.000820278  0.020596491  0.997564495 -0.043885600 
52981250.000  0.990514815 -0.129757568 -0.000023430  0.000064460 -0.000006637  0.000064611 
0.000006033  0.000079391  0.996819794 -0.046818294  0.001084151  0.021220416 
-0.000028441  0.000074814  0.001122485  0.021215448  0.996836782 -0.045875143 
54850000.000  0.989635229 -0.134704664  0.000010389  0.000089826 -0.000008534  0.000095952 
0.000003735  0.000077017  0.996747971 -0.048475541  0.000999380  0.021777298 
-0.000007832  0.000084478  0.001029817  0.021780901  0.996652365 -0.047326449 
56718750.000  0.989177346 -0.138231590 -0.000004360  0.000049712  0.000003255  0.000046760 
0.000002101  0.000055262  0.996966541 -0.049401499  0.001063936  0.022905814 
0.000018811  0.000066867  0.001097273  0.022914557  0.996760607 -0.048638754 
58587500.000  0.988801658 -0.142916933  0.000029469  0.000107061 -0.000004749  0.000072264 
0.000033261  0.000100631  0.996792257 -0.051195387  0.001425831  0.023407232 
0.000001783  0.000088281  0.001443546  0.023393691  0.996901929 -0.049506705 
60456250.000  0.988213420 -0.147375762  0.000014010  0.000067515 -0.000006948  0.000092066 
0.000008677  0.000070592  0.996579826 -0.053048499  0.001125418  0.023953982 
0.000001897  0.000094259  0.001164314  0.023949971  0.996983111 -0.051297657 
62325000.000  0.987731755 -0.151583180  0.000010136  0.000104819  0.000012442  0.000104709 
0.000006069  0.000100792  0.996802449 -0.054536507  0.001395422  0.025168376 
0.000003177  0.000111342  0.001421244  0.025140461  0.996954978 -0.052649040 
64193750.000  0.987144232 -0.155857429  0.000019270  0.000085377  0.000019414  0.000117113 
0.000026471  0.000103983  0.996970773 -0.056042984  0.001706069  0.025639104 
0.000016573  0.000105598  0.001700101  0.025647121  0.996650457 -0.054087684 
66062500.000  0.986998141 -0.159968570 -0.000019186  0.000053448 -0.000033314  0.000066511 
-0.000008139  0.000059115  0.997252822 -0.056547474  0.001387191  0.026369551 
-0.000033690  0.000066327  0.001413668  0.026385972  0.997179925 -0.055210192 
67931250.000  0.985587955 -0.164913192  0.000010189  0.000111331  0.000013050  0.000123419 
-0.000003559  0.000101297  0.996864319 -0.058318339  0.001662542  0.027360326 
0.000005733  0.000104503  0.001697930  0.027334144  0.996909380 -0.056770254 
69800000.000  0.984670758 -0.169705883  0.000010556  0.000084251  0.000032325  0.000107314 
0.000012924  0.000088396  0.996758759 -0.061234035  0.001778485  0.027957041 
0.000037110  0.000099469  0.001760721  0.027922349  0.996695280 -0.058876693 
71668750.000  0.983692408 -0.174040005  0.000001103  0.000077916  0.000007514  0.000066831 
0.000007404  0.000086429  0.996256590 -0.063123606  0.001753401  0.028733112 
-0.000012335  0.000083997  0.001767531  0.028710263  0.996334136 -0.060457669 
73537500.000  0.982442141 -0.177850410  0.000020448  0.000056692  0.000013742  0.000062162 
0.000026638  0.000066761  0.996021509 -0.064395562  0.001776018  0.029597780 
0.000004350  0.000060349  0.001775804  0.029579107  0.995831251 -0.062216770 
75406250.000  0.982220829 -0.182523221  0.000005535  0.000100970 -0.000007811  0.000124987 
0.000022157  0.000111176  0.995920122 -0.066020891  0.002076064  0.030323334 
-0.000003976  0.000112871  0.002087440  0.030312560  0.995860457 -0.063308723 
77275000.000  0.981362343 -0.187526301  0.000026052  0.000101231  0.000013538  0.000103119 
0.000016481  0.000092466  0.996047139 -0.067014530  0.002096000  0.030961949 
0.000017292  0.000091572  0.002121910  0.030962808  0.996087015 -0.064328089 
79143750.000  0.980194986 -0.191789269 -0.000004217  0.000106513  0.000008328  0.000097476 
0.000007233  0.000109516  0.995885432 -0.068872631  0.002178099  0.031848639 
0.000010641  0.000105387  0.002199083  0.031872004  0.995823085 -0.065975152 
81012500.000  0.979623079 -0.195657134 -0.000009091  0.000088163 -0.000010792  0.000102596 
-0.000009382  0.000080188  0.996212780 -0.069994979  0.002327237  0.032577641 
-0.000009590  0.000090638  0.002328128  0.032572642  0.996051311 -0.066467084 
82881250.000  0.978427768 -0.200245544  0.000033003  0.000120562  0.000042345  0.000127165 
0.000036019  0.000124700  0.995828807 -0.071561076  0.002360856  0.033298034 
0.000038966  0.000131488  0.002388946  0.033319790  0.996172965 -0.068128258 
84750000.000  0.977794647 -0.204651609 -0.000003018  0.000137502  0.000019879  0.000145824 
-0.000001784  0.000155963  0.995618165 -0.073847041  0.002639712  0.033992287 
0.000008188  0.000142724  0.002621816  0.033877976  0.996015429 -0.070490330 
86618750.000  0.977069199 -0.209786981  0.000020991  0.000108423  0.000046404  0.000126754 
0.000029207  0.000104722  0.995211840 -0.075852759  0.002656913  0.034785748 
0.000044677  0.000117899  0.002616576  0.034781951  0.995977998 -0.071766160 
88487500.000  0.975793302 -0.214237154 -0.000055848  0.000115595 -0.000060793  0.000132118 
-0.000058486  0.000116644  0.995238960 -0.077039324  0.002796134  0.035347827 
-0.000049281  0.000126904  0.002751981  0.035243120  0.995917976 -0.073762037 
90356250.000  0.974744141 -0.218757555  0.000030837  0.000150796  0.000031477  0.000141653 
0.000035916  0.000137663  0.995230615 -0.077738918  0.002958900  0.036370162 
0.000034048  0.000137598  0.003061902  0.036353737  0.995862544 -0.075491607 
92225000.000  0.974027872 -0.222817346  0.000011332  0.000147501  0.000018580  0.000154525 
0.000006218  0.000142415  0.995060027 -0.080195867  0.003088483  0.036940839 
0.000031292  0.000144432  0.003103339  0.036874626  0.995738029 -0.076744847 
94093750.000  0.971849084 -0.227451891  0.000035831  0.000099389  0.000041530  0.000118622 
0.000031516  0.000101126  0.994817615 -0.084296264  0.003053162  0.037271257 
0.000035048  0.000109272  0.003016321  0.037220109  0.995120585 -0.079309061 
95962500.000  0.971377313 -0.231359407  0.000032836  0.000118856  0.000012705  0.000141549 
0.000026006  0.000119376  0.994631529 -0.084612258  0.003267241  0.038599376 
-0.000000932  0.000135542  0.003303604  0.038634401  0.995573223 -0.079770654 
97831250.000  0.970655262 -0.235256359  0.000027536  0.000137586  0.000019901  0.000145815 
0.000023127  0.000140714  0.994043291 -0.084897257  0.003289449  0.039047390 
0.000031645  0.000152216  0.003286241  0.039026525  0.995196342 -0.080669828 
99700000.000  0.969461739 -0.239554539  0.000021536  0.000185423  0.000020000  0.000197225 
0.000017955  0.000179450  0.993765771 -0.087200746  0.003341205  0.039611891 
0.000041500  0.000220909  0.003291801  0.039590504  0.994878232 -0.082778558 
101568750.000  0.968878448 -0.243491739  0.000036981  0.000140558  0.000025393  0.000129203 
0.000048911  0.000121934  0.993634224 -0.088445514  0.003805264  0.041070238 
0.000025307  0.000140032  0.003788717  0.041066553  0.994950354 -0.083876438 
103437500.000  0.967462838 -0.247930989  0.000019556  0.000137134  0.000018738  0.000150205 
0.000022243  0.000120733  0.993362248 -0.089489758  0.003822652  0.041277200 
0.000009476  0.000150409  0.003808179  0.041297339  0.994477093 -0.085497148 
105306250.000  0.966191113 -0.252656251  0.000006360  0.000133598  0.000004795  0.000161575 
0.000002472  0.000122006  0.993413806 -0.091644928  0.003967175  0.042119969 
0.000007021  0.000157989  0.003964396  0.042129584  0.994313538 -0.087512903 
107175000.000  0.964842737 -0.257097721  0.000043237  0.000135193  0.000034439  0.000135887 
0.000032266  0.000144958  0.993434787 -0.093276776  0.004078640  0.043302026 
0.000036063  0.000139174  0.004040885  0.043312121  0.994465888 -0.088510573 
109043750.000  0.964296699 -0.261446089  0.000042617  0.000157001  0.000029937  0.000160350 
0.000049181  0.000151635  0.993038952 -0.094495647  0.004400816  0.043400627 
0.000032736  0.000161118  0.004394983  0.043406624  0.994343162 -0.089386985 
110912500.000  0.962849557 -0.265967309  0.000038622  0.000166151  0.000024750  0.000177041 
0.000028770  0.000169229  0.993127167 -0.096860968  0.004347747  0.044402219 
0.000013749  0.000170357  0.004346389  0.044409961  0.994327724 -0.091667138 
112781250.000  0.961724281 -0.269826055  0.000018507  0.000129228  0.000025696  0.000148033 
0.000017491  0.000141979  0.992809951 -0.098382413  0.004630395  0.045545511 
0.000012359  0.000151511  0.004643723  0.045534059  0.994402587 -0.092927046 
114650000.000  0.960717976 -0.274208307  0.000018891  0.000165569  0.000028771  0.000148693 
0.000031910  0.000170515  0.992280543 -0.098854370  0.004889674  0.045190439 
0.000033588  0.000175714  0.004897183  0.045221690  0.993969917 -0.093793482 
116518750.000  0.958587408 -0.278629243  0.000037757  0.000172178  0.000055783  0.000197691 
0.000027751  0.000173533  0.991689444 -0.101435192  0.004844201  0.046610065 
0.000052931  0.000183070  0.004838681  0.046596795  0.993008614 -0.096448965 
118387500.000  0.957588971 -0.282388598  0.000022231  0.000167711  0.000027849  0.000177822 
0.000015534  0.000158493  0.991380215 -0.103186473  0.005029978  0.047525205 
0.000024476  0.000172605  0.005084146  0.047475610  0.992617071 -0.097724810 
120256250.000  0.955959499 -0.286925852  0.000028006  0.000170185  0.000059571  0.000190814 
0.000036419  0.000167334  0.991093278 -0.104443565  0.005120468  0.047274813 
0.000039136  0.000201181  0.005189403  0.047256429  0.992336154 -0.098495819 
122125000.000  0.953242183 -0.291186780  0.000049985  0.000193109  0.000035638  0.000190795 
0.000059986  0.000162886  0.990202010 -0.106659345  0.005194641  0.048639040 
0.000042744  0.000173901  0.005208373  0.048612252  0.991641223 -0.100299947 
123993750.000  0.953230977 -0.294316977  0.000044788  0.000171527  0.000051156  0.000170962 
0.000057265  0.000163360  0.989838302 -0.107830212  0.005418069  0.049616855 
0.000059401  0.000163518  0.005405134  0.049560271  0.991388142 -0.101504877 
125862500.000  0.951912701 -0.298702806  0.000018847  0.000189539  0.000028481  0.000170260 
0.000017552  0.000174810  0.989867985 -0.108337514  0.005686771  0.049355987 
0.000016773  0.000181059  0.005694555  0.049356937  0.991242051 -0.101784274 
127731250.000  0.949336112 -0.303733885  0.000014045  0.000137470  0.000033813  0.000210466 
0.000013417  0.000140084  0.989701092 -0.110856064  0.005617655  0.050601009 
0.000028874  0.000186363  0.005642375  0.050593846  0.991093457 -0.104797564 
129600000.000  0.949678481 -0.307448924  0.000051486  0.000174579  0.000023293  0.000184094 
0.000034276  0.000169854  0.989927113 -0.111917742  0.006044434  0.051722720 
0.000013907  0.000178465  0.006036622  0.051678021  0.990915477 -0.106483556 
131468750.000  0.947838843 -0.311887890  0.000041954  0.000190044  0.000047069  0.000198894 
0.000060166  0.000194691  0.989410102 -0.113218762  0.005993257  0.051732291 
0.000044287  0.000204724  0.006038622  0.051773205  0.990434527 -0.107121758 
133337500.000  0.945185304 -0.315551251  0.000131032  0.000197901  0.000128157  0.000212492 
0.000118506  0.000193974  0.988215506 -0.115711741  0.005655795  0.052542422 
0.000132108  0.000204921  0.005742881  0.052502256  0.989842415 -0.109375097 
135206250.000  0.945071995 -0.320202619  0.000049584  0.000188553  0.000039139  0.000188573 
0.000037357  0.000180406  0.988561809 -0.116167374  0.006547017  0.053908456 
0.000033249  0.000199742  0.006620330  0.053877674  0.989617109 -0.110628888 
137075000.000  0.943632483 -0.323972404  0.000049623  0.000210880  0.000067407  0.000220637 
0.000027706  0.000184573  0.987919152 -0.118027076  0.006354754  0.053945359 
0.000057086  0.000220376  0.006377731  0.053909533  0.989281952 -0.111752771 
138943750.000  0.941976786 -0.327734947  0.000069134  0.000198452  0.000065000  0.000218318 
0.000072331  0.000223393  0.987158954 -0.120738894  0.006229534  0.054775499 
0.000069252  0.000215353  0.006271198  0.054771174  0.989168704 -0.114028357 
140812500.000  0.940890551 -0.333087981  0.000043740  0.000195137  0.000057959  0.000182785 
0.000041193  0.000201394  0.987774909 -0.121545486  0.006964904  0.055972170 
0.000036916  0.000197501  0.007045976  0.055992160  0.989257336 -0.115733601 
142681250.000  0.938987732 -0.337479323  0.000043272  0.000215114  0.000034474  0.000202863 
0.000055247  0.000199951  0.987399638 -0.123691536  0.007032220  0.056560565 
0.000036892  0.000181791  0.007098971  0.056488361  0.989008129 -0.117176980 
144550000.000  0.937368095 -0.341288149  0.000075142  0.000217147  0.000071713  0.000228424 
0.000060827  0.000216208  0.986687064 -0.125289619  0.007003395  0.056960747 
0.000063826  0.000250665  0.007017782  0.056921020  0.988434374 -0.119408011 
146418750.000  0.935279548 -0.344553262  0.000032780  0.000178379  0.000063952  0.000186689 
0.000057593  0.000180310  0.986346066 -0.125357851  0.007271527  0.058223676 
0.000050533  0.000202257  0.007333281  0.058134887  0.987268746 -0.119914100 
148287500.000  0.933901906 -0.348620892  0.000020324  0.000204871  0.000013730  0.000212818 
0.000008271  0.000208976  0.985841036 -0.127142653  0.007293279  0.059093524 
0.000000971  0.000191731  0.007313051  0.058977902  0.986712396 -0.121005595 
150156250.000  0.932673514 -0.352966607  0.000030298  0.000235158  0.000029207  0.000232985 
0.000056287  0.000221899  0.985657573 -0.129165307  0.007765346  0.059548251 
0.000043535  0.000210613  0.007835938  0.059492659  0.986859083 -0.122867204 
152025000.000  0.931198895 -0.357683063  0.000030745  0.000200542  0.000049573  0.000187509 
0.000052517  0.000173504  0.985844254 -0.130028307  0.008145013  0.060422149 
0.000043613  0.000174345  0.008225340  0.060363922  0.987199247 -0.123639300 
153893750.000  0.929491639 -0.361905545  0.000046857  0.000176068  0.000044458  0.000188770 
0.000060047  0.000187890  0.985555708 -0.132106915  0.008268513  0.061080728 
0.000033804  0.000184086  0.008331221  0.061044171  0.987010181 -0.125931516 
155762500.000  0.927015960 -0.365417659  0.000058464  0.000198745  0.000048703  0.000199841 
0.000050584  0.000186963  0.985350370 -0.133599862  0.008614941  0.061856214 
0.000068450  0.000210568  0.008601832  0.061820835  0.986317813 -0.127636164 
