! Matrix data file written by TouchstoneData, EPCOS AG
! FILENAME: "newformat_LZ14B_1_NB.s2p"
! COMMENT: "(LZ14B_1_NB.s2p) EPCOS AG 15.12.2011 14:51:3"
! INFO: nport=2, nfreq=1601
! DATE: "Thu Dec 15 15:57:37 2011"
! USER: "Sergey Rostovtsev"
!
! port | pin | signal
! -----|-----|--------
!   1  |  1  |  in
!   2  |  4  |  out
! --------------------
! 
# MHZ S MA R 50
! freq  magS11 angS11  magS21 angS21  magS12 angS12  magS22 angS22
1.488000E+03  9.399499E-01 -1.054649E+02  1.605561E-03 2.797343E+00  1.606822E-03 2.604470E+00  9.552536E-01 -1.199630E+02 
1.488125E+03  9.391784E-01 -1.054721E+02  1.611513E-03 3.125728E+00  1.613055E-03 3.249122E+00  9.550877E-01 -1.200352E+02 
1.488250E+03  9.386205E-01 -1.054694E+02  1.624509E-03 4.334712E+00  1.627754E-03 4.385812E+00  9.548551E-01 -1.200980E+02 
1.488375E+03  9.380833E-01 -1.054594E+02  1.655128E-03 5.077868E+00  1.664152E-03 5.032064E+00  9.545977E-01 -1.201665E+02 
1.488500E+03  9.377226E-01 -1.054527E+02  1.669365E-03 5.793308E+00  1.664791E-03 5.565469E+00  9.544786E-01 -1.202389E+02 
1.488625E+03  9.375511E-01 -1.054447E+02  1.705682E-03 6.718188E+00  1.710194E-03 6.519498E+00  9.540970E-01 -1.203099E+02 
1.488750E+03  9.373854E-01 -1.054450E+02  1.751491E-03 7.606297E+00  1.754960E-03 7.374587E+00  9.537568E-01 -1.203775E+02 
1.488875E+03  9.374902E-01 -1.054468E+02  1.810631E-03 7.968632E+00  1.819792E-03 7.885617E+00  9.536558E-01 -1.204406E+02 
1.489000E+03  9.375774E-01 -1.054573E+02  1.876804E-03 7.143371E+00  1.887910E-03 6.783965E+00  9.534915E-01 -1.205107E+02 
1.489125E+03  9.376373E-01 -1.054851E+02  1.896656E-03 5.100064E+00  1.880799E-03 5.131063E+00  9.534211E-01 -1.205962E+02 
1.489250E+03  9.374329E-01 -1.055233E+02  1.863773E-03 5.560303E+00  1.869489E-03 5.674614E+00  9.530956E-01 -1.206857E+02 
1.489375E+03  9.368472E-01 -1.055373E+02  1.856815E-03 6.492296E+00  1.862718E-03 6.525057E+00  9.527093E-01 -1.207661E+02 
1.489500E+03  9.363550E-01 -1.055344E+02  1.875493E-03 8.580040E+00  1.874548E-03 8.760874E+00  9.523517E-01 -1.208573E+02 
1.489625E+03  9.360794E-01 -1.055145E+02  1.952616E-03 9.993696E+00  1.954082E-03 1.025425E+01  9.517029E-01 -1.209570E+02 
1.489750E+03  9.363510E-01 -1.054943E+02  1.998865E-03 9.978817E+00  1.995422E-03 1.003065E+01  9.510748E-01 -1.210486E+02 
1.489875E+03  9.370451E-01 -1.055096E+02  2.029790E-03 1.129118E+01  2.032240E-03 1.116831E+01  9.502466E-01 -1.211362E+02 
1.490000E+03  9.370299E-01 -1.055500E+02  2.108278E-03 1.332184E+01  2.100043E-03 1.339760E+01  9.492273E-01 -1.212239E+02 
1.490125E+03  9.364686E-01 -1.055710E+02  2.284961E-03 1.397591E+01  2.285748E-03 1.378829E+01  9.482521E-01 -1.212997E+02 
1.490250E+03  9.363742E-01 -1.055444E+02  2.418197E-03 1.142171E+01  2.415924E-03 1.139645E+01  9.473499E-01 -1.213628E+02 
1.490375E+03  9.366165E-01 -1.055276E+02  2.423643E-03 9.574705E+00  2.428103E-03 9.607265E+00  9.465819E-01 -1.214364E+02 
1.490500E+03  9.371377E-01 -1.055314E+02  2.419825E-03 9.646380E+00  2.422261E-03 9.617767E+00  9.457483E-01 -1.215230E+02 
1.490625E+03  9.377195E-01 -1.055521E+02  2.460792E-03 1.129405E+01  2.464787E-03 1.125671E+01  9.442904E-01 -1.216215E+02 
1.490750E+03  9.377053E-01 -1.055861E+02  2.603134E-03 1.270186E+01  2.599412E-03 1.229763E+01  9.426365E-01 -1.216884E+02 
1.490875E+03  9.374654E-01 -1.055783E+02  2.757386E-03 1.206650E+01  2.760111E-03 1.204478E+01  9.410287E-01 -1.217413E+02 
1.491000E+03  9.377426E-01 -1.055431E+02  2.884462E-03 1.108302E+01  2.890905E-03 1.096712E+01  9.392934E-01 -1.217861E+02 
1.491125E+03  9.386768E-01 -1.055118E+02  3.020741E-03 1.000740E+01  3.027908E-03 9.958298E+00  9.376400E-01 -1.218011E+02 
1.491250E+03  9.401252E-01 -1.055068E+02  3.158246E-03 8.606371E+00  3.157263E-03 8.650080E+00  9.362949E-01 -1.218101E+02 
1.491375E+03  9.416337E-01 -1.055425E+02  3.270846E-03 6.091420E+00  3.275305E-03 6.310392E+00  9.353863E-01 -1.218280E+02 
1.491500E+03  9.429141E-01 -1.056051E+02  3.275156E-03 4.575554E+00  3.282946E-03 4.609404E+00  9.341803E-01 -1.218687E+02 
1.491625E+03  9.438797E-01 -1.056892E+02  3.363744E-03 4.523878E+00  3.363477E-03 4.709624E+00  9.324677E-01 -1.218972E+02 
1.491750E+03  9.444471E-01 -1.057877E+02  3.492813E-03 3.233573E+00  3.500285E-03 3.182009E+00  9.309484E-01 -1.219031E+02 
1.491875E+03  9.446406E-01 -1.058735E+02  3.514878E-03 1.252952E+00  3.508062E-03 1.253781E+00  9.296531E-01 -1.218932E+02 
1.492000E+03  9.443659E-01 -1.059427E+02  3.542911E-03 2.771713E+00  3.555529E-03 2.700499E+00  9.281255E-01 -1.219223E+02 
1.492125E+03  9.438645E-01 -1.060046E+02  3.775299E-03 2.516501E+00  3.768244E-03 2.495474E+00  9.260723E-01 -1.219096E+02 
1.492250E+03  9.435155E-01 -1.060141E+02  3.954656E-03 1.408491E+00  3.958282E-03 1.455351E+00  9.237067E-01 -1.218285E+02 
1.492375E+03  9.438206E-01 -1.060126E+02  4.182911E-03 -3.419364E-01  4.180173E-03 -1.253290E-01  9.227172E-01 -1.216965E+02 
1.492500E+03  9.445826E-01 -1.060299E+02  4.361119E-03 -3.388560E+00  4.360410E-03 -3.399975E+00  9.225063E-01 -1.215686E+02 
1.492625E+03  9.456237E-01 -1.060667E+02  4.411286E-03 -5.738607E+00  4.414192E-03 -5.744659E+00  9.235292E-01 -1.214626E+02 
1.492750E+03  9.465446E-01 -1.061465E+02  4.527827E-03 -7.349778E+00  4.527582E-03 -7.393581E+00  9.244825E-01 -1.214706E+02 
1.492875E+03  9.469217E-01 -1.062226E+02  4.591993E-03 -9.718026E+00  4.596798E-03 -9.705853E+00  9.242293E-01 -1.214442E+02 
1.493000E+03  9.470502E-01 -1.062872E+02  4.655420E-03 -1.069899E+01  4.658418E-03 -1.067145E+01  9.248492E-01 -1.213669E+02 
1.493125E+03  9.471776E-01 -1.063554E+02  4.790812E-03 -1.242060E+01  4.789295E-03 -1.237879E+01  9.264022E-01 -1.213421E+02 
1.493250E+03  9.473114E-01 -1.064013E+02  4.873336E-03 -1.429185E+01  4.868541E-03 -1.435636E+01  9.274580E-01 -1.213770E+02 
1.493375E+03  9.476124E-01 -1.064530E+02  4.955078E-03 -1.553705E+01  4.948682E-03 -1.554973E+01  9.281238E-01 -1.214124E+02 
1.493500E+03  9.478500E-01 -1.065192E+02  5.103580E-03 -1.715478E+01  5.107263E-03 -1.724575E+01  9.287241E-01 -1.214412E+02 
1.493625E+03  9.478755E-01 -1.065756E+02  5.192171E-03 -1.943792E+01  5.193640E-03 -1.944231E+01  9.294147E-01 -1.214823E+02 
1.493750E+03  9.479909E-01 -1.066208E+02  5.270305E-03 -2.117232E+01  5.269287E-03 -2.111950E+01  9.300092E-01 -1.215478E+02 
1.493875E+03  9.483411E-01 -1.066671E+02  5.368421E-03 -2.310111E+01  5.373691E-03 -2.308753E+01  9.299833E-01 -1.216085E+02 
1.494000E+03  9.490888E-01 -1.067171E+02  5.401729E-03 -2.535790E+01  5.415314E-03 -2.540414E+01  9.300813E-01 -1.216502E+02 
1.494125E+03  9.495676E-01 -1.067950E+02  5.398198E-03 -2.700196E+01  5.396083E-03 -2.713338E+01  9.300242E-01 -1.217155E+02 
1.494250E+03  9.498404E-01 -1.068746E+02  5.370220E-03 -2.780904E+01  5.375338E-03 -2.783828E+01  9.289076E-01 -1.217291E+02 
1.494375E+03  9.500384E-01 -1.069626E+02  5.458130E-03 -2.830538E+01  5.457176E-03 -2.836746E+01  9.294432E-01 -1.216507E+02 
1.494500E+03  9.500258E-01 -1.070462E+02  5.566384E-03 -2.946571E+01  5.572445E-03 -2.943404E+01  9.317124E-01 -1.216504E+02 
1.494625E+03  9.498332E-01 -1.071214E+02  5.628963E-03 -3.054809E+01  5.633397E-03 -3.058853E+01  9.338360E-01 -1.217597E+02 
1.494750E+03  9.497026E-01 -1.071907E+02  5.727157E-03 -3.120509E+01  5.725783E-03 -3.124198E+01  9.350382E-01 -1.219235E+02 
1.494875E+03  9.495857E-01 -1.072547E+02  5.852191E-03 -3.229033E+01  5.857283E-03 -3.234980E+01  9.351426E-01 -1.220927E+02 
1.495000E+03  9.494975E-01 -1.073141E+02  5.995417E-03 -3.348063E+01  6.008033E-03 -3.350529E+01  9.345302E-01 -1.222487E+02 
1.495125E+03  9.495047E-01 -1.073801E+02  6.128508E-03 -3.510777E+01  6.121516E-03 -3.511780E+01  9.334951E-01 -1.223820E+02 
1.495250E+03  9.496327E-01 -1.074534E+02  6.196161E-03 -3.633648E+01  6.207550E-03 -3.644210E+01  9.321600E-01 -1.224797E+02 
1.495375E+03  9.494946E-01 -1.075314E+02  6.318480E-03 -3.721899E+01  6.333452E-03 -3.732817E+01  9.309988E-01 -1.225417E+02 
1.495500E+03  9.491921E-01 -1.076095E+02  6.484741E-03 -3.860599E+01  6.497598E-03 -3.863474E+01  9.304029E-01 -1.226186E+02 
1.495625E+03  9.487084E-01 -1.076869E+02  6.600812E-03 -4.020959E+01  6.608744E-03 -4.028682E+01  9.291113E-01 -1.227131E+02 
1.495750E+03  9.481507E-01 -1.077425E+02  6.676089E-03 -4.128861E+01  6.685365E-03 -4.133698E+01  9.274348E-01 -1.227431E+02 
1.495875E+03  9.477979E-01 -1.077902E+02  6.861459E-03 -4.205816E+01  6.868507E-03 -4.208858E+01  9.270628E-01 -1.227499E+02 
1.496000E+03  9.474480E-01 -1.078378E+02  7.065382E-03 -4.344804E+01  7.078990E-03 -4.350676E+01  9.270051E-01 -1.228131E+02 
1.496125E+03  9.472227E-01 -1.078804E+02  7.263596E-03 -4.520491E+01  7.264126E-03 -4.534558E+01  9.266613E-01 -1.229235E+02 
1.496250E+03  9.470318E-01 -1.079293E+02  7.392032E-03 -4.732026E+01  7.396118E-03 -4.740229E+01  9.253427E-01 -1.230180E+02 
1.496375E+03  9.467940E-01 -1.079700E+02  7.452134E-03 -4.879357E+01  7.463761E-03 -4.888954E+01  9.239515E-01 -1.230795E+02 
1.496500E+03  9.466393E-01 -1.080116E+02  7.590422E-03 -4.964634E+01  7.603940E-03 -4.969879E+01  9.228839E-01 -1.231526E+02 
1.496625E+03  9.467582E-01 -1.080470E+02  7.804352E-03 -5.108635E+01  7.810312E-03 -5.114950E+01  9.214374E-01 -1.232192E+02 
1.496750E+03  9.470555E-01 -1.080942E+02  7.971902E-03 -5.257283E+01  7.983408E-03 -5.264847E+01  9.198699E-01 -1.232743E+02 
1.496875E+03  9.472606E-01 -1.081762E+02  8.190047E-03 -5.419262E+01  8.199868E-03 -5.421645E+01  9.184775E-01 -1.233025E+02 
1.497000E+03  9.471525E-01 -1.082583E+02  8.329477E-03 -5.582332E+01  8.332988E-03 -5.592008E+01  9.172189E-01 -1.233521E+02 
1.497125E+03  9.468026E-01 -1.083419E+02  8.609895E-03 -5.699963E+01  8.623123E-03 -5.705633E+01  9.156978E-01 -1.234234E+02 
1.497250E+03  9.461493E-01 -1.084119E+02  8.860738E-03 -5.988667E+01  8.865373E-03 -5.990021E+01  9.131974E-01 -1.234574E+02 
1.497375E+03  9.454863E-01 -1.084618E+02  8.946997E-03 -6.190561E+01  8.967536E-03 -6.194482E+01  9.111942E-01 -1.234408E+02 
1.497500E+03  9.449372E-01 -1.085007E+02  9.097621E-03 -6.347232E+01  9.097893E-03 -6.353638E+01  9.096606E-01 -1.233998E+02 
1.497625E+03  9.445367E-01 -1.085358E+02  9.322906E-03 -6.583444E+01  9.337828E-03 -6.588239E+01  9.084558E-01 -1.234020E+02 
1.497750E+03  9.442155E-01 -1.085666E+02  9.427110E-03 -6.764247E+01  9.449602E-03 -6.763155E+01  9.066599E-01 -1.233905E+02 
1.497875E+03  9.441292E-01 -1.085946E+02  9.654162E-03 -7.031505E+01  9.654671E-03 -7.029573E+01  9.046060E-01 -1.233265E+02 
1.498000E+03  9.442886E-01 -1.086313E+02  9.609662E-03 -7.273849E+01  9.622211E-03 -7.279183E+01  9.037623E-01 -1.232162E+02 
1.498125E+03  9.443949E-01 -1.086960E+02  9.651099E-03 -7.425610E+01  9.655726E-03 -7.437870E+01  9.035774E-01 -1.231514E+02 
1.498250E+03  9.442551E-01 -1.087733E+02  9.653442E-03 -7.655561E+01  9.676570E-03 -7.659974E+01  9.039817E-01 -1.230761E+02 
1.498375E+03  9.434847E-01 -1.088297E+02  9.551621E-03 -7.708966E+01  9.566966E-03 -7.714530E+01  9.049021E-01 -1.231212E+02 
1.498500E+03  9.428806E-01 -1.088654E+02  9.827322E-03 -7.756652E+01  9.837729E-03 -7.762135E+01  9.034182E-01 -1.231919E+02 
1.498625E+03  9.425214E-01 -1.088951E+02  1.007855E-02 -8.009024E+01  1.008586E-02 -8.011895E+01  9.018081E-01 -1.231130E+02 
1.498750E+03  9.422327E-01 -1.089225E+02  1.002755E-02 -8.254083E+01  1.003145E-02 -8.257331E+01  9.021089E-01 -1.230243E+02 
1.498875E+03  9.419004E-01 -1.089457E+02  9.874416E-03 -8.386927E+01  9.889474E-03 -8.394111E+01  9.028894E-01 -1.230070E+02 
1.499000E+03  9.418374E-01 -1.089648E+02  9.762236E-03 -8.385869E+01  9.783591E-03 -8.388221E+01  9.033323E-01 -1.230129E+02 
1.499125E+03  9.417875E-01 -1.089920E+02  9.900224E-03 -8.319957E+01  9.903960E-03 -8.323519E+01  9.043564E-01 -1.230518E+02 
1.499250E+03  9.417742E-01 -1.090204E+02  1.017504E-02 -8.299413E+01  1.017896E-02 -8.301754E+01  9.050367E-01 -1.231706E+02 
1.499375E+03  9.416870E-01 -1.090345E+02  1.060880E-02 -8.270077E+01  1.060773E-02 -8.274734E+01  9.041393E-01 -1.233414E+02 
1.499500E+03  9.420629E-01 -1.090516E+02  1.128764E-02 -8.360609E+01  1.129017E-02 -8.368528E+01  9.016018E-01 -1.234738E+02 
1.499625E+03  9.425554E-01 -1.090876E+02  1.190187E-02 -8.626913E+01  1.191447E-02 -8.629852E+01  8.984217E-01 -1.235224E+02 
1.499750E+03  9.429354E-01 -1.091374E+02  1.240080E-02 -8.872223E+01  1.240349E-02 -8.874880E+01  8.950713E-01 -1.235373E+02 
1.499875E+03  9.430653E-01 -1.091917E+02  1.312002E-02 -9.260049E+01  1.313634E-02 -9.264999E+01  8.903456E-01 -1.234250E+02 
1.500000E+03  9.430930E-01 -1.092288E+02  1.315717E-02 -9.865032E+01  1.318282E-02 -9.864788E+01  8.877584E-01 -1.230640E+02 
1.500125E+03  9.435572E-01 -1.092615E+02  1.255136E-02 -1.019872E+02  1.255790E-02 -1.020525E+02  8.905277E-01 -1.227711E+02 
1.500250E+03  9.443200E-01 -1.093262E+02  1.209656E-02 -1.027495E+02  1.211679E-02 -1.027426E+02  8.938404E-01 -1.227363E+02 
1.500375E+03  9.444275E-01 -1.094074E+02  1.191100E-02 -1.022691E+02  1.192185E-02 -1.023235E+02  8.956671E-01 -1.228354E+02 
1.500500E+03  9.443493E-01 -1.094936E+02  1.216049E-02 -1.008395E+02  1.216346E-02 -1.008791E+02  8.956243E-01 -1.229700E+02 
1.500625E+03  9.439293E-01 -1.095526E+02  1.277256E-02 -1.010563E+02  1.278274E-02 -1.010633E+02  8.941093E-01 -1.230857E+02 
1.500750E+03  9.437417E-01 -1.095941E+02  1.349118E-02 -1.023739E+02  1.349583E-02 -1.023851E+02  8.912085E-01 -1.231318E+02 
1.500875E+03  9.436243E-01 -1.096430E+02  1.419556E-02 -1.052551E+02  1.420782E-02 -1.052539E+02  8.879934E-01 -1.230560E+02 
1.501000E+03  9.436740E-01 -1.096895E+02  1.452543E-02 -1.088679E+02  1.453034E-02 -1.088927E+02  8.860599E-01 -1.228827E+02 
1.501125E+03  9.435655E-01 -1.097538E+02  1.461523E-02 -1.111030E+02  1.462747E-02 -1.111196E+02  8.858832E-01 -1.227613E+02 
1.501250E+03  9.430963E-01 -1.098067E+02  1.513798E-02 -1.127971E+02  1.513524E-02 -1.127993E+02  8.842794E-01 -1.227085E+02 
1.501375E+03  9.427594E-01 -1.098275E+02  1.572579E-02 -1.166838E+02  1.572699E-02 -1.167253E+02  8.818892E-01 -1.224914E+02 
1.501500E+03  9.428685E-01 -1.098389E+02  1.566464E-02 -1.209162E+02  1.567038E-02 -1.209915E+02  8.827312E-01 -1.221956E+02 
1.501625E+03  9.434586E-01 -1.098701E+02  1.541438E-02 -1.231034E+02  1.542157E-02 -1.231120E+02  8.848598E-01 -1.220645E+02 
1.501750E+03  9.438128E-01 -1.099366E+02  1.557489E-02 -1.243560E+02  1.558353E-02 -1.243642E+02  8.856925E-01 -1.220038E+02 
1.501875E+03  9.437096E-01 -1.099920E+02  1.607789E-02 -1.269092E+02  1.608123E-02 -1.269080E+02  8.855291E-01 -1.218854E+02 
1.502000E+03  9.437885E-01 -1.100234E+02  1.621204E-02 -1.307743E+02  1.622018E-02 -1.307914E+02  8.864788E-01 -1.216772E+02 
1.502125E+03  9.441683E-01 -1.100710E+02  1.602951E-02 -1.335311E+02  1.603729E-02 -1.335400E+02  8.887438E-01 -1.215571E+02 
1.502250E+03  9.443573E-01 -1.101221E+02  1.608084E-02 -1.357651E+02  1.609688E-02 -1.357665E+02  8.901307E-01 -1.214682E+02 
1.502375E+03  9.444067E-01 -1.101649E+02  1.614223E-02 -1.386494E+02  1.614838E-02 -1.386150E+02  8.919608E-01 -1.213385E+02 
1.502500E+03  9.446738E-01 -1.102028E+02  1.603461E-02 -1.413916E+02  1.604652E-02 -1.413737E+02  8.946196E-01 -1.212454E+02 
1.502625E+03  9.450649E-01 -1.102476E+02  1.593338E-02 -1.436675E+02  1.594773E-02 -1.437055E+02  8.969582E-01 -1.212176E+02 
1.502750E+03  9.454376E-01 -1.103075E+02  1.583620E-02 -1.459704E+02  1.584028E-02 -1.459548E+02  8.988103E-01 -1.211788E+02 
1.502875E+03  9.456704E-01 -1.103520E+02  1.586013E-02 -1.479751E+02  1.586897E-02 -1.479849E+02  9.004918E-01 -1.211130E+02 
1.503000E+03  9.460403E-01 -1.103997E+02  1.585168E-02 -1.504769E+02  1.585634E-02 -1.504410E+02  9.031244E-01 -1.210720E+02 
1.503125E+03  9.464228E-01 -1.104538E+02  1.583511E-02 -1.529578E+02  1.584930E-02 -1.529399E+02  9.049519E-01 -1.210368E+02 
1.503250E+03  9.468014E-01 -1.105124E+02  1.584609E-02 -1.552332E+02  1.585247E-02 -1.551651E+02  9.073126E-01 -1.209909E+02 
1.503375E+03  9.473063E-01 -1.105635E+02  1.600942E-02 -1.586201E+02  1.602784E-02 -1.585962E+02  9.098564E-01 -1.209106E+02 
1.503500E+03  9.477203E-01 -1.106301E+02  1.579188E-02 -1.627433E+02  1.579481E-02 -1.627423E+02  9.137200E-01 -1.208547E+02 
1.503625E+03  9.483486E-01 -1.106928E+02  1.519701E-02 -1.665509E+02  1.520197E-02 -1.665525E+02  9.184024E-01 -1.208923E+02 
1.503750E+03  9.487719E-01 -1.107756E+02  1.444958E-02 -1.687843E+02  1.445586E-02 -1.687788E+02  9.223822E-01 -1.210311E+02 
1.503875E+03  9.491420E-01 -1.108496E+02  1.392582E-02 -1.701369E+02  1.393370E-02 -1.700987E+02  9.250193E-01 -1.211743E+02 
1.504000E+03  9.495285E-01 -1.109205E+02  1.344377E-02 -1.713194E+02  1.344845E-02 -1.712947E+02  9.272877E-01 -1.213362E+02 
1.504125E+03  9.497787E-01 -1.109998E+02  1.321053E-02 -1.718758E+02  1.321223E-02 -1.718467E+02  9.285241E-01 -1.214628E+02 
1.504250E+03  9.500677E-01 -1.110690E+02  1.304563E-02 -1.735844E+02  1.305186E-02 -1.735300E+02  9.301537E-01 -1.215472E+02 
1.504375E+03  9.505317E-01 -1.111498E+02  1.265853E-02 -1.753932E+02  1.266441E-02 -1.753572E+02  9.322605E-01 -1.216699E+02 
1.504500E+03  9.508376E-01 -1.112396E+02  1.225515E-02 -1.761950E+02  1.225856E-02 -1.761705E+02  9.336985E-01 -1.218213E+02 
1.504625E+03  9.510834E-01 -1.113153E+02  1.202926E-02 -1.766963E+02  1.204137E-02 -1.766488E+02  9.344349E-01 -1.219509E+02 
1.504750E+03  9.514245E-01 -1.114016E+02  1.185247E-02 -1.777264E+02  1.186297E-02 -1.777410E+02  9.355526E-01 -1.220470E+02 
1.504875E+03  9.516574E-01 -1.114906E+02  1.156590E-02 -1.788921E+02  1.157287E-02 -1.788836E+02  9.366823E-01 -1.221687E+02 
1.505000E+03  9.518567E-01 -1.115836E+02  1.125259E-02 -1.791867E+02  1.125785E-02 -1.791561E+02  9.373943E-01 -1.223043E+02 
1.505125E+03  9.518529E-01 -1.116788E+02  1.113826E-02 -1.789069E+02  1.114517E-02 -1.789268E+02  9.375912E-01 -1.224087E+02 
1.505250E+03  9.518336E-01 -1.117537E+02  1.117864E-02 -1.796530E+02  1.119569E-02 -1.796185E+02  9.380202E-01 -1.224737E+02 
1.505375E+03  9.518981E-01 -1.118353E+02  1.109683E-02 1.790138E+02  1.110470E-02 1.790457E+02  9.390897E-01 -1.225469E+02 
1.505500E+03  9.520331E-01 -1.119219E+02  1.100606E-02 1.780943E+02  1.101215E-02 1.781322E+02  9.399190E-01 -1.226293E+02 
1.505625E+03  9.520391E-01 -1.119942E+02  1.098198E-02 1.763970E+02  1.099288E-02 1.764125E+02  9.409681E-01 -1.226965E+02 
1.505750E+03  9.521433E-01 -1.120757E+02  1.071859E-02 1.740184E+02  1.072161E-02 1.740886E+02  9.427188E-01 -1.227983E+02 
1.505875E+03  9.523650E-01 -1.121578E+02  1.025373E-02 1.726499E+02  1.026336E-02 1.726428E+02  9.440683E-01 -1.229503E+02 
1.506000E+03  9.524986E-01 -1.122398E+02  9.784904E-03 1.724247E+02  9.794228E-03 1.723664E+02  9.447546E-01 -1.231123E+02 
1.506125E+03  9.526250E-01 -1.123392E+02  9.405363E-03 1.733700E+02  9.411410E-03 1.734315E+02  9.448570E-01 -1.232797E+02 
1.506250E+03  9.524982E-01 -1.124261E+02  9.234464E-03 1.750165E+02  9.248731E-03 1.750692E+02  9.443180E-01 -1.234181E+02 
1.506375E+03  9.523839E-01 -1.125130E+02  9.271864E-03 1.765098E+02  9.273014E-03 1.765557E+02  9.435209E-01 -1.235167E+02 
1.506500E+03  9.523864E-01 -1.125971E+02  9.438458E-03 1.770137E+02  9.451891E-03 1.770234E+02  9.429627E-01 -1.235708E+02 
1.506625E+03  9.524671E-01 -1.126730E+02  9.591903E-03 1.764407E+02  9.603062E-03 1.764070E+02  9.428962E-01 -1.236173E+02 
1.506750E+03  9.525028E-01 -1.127604E+02  9.611259E-03 1.754800E+02  9.612809E-03 1.754204E+02  9.433920E-01 -1.236742E+02 
1.506875E+03  9.524841E-01 -1.128511E+02  9.574133E-03 1.751386E+02  9.584400E-03 1.750674E+02  9.436929E-01 -1.237505E+02 
1.507000E+03  9.524630E-01 -1.129239E+02  9.666471E-03 1.746945E+02  9.679049E-03 1.746870E+02  9.438418E-01 -1.238100E+02 
1.507125E+03  9.525247E-01 -1.130142E+02  9.724039E-03 1.732633E+02  9.735496E-03 1.732114E+02  9.444917E-01 -1.238623E+02 
1.507250E+03  9.526686E-01 -1.131003E+02  9.583794E-03 1.718701E+02  9.601417E-03 1.718212E+02  9.452966E-01 -1.239510E+02 
1.507375E+03  9.526704E-01 -1.131996E+02  9.403679E-03 1.714849E+02  9.412164E-03 1.714638E+02  9.456222E-01 -1.240615E+02 
