! Matrix data file written by TouchstoneData, EPCOS AG
! FILENAME: "B4319_x34y35_WB.snp"
! COMMENT: "(TS/B4319_x34y35_WB.s2p) Epcos AG 12/18/2012"
! INFO: nport=2, nfreq=1601
! DATE: "Wed Jan 16 16:33:09 2013"
! USER: "Wee Chuan Tay"
!
! port | pin | signal
! -----|-----|--------
!   1  |  1  |  Input
!   2  |  4  |  Output
! --------------------
! 
# MHZ S RI R 50
! freq  reS11 imS11  reS21 imS21  reS12 imS12  reS22 imS22
50  0.991681039333342 -0.0727304443717002  -0.000103152829979081 7.9699069033268e-06  -0.000103152829979081 7.9699069033268e-06  0.994106471538542 -0.0711424350738524 
52.15625  0.991350173950194 -0.077902428805828  2.11713868338848e-05 3.15752185997554e-05  2.11713868338848e-05 3.15752185997554e-05  0.994164586067198 -0.0750817507505416 
54.3125  0.991693973541258 -0.0797792300581931  -6.76894012485717e-06 2.15194158954546e-05  -6.76894012485717e-06 2.15194158954546e-05  0.994360268115996 -0.0769579932093619 
56.46875  0.99157953262329 -0.0828425586223601  3.01495838357369e-05 2.51427281909855e-05  3.01495838357369e-05 2.51427281909855e-05  0.994350433349608 -0.0802873596549033 
58.625  0.992048561573027 -0.0864031836390494  -7.9084568369581e-06 1.81644650183444e-05  -7.9084568369581e-06 1.81644650183444e-05  0.994865417480467 -0.0834297761321066 
60.78125  0.990875065326689 -0.0900851562619208  3.56073742295848e-05 1.06370011963009e-05  3.56073742295848e-05 1.06370011963009e-05  0.99439626932144 -0.0866265073418616 
62.9375  0.990899980068205 -0.0934413298964499  -2.53155048994814e-05 6.59166344121332e-05  -2.53155048994814e-05 6.59166344121332e-05  0.994301736354826 -0.0902926996350287 
65.09375  0.991467714309691 -0.0962774977087973  1.26949498735485e-06 5.89399460295682e-05  1.26949498735485e-06 5.89399460295682e-05  0.994109451770781 -0.0940673202276228 
67.25  0.99034023284912 -0.0995113626122473  -2.00053750631924e-05 9.19830449674918e-06  -2.00053750631924e-05 9.19830449674918e-06  0.993696987628935 -0.0967048928141592 
69.40625  0.990818202495574 -0.102511286735535  4.86574663227675e-07 1.15949038672625e-05  4.86574663227675e-07 1.15949038672625e-05  0.99348735809326 -0.100332148373127 
71.5625  0.990805506706236 -0.10481034219265  8.84745641087649e-05 -2.4646838028275e-05  8.84745641087649e-05 -2.4646838028275e-05  0.992282509803771 -0.102119095623493 
73.71875  0.990804076194762 -0.107684932649135  -4.2461749217182e-05 4.05146365665133e-05  -4.2461749217182e-05 4.05146365665133e-05  0.991788387298583 -0.104948751628399 
75.875  0.990852653980254 -0.110577076673508  5.31919499735523e-06 3.84999948437326e-05  5.31919499735523e-06 3.84999948437326e-05  0.991331815719603 -0.107833579182625 
78.03125  0.990745604038237 -0.113638743758201  -3.71201895177365e-05 -1.85951384992223e-05  -3.71201895177365e-05 -1.85951384992223e-05  0.991716742515563 -0.110491208732128 
80.1875  0.991113066673278 -0.11630330234766  -3.37070252953709e-06 1.78900163518848e-05  -3.37070252953709e-06 1.78900163518848e-05  0.992673993110655 -0.113571591675281 
82.34375  0.989906311035155 -0.11956637352705  3.63669951184421e-05 6.72546630084981e-05  3.63669951184421e-05 6.72546630084981e-05  0.992681324481963 -0.116784706711769 
84.5  0.989737510681151 -0.12322723120451  2.04307530111692e-05 3.42685370924301e-05  2.04307530111692e-05 3.42685370924301e-05  0.992106497287749 -0.119644984602928 
86.65625  0.988832056522368 -0.126505941152572  -3.57445915142307e-05 4.44441211584491e-05  -3.57445915142307e-05 4.44441211584491e-05  0.99134188890457 -0.122995741665363 
88.8125  0.989354670047759 -0.129690065979957  -3.8408043110394e-05 7.80746922828258e-05  -3.8408043110394e-05 7.80746922828258e-05  0.991470932960509 -0.125703647732734 
90.96875  0.988529920578002 -0.133292645215988  2.00964209398081e-05 -4.4066939608456e-06  2.00964209398081e-05 -4.4066939608456e-06  0.990960359573363 -0.12756185233593 
93.125  0.987975239753722 -0.135628193616867  2.74079893358704e-06 2.85025898847381e-05  2.74079893358704e-06 2.85025898847381e-05  0.990011870861052 -0.132281675934791 
95.28125  0.987399339675902 -0.13876461982727  4.08748328482034e-05 -3.28831299611921e-06  4.08748328482034e-05 -3.28831299611921e-06  0.988253712654112 -0.134684920310974 
97.4375  0.986410200595854 -0.141657590866089  -3.56732098225622e-05 6.22730422037422e-05  -3.56732098225622e-05 6.22730422037422e-05  0.988730669021605 -0.137321919202804 
99.59375  0.98681193590164 -0.14503937959671  3.71244977941388e-05 2.84677553281654e-05  3.71244977941388e-05 2.84677553281654e-05  0.988128542900084 -0.140783831477165 
101.75  0.98574537038803 -0.14872445166111  -3.48019702869351e-05 2.68325311481022e-05  -3.48019702869351e-05 2.68325311481022e-05  0.988122820854186 -0.14316514134407 
103.90625  0.985090672969817 -0.151172488927841  -3.09884562739172e-05 3.43304227499175e-05  -3.09884562739172e-05 3.43304227499175e-05  0.987530171871184 -0.146732240915298 
106.0625  0.984735786914824 -0.154038906097412  2.16066541725013e-05 6.70098270347809e-05  2.16066541725013e-05 6.70098270347809e-05  0.986595094203948 -0.149875804781914 
108.21875  0.984407007694243 -0.157741978764534  3.58182214768022e-05 1.81698587766733e-05  3.58182214768022e-05 1.81698587766733e-05  0.986380755901335 -0.153304263949394 
110.375  0.983978390693663 -0.160793513059616  1.20740301099432e-05 8.31250144983643e-05  1.20740301099432e-05 8.31250144983643e-05  0.985731005668639 -0.155990958213806 
112.53125  0.983458518981932 -0.163974717259407  -1.09641996459686e-05 5.84876379434719e-05  -1.09641996459686e-05 5.84876379434719e-05  0.985425174236296 -0.159444943070411 
114.6875  0.983066082000731 -0.168213799595833  2.93827670247993e-05 5.00137484777952e-05  2.93827670247993e-05 5.00137484777952e-05  0.984283268451689 -0.162471160292625 
116.84375  0.982016265392302 -0.169751569628715  5.88626881636856e-06 4.63851865788456e-05  5.88626881636856e-06 4.63851865788456e-05  0.983081936836241 -0.165447771549225 
119  0.980548620223998 -0.172366037964821  -1.20324182972809e-06 7.01372464391171e-05  -1.20324182972809e-06 7.01372464391171e-05  0.98290717601776 -0.167457029223442 
121.15625  0.980663776397704 -0.175249397754669  -2.78757823934939e-06 6.15023363934598e-05  -2.78757823934939e-06 6.15023363934598e-05  0.982463717460631 -0.170676663517952 
123.3125  0.980080664157866 -0.178402215242386  7.582882517454e-06 7.4179031798849e-05  7.582882517454e-06 7.4179031798849e-05  0.982188761234282 -0.173001527786255 
125.46875  0.979477286338805 -0.181596413254738  -7.32372973288875e-06 4.52102394774557e-05  -7.32372973288875e-06 4.52102394774557e-05  0.981317758560179 -0.176341459155082 
127.625  0.978676915168761 -0.185339137911796  8.16600186226427e-06 6.85565573803616e-05  8.16600186226427e-06 6.85565573803616e-05  0.981178462505339 -0.180210962891578 
129.78125  0.978674352169036 -0.188032627105713  -9.30255737330305e-07 2.00650574697648e-05  -9.30255737330305e-07 2.00650574697648e-05  0.98220133781433 -0.183832094073295 
131.9375  0.977565646171568 -0.19028927385807  8.94223262548622e-06 7.88999677752146e-05  8.94223262548622e-06 7.88999677752146e-05  0.979949891567229 -0.185334697365761 
134.09375  0.976730883121489 -0.19331906735897  -2.22274763927999e-06 8.25555798655843e-05  -2.22274763927999e-06 8.25555798655843e-05  0.979283273220061 -0.188761442899704 
136.25  0.976776361465453 -0.197016909718513  6.72491205477855e-06 6.09030976193027e-05  6.72491205477855e-06 6.09030976193027e-05  0.97915357351303 -0.19230106472969 
138.40625  0.976081252098082 -0.200848445296287  -2.20044386196606e-05 3.35095910486417e-05  -2.20044386196606e-05 3.35095910486417e-05  0.978785693645476 -0.195630028843879 
140.5625  0.974525630474089 -0.202945798635482  -2.57409701589496e-05 7.91342426964549e-05  -2.57409701589496e-05 7.91342426964549e-05  0.977131545543669 -0.198851004242897 
142.71875  0.973890662193297 -0.205399289727211  5.04863037349424e-05 4.22660195908976e-05  5.04863037349424e-05 4.22660195908976e-05  0.976051688194274 -0.200115129351616 
144.875  0.972943186759947 -0.208868056535721  1.78159552888245e-07 7.60294096835425e-05  1.78159552888245e-07 7.60294096835425e-05  0.976045846939086 -0.203212440013885 
147.03125  0.97312831878662 -0.212668240070343  -1.70493785844883e-06 1.62696246661654e-05  -1.70493785844883e-06 1.62696246661654e-05  0.976008117198943 -0.206354364752769 
149.1875  0.972597658634184 -0.215720891952514  1.25949852645135e-05 7.43203199817801e-05  1.25949852645135e-05 7.43203199817801e-05  0.975350081920622 -0.210746496915817 
151.34375  0.971973180770873 -0.217819705605507  2.53870230153553e-05 4.95235617563595e-05  2.53870230153553e-05 4.95235617563595e-05  0.974795460700987 -0.212416127324104 
153.5  0.971525788307189 -0.221027225255966  2.96739699479076e-05 8.22668152977714e-05  2.96739699479076e-05 8.22668152977714e-05  0.973954319953917 -0.215463787317276 
155.65625  0.970918715000151 -0.224134668707847  2.24626198814804e-05 -5.04551331914627e-06  2.24626198814804e-05 -5.04551331914627e-06  0.973078250885008 -0.217677250504493 
157.8125  0.969893872737883 -0.227684929966926  3.5341040529602e-06 6.74981783959084e-05  3.5341040529602e-06 6.74981783959084e-05  0.972434937953948 -0.222041010856628 
159.96875  0.969181120395659 -0.230387434363365  3.13470141009021e-05 7.42876945878381e-05  3.13470141009021e-05 7.42876945878381e-05  0.971443355083464 -0.225716903805732 
162.125  0.968216001987456 -0.232488363981247  -4.62738103124138e-06 5.57518706045813e-05  -4.62738103124138e-06 5.57518706045813e-05  0.970752894878386 -0.228525385260582 
164.28125  0.967057228088378 -0.234383717179298  5.48338030057494e-05 7.58400383347181e-05  5.48338030057494e-05 7.58400383347181e-05  0.967949092388152 -0.22906456887722 
166.4375  0.966684043407439 -0.237345114350319  1.10139253592934e-05 7.59383601689479e-05  1.10139253592934e-05 7.59383601689479e-05  0.969474792480467 -0.232753187417984 
168.59375  0.965839564800261 -0.24113717675209  -3.51033904735233e-05 4.46792437287514e-05  -3.51033904735233e-05 4.46792437287514e-05  0.967523992061614 -0.23574186861515 
170.75  0.965476274490355 -0.244468495249748  6.64128347125372e-05 5.53695354028606e-05  6.64128347125372e-05 5.53695354028606e-05  0.967137873172759 -0.238992288708686 
172.90625  0.964797794818877 -0.24734978377819  -1.92040567981167e-05 8.89568436832636e-05  -1.92040567981167e-05 8.89568436832636e-05  0.966767847537993 -0.241701990365982 
175.0625  0.9636572599411 -0.249385982751846  2.0322336240497e-06 7.88613870099654e-05  2.0322336240497e-06 7.88613870099654e-05  0.966561198234557 -0.244264140725135 
177.21875  0.963893711566924 -0.253222525119781  1.13258236069669e-05 7.21630531188568e-05  1.13258236069669e-05 7.21630531188568e-05  0.965632379055022 -0.248442679643631 
179.375  0.963096976280211 -0.255843460559845  8.9370901150687e-06 7.71163977333346e-05  8.9370901150687e-06 7.71163977333346e-05  0.965341627597808 -0.250632584095001 
181.53125  0.962596058845519 -0.258064985275268  4.42814107373125e-05 1.27961116049846e-05  4.42814107373125e-05 1.27961116049846e-05  0.964196681976317 -0.25397914648056 
183.6875  0.961584210395812 -0.261517465114593  2.43232208276823e-05 3.50157743014279e-05  2.43232208276823e-05 3.50157743014279e-05  0.964090943336486 -0.256054282188415 
185.84375  0.96030968427658 -0.263779461383819  1.54414815369819e-05 9.19312733458356e-05  1.54414815369819e-05 9.19312733458356e-05  0.963122129440306 -0.258330255746841 
188  0.959986150264739 -0.266552031040191  2.41358111452428e-05 9.03841755643954e-05  2.41358111452428e-05 9.03841755643954e-05  0.961300790309905 -0.261323183774948 
190.15625  0.959128022193907 -0.269717246294021  2.14532781228627e-05 4.47861730208388e-05  2.14532781228627e-05 4.47861730208388e-05  0.961710095405577 -0.264082998037338 
192.3125  0.958758890628813 -0.272271186113357  7.82138158683701e-07 3.20984800055158e-05  7.82138158683701e-07 3.20984800055158e-05  0.960501551628112 -0.266781121492386 
194.46875  0.957765758037566 -0.275459885597229  6.33152922091542e-06 0.000107514966657618  6.33152922091542e-06 0.000107514966657618  0.960177302360533 -0.270684331655502 
196.625  0.957152426242827 -0.279263287782669  3.27722773363349e-05 6.38054043520243e-05  3.27722773363349e-05 6.38054043520243e-05  0.959248661994933 -0.273610234260559 
198.78125  0.956314504146575 -0.281747758388519  1.76354024006287e-05 7.13677472958809e-05  1.76354024006287e-05 7.13677472958809e-05  0.958435416221617 -0.275893539190292 
200.9375  0.954598009586333 -0.284805804491043  1.33184083210836e-05 9.32566508708988e-05  1.33184083210836e-05 9.32566508708988e-05  0.958164930343627 -0.278543829917907 
203.09375  0.954705297946929 -0.287274539470672  -2.019244220719e-07 5.9419513490866e-05  -2.019244220719e-07 5.9419513490866e-05  0.956754684448241 -0.281535387039184 
205.25  0.9537855386734 -0.290503919124603  6.47043925710024e-05 0.00011160847498104  6.47043925710024e-05 0.00011160847498104  0.954697310924529 -0.284632980823516 
207.40625  0.951919615268706 -0.293657004833221  4.73888776468813e-05 7.83059585955927e-05  4.73888776468813e-05 7.83059585955927e-05  0.955092966556548 -0.287175178527832 
209.5625  0.95132267475128 -0.296381950378418  6.27830740995705e-06 5.72317458136241e-05  6.27830740995705e-06 5.72317458136241e-05  0.954441785812377 -0.290199279785156 
211.71875  0.949643254280089 -0.298393994569778  -2.06298645935021e-05 6.75595438224265e-05  -2.06298645935021e-05 6.75595438224265e-05  0.951378643512724 -0.289732635021209 
213.875  0.949297845363616 -0.2996506690979  8.75795194588138e-05 8.58537205203904e-05  8.75795194588138e-05 8.58537205203904e-05  0.952376425266264 -0.294726133346557 
216.03125  0.949303507804869 -0.303452104330062  4.65823304693914e-05 9.57235424721152e-05  4.65823304693914e-05 9.57235424721152e-05  0.951331019401549 -0.297584950923919 
218.1875  0.948564171791075 -0.306382924318313  -5.5744540077285e-05 7.1908505560714e-05  -5.5744540077285e-05 7.1908505560714e-05  0.950869739055632 -0.300874769687652 
220.34375  0.947062730789183 -0.310104876756668  1.16446121225522e-05 2.54595606747899e-05  1.16446121225522e-05 2.54595606747899e-05  0.950082421302794 -0.303441196680069 
222.5  0.946143507957457 -0.313627183437347  4.22251196141589e-05 8.99674123502339e-05  4.22251196141589e-05 8.99674123502339e-05  0.949220240116118 -0.305879324674606 
224.65625  0.945652246475218 -0.316299438476562  4.30854761361844e-05 8.39103959151545e-05  4.30854761361844e-05 8.39103959151545e-05  0.948036372661589 -0.309198409318924 
226.8125  0.944600284099578 -0.318274557590484  3.41668710461818e-05 5.76646070840071e-05  3.41668710461818e-05 5.76646070840071e-05  0.946142971515654 -0.312378227710723 
228.96875  0.943908751010894 -0.321883231401443  -3.02267535516877e-05 6.78633296047338e-05  -3.02267535516877e-05 6.78633296047338e-05  0.945861220359801 -0.315057903528213 
231.125  0.942976415157317 -0.325187772512435  2.84311872746913e-05 8.1398309703218e-05  2.84311872746913e-05 8.1398309703218e-05  0.945263445377348 -0.318369954824447 
233.28125  0.940900683403014 -0.327483683824539  4.57306341559161e-05 0.000116994524432812  4.57306341559161e-05 0.000116994524432812  0.942266285419463 -0.320351541042327 
235.4375  0.938585698604582 -0.331382155418396  5.62576824449935e-05 4.57846417702968e-05  5.62576824449935e-05 4.57846417702968e-05  0.94119894504547 -0.322566717863082 
237.59375  0.938792705535887 -0.332890748977661  2.80313652183395e-05 4.76879795314745e-05  2.80313652183395e-05 4.76879795314745e-05  0.940940856933592 -0.325683683156967 
239.75  0.938130676746367 -0.335878521203994  2.35256375162863e-05 0.000105796829302563  2.35256375162863e-05 0.000105796829302563  0.941029429435729 -0.328207701444625 
241.90625  0.93731927871704 -0.338336884975433  3.65457908628742e-05 8.18965527287221e-05  3.65457908628742e-05 8.18965527287221e-05  0.940466284751891 -0.331119775772094 
244.0625  0.9360693693161 -0.341086030006408  1.22582951007644e-05 3.19682970939539e-06  1.22582951007644e-05 3.19682970939539e-06  0.939289152622222 -0.33325120806694 
246.21875  0.934930384159087 -0.34414917230606  4.47674610768446e-05 9.5034163678065e-05  4.47674610768446e-05 9.5034163678065e-05  0.937979996204375 -0.337372303009033 
248.375  0.93448907136917 -0.346674114465713  3.87067075280357e-05 9.77439085545488e-05  3.87067075280357e-05 9.77439085545488e-05  0.936617970466612 -0.34041029214859 
250.53125  0.932882249355315 -0.350580304861068  3.61780303137494e-05 8.07600372354501e-05  3.61780303137494e-05 8.07600372354501e-05  0.935421407222746 -0.342973738908767 
252.6875  0.931594848632811 -0.352945804595947  3.24173288390739e-05 7.643380376976e-05  3.24173288390739e-05 7.643380376976e-05  0.933808743953704 -0.34638687968254 
254.84375  0.930928230285643 -0.35649961233139  5.52661913388875e-05 4.83394251205028e-05  5.52661913388875e-05 4.83394251205028e-05  0.932625830173491 -0.349624574184417 
257  0.928857266902922 -0.360247313976287  1.01908344731783e-05 6.16565448581242e-05  1.01908344731783e-05 6.16565448581242e-05  0.931126058101653 -0.353155761957168 
259.15625  0.92843860387802 -0.360288739204406  2.10372118090163e-05 0.000116782593977405  2.10372118090163e-05 0.000116782593977405  0.931091248989104 -0.352683395147323 
261.3125  0.927297472953795 -0.364029824733734  7.59087306505536e-05 8.44385576783681e-05  7.59087306505536e-05 8.44385576783681e-05  0.930319845676421 -0.355625987052917 
263.46875  0.925152122974394 -0.367011249065399  5.51390967302724e-05 2.98415416182252e-05  5.51390967302724e-05 2.98415416182252e-05  0.928922712802886 -0.358962297439575 
265.625  0.925441980361937 -0.370017230510711  4.1425437302678e-05 9.50333378568759e-05  4.1425437302678e-05 9.50333378568759e-05  0.928149044513701 -0.361351042985916 
267.78125  0.924050271511077 -0.373185664415359  3.89945033418826e-06 0.000112413596070838  3.89945033418826e-06 0.000112413596070838  0.927992165088652 -0.364504039287567 
269.9375  0.923325836658476 -0.37568524479866  5.87600115977695e-05 0.000102974678156898  5.87600115977695e-05 0.000102974678156898  0.926780223846434 -0.367608666419982 
272.09375  0.92208307981491 -0.378673911094665  5.92193937336562e-05 4.44154429715127e-05  5.92193937336562e-05 4.44154429715127e-05  0.925062716007231 -0.370438784360885 
274.25  0.920824170112609 -0.380947828292846  -2.05565884243698e-05 6.17526111454937e-05  -2.05565884243698e-05 6.17526111454937e-05  0.923795044422148 -0.373313754796981 
276.40625  0.919422864913939 -0.384708106517791  5.57342773390702e-05 0.000106854444311466  5.57342773390702e-05 0.000106854444311466  0.923207342624663 -0.375898241996765 
278.5625  0.918287456035613 -0.38725209236145  3.17047934004223e-05 7.79856600274799e-05  3.17047934004223e-05 7.79856600274799e-05  0.92264151573181 -0.378980308771133 
280.71875  0.915363132953642 -0.389549404382705  7.07318722561469e-05 8.38727683003528e-05  7.07318722561469e-05 8.38727683003528e-05  0.918405771255492 -0.382473796606063 
282.875  0.915002286434172 -0.392606735229492  3.65887299267343e-05 6.01468982495136e-05  3.65887299267343e-05 6.01468982495136e-05  0.91871130466461 -0.383920818567276 
285.03125  0.914637804031371 -0.39499869942665  -6.06395110480662e-06 5.49097421753687e-05  -6.06395110480662e-06 5.49097421753687e-05  0.917390167713164 -0.386647373437881 
287.1875  0.913994014263152 -0.39692211151123  5.40146447747249e-05 0.000116994833661011  5.40146447747249e-05 0.000116994833661011  0.917265415191649 -0.38939344882965 
289.34375  0.912818670272826 -0.400313913822174  8.6027694123915e-07 0.000104785645817174  8.6027694123915e-07 0.000104785645817174  0.915747463703154 -0.391970366239547 
291.5  0.910618543624877 -0.402194172143936  -1.62592323249555e-05 4.78494894196047e-05  -1.62592323249555e-05 4.78494894196047e-05  0.91391760110855 -0.39533907175064 
293.65625  0.909998953342436 -0.406874328851699  5.35548006155296e-05 0.000101289551821538  5.35548006155296e-05 0.000101289551821538  0.912903249263762 -0.398819953203201 
