!EPCOS AG 16.05.2012 17:10:27
!Calibration: group1-4 06.03.2011
!NWA IDN: Rohde&Schwarz,ZVT8-4Port,1300000008100235,2.76
!NWA-Port 1: 78.0 ps , NWA-Port 2: 76.0 ps , NWA-Port 3: 76.0 ps , 
!
! port | pin | signal
! -----|-----|--------
!   1  |  1  |  IN
!   2  |  3  |  OUT
!   3  |  4  |  OUT
! --------------------
! 
# Hz S RI R 50
8.65000000000000E+8 -5.45277059078217E-1 -7.69012749195099E-1 -1.55908067245036E-3 -5.87734160944819E-4 -9.24903433769941E-4 -8.14103230368346E-4
-1.55256281141192E-3 -5.92105323448777E-4 5.22604584693909E-1 -6.57068252563477E-1 3.86617749929428E-1 2.87794411182404E-1
-9.32301802095026E-4 -8.06176918558776E-4 3.87009024620056E-1 2.87350594997406E-1 5.34628450870514E-1 -6.48682713508606E-1
8.65062500000000E+8 -5.47017335891724E-1 -7.68205761909485E-1 -1.54652295168489E-3 -5.76445134356618E-4 -9.05538152437657E-4 -7.64138007070869E-4
-1.55430543236434E-3 -5.85423083975911E-4 5.21654486656189E-1 -6.56783699989319E-1 3.87750416994095E-1 2.87656009197235E-1
-9.12576739210635E-4 -7.66055542044342E-4 3.88111621141434E-1 2.87329167127609E-1 5.33191382884979E-1 -6.48149907588959E-1
8.65125000000000E+8 -5.48542022705078E-1 -7.66788840293884E-1 -1.55573256779462E-3 -5.85102534387261E-4 -8.54953657835722E-4 -7.51888263039291E-4
-1.55148585326970E-3 -5.83315850235522E-4 5.20555555820465E-1 -6.56411409378052E-1 3.89041781425476E-1 2.87419617176056E-1
-8.44686350319535E-4 -7.37516675144434E-4 3.89395684003830E-1 2.87086635828018E-1 5.31824946403503E-1 -6.47324800491333E-1
8.65187500000000E+8 -5.49355804920197E-1 -7.64815032482147E-1 -1.57689210027456E-3 -5.76359219849110E-4 -7.89700658060610E-4 -7.49125669244677E-4
-1.56578607857227E-3 -5.98866725340486E-4 5.19626855850220E-1 -6.55652165412903E-1 3.90437722206116E-1 2.86827117204666E-1
-7.89136392995715E-4 -7.66547280363739E-4 3.90898108482361E-1 2.86306858062744E-1 5.30335724353790E-1 -6.46346151828766E-1
8.65250000000000E+8 -5.49382567405701E-1 -7.63331890106201E-1 -1.59241468645632E-3 -5.89820963796228E-4 -7.45430646929890E-4 -7.82133080065250E-4
-1.59162760246545E-3 -5.84973255172372E-4 5.18358051776886E-1 -6.54821872711182E-1 3.91705065965652E-1 2.85432189702988E-1
-7.33052322175354E-4 -7.91051366832107E-4 3.92048686742783E-1 2.85228461027145E-1 5.29435813426971E-1 -6.45038425922394E-1
8.65312500000000E+8 -5.48858463764191E-1 -7.62527465820312E-1 -1.63426669314504E-3 -5.75531157664955E-4 -7.09397427272052E-4 -8.52826808113605E-4
-1.63341430015862E-3 -5.76274702325463E-4 5.18010735511780E-1 -6.53726339340210E-1 3.92249047756195E-1 2.84224718809128E-1
-6.98206829838455E-4 -8.45500209834427E-4 3.92580419778824E-1 2.83916771411896E-1 5.29131054878235E-1 -6.43717527389526E-1
8.65375000000000E+8 -5.48424899578094E-1 -7.62721598148346E-1 -1.66916148737073E-3 -5.32133446540684E-4 -7.09021580405533E-4 -9.11460083443671E-4
-1.67227268684655E-3 -5.30095945578068E-4 5.17910182476044E-1 -6.53047442436218E-1 3.92544776201248E-1 2.83295184373856E-1
-7.20715732313693E-4 -9.12103976588696E-4 3.92843335866928E-1 2.83015191555023E-1 5.29242575168610E-1 -6.42984032630920E-1
8.65437500000000E+8 -5.48326432704926E-1 -7.63500928878784E-1 -1.69033114798367E-3 -5.07429591380060E-4 -7.43546930607408E-4 -9.39713907428086E-4
-1.69898872263730E-3 -5.09959470946342E-4 5.17931222915649E-1 -6.52530312538147E-1 3.92671734094620E-1 2.82801330089569E-1
-7.47096259146929E-4 -9.42357059102505E-4 3.92967700958252E-1 2.82430827617645E-1 5.29227674007416E-1 -6.42533421516418E-1
8.65500000000000E+8 -5.48850953578949E-1 -7.64373660087585E-1 -1.71150476671755E-3 -4.61177958641201E-4 -7.65633129049093E-4 -9.62877296842635E-4
-1.71602366026491E-3 -4.68617829028517E-4 5.17514824867249E-1 -6.52505159378052E-1 3.93060535192490E-1 2.82261401414871E-1
-7.80484639108181E-4 -9.49795416090637E-4 3.93340229988098E-1 2.82054841518402E-1 5.28813958168030E-1 -6.42541348934174E-1
8.65562500000000E+8 -5.50116658210754E-1 -7.64947652816772E-1 -1.73977646045387E-3 -4.21506119892001E-4 -7.86711054388434E-4 -9.62468504440039E-4
-1.73257733695209E-3 -4.44423407316208E-4 5.16938030719757E-1 -6.52473628520966E-1 3.93561840057373E-1 2.81941354274750E-1
-7.94473045971245E-4 -9.55449999310076E-4 3.93908053636551E-1 2.81709760427475E-1 5.28063058853149E-1 -6.42578959465027E-1
8.65625000000000E+8 -5.51550984382629E-1 -7.65541315078735E-1 -1.76896911580116E-3 -3.87014471925795E-4 -7.96878652181476E-4 -9.43357415962964E-4
-1.76272925455123E-3 -3.93086025724187E-4 5.16089439392090E-1 -6.52422964572906E-1 3.94465684890747E-1 2.81483113765717E-1
-7.89187615737319E-4 -9.61473386269063E-4 3.94789457321167E-1 2.81259417533875E-1 5.27049005031586E-1 -6.42334461212158E-1
8.65687500000000E+8 -5.53303718566895E-1 -7.65858292579651E-1 -1.75540347117931E-3 -3.30714683514088E-4 -7.98561319243163E-4 -9.68366395682096E-4
-1.78356142714620E-3 -3.46098968293518E-4 5.15186548233032E-1 -6.52096390724182E-1 3.95444512367249E-1 2.80881226062775E-1
-7.98712542746216E-4 -9.71527944784611E-4 3.95704865455627E-1 2.80616551637650E-1 5.25920748710632E-1 -6.41659557819366E-1
8.65750000000000E+8 -5.55013298988342E-1 -7.65816450119019E-1 -1.78084138315171E-3 -2.85545975202695E-4 -7.91963539086282E-4 -9.79085918515921E-4
-1.78544374648482E-3 -2.76075355941430E-4 5.14004826545715E-1 -6.51311874389648E-1 3.96466881036758E-1 2.79846727848053E-1
-7.96703039668500E-4 -9.81672317720950E-4 3.96690160036087E-1 2.79606550931931E-1 5.24905443191528E-1 -6.40589892864227E-1
8.65812500000000E+8 -5.56779384613037E-1 -7.65273332595825E-1 -1.78179133217782E-3 -2.27712123887613E-4 -7.83919356763363E-4 -9.87006933428347E-4
-1.79120502434671E-3 -2.39540255279280E-4 5.12925684452057E-1 -6.50218605995178E-1 3.97293776273727E-1 2.78364807367325E-1
-7.83552823122591E-4 -9.85359773039818E-4 3.97533416748047E-1 2.78105795383453E-1 5.23988068103790E-1 -6.39026224613190E-1
8.65875000000000E+8 -5.58510422706604E-1 -7.64281094074249E-1 -1.79259316064417E-3 -1.74626737134531E-4 -7.59215443395078E-4 -1.01728748995811E-3
-1.80310069117695E-3 -1.64549375767820E-4 5.11914014816284E-1 -6.48679018020630E-1 3.97703915834427E-1 2.76394248008728E-1
-7.66363460570574E-4 -1.01903686299920E-3 3.97950440645218E-1 2.76144862174988E-1 5.23486793041229E-1 -6.37174010276794E-1
8.65937500000000E+8 -5.59643268585205E-1 -7.63288378715515E-1 -1.80407811421901E-3 -9.65742365224287E-5 -7.54536304157227E-4 -1.09653500840068E-3
-1.79399747867137E-3 -8.66176415001974E-5 5.11801660060883E-1 -6.46637618541718E-1 3.97284716367722E-1 2.74288862943649E-1
-7.43222306482494E-4 -1.08322501182556E-3 3.97524952888489E-1 2.73961007595062E-1 5.24092912673950E-1 -6.35160505771637E-1
8.66000000000000E+8 -5.60283064842224E-1 -7.62639343738556E-1 -1.75356306135654E-3 7.50445997255156E-6 -7.94858089648187E-4 -1.16722425445914E-3
-1.76253367681056E-3 4.32314845966175E-6 5.12845516204834E-1 -6.44743978977203E-1 3.95855754613876E-1 2.72595703601837E-1
-7.98501889221370E-4 -1.18251400999725E-3 3.96033108234406E-1 2.72471696138382E-1 5.26231467723846E-1 -6.33668720722198E-1
8.66062500000000E+8 -5.60960054397583E-1 -7.62474656105042E-1 -1.68520340230316E-3 9.22465551411733E-5 -8.96003446541727E-4 -1.21739204041660E-3
-1.68486381880939E-3 7.39339229767211E-5 5.14672219753265E-1 -6.43863022327423E-1 3.93987059593201E-1 2.72174626588821E-1
-8.92991432920098E-4 -1.22965720947832E-3 3.94130825996399E-1 2.71934717893600E-1 5.28337180614471E-1 -6.33727908134460E-1
8.66125000000000E+8 -5.61832368373871E-1 -7.62155771255493E-1 -1.58360844943672E-3 1.15687289508060E-4 -1.00633734837174E-3 -1.22730957809836E-3
-1.59468874335289E-3 1.14690585178323E-4 5.16137123107910E-1 -6.44023060798645E-1 3.92417818307877E-1 2.72613584995270E-1
-1.02878024335951E-3 -1.21330504771322E-3 3.92686277627945E-1 2.72451937198639E-1 5.29838204383850E-1 -6.34999275207520E-1
8.66187500000000E+8 -5.62856316566467E-1 -7.62101709842682E-1 -1.51545344851911E-3 9.73707792581990E-5 -1.09377468470484E-3 -1.17752351798117E-3
-1.50628201663494E-3 9.45409119594842E-5 5.17195463180542E-1 -6.45051777362823E-1 3.91586542129517E-1 2.73718476295471E-1
-1.08534574974328E-3 -1.16188451647758E-3 3.91848444938660E-1 2.73487389087677E-1 5.30375421047211E-1 -6.36661529541016E-1
8.66250000000000E+8 -5.64049363136292E-1 -7.62229204177856E-1 -1.45848083775491E-3 6.02535692451056E-5 -1.14481360651553E-3 -1.10335764475167E-3
-1.46305887028575E-3 6.01275496592280E-5 5.17443954944611E-1 -6.46152675151825E-1 3.91498774290085E-1 2.74949699640274E-1
-1.13490270450711E-3 -1.09061540570110E-3 3.91748517751694E-1 2.74751961231232E-1 5.30115544795990E-1 -6.38241112232208E-1
8.66312500000000E+8 -5.65389573574066E-1 -7.62450277805328E-1 -1.44804373849183E-3 3.45962544088252E-5 -1.15607399493456E-3 -1.01785536389798E-3
-1.44707993604243E-3 2.26239098992664E-5 5.17410397529602E-1 -6.47072374820709E-1 3.92017185688019E-1 2.76135414838791E-1
-1.15571322385222E-3 -1.00095767993480E-3 3.92292022705078E-1 2.75961726903915E-1 5.29481291770935E-1 -6.39505326747894E-1
8.66375000000000E+8 -5.67126572132111E-1 -7.62505352497101E-1 -1.43354001920670E-3 2.19931439460197E-6 -1.14208075683564E-3 -9.50377143453807E-4
-1.44431774970144E-3 1.54879307956435E-5 5.16724824905396E-1 -6.47943496704102E-1 3.92970502376556E-1 2.76864886283875E-1
-1.13063119351864E-3 -9.48746455833316E-4 3.93163740634918E-1 2.76647150516510E-1 5.28245151042938E-1 -6.40469014644623E-1
8.66437500000000E+8 -5.69000542163849E-1 -7.62087821960449E-1 -1.43542687874287E-3 -2.64325564103274E-7 -1.09915435314178E-3 -9.06674249563366E-4
-1.44899578299373E-3 3.84564782507368E-6 5.15994310379028E-1 -6.48570179939270E-1 3.93986076116562E-1 2.77364104986191E-1
-1.10856757964939E-3 -9.04434826225042E-4 3.94230276346207E-1 2.77041673660278E-1 5.26770651340485E-1 -6.41076922416687E-1
8.66500000000000E+8 -5.71141541004181E-1 -7.61480987071991E-1 -1.44071038812399E-3 -8.34852983189194E-7 -1.07203610241413E-3 -8.73266952112317E-4
-1.44696712959558E-3 -9.55057021201355E-6 5.14878690242767E-1 -6.49020493030548E-1 3.95153015851974E-1 2.77455598115921E-1
-1.06971687637269E-3 -8.78244929481298E-4 3.95406723022461E-1 2.77245968580246E-1 5.25163829326630E-1 -6.41483426094055E-1
8.66562500000000E+8 -5.72922825813293E-1 -7.60413408279419E-1 -1.45481002982706E-3 -1.10005312308203E-5 -1.03038281667978E-3 -8.51424119900912E-4
-1.43971061334014E-3 -4.38797133028856E-6 5.13749480247498E-1 -6.49378776550293E-1 3.96462351083755E-1 2.77546048164368E-1
-1.03057152591646E-3 -8.41408618725836E-4 3.96641850471497E-1 2.77350097894669E-1 5.23458957672119E-1 -6.41530692577362E-1
8.66625000000000E+8 -5.74657261371613E-1 -7.59146869182587E-1 -1.46085675805807E-3 -1.75494988070568E-5 -9.87298786640167E-4 -8.42468813061714E-4
-1.44087884109467E-3 -9.54633833316620E-6 5.12587249279022E-1 -6.49337232112885E-1 3.97904604673386E-1 2.77573913335800E-1
-1.00093940272927E-3 -8.40073393192142E-4 3.98098707199097E-1 2.77290731668472E-1 5.21652519702911E-1 -6.41255140304565E-1
8.66687500000000E+8 -5.76056540012360E-1 -7.57886230945587E-1 -1.46415363997221E-3 -1.64051234605722E-5 -9.52929549384862E-4 -8.24668910354376E-4
-1.46234093699604E-3 -7.57715406507486E-6 5.10895967483521E-1 -6.49093627929687E-1 3.99674147367477E-1 2.77141571044922E-1
-9.35753516387194E-4 -8.33227473776788E-4 3.99867147207260E-1 2.76838213205338E-1 5.19481480121613E-1 -6.40490353107452E-1
8.66750000000000E+8 -5.77360689640045E-1 -7.56064295768738E-1 -1.46957894321531E-3 -3.23717576975469E-5 -8.76628968399018E-4 -8.08999931905419E-4
-1.45634496584535E-3 -2.10117777896812E-5 5.09065389633179E-1 -6.48189008235931E-1 4.01491045951843E-1 2.76008427143097E-1
-8.72351462021470E-4 -8.28139600344002E-4 4.01781588792801E-1 2.75776505470276E-1 5.17442226409912E-1 -6.38922154903412E-1
8.66812500000000E+8 -5.78203201293945E-1 -7.54151403903961E-1 -1.50861253496259E-3 -4.97927394462749E-5 -8.06054333224893E-4 -8.35091981571168E-4
-1.50022655725479E-3 -4.35990368714556E-5 5.07636487483978E-1 -6.46773397922516E-1 4.03063386678696E-1 2.74330258369446E-1
-8.02730268333107E-4 -8.27363342978060E-4 4.03311461210251E-1 2.73994415998459E-1 5.15775859355927E-1 -6.36658549308777E-1
8.66875000000000E+8 -5.78662931919098E-1 -7.52365171909332E-1 -1.59983208868653E-3 -2.48044052568730E-5 -7.11634173057973E-4 -8.93598189577460E-4
-1.59617559984326E-3 -2.64859463641187E-5 5.06414651870728E-1 -6.44917488098145E-1 4.04165744781494E-1 2.72261470556259E-1
-7.24521582014859E-4 -8.93456162884831E-4 4.04454052448273E-1 2.72008866071701E-1 5.15022218227386E-1 -6.34382426738739E-1
8.66937500000000E+8 -5.78727900981903E-1 -7.50962674617767E-1 -1.62732449825853E-3 4.12480258091819E-5 -6.45207648631185E-4 -9.74954338744283E-4
-1.62039441056550E-3 3.92592883144971E-5 5.05768358707428E-1 -6.42797470092773E-1 4.04960751533508E-1 2.70057201385498E-1
-6.48366520181298E-4 -9.87758277915418E-4 4.05263006687164E-1 2.69708514213562E-1 5.14489352703094E-1 -6.31834387779236E-1
8.67000000000000E+8 -5.78332662582397E-1 -7.49684035778046E-1 -1.63742038421333E-3 6.81651436025277E-5 -6.07991532888263E-4 -1.07222876977175E-3
-1.63949991110712E-3 6.11369396210648E-5 5.05534887313843E-1 -6.40326142311096E-1 4.05376374721527E-1 2.67345011234283E-1
-6.14749558735639E-4 -1.07487931381911E-3 4.05602067708969E-1 2.67049700021744E-1 5.14468312263489E-1 -6.28952682018280E-1
8.67062500000000E+8 -5.77519595623016E-1 -7.49020874500275E-1 -1.74135598354042E-3 1.16605428047478E-4 -5.63711102586240E-4 -1.21319910977036E-3
-1.74710189457983E-3 1.15195427497383E-4 5.06056427955627E-1 -6.37655198574066E-1 4.04909729957581E-1 2.64395922422409E-1
-5.66729693673551E-4 -1.20271323248744E-3 4.05152231454849E-1 2.64021843671799E-1 5.15157997608185E-1 -6.25973582267761E-1
8.67125000000000E+8 -5.77074527740479E-1 -7.48837947845459E-1 -1.79783778730780E-3 3.25027969665825E-4 -5.62616623938084E-4 -1.41577969770879E-3
-1.80653913412243E-3 3.21883242577314E-4 5.07274389266968E-1 -6.35149955749512E-1 4.03525888919830E-1 2.61500328779221E-1
-5.79218845814466E-4 -1.41151156276464E-3 4.03824359178543E-1 2.61161088943481E-1 5.16795277595520E-1 -6.23296141624451E-1
8.67187500000000E+8 -5.76638758182526E-1 -7.48941659927368E-1 -1.71696778852493E-3 4.96570137329400E-4 -6.95342489052564E-4 -1.59400014672428E-3
-1.71488698106259E-3 4.77919005788863E-4 5.09392440319061E-1 -6.32946848869324E-1 4.01266425848007E-1 2.59131759405136E-1
-6.96413102559745E-4 -1.60025106742978E-3 4.01515781879425E-1 2.58750230073929E-1 5.19268035888672E-1 -6.21002912521362E-1
8.67250000000000E+8 -5.76332390308380E-1 -7.49918997287750E-1 -1.58492382615805E-3 6.45833148155361E-4 -8.93637130502611E-4 -1.74792937468737E-3
-1.59372296184301E-3 6.58698554616421E-4 5.12553930282593E-1 -6.31546914577484E-1 3.98127019405365E-1 2.57604449987411E-1
-8.98844329640269E-4 -1.75673619378358E-3 3.98379594087601E-1 2.57187724113464E-1 5.22506952285767E-1 -6.19622588157654E-1
8.67312500000000E+8 -5.77043712139130E-1 -7.51544415950775E-1 -1.35615363251418E-3 6.74982147756964E-4 -1.18166522588581E-3 -1.77072151564062E-3
-1.36798387393355E-3 6.62697246298194E-4 5.16059756278992E-1 -6.31652832031250E-1 3.94650608301163E-1 2.57494062185287E-1
-1.19268952403218E-3 -1.77960540167987E-3 3.94914120435715E-1 2.57167130708694E-1 5.26133179664612E-1 -6.19782984256744E-1
8.67375000000000E+8 -5.78656136989594E-1 -7.52753019332886E-1 -1.24996236991137E-3 5.81813044846058E-4 -1.36363389901817E-3 -1.62759516388178E-3
-1.24622788280249E-3 5.91001124121249E-4 5.18964111804962E-1 -6.33435130119324E-1 3.91763627529144E-1 2.59042680263519E-1
-1.36555789504200E-3 -1.64947554003447E-3 3.91958415508270E-1 2.58600085973740E-1 5.29010713100433E-1 -6.21243476867676E-1
8.67437500000000E+8 -5.80814123153687E-1 -7.53237247467041E-1 -1.20709137991071E-3 5.48543059267104E-4 -1.43879954703152E-3 -1.51440687477589E-3
-1.21065683197230E-3 5.41614834219217E-4 5.19972562789917E-1 -6.35988652706146E-1 3.90245616436005E-1 2.61284500360489E-1
-1.45486346445978E-3 -1.51570932939649E-3 3.90584409236908E-1 2.60960966348648E-1 5.30600726604462E-1 -6.23769044876099E-1
8.67500000000000E+8 -5.82989037036896E-1 -7.52992868423462E-1 -1.12553092185408E-3 5.25249051861465E-4 -1.49714760482311E-3 -1.41858821734786E-3
-1.13115063868463E-3 5.16718311700970E-4 5.19722819328308E-1 -6.38261675834656E-1 3.90354543924332E-1 2.63368457555771E-1
-1.49929278995842E-3 -1.40365888364613E-3 3.90642255544662E-1 2.63025403022766E-1 5.30485868453979E-1 -6.26004457473755E-1
8.67562500000000E+8 -5.84863960742950E-1 -7.52491116523743E-1 -1.08965672552586E-3 4.52647567726672E-4 -1.48186855949461E-3 -1.30664312746376E-3
-1.10973103437573E-3 4.52165957540274E-4 5.18674492835999E-1 -6.39420866966248E-1 3.91283750534058E-1 2.64549523591995E-1
-1.49845483247191E-3 -1.30282249301672E-3 3.91518026590347E-1 2.64132887125015E-1 5.29389619827271E-1 -6.27357959747314E-1
8.67625000000000E+8 -5.86824178695679E-1 -7.52127349376678E-1 -1.14012986887246E-3 4.27249673521146E-4 -1.45540235098451E-3 -1.25112640671432E-3
-1.13246892578900E-3 4.38840041169897E-4 5.17558038234711E-1 -6.39743745326996E-1 3.92381638288498E-1 2.64742970466614E-1
-1.46457669325173E-3 -1.25464377924800E-3 3.92709374427795E-1 2.64366090297699E-1 5.28157830238342E-1 -6.27596199512482E-1
8.67687500000000E+8 -5.88599383831024E-1 -7.51312136650085E-1 -1.13516207784414E-3 4.47033176897094E-4 -1.44245743285865E-3 -1.23804935719818E-3
-1.14394549746066E-3 4.42196527728811E-4 5.16515672206879E-1 -6.39161527156830E-1 3.93319994211197E-1 2.63968676328659E-1
-1.45374704152346E-3 -1.23136979527771E-3 3.93535673618317E-1 2.63487428426743E-1 5.27172088623047E-1 -6.26564264297485E-1
8.67750000000000E+8 -5.90389013290405E-1 -7.50303566455841E-1 -1.12524523865432E-3 4.68557846033946E-4 -1.43350625876337E-3 -1.24685175251216E-3
-1.11876253504306E-3 4.74960252176970E-4 5.16219139099121E-1 -6.37994647026062E-1 3.93340706825256E-1 2.62646198272705E-1
-1.44074112176895E-3 -1.24747783411294E-3 3.93665820360184E-1 2.62140125036240E-1 5.27135491371155E-1 -6.25160574913025E-1
8.67812500000000E+8 -5.91830134391785E-1 -7.49071061611176E-1 -1.08446145895869E-3 5.01173548400402E-4 -1.46066199522465E-3 -1.25682051293552E-3
-1.08578160870820E-3 5.02296083141118E-4 5.16267657279968E-1 -6.36675894260406E-1 3.92573744058609E-1 2.61115282773972E-1
-1.46445201244205E-3 -1.26332009676844E-3 3.92907381057739E-1 2.60813534259796E-1 5.28210043907166E-1 -6.23829245567322E-1
8.67875000000000E+8 -5.93411862850189E-1 -7.47844517230988E-1 -1.03368039708585E-3 5.16993517521769E-4 -1.50112051051110E-3 -1.26379530411214E-3
-1.03948451578617E-3 5.19343768246472E-4 5.17389714717865E-1 -6.35245740413666E-1 3.91140252351761E-1 2.59889602661133E-1
-1.50099664460868E-3 -1.25401874538511E-3 3.91509950160980E-1 2.59546041488647E-1 5.29615581035614E-1 -6.22925341129303E-1
8.67937500000000E+8 -5.94811975955963E-1 -7.46679842472076E-1 -9.61634155828506E-4 5.29595534317195E-4 -1.55506504233927E-3 -1.24060339294374E-3
-9.62846097536385E-4 5.24785020388663E-4 5.19720375537872E-1 -6.34356975555420E-1 3.88905584812164E-1 2.59250044822693E-1
-1.56423554290086E-3 -1.23806449119002E-3 3.89175385236740E-1 2.58856147527695E-1 5.31888127326965E-1 -6.22376024723053E-1
8.68000000000000E+8 -5.96064925193787E-1 -7.45377302169800E-1 -9.04371961951256E-4 4.87056066049263E-4 -1.59922253806144E-3 -1.21042260434479E-3
-9.05564287677407E-4 5.00526512041688E-4 5.22322475910187E-1 -6.34668946266174E-1 3.86122137308121E-1 2.59783983230591E-1
-1.61155930254608E-3 -1.19564274791628E-3 3.86387407779694E-1 2.59390830993652E-1 5.34579277038574E-1 -6.22878849506378E-1
8.68062500000000E+8 -5.97142338752747E-1 -7.43948757648468E-1 -8.45776288770139E-4 4.40234434790909E-4 -1.62093073595315E-3 -1.14062160719186E-3
-8.42645706143230E-4 4.47128608357161E-4 5.24663865566254E-1 -6.36269271373749E-1 3.83905708789825E-1 2.61669695377350E-1
