! Matrix data file written by TouchstoneData, EPCOS AG
! FILENAME: "LZ49B_3_WB.snp"
! COMMENT: "(TS/LZ49B_3_WB.s2p) EPCOS AG 06.03.2012 16:1"
! INFO: nport=2, nfreq=1601
! DATE: "Thu Apr  5 09:33:07 2012"
! USER: "Wee Chuan Tay"
!
! port | pin | signal
! -----|-----|--------
!   1  |  1  |  Input
!   2  |  2  |  Output
! --------------------
! 
# MHZ S RI R 50
! freq  reS11 imS11  reS21 imS21  reS12 imS12  reS22 imS22
50.000  0.997997046 -0.039912738  0.000033635  0.000191109  0.000033635  0.000191109  0.996703684 -0.038581971 
50.594  0.997683525 -0.040831875 -0.000020951  0.000283264 -0.000020951  0.000283264  0.996631503 -0.039755974 
51.188  0.997192740 -0.041724894  0.000052083  0.000268093  0.000052083  0.000268093  0.996400654 -0.040477380 
51.781  0.997047722 -0.042734161  0.000026026  0.000230419  0.000026026  0.000230419  0.996090710 -0.041180152 
52.375  0.996730208 -0.043220565  0.000020218  0.000236360  0.000020218  0.000236360  0.995981574 -0.042322662 
52.969  0.997109056 -0.044257991  0.000005599  0.000235668  0.000005599  0.000235668  0.995846450 -0.042897888 
53.562  0.997490048 -0.045326404 -0.000018134  0.000253379 -0.000018134  0.000253379  0.995735943 -0.043264620 
54.156  0.997851372 -0.046165489 -0.000004389  0.000297769 -0.000004389  0.000297769  0.996056497 -0.043311816 
54.750  0.998375773 -0.047240403  0.000018864  0.000284271  0.000018864  0.000284271  0.996270537 -0.043241117 
55.344  0.998820782 -0.048165079  0.000002529  0.000259535  0.000002529  0.000259535  0.996806920 -0.043238461 
55.938  0.998803365 -0.048906421  0.000005642  0.000279344  0.000005642  0.000279344  0.997278214 -0.042823795 
56.531  0.998781560 -0.049349727  0.000013316  0.000279936  0.000013316  0.000279936  0.997223914 -0.042898502 
57.125  0.998792214 -0.049133627  0.000007572  0.000287969  0.000007572  0.000287969  0.996459723 -0.043116361 
57.719  0.998774588 -0.048807234 -0.000011146  0.000289518 -0.000011146  0.000289518  0.996108890 -0.043438077 
58.312  0.998485684 -0.048695881 -0.000008325  0.000307661 -0.000008325  0.000307661  0.995490491 -0.043704215 
58.906  0.998317480 -0.048572332  0.000037017  0.000281943  0.000037017  0.000281943  0.994857132 -0.044061393 
59.500  0.998040259 -0.048246853  0.000029544  0.000289616  0.000029544  0.000289616  0.994242132 -0.044314105 
60.094  0.997814059 -0.047924329  0.000017690  0.000301481  0.000017690  0.000301481  0.993796587 -0.044580907 
60.688  0.997451425 -0.048184976  0.000020573  0.000294303  0.000020573  0.000294303  0.994059205 -0.044816222 
61.281  0.997322977 -0.048855655  0.000005257  0.000281220  0.000005257  0.000281220  0.994603336 -0.045173183 
61.875  0.997344434 -0.049709633 -0.000006628  0.000283776 -0.000006628  0.000283776  0.995492637 -0.045538332 
62.469  0.997009397 -0.050361995 -0.000037227  0.000299390 -0.000037227  0.000299390  0.995987535 -0.045802407 
63.062  0.996893287 -0.050935380 -0.000029592  0.000336147 -0.000029592  0.000336147  0.996787667 -0.046209563 
63.656  0.996590614 -0.051709037 -0.000012649  0.000441280 -0.000012649  0.000441280  0.997128308 -0.046694208 
64.250  0.996656418 -0.051764365  0.000104094  0.000386656  0.000104094  0.000386656  0.997910500 -0.046855487 
64.844  0.997270346 -0.051646616  0.000096439  0.000355309  0.000096439  0.000355309  0.997829020 -0.047960896 
65.438  0.997614920 -0.051405486  0.000065354  0.000271135  0.000065354  0.000271135  0.998000145 -0.048744738 
66.031  0.997945309 -0.051393427  0.000025592  0.000288402  0.000025592  0.000288402  0.997984648 -0.049613468 
66.625  0.998191595 -0.052097648  0.000029666  0.000299196  0.000029666  0.000299196  0.997621179 -0.050693866 
67.219  0.998241007 -0.052393842  0.000005256  0.000299854  0.000005256  0.000299854  0.997189939 -0.051902276 
67.812  0.998318195 -0.052722409 -0.000008855  0.000327887 -0.000008855  0.000327887  0.996700346 -0.053661734 
68.406  0.998427808 -0.052826166 -0.000001059  0.000331786 -0.000001059  0.000331786  0.996378481 -0.055060182 
69.000  0.998591450 -0.053057658 -0.000011531  0.000325561 -0.000011531  0.000325561  0.996511877 -0.055149607 
69.594  0.998590374 -0.053077912 -0.000016031  0.000308651 -0.000016031  0.000308651  0.996734738 -0.054984324 
70.188  0.998575057 -0.053365303 -0.000006946  0.000367669 -0.000006946  0.000367669  0.997057140 -0.054568853 
70.781  0.998567254 -0.053511118 -0.000010006  0.000350501 -0.000010006  0.000350501  0.997123480 -0.054481454 
71.375  0.998556613 -0.053709314 -0.000007749  0.000384722 -0.000007749  0.000384722  0.997184038 -0.054196287 
71.969  0.998546782 -0.053891775  0.000030148  0.000383831  0.000030148  0.000383831  0.997234344 -0.053900644 
72.562  0.997088790 -0.054617539  0.000000109  0.000410084  0.000000109  0.000410084  0.997045338 -0.053760655 
73.156  0.997669339 -0.054736808 -0.000093239  0.000336110 -0.000093239  0.000336110  0.995875120 -0.054018646 
73.750  0.997338653 -0.055603355  0.000073820  0.000353016  0.000073820  0.000353016  0.995511591 -0.053763475 
74.344  0.997289836 -0.056813035  0.000035959  0.000381989  0.000035959  0.000381989  0.995370388 -0.054249417 
74.938  0.996554673 -0.057833139  0.000056286  0.000408903  0.000056286  0.000408903  0.995033562 -0.054481074 
75.531  0.996289492 -0.058780473  0.000077072  0.000371542  0.000077072  0.000371542  0.994810700 -0.054969952 
76.125  0.995956004 -0.059935551  0.000062161  0.000342586  0.000062161  0.000342586  0.994347632 -0.055036195 
76.719  0.995459437 -0.060700253  0.000032525  0.000342658  0.000032525  0.000342658  0.994502604 -0.056662485 
77.312  0.995012403 -0.061042432 -0.000013450  0.000319734 -0.000013450  0.000319734  0.994531572 -0.058665831 
77.906  0.994576812 -0.061396282 -0.000011221  0.000399011 -0.000011221  0.000399011  0.994656563 -0.060604591 
78.500  0.994104564 -0.061551109  0.000027401  0.000381864  0.000027401  0.000381864  0.995056570 -0.062749848 
79.094  0.993882000 -0.061826814  0.000018447  0.000361999  0.000018447  0.000361999  0.995399535 -0.065179333 
79.688  0.993644357 -0.061776463 -0.000020678  0.000401802 -0.000020678  0.000401802  0.995683134 -0.067170426 
80.281  0.993244290 -0.061818633  0.000032930  0.000409306  0.000032930  0.000409306  0.995972812 -0.069107063 
80.875  0.994384825 -0.062086865  0.000005275  0.000398278  0.000005275  0.000398278  0.996470034 -0.068088613 
81.469  0.995391667 -0.062536791  0.000025566  0.000402441  0.000025566  0.000402441  0.996793091 -0.066950798 
82.062  0.996297002 -0.062966041  0.000014086  0.000413034  0.000014086  0.000413034  0.997126818 -0.066025585 
82.656  0.997080922 -0.064080492  0.000032127  0.000417476  0.000032127  0.000417476  0.997218490 -0.065309651 
83.250  0.997584343 -0.065210909  0.000039292  0.000426964  0.000039292  0.000426964  0.997100651 -0.064765975 
83.844  0.997823463 -0.065941915  0.000055016  0.000418448  0.000055016  0.000418448  0.997261286 -0.064209953 
84.438  0.997765488 -0.066813406  0.000048666  0.000402058  0.000048666  0.000402058  0.997235715 -0.064009771 
85.031  0.997696889 -0.067830058  0.000006858  0.000389640  0.000006858  0.000389640  0.997177243 -0.064492419 
85.625  0.997627727 -0.068839809  0.000023125  0.000409615  0.000023125  0.000409615  0.997146547 -0.065002553 
86.219  0.997563131 -0.069769622  0.000011703  0.000419176  0.000011703  0.000419176  0.996934533 -0.065480836 
86.812  0.997493145 -0.070763165  0.000018759  0.000428635  0.000018759  0.000428635  0.996912003 -0.066055104 
87.406  0.997426470 -0.071696841  0.000027320  0.000428970  0.000027320  0.000428970  0.996944606 -0.066559538 
88.000  0.997376990 -0.072381897  0.000022434  0.000437014  0.000022434  0.000437014  0.996969819 -0.066649370 
88.594  0.997331610 -0.073004521  0.000023315  0.000444164  0.000023315  0.000444164  0.997101188 -0.066975348 
89.188  0.997261343 -0.073958194  0.000029822  0.000454998  0.000029822  0.000454998  0.997303724 -0.067219518 
89.781  0.997186024 -0.074966878  0.000027134  0.000448943  0.000027134  0.000448943  0.997399032 -0.067264408 
90.375  0.997114255 -0.075915499  0.000027421  0.000443173  0.000027421  0.000443173  0.997519016 -0.067237385 
90.969  0.997047792 -0.076783460  0.000020319  0.000447633  0.000020319  0.000447633  0.997715259 -0.067559328 
91.562  0.997003820 -0.077352329  0.000049914  0.000471065  0.000049914  0.000471065  0.997686147 -0.067987888 
92.156  0.996982779 -0.077623053  0.000052597  0.000453161  0.000052597  0.000453161  0.997637233 -0.068701901 
92.750  0.996966820 -0.077827756  0.000025938  0.000440313  0.000025938  0.000440313  0.997540729 -0.070089184 
93.344  0.996919853 -0.078427073  0.000020224  0.000454851  0.000020224  0.000454851  0.997461807 -0.071203540 
93.938  0.996889092 -0.078817113  0.000017785  0.000460606  0.000017785  0.000460606  0.997414110 -0.071868589 
94.531  0.996853729 -0.079263123  0.000036892  0.000457742  0.000036892  0.000457742  0.997399033 -0.072077524 
95.125  0.996597171 -0.079760082  0.000031140  0.000462844  0.000031140  0.000462844  0.997384615 -0.072276760 
95.719  0.996113598 -0.079890199  0.000020553  0.000478913  0.000020553  0.000478913  0.997396244 -0.072116104 
96.312  0.995791256 -0.080079690  0.000030173  0.000493648  0.000030173  0.000493648  0.997396277 -0.072115651 
96.906  0.996330082 -0.080364965  0.000024194  0.000514875  0.000024194  0.000514875  0.997388309 -0.072225766 
97.500  0.996613443 -0.080629073  0.000000085  0.000438413  0.000000085  0.000438413  0.997385473 -0.072264921 
98.094  0.996765215 -0.080368562  0.000168999  0.000405597  0.000168999  0.000405597  0.997374381 -0.072417841 
98.688  0.996719643 -0.080931782  0.000008496  0.000422669  0.000008496  0.000422669  0.997325449 -0.073088636 
99.281  0.996653131 -0.081746777 -0.000012949  0.000475031 -0.000012949  0.000475031  0.997272124 -0.073812674 
99.875  0.996595364 -0.082448047 -0.000005680  0.000514109 -0.000005680  0.000514109  0.997204749 -0.074717397 
100.469  0.996538465 -0.083132946  0.000006731  0.000502818  0.000006731  0.000502818  0.996960282 -0.075399742 
101.062  0.996512566 -0.083442826  0.000020418  0.000538009  0.000020418  0.000538009  0.996694326 -0.075820759 
101.656  0.996481678 -0.083810895  0.000037793  0.000529928  0.000037793  0.000529928  0.996489167 -0.076047540 
102.250  0.996448625 -0.084202961  0.000067378  0.000527923  0.000067378  0.000527923  0.996302187 -0.076447710 
102.844  0.996388290 -0.084913928  0.000047144  0.000484275  0.000047144  0.000484275  0.996105134 -0.076673701 
103.438  0.996342816 -0.085445850  0.000040866  0.000528445  0.000040866  0.000528445  0.995869696 -0.076933093 
104.031  0.996289998 -0.086059516  0.000072884  0.000527300  0.000072884  0.000527300  0.995528281 -0.077310048 
104.625  0.996243779 -0.086592916  0.000046175  0.000464402  0.000046175  0.000464402  0.995478749 -0.077669121 
105.219  0.996203964 -0.087049771 -0.000000527  0.000508635 -0.000000527  0.000508635  0.995732903 -0.078043424 
105.812  0.996164548 -0.087499674  0.000049386  0.000547055  0.000049386  0.000547055  0.995886862 -0.078393809 
106.406  0.996132839 -0.087859927  0.000051588  0.000519894  0.000051588  0.000519894  0.996036828 -0.078866497 
107.000  0.996087477 -0.088372721  0.000034567  0.000536778  0.000034567  0.000536778  0.996099532 -0.079405330 
107.594  0.996100634 -0.088224297  0.000039998  0.000530003  0.000039998  0.000530003  0.995705605 -0.079869173 
108.188  0.995949149 -0.088752404  0.000066113  0.000536900  0.000066113  0.000536900  0.996097445 -0.080357209 
108.781  0.995944202 -0.088978820  0.000059064  0.000516325  0.000059064  0.000516325  0.996392369 -0.081003092 
109.375  0.996021890 -0.089108890  0.000034413  0.000541193  0.000034413  0.000541193  0.996602654 -0.081755452 
109.969  0.996003434 -0.089314947  0.000058258  0.000548241  0.000058258  0.000548241  0.996593797 -0.082466985 
110.562  0.995972341 -0.089661001  0.000060174  0.000522169  0.000060174  0.000522169  0.996542800 -0.083080966 
111.156  0.995960237 -0.089795356  0.000013842  0.000544778  0.000013842  0.000544778  0.996489014 -0.083723625 
111.750  0.995937872 -0.090043071  0.000038768  0.000554765  0.000038768  0.000554765  0.996449597 -0.084191449 
112.344  0.995924081 -0.090195477  0.000025953  0.000562346  0.000025953  0.000562346  0.996408598 -0.084675301 
112.938  0.995847489 -0.091037232  0.000042915  0.000590992  0.000042915  0.000590992  0.996378593 -0.085027635 
113.531  0.995788454 -0.091680725  0.000059195  0.000549409  0.000059195  0.000549409  0.996372652 -0.085097227 
114.125  0.995724379 -0.092374028  0.000050260  0.000554127  0.000050260  0.000554127  0.996365498 -0.085180954 
114.719  0.995644062 -0.093235734  0.000028061  0.000560138  0.000028061  0.000560138  0.996346784 -0.085399567 
115.312  0.995569756 -0.094025857  0.000013903  0.000572964  0.000013903  0.000572964  0.996333190 -0.085558014 
115.906  0.995502676 -0.094733427  0.000034066  0.000610652  0.000034066  0.000610652  0.996297896 -0.085826635 
116.500  0.995441008 -0.095379238  0.000082531  0.000605744  0.000082531  0.000605744  0.995977163 -0.085909426 
117.094  0.995405323 -0.095750939  0.000069584  0.000591046  0.000069584  0.000591046  0.995888650 -0.086225532 
117.688  0.995359906 -0.096221913  0.000092185  0.000580333  0.000092185  0.000580333  0.995721698 -0.086675562 
118.281  0.995319161 -0.096642471  0.000078873  0.000547082  0.000078873  0.000547082  0.995500267 -0.087078929 
118.875  0.995258651 -0.097263651  0.000050009  0.000545916  0.000050009  0.000545916  0.995286286 -0.087439284 
119.469  0.995227507 -0.097581813  0.000036039  0.000573695  0.000036039  0.000573695  0.994904697 -0.087974697 
120.062  0.995179178 -0.098073461  0.000029941  0.000592872  0.000029941  0.000592872  0.994930983 -0.088430651 
120.656  0.995135375 -0.098516934  0.000043789  0.000612211  0.000043789  0.000612211  0.994780183 -0.088866182 
121.250  0.995103895 -0.098834398  0.000082566  0.000615600  0.000082566  0.000615600  0.994416773 -0.089454554 
121.844  0.995044212 -0.099433475  0.000066309  0.000575558  0.000066309  0.000575558  0.994158089 -0.090015262 
122.438  0.994986537 -0.100008954  0.000010044  0.000604668  0.000010044  0.000604668  0.993995786 -0.090549991 
123.031  0.994860291 -0.100664295  0.000041298  0.000645578  0.000041298  0.000645578  0.993888319 -0.090911560 
123.625  0.994788766 -0.101366974  0.000060506  0.000641745  0.000060506  0.000641745  0.993898511 -0.091569148 
124.219  0.994703174 -0.102165990  0.000096848  0.000613067  0.000096848  0.000613067  0.993966460 -0.092056997 
124.812  0.994584858 -0.102065802  0.000074842  0.000644419  0.000074842  0.000644419  0.993834555 -0.092230693 
125.406  0.994769573 -0.101494201  0.000091386  0.000617934  0.000091386  0.000617934  0.994103849 -0.092321299 
126.000  0.994848311 -0.101285920  0.000073365  0.000601030  0.000073365  0.000601030  0.994075060 -0.092364237 
126.594  0.994840026 -0.101215638  0.000077256  0.000603901  0.000077256  0.000603901  0.994243741 -0.092558295 
127.188  0.994892045 -0.100944628  0.000074607  0.000585107  0.000074607  0.000585107  0.994284630 -0.092616171 
127.781  0.994924363 -0.100625601  0.000053515  0.000582926  0.000053515  0.000582926  0.994467497 -0.092768855 
128.375  0.994923905 -0.100630128  0.000031888  0.000607617  0.000031888  0.000607617  0.994542480 -0.093211040 
128.969  0.994729638 -0.102093719  0.000030042  0.000659792  0.000030042  0.000659792  0.994251668 -0.093580805 
129.562  0.994398296 -0.103327893  0.000074240  0.000653307  0.000074240  0.000653307  0.994251430 -0.093892939 
130.156  0.994108975 -0.104669861  0.000083876  0.000622559  0.000083876  0.000622559  0.993911326 -0.094261400 
130.750  0.993743837 -0.105866276  0.000066508  0.000620231  0.000066508  0.000620231  0.993566751 -0.094471499 
131.344  0.993367314 -0.107335150  0.000062635  0.000648549  0.000062635  0.000648549  0.993143320 -0.094691463 
131.938  0.992941320 -0.108561270  0.000091289  0.000640926  0.000091289  0.000640926  0.992867529 -0.094940074 
132.531  0.992585957 -0.109636381  0.000074274  0.000632078  0.000074274  0.000632078  0.992666781 -0.095348440 
133.125  0.992774069 -0.110352308  0.000060553  0.000609435  0.000060553  0.000609435  0.992835224 -0.095997624 
133.719  0.992802083 -0.111014873  0.000038617  0.000637814  0.000038617  0.000637814  0.993170500 -0.096597672 
134.312  0.992939889 -0.111790359  0.000056950  0.000661167  0.000056950  0.000661167  0.993323326 -0.097041674 
134.906  0.993049741 -0.112520069  0.000059345  0.000693950  0.000059345  0.000693950  0.993453801 -0.097659186 
135.500  0.992994726 -0.113208704  0.000100495  0.000656956  0.000100495  0.000656956  0.993720353 -0.098144561 
136.094  0.992872417 -0.113572702  0.000074656  0.000640888  0.000074656  0.000640888  0.993866682 -0.098715529 
136.688  0.993240774 -0.113730431  0.000068893  0.000621353  0.000068893  0.000621353  0.993942082 -0.099061109 
137.281  0.993156075 -0.113720380  0.000024847  0.000645093  0.000024847  0.000645093  0.993826389 -0.099496588 
137.875  0.993118167 -0.114034683  0.000039100  0.000688960  0.000039100  0.000688960  0.993856490 -0.099889793 
138.469  0.992907226 -0.114617094  0.000024399  0.000709411  0.000024399  0.000709411  0.993693531 -0.100491352 
139.062  0.992962062 -0.114830047  0.000085572  0.000721936  0.000085572  0.000721936  0.993591368 -0.100520074 
139.656  0.992873430 -0.115613647  0.000131823  0.000719730  0.000131823  0.000719730  0.993703127 -0.100885987 
140.250  0.992983043 -0.116358973  0.000112226  0.000673684  0.000112226  0.000673684  0.993753135 -0.101105019 
140.844  0.992819726 -0.117366053  0.000089224  0.000672248  0.000089224  0.000672248  0.993589699 -0.101907797 
141.438  0.992604434 -0.118438467  0.000064678  0.000665408  0.000064678  0.000665408  0.993462503 -0.102652118 
142.031  0.992409945 -0.119276024  0.000058923  0.000686286  0.000058923  0.000686286  0.993350685 -0.103126861 
142.625  0.992099583 -0.120055616  0.000062878  0.000707546  0.000062878  0.000707546  0.993318737 -0.103582844 
143.219  0.992059708 -0.120780490  0.000099894  0.000703738  0.000099894  0.000703738  0.993220627 -0.104246363 
143.812  0.991864324 -0.121573009  0.000093926  0.000694516  0.000093926  0.000694516  0.993046403 -0.104692757 
144.406  0.991636097 -0.122056305  0.000105645  0.000676217  0.000105645  0.000676217  0.992679894 -0.105040200 
145.000  0.991543174 -0.121922202  0.000060233  0.000681443  0.000060233  0.000681443  0.992573857 -0.105233409 
145.594  0.991549432 -0.121818051  0.000039761  0.000676886  0.000039761  0.000676886  0.992415726 -0.105502374 
146.188  0.991559684 -0.121768400  0.000040895  0.000741425  0.000040895  0.000741425  0.992002845 -0.105855688 
146.781  0.991872072 -0.121974468  0.000062629  0.000741237  0.000062629  0.000741237  0.991730094 -0.106240489 
147.375  0.992253542 -0.122191831  0.000071603  0.000763504  0.000071603  0.000763504  0.991792858 -0.106740884 
147.969  0.992464656 -0.122531244  0.000132086  0.000751667  0.000132086  0.000751667  0.991454542 -0.107563965 
148.562  0.992410746 -0.122967116  0.000091591  0.000693039  0.000091591  0.000693039  0.991344929 -0.108118355 
149.156  0.992333805 -0.123586488  0.000060179  0.000718327  0.000060179  0.000718327  0.991372764 -0.108688109 
149.750  0.992070556 -0.123947985  0.000098671  0.000727496  0.000098671  0.000727496  0.991267562 -0.108944945 
150.344  0.991524041 -0.124492854  0.000094048  0.000737060  0.000094048  0.000737060  0.990908921 -0.109271586 
150.938  0.991191149 -0.125005081  0.000072811  0.000729900  0.000072811  0.000729900  0.990723729 -0.109518304 
151.531  0.990868390 -0.125495061  0.000080633  0.000754207  0.000080633  0.000754207  0.990642667 -0.109624833 
152.125  0.990416706 -0.125844941  0.000086617  0.000739749  0.000086617  0.000739749  0.990399718 -0.109798029 
152.719  0.990210176 -0.126508534  0.000113930  0.000741862  0.000113930  0.000741862  0.990535915 -0.110554665 
