! Matrix data file written by TouchstoneData, EPCOS AG
! FILENAME: "B4318_x14y14_WB.snp"
! COMMENT: "(TS/B4318_x14y14_WB.s3p) Epcos AG 12/21/2012"
! INFO: nport=3, nfreq=1601
! DATE: "Wed Jan 16 17:09:47 2013"
! USER: "Wee Chuan Tay"
!
! port | pin | signal
! -----|-----|--------
!   1  |  1  |  Input
!   2  |  3  |  Output
!   3  |  4  |  Output
! --------------------
! 
# MHZ S RI R 50
! freq  reS11 imS11  reS12 imS12  reS13 imS13  ...
50.000  0.994830906 -0.082985073  0.000035493  0.000088312 -0.000008879  0.000054023 
0.000035493  0.000088312  0.997963011 -0.042341202  0.000656883  0.019509076 
-0.000008879  0.000054023  0.000656883  0.019509076  0.997685552 -0.042056844 
53.719  0.994343996 -0.089603327 -0.000028960  0.000048235 -0.000018848  0.000051690 
-0.000028960  0.000048235  0.997310162 -0.044257332  0.000960416  0.021003121 
-0.000018848  0.000051690  0.000960416  0.021003121  0.997555733 -0.045229986 
57.438  0.993217230 -0.094694763 -0.000015937  0.000016247  0.000007086  0.000030270 
-0.000015937  0.000016247  0.997382998 -0.047424816  0.001057353  0.022495056 
0.000007086  0.000030270  0.001057353  0.022495056  0.997656286 -0.048181605 
61.156  0.992570341 -0.100983314  0.000019853 -0.000068823  0.000015552 -0.000072528 
0.000019853 -0.000068823  0.997032046 -0.050794173  0.000866590  0.023849852 
0.000015552 -0.000072528  0.000866590  0.023849852  0.997681379 -0.050784785 
64.875  0.992317677 -0.107453153  0.000016103 -0.000002614 -0.000007681  0.000010219 
0.000016103 -0.000002614  0.996495366 -0.054255493  0.001355264  0.025306185 
-0.000007681  0.000010219  0.001355264  0.025306185  0.998457730 -0.054204680 
68.594  0.991849959 -0.114494488  0.000012259  0.000045899 -0.000000813  0.000031911 
0.000012259  0.000045899  0.997705936 -0.057272721  0.001614085  0.026831261 
-0.000000813  0.000031911  0.001614085  0.026831261  0.996412337 -0.057652075 
72.312  0.990662336 -0.120270319 -0.000040509 -0.000077849 -0.000036582 -0.000035524 
-0.000040509 -0.000077849  0.996380031 -0.060211387  0.001012797  0.028394300 
-0.000036582 -0.000035524  0.001012797  0.028394300  0.994939983 -0.060981832 
76.031  0.990313411 -0.126432240  0.000011535  0.000054240  0.000031051  0.000030732 
0.000011535  0.000054240  0.995683730 -0.062894545  0.002005936  0.029544822 
0.000031051  0.000030732  0.002005936  0.029544822  0.995590031 -0.063089333 
79.750  0.989534974 -0.132310420 -0.000046332  0.000009240 -0.000055775  0.000004772 
-0.000046332  0.000009240  0.995289207 -0.066563815  0.002310389  0.031356897 
-0.000055775  0.000004772  0.002310389  0.031356897  0.995109320 -0.066219725 
83.469  0.988269150 -0.138318509  0.000002407  0.000008118  0.000000552  0.000018076 
0.000002407  0.000008118  0.995651960 -0.069771901  0.002581130  0.032704914 
0.000000552  0.000018076  0.002581130  0.032704914  0.995446384 -0.070350721 
87.188  0.987416506 -0.144466251  0.000002306  0.000046523 -0.000021710  0.000037384 
0.000002306  0.000046523  0.995526552 -0.072067164  0.002628876  0.033742426 
-0.000021710  0.000037384  0.002628876  0.033742426  0.995606601 -0.073390819 
90.906  0.986950159 -0.151131779  0.000029273  0.000000872  0.000038273  0.000006961 
0.000029273  0.000000872  0.995347083 -0.074932478  0.002927157  0.035564417 
0.000038273  0.000006961  0.002927157  0.035564417  0.995551884 -0.075798586 
94.625  0.985754013 -0.157234356 -0.000016055  0.000029799 -0.000034813 -0.000000240 
-0.000016055  0.000029799  0.994530141 -0.078406557  0.002765265  0.037403218 
-0.000034813 -0.000000240  0.002765265  0.037403218  0.994233429 -0.078320503 
98.344  0.984899342 -0.163589686 -0.000026561  0.000015658 -0.000032726  0.000017633 
-0.000026561  0.000015658  0.994291842 -0.081519134  0.003142174  0.038175941 
-0.000032726  0.000017633  0.003142174  0.038175941  0.993238926 -0.081770726 
102.062  0.983107448 -0.169727862  0.000007033  0.000028804  0.000004424  0.000041052 
0.000007033  0.000028804  0.994137466 -0.084245659  0.003467202  0.039688107 
0.000004424  0.000041052  0.003467202  0.039688107  0.993228257 -0.083588168 
105.781  0.982401431 -0.175284460 -0.000026709  0.000062254 -0.000010622  0.000062855 
-0.000026709  0.000062254  0.994017303 -0.087014757  0.003693793  0.041292019 
-0.000010622  0.000062855  0.003693793  0.041292019  0.993377149 -0.086553507 
109.500  0.981563509 -0.180832699 -0.000025558  0.000046283 -0.000003830  0.000050160 
-0.000025558  0.000046283  0.993095636 -0.090128466  0.004093003  0.042548943 
-0.000003830  0.000050160  0.004093003  0.042548943  0.993571997 -0.091228180 
113.219  0.980246425 -0.187259465 -0.000021789  0.000038611 -0.000001985  0.000045775 
-0.000021789  0.000038611  0.993163943 -0.093502320  0.004218372  0.043915445 
-0.000001985  0.000045775  0.004218372  0.043915445  0.993417919 -0.094024718 
116.938  0.979444265 -0.192877486  0.000034106  0.000043339  0.000037999  0.000036189 
0.000034106  0.000043339  0.991867363 -0.096872419  0.004440068  0.045568300 
0.000037999  0.000036189  0.004440068  0.045568300  0.992719948 -0.097221352 
120.656  0.977394402 -0.198563576  0.000016635  0.000046359  0.000008907  0.000037523 
0.000016635  0.000046359  0.991427302 -0.099692531  0.004752823  0.046731642 
0.000008907  0.000037523  0.004752823  0.046731642  0.992040753 -0.100845143 
124.375  0.976470053 -0.204276890 -0.000009002  0.000040995 -0.000001503  0.000023931 
-0.000009002  0.000040995  0.991698742 -0.103110991  0.005150130  0.048355253 
-0.000001503  0.000023931  0.005150130  0.048355253  0.991991699 -0.101872727 
128.094  0.975378811 -0.210397199 -0.000001131  0.000027729  0.000030668  0.000032841 
-0.000001131  0.000027729  0.991186023 -0.105015211  0.005175371  0.050675893 
0.000030668  0.000032841  0.005175371  0.050675893  0.991519392 -0.105175026 
131.812  0.974510312 -0.216736034 -0.000012159  0.000034149 -0.000012518  0.000031270 
-0.000012159  0.000034149  0.991066694 -0.108936280  0.005637946  0.051063441 
-0.000012518  0.000031270  0.005637946  0.051063441  0.991385341 -0.108262613 
135.531  0.973184049 -0.223265529  0.000006768  0.000034786  0.000000405  0.000031983 
0.000006768  0.000034786  0.990561604 -0.112836458  0.006494948  0.053089278 
0.000000405  0.000031983  0.006494948  0.053089278  0.990036786 -0.112043492 
139.250  0.971698225 -0.228611141  0.000022667  0.000046326  0.000022905  0.000059831 
0.000022667  0.000046326  0.990419030 -0.117073372  0.006618407  0.054144787 
0.000022905  0.000059831  0.006618407  0.054144787  0.990290165 -0.115793534 
142.969  0.969733775 -0.234469488  0.000007000  0.000032189  0.000010515  0.000035366 
0.000007000  0.000032189  0.989424646 -0.119026870  0.006731630  0.054852970 
0.000010515  0.000035366  0.006731630  0.054852970  0.989794075 -0.118328467 
146.688  0.969017982 -0.239509016 -0.000022766  0.000053474 -0.000012774  0.000064677 
-0.000022766  0.000053474  0.988151133 -0.121321090  0.007537276  0.056987815 
-0.000012774  0.000064677  0.007537276  0.056987815  0.988388121 -0.121592015 
150.406  0.967483222 -0.246551841  0.000039662  0.000060215  0.000002481  0.000079976 
0.000039662  0.000060215  0.987995744 -0.123423539  0.007161528  0.058596056 
0.000002481  0.000079976  0.007161528  0.058596056  0.988237917 -0.123023309 
154.125  0.965352476 -0.252720565  0.000002669  0.000054153 -0.000020222  0.000036903 
0.000002669  0.000054153  0.988065302 -0.127709791  0.007731011  0.059292119 
-0.000020222  0.000036903  0.007731011  0.059292119  0.988455176 -0.126842812 
157.844  0.964344621 -0.258081138  0.000005577  0.000051465  0.000011367  0.000056152 
0.000005577  0.000051465  0.987279296 -0.129604086  0.008256190  0.061190009 
0.000011367  0.000056152  0.008256190  0.061190009  0.988298476 -0.129960939 
161.562  0.962537467 -0.263923377  0.000008542  0.000054453  0.000007473  0.000035442 
0.000008542  0.000054453  0.987597644 -0.133521050  0.008589086  0.062664278 
0.000007473  0.000035442  0.008589086  0.062664278  0.987972915 -0.133544624 
165.281  0.959961534 -0.269978791  0.000033698  0.000072186  0.000020006  0.000044982 
0.000033698  0.000072186  0.986369491 -0.137984708  0.009024331  0.063743487 
0.000020006  0.000044982  0.009024331  0.063743487  0.986570776 -0.136084706 
169.000  0.958270729 -0.275463730  0.000006716  0.000057012  0.000017968  0.000067723 
0.000006716  0.000057012  0.985842466 -0.139985085  0.009601047  0.065350197 
0.000017968  0.000067723  0.009601047  0.065350197  0.985705137 -0.139560968 
172.719  0.956981957 -0.281612277  0.000000732  0.000037608  0.000038665  0.000028257 
0.000000732  0.000037608  0.984689951 -0.141778573  0.009585421  0.066726822 
0.000038665  0.000028257  0.009585421  0.066726822  0.984663725 -0.141628638 
176.438  0.954537630 -0.287127823 -0.000000237  0.000093129  0.000011955  0.000092914 
-0.000000237  0.000093129  0.984484673 -0.145168960  0.010170774  0.067599948 
0.000011955  0.000092914  0.010170774  0.067599948  0.984361947 -0.145014703 
180.156  0.952715218 -0.293360800  0.000000051  0.000066940  0.000017625  0.000069694 
0.000000051  0.000066940  0.983753264 -0.148720831  0.010863769  0.069560774 
0.000017625  0.000069694  0.010863769  0.069560774  0.983708203 -0.148515895 
183.875  0.952082157 -0.298697174  0.000016541  0.000081505  0.000005439  0.000085607 
0.000016541  0.000081505  0.983797908 -0.150221199  0.010983352  0.071568459 
0.000005439  0.000085607  0.010983352  0.071568459  0.984180748 -0.150302604 
187.594  0.950166345 -0.305645049  0.000000769  0.000045270  0.000000850  0.000056347 
0.000000769  0.000045270  0.983533263 -0.154409871  0.011582631  0.072286122 
0.000000850  0.000056347  0.011582631  0.072286122  0.984358132 -0.154840007 
191.312  0.947009504 -0.311406881  0.000024757  0.000050849  0.000010549  0.000058699 
0.000024757  0.000050849  0.981217980 -0.159069896  0.012875945  0.073721699 
0.000010549  0.000058699  0.012875945  0.073721699  0.981954396 -0.158568844 
195.031  0.944096446 -0.316090107 -0.000013367  0.000041445  0.000006038  0.000048497 
-0.000013367  0.000041445  0.980443120 -0.158815935  0.012391866  0.075058471 
0.000006038  0.000048497  0.012391866  0.075058471  0.980560064 -0.157885462 
198.750  0.943118513 -0.323213428 -0.000000733  0.000048012 -0.000009019  0.000060328 
-0.000000733  0.000048012  0.980875432 -0.162119091  0.012817278  0.075893763 
-0.000009019  0.000060328  0.012817278  0.075893763  0.980033875 -0.163017869 
202.469  0.940830529 -0.328987122  0.000004481  0.000049022  0.000018358  0.000062735 
0.000004481  0.000049022  0.979390264 -0.166397214  0.014091853  0.077927202 
0.000018358  0.000062735  0.014091853  0.077927202  0.978985369 -0.167022675 
206.188  0.939130068 -0.332842678  0.000013021  0.000055854  0.000017440  0.000044063 
0.000013021  0.000055854  0.979625463 -0.166760877  0.013582122  0.079632033 
0.000017440  0.000044063  0.013582122  0.079632033  0.979748189 -0.167925388 
209.906  0.938344777 -0.339674354 -0.000031984  0.000053809 -0.000048958  0.000056473 
-0.000031984  0.000053809  0.980224431 -0.169731632  0.014024731  0.080022030 
-0.000048958  0.000056473  0.014024731  0.080022030  0.980433166 -0.172543183 
213.625  0.934664071 -0.345558167  0.000032172  0.000072576  0.000011421  0.000087051 
0.000032172  0.000072576  0.978374183 -0.174517736  0.015095606  0.081712097 
0.000011421  0.000087051  0.015095606  0.081712097  0.977398276 -0.174739242 
217.344  0.931955695 -0.350501508  0.000040026 -0.000006996  0.000055497  0.000018772 
0.000040026 -0.000006996  0.976389825 -0.175204545  0.015347643  0.083301760 
0.000055497  0.000018772  0.015347643  0.083301760  0.976790130 -0.175950900 
221.062  0.931131244 -0.356524527  0.000013764  0.000080330  0.000002391  0.000080592 
0.000013764  0.000080330  0.976842523 -0.177940130  0.015770555  0.084606551 
0.000002391  0.000080592  0.015770555  0.084606551  0.977012873 -0.179517940 
224.781  0.928453863 -0.362417430  0.000035360  0.000040632  0.000021270  0.000039786 
0.000035360  0.000040632  0.976172149 -0.182116643  0.016299368  0.085826650 
0.000021270  0.000039786  0.016299368  0.085826650  0.975894868 -0.183563411 
228.500  0.926176369 -0.367363870  0.000011893  0.000083970  0.000006532  0.000081624 
0.000011893  0.000083970  0.975258946 -0.184816435  0.016845519  0.087452192 
0.000006532  0.000081624  0.016845519  0.087452192  0.975934267 -0.185860336 
232.219  0.921082675 -0.378560543  0.000043109  0.000075003  0.000033401  0.000050318 
0.000043109  0.000075003  0.972804785 -0.194054201  0.017897798  0.088196818 
0.000033401  0.000050318  0.017897798  0.088196818  0.972146094 -0.195254549 
235.938  0.920753181 -0.378821701  0.000006506  0.000090005  0.000006206  0.000081198 
0.000006506  0.000090005  0.974157035 -0.191230074  0.018132930  0.090305023 
0.000006206  0.000081198  0.018132930  0.090305023  0.973426223 -0.192031443 
239.656  0.918463171 -0.384136230  0.000044739  0.000084409  0.000041603  0.000064458 
0.000044739  0.000084409  0.972375631 -0.194075644  0.018538619  0.092202693 
0.000041603  0.000064458  0.018538619  0.092202693  0.971978009 -0.194597304 
243.375  0.917011440 -0.389943808 -0.000006334  0.000082118 -0.000007372  0.000093880 
-0.000006334  0.000082118  0.972535729 -0.196067035  0.019069554  0.092614140 
-0.000007372  0.000093880  0.019069554  0.092614140  0.971891940 -0.197634771 
247.094  0.915117264 -0.395176202  0.000016326  0.000059433  0.000015458  0.000082649 
0.000016326  0.000059433  0.971798301 -0.197829098  0.020296535  0.093867466 
0.000015458  0.000082649  0.020296535  0.093867466  0.971139491 -0.199314490 
250.812  0.912768185 -0.400072485 -0.000008121  0.000064912 -0.000007122  0.000033800 
-0.000008121  0.000064912  0.971622527 -0.202650264  0.020497994  0.095965855 
-0.000007122  0.000033800  0.020497994  0.095965855  0.971246779 -0.203221932 
254.531  0.909197569 -0.406446785  0.000049381  0.000054598  0.000020108  0.000068907 
0.000049381  0.000054598  0.970360219 -0.205501914  0.020781723  0.096518323 
0.000020108  0.000068907  0.020781723  0.096518323  0.970491767 -0.206540957 
258.250  0.907511294 -0.412320495  0.000020657  0.000043541 -0.000005362  0.000038243 
0.000020657  0.000043541  0.967042327 -0.208578408  0.024130557  0.097349793 
-0.000005362  0.000038243  0.024130557  0.097349793  0.967104256 -0.208927974 
261.969  0.904118598 -0.417533994  0.000019981  0.000067612 -0.000005053  0.000051003 
0.000019981  0.000067612  0.968179345 -0.211184636  0.022103788  0.099865623 
-0.000005053  0.000051003  0.022103788  0.099865623  0.968636215 -0.211553708 
265.688  0.902259946 -0.423070669  0.000016231  0.000093512  0.000034386  0.000074736 
0.000016231  0.000093512  0.967212439 -0.212914944  0.022299621  0.100181576 
0.000034386  0.000074736  0.022299621  0.100181576  0.967624724 -0.213152051 
269.406  0.899750531 -0.428979874  0.000007935  0.000084787  0.000004653  0.000051133 
0.000007935  0.000084787  0.967984855 -0.215021402  0.023480356  0.102076329 
0.000004653  0.000051133  0.023480356  0.102076329  0.967464089 -0.216180667 
273.125  0.896999359 -0.433724940  0.000016407  0.000067905  0.000021492  0.000079187 
0.000016407  0.000067905  0.967496395 -0.219192892  0.024203272  0.103863619 
0.000021492  0.000079187  0.024203272  0.103863619  0.967307925 -0.219527751 
276.844  0.893454850 -0.440004408 -0.000016432  0.000067097 -0.000029853  0.000061934 
-0.000016432  0.000067097  0.966458440 -0.221927404  0.024695228  0.105078571 
-0.000029853  0.000061934  0.024695228  0.105078571  0.965429485 -0.223111406 
280.562  0.891022444 -0.444458872  0.000003216  0.000073913  0.000024083  0.000056652 
0.000003216  0.000073913  0.965333521 -0.225200295  0.025407736  0.106202450 
0.000024083  0.000056652  0.025407736  0.106202450  0.965465307 -0.226567358 
284.281  0.889184475 -0.450159848  0.000040496  0.000044983  0.000016924  0.000050721 
0.000040496  0.000044983  0.964885831 -0.228796840  0.026034877  0.107864305 
0.000016924  0.000050721  0.026034877  0.107864305  0.965052426 -0.229519635 
288.000  0.885670483 -0.454921544  0.000005558  0.000065363 -0.000001401  0.000072875 
0.000005558  0.000065363  0.962500513 -0.231078595  0.026608959  0.108451016 
-0.000001401  0.000072875  0.026608959  0.108451016  0.962461472 -0.232272431 
291.719  0.883222044 -0.460223168  0.000011216  0.000061128  0.000013692  0.000060946 
0.000011216  0.000061128  0.961686730 -0.232918695  0.027283921  0.110452071 
0.000013692  0.000060946  0.027283921  0.110452071  0.961810887 -0.233736977 
295.438  0.880886436 -0.466082305  0.000008534  0.000053330  0.000026661  0.000038522 
0.000008534  0.000053330  0.961719334 -0.235540897  0.028091125  0.112738203 
0.000026661  0.000038522  0.028091125  0.112738203  0.961406469 -0.235896215 
299.156  0.876532793 -0.471420884  0.000029898  0.000080279  0.000038335  0.000055033 
0.000029898  0.000080279  0.960705280 -0.239315569  0.028702428  0.113196515 
0.000038335  0.000055033  0.028702428  0.113196515  0.960683703 -0.240110859 
302.875  0.873955488 -0.476272702  0.000030609  0.000075393  0.000020354  0.000068196 
0.000030609  0.000075393  0.960027635 -0.241448417  0.029978132  0.114051823 
0.000020354  0.000068196  0.029978132  0.114051823  0.959351599 -0.242383674 
306.594  0.871359885 -0.481806159  0.000003093  0.000072263  0.000016106  0.000057361 
0.000003093  0.000072263  0.958688080 -0.245905310  0.030891583  0.116232265 
0.000016106  0.000057361  0.030891583  0.116232265  0.958070815 -0.247371703 
310.312  0.867928088 -0.486539185  0.000018155  0.000055859  0.000011813  0.000050841 
0.000018155  0.000055859  0.956779063 -0.248997435  0.031051451  0.116351470 
0.000011813  0.000050841  0.031051451  0.116351470  0.956103623 -0.250360578 
314.031  0.865565598 -0.492672294  0.000042133  0.000050942  0.000016678  0.000060446 
0.000042133  0.000050942  0.955883622 -0.248951763  0.032526670  0.116672128 
0.000016678  0.000060446  0.032526670  0.116672128  0.955188990 -0.250098407 
317.750  0.862164140 -0.497788101  0.000012468  0.000069739  0.000020371  0.000060763 
0.000012468  0.000069739  0.955518186 -0.252737224  0.032549538  0.120190699 
0.000020371  0.000060763  0.032549538  0.120190699  0.955519557 -0.254317373 
321.469  0.858506799 -0.502200305  0.000020743  0.000085773  0.000030434  0.000081748 
0.000020743  0.000085773  0.954379797 -0.256174654  0.032575410  0.120220881 
0.000030434  0.000081748  0.032575410  0.120220881  0.954396248 -0.256920099 
325.188  0.856596172 -0.508703291 -0.000000065  0.000041982  0.000021241  0.000063084 
-0.000000065  0.000041982  0.953852057 -0.257935762  0.034236040  0.121932738 
0.000021241  0.000063084  0.034236040  0.121932738  0.953815937 -0.259073764 
328.906  0.853022337 -0.513292670  0.000020630  0.000051658  0.000034052  0.000016227 
0.000020630  0.000051658  0.953151047 -0.261837065  0.034776865  0.123615943 
0.000034052  0.000016227  0.034776865  0.123615943  0.952472746 -0.261120051 
332.625  0.849341810 -0.517434120  0.000006032  0.000047433  0.000023738  0.000024083 
0.000006032  0.000047433  0.951980948 -0.264960051  0.035663564  0.124833290 
0.000023738  0.000024083  0.035663564  0.124833290  0.951508284 -0.265105605 
336.344  0.846118927 -0.522000432  0.000011968  0.000085369  0.000021138  0.000056649 
0.000011968  0.000085369  0.949246109 -0.266833276  0.036263216  0.125655271 
0.000021138  0.000056649  0.036263216  0.125655271  0.949328005 -0.266919404 
340.062  0.843528271 -0.527665615  0.000026906  0.000059638  0.000009739  0.000030765 
0.000026906  0.000059638  0.948584735 -0.270315021  0.036963306  0.127302036 
0.000009739  0.000030765  0.036963306  0.127302036  0.948756754 -0.269751847 
343.781  0.839260459 -0.533499122 -0.000035122  0.000048999 -0.000052934  0.000045273 
-0.000035122  0.000048999  0.946598947 -0.273478240  0.036800779  0.128446303 
-0.000052934  0.000045273  0.036800779  0.128446303  0.946715474 -0.273516268 
