! Matrix data file written by TouchstoneData, EPCOS AG
! FILENAME: "LZ28A_X18Y18_Pcb03_NB.s2p_newformat"
! COMMENT: "(LZ28A_X18Y18_Pcb03_NB.s2p) Epcos AG 6/3/201"
! INFO: nport=2, nfreq=801
! DATE: "Mon Jun 20 20:14:19 2011"
! USER: "Michael Schemies"
!
! port | pin | signal
! -----|-----|--------
!   1  |  1  |  in
!   2  |  4  |  out
! --------------------
!
# MHZ S MA R 50
! freq  magS11 angS11  magS21 angS21  magS12 angS12  magS22 angS22
7.365000E+02  9.622407E-01 -6.930438E+01  2.323679E-03 9.549824E+00  2.340641E-03 9.584342E+00  9.743146E-01 -9.359448E+01
7.367500E+02  9.634047E-01 -6.935160E+01  2.281739E-03 8.383478E+00  2.294737E-03 8.738623E+00  9.746504E-01 -9.363010E+01
7.370000E+02  9.643961E-01 -6.941192E+01  2.312088E-03 9.410699E+00  2.321574E-03 8.897425E+00  9.751392E-01 -9.369635E+01
7.372500E+02  9.650378E-01 -6.953585E+01  2.378995E-03 9.210899E+00  2.371729E-03 9.187119E+00  9.749653E-01 -9.381426E+01
7.375000E+02  9.649592E-01 -6.969301E+01  2.382954E-03 8.095776E+00  2.389255E-03 8.044728E+00  9.745323E-01 -9.390852E+01
7.377500E+02  9.643113E-01 -6.979390E+01  2.360449E-03 8.387592E+00  2.356344E-03 8.411290E+00  9.744706E-01 -9.396653E+01
7.380000E+02  9.641431E-01 -6.988992E+01  2.381177E-03 9.077788E+00  2.373655E-03 8.692774E+00  9.745121E-01 -9.406544E+01
7.382500E+02  9.639225E-01 -6.992530E+01  2.431520E-03 9.525745E+00  2.410734E-03 9.537549E+00  9.743229E-01 -9.412397E+01
7.385000E+02  9.641562E-01 -6.996696E+01  2.504524E-03 9.269808E+00  2.508559E-03 9.249851E+00  9.741995E-01 -9.418531E+01
7.387500E+02  9.638211E-01 -7.003548E+01  2.570246E-03 8.121453E+00  2.551775E-03 8.178680E+00  9.739593E-01 -9.424382E+01
7.390000E+02  9.637854E-01 -7.009369E+01  2.620065E-03 6.485990E+00  2.615130E-03 6.101328E+00  9.736354E-01 -9.429991E+01
7.392500E+02  9.634462E-01 -7.015384E+01  2.523461E-03 4.098984E+00  2.542039E-03 3.947371E+00  9.733305E-01 -9.432712E+01
7.395000E+02  9.630071E-01 -7.023221E+01  2.506231E-03 4.664162E+00  2.489041E-03 5.001022E+00  9.741425E-01 -9.437191E+01
7.397500E+02  9.616665E-01 -7.032941E+01  2.516894E-03 5.455253E+00  2.516205E-03 5.160683E+00  9.744095E-01 -9.447462E+01
7.400000E+02  9.600094E-01 -7.031679E+01  2.566262E-03 5.760905E+00  2.572151E-03 5.813638E+00  9.745696E-01 -9.456669E+01
7.402500E+02  9.588703E-01 -7.030422E+01  2.637422E-03 5.251645E+00  2.657699E-03 4.776920E+00  9.744244E-01 -9.466751E+01
7.405000E+02  9.591302E-01 -7.021072E+01  2.688179E-03 2.505501E+00  2.675261E-03 2.703324E+00  9.737984E-01 -9.475919E+01
7.407500E+02  9.598071E-01 -7.023775E+01  2.653022E-03 1.969228E+00  2.668035E-03 1.645121E+00  9.728116E-01 -9.484815E+01
7.410000E+02  9.601164E-01 -7.023664E+01  2.696419E-03 1.031928E+00  2.703773E-03 9.417249E-01  9.718455E-01 -9.492405E+01
7.412500E+02  9.610151E-01 -7.026313E+01  2.678591E-03 -1.444316E+00  2.683775E-03 -1.385184E+00  9.707534E-01 -9.494653E+01
7.415000E+02  9.617060E-01 -7.033835E+01  2.629245E-03 -1.399698E+00  2.646657E-03 -1.097048E+00  9.714620E-01 -9.499934E+01
7.417500E+02  9.619730E-01 -7.043021E+01  2.713539E-03 -8.241070E-01  2.698534E-03 -7.188475E-01  9.713094E-01 -9.513907E+01
7.420000E+02  9.616720E-01 -7.053675E+01  2.819345E-03 -1.898161E+00  2.826442E-03 -2.125087E+00  9.695889E-01 -9.527880E+01
7.422500E+02  9.611539E-01 -7.062032E+01  2.926505E-03 -4.454639E+00  2.953186E-03 -4.626765E+00  9.683015E-01 -9.533832E+01
7.425000E+02  9.596945E-01 -7.072800E+01  3.081820E-03 -8.327166E+00  3.101962E-03 -8.342501E+00  9.672815E-01 -9.545656E+01
7.427500E+02  9.572805E-01 -7.075218E+01  3.111213E-03 -1.417236E+01  3.143932E-03 -1.421244E+01  9.651299E-01 -9.560519E+01
7.430000E+02  9.551772E-01 -7.066275E+01  3.247767E-03 -1.991725E+01  3.232834E-03 -1.962234E+01  9.611611E-01 -9.575227E+01
7.432500E+02  9.564788E-01 -7.050741E+01  3.050055E-03 -3.103034E+01  3.040304E-03 -3.124356E+01  9.552858E-01 -9.554370E+01
7.435000E+02  9.579545E-01 -7.048214E+01  2.798402E-03 -3.482954E+01  2.803492E-03 -3.467847E+01  9.561732E-01 -9.539119E+01
7.437500E+02  9.595642E-01 -7.049516E+01  2.666426E-03 -4.754090E+01  2.674923E-03 -4.757306E+01  9.539342E-01 -9.524387E+01
7.440000E+02  9.611855E-01 -7.054422E+01  1.804811E-03 -5.434104E+01  1.816271E-03 -5.381175E+01  9.581312E-01 -9.502315E+01
7.442500E+02  9.620233E-01 -7.063703E+01  1.522037E-03 -4.037316E+01  1.534083E-03 -4.068213E+01  9.611829E-01 -9.524679E+01
7.445000E+02  9.623971E-01 -7.067331E+01  1.704002E-03 -3.871884E+01  1.729848E-03 -3.807578E+01  9.577472E-01 -9.539323E+01
7.447500E+02  9.634953E-01 -7.075161E+01  1.594561E-03 -5.446000E+01  1.584543E-03 -5.405809E+01  9.546990E-01 -9.512338E+01
7.450000E+02  9.644975E-01 -7.086547E+01  9.767070E-04 -6.420330E+01  9.710956E-04 -6.403017E+01  9.598720E-01 -9.481687E+01
7.452500E+02  9.645732E-01 -7.094621E+01  6.283079E-04 -3.978018E+01  5.957759E-04 -4.160360E+01  9.653153E-01 -9.501385E+01
7.455000E+02  9.644301E-01 -7.104645E+01  6.011606E-04 -1.275658E+01  6.294778E-04 -1.072475E+01  9.664152E-01 -9.520031E+01
7.457500E+02  9.648271E-01 -7.110983E+01  7.151377E-04 -3.928661E+00  7.591462E-04 -3.627437E+00  9.674309E-01 -9.534281E+01
7.460000E+02  9.649982E-01 -7.116522E+01  7.896777E-04 4.352691E+00  7.861198E-04 3.749909E+00  9.677663E-01 -9.548084E+01
7.462500E+02  9.656868E-01 -7.123914E+01  8.298524E-04 7.038196E+00  8.204217E-04 7.602897E+00  9.677407E-01 -9.564642E+01
7.465000E+02  9.658297E-01 -7.132757E+01  8.777488E-04 8.779306E+00  8.740092E-04 8.893641E+00  9.656451E-01 -9.570236E+01
7.467500E+02  9.660800E-01 -7.141690E+01  8.229911E-04 1.091289E+01  8.421640E-04 1.131724E+01  9.663253E-01 -9.562607E+01
7.470000E+02  9.663201E-01 -7.150548E+01  8.384988E-04 1.954818E+01  8.613154E-04 1.852983E+01  9.685802E-01 -9.573884E+01
7.472500E+02  9.661384E-01 -7.160129E+01  8.981472E-04 2.220531E+01  8.653229E-04 2.276312E+01  9.688947E-01 -9.592831E+01
7.475000E+02  9.663673E-01 -7.170578E+01  8.452092E-04 2.990736E+01  8.473282E-04 3.013414E+01  9.673665E-01 -9.606583E+01
7.477500E+02  9.663210E-01 -7.179730E+01  1.001406E-03 4.085382E+01  9.987716E-04 4.154193E+01  9.656786E-01 -9.605296E+01
7.480000E+02  9.661056E-01 -7.187856E+01  1.129946E-03 4.195620E+01  1.144074E-03 4.265984E+01  9.667004E-01 -9.606275E+01
7.482500E+02  9.659020E-01 -7.197911E+01  1.267865E-03 4.719531E+01  1.258906E-03 4.732662E+01  9.666761E-01 -9.617817E+01
7.485000E+02  9.655931E-01 -7.207206E+01  1.539326E-03 4.794115E+01  1.574447E-03 4.746632E+01  9.656455E-01 -9.621548E+01
7.487500E+02  9.652017E-01 -7.216299E+01  1.826411E-03 4.302339E+01  1.823003E-03 4.286860E+01  9.653843E-01 -9.616016E+01
7.490000E+02  9.647039E-01 -7.223257E+01  1.972724E-03 3.826093E+01  1.951710E-03 3.871799E+01  9.664228E-01 -9.616951E+01
7.492500E+02  9.645726E-01 -7.231374E+01  2.230619E-03 3.346948E+01  2.241317E-03 3.340320E+01  9.676803E-01 -9.614587E+01
7.495000E+02  9.643582E-01 -7.240556E+01  2.265443E-03 2.285786E+01  2.240593E-03 2.262103E+01  9.702449E-01 -9.622000E+01
7.497500E+02  9.639100E-01 -7.250321E+01  2.140048E-03 1.828768E+01  2.124766E-03 1.779992E+01  9.718065E-01 -9.636880E+01
7.500000E+02  9.633953E-01 -7.260137E+01  2.110677E-03 1.708222E+01  2.107762E-03 1.712086E+01  9.723534E-01 -9.648526E+01
7.502500E+02  9.628193E-01 -7.270087E+01  2.162886E-03 1.252805E+01  2.155228E-03 1.352631E+01  9.727664E-01 -9.660506E+01
7.505000E+02  9.619172E-01 -7.279547E+01  2.107668E-03 7.123205E+00  2.111395E-03 6.865651E+00  9.730462E-01 -9.672101E+01
7.507500E+02  9.606411E-01 -7.288420E+01  1.947994E-03 4.075698E+00  1.945894E-03 3.993680E+00  9.733890E-01 -9.682083E+01
7.510000E+02  9.591868E-01 -7.292015E+01  1.864531E-03 1.689522E+00  1.837892E-03 1.621964E+00  9.734390E-01 -9.692635E+01
7.512500E+02  9.583393E-01 -7.292745E+01  1.714820E-03 6.798445E-01  1.721286E-03 1.197398E+00  9.734284E-01 -9.701905E+01
7.515000E+02  9.573654E-01 -7.297191E+01  1.645724E-03 1.280694E+00  1.634419E-03 2.002103E+00  9.738036E-01 -9.713166E+01
7.517500E+02  9.562604E-01 -7.298908E+01  1.576722E-03 3.986764E-01  1.593160E-03 4.723378E-01  9.737358E-01 -9.722083E+01
7.520000E+02  9.552905E-01 -7.289218E+01  1.465861E-03 -1.046283E+00  1.475021E-03 -7.230002E-01  9.740602E-01 -9.731035E+01
7.522500E+02  9.575238E-01 -7.286865E+01  1.318178E-03 1.300214E+00  1.329004E-03 1.817774E+00  9.742086E-01 -9.741674E+01
7.525000E+02  9.582486E-01 -7.296179E+01  1.286869E-03 5.435409E+00  1.315701E-03 5.532609E+00  9.743056E-01 -9.754618E+01
7.527500E+02  9.579236E-01 -7.302145E+01  1.261413E-03 8.081281E+00  1.258254E-03 7.713555E+00  9.740830E-01 -9.766667E+01
7.530000E+02  9.583442E-01 -7.301275E+01  1.232219E-03 9.709259E+00  1.221432E-03 1.020555E+01  9.736479E-01 -9.778908E+01
7.532500E+02  9.596027E-01 -7.304599E+01  1.206339E-03 1.254676E+01  1.197079E-03 1.404237E+01  9.729473E-01 -9.791245E+01
7.535000E+02  9.611813E-01 -7.315346E+01  1.173178E-03 1.550518E+01  1.176444E-03 1.636217E+01  9.722265E-01 -9.801131E+01
7.537500E+02  9.617258E-01 -7.329366E+01  1.163639E-03 2.247367E+01  1.180762E-03 2.185440E+01  9.711140E-01 -9.809751E+01
7.540000E+02  9.619010E-01 -7.344547E+01  1.238868E-03 2.546455E+01  1.261781E-03 2.729455E+01  9.704038E-01 -9.812220E+01
7.542500E+02  9.609702E-01 -7.361004E+01  1.391770E-03 2.811241E+01  1.415250E-03 2.846823E+01  9.703758E-01 -9.815173E+01
7.545000E+02  9.588804E-01 -7.374462E+01  1.487685E-03 2.791322E+01  1.482387E-03 2.752082E+01  9.710484E-01 -9.822095E+01
7.547500E+02  9.567674E-01 -7.372163E+01  1.607286E-03 2.415499E+01  1.625507E-03 2.396997E+01  9.710168E-01 -9.829735E+01
7.550000E+02  9.575336E-01 -7.371495E+01  1.556060E-03 1.815890E+01  1.567533E-03 1.842607E+01  9.713058E-01 -9.839920E+01
7.552500E+02  9.579670E-01 -7.383376E+01  1.406870E-03 2.008934E+01  1.392992E-03 1.998962E+01  9.713771E-01 -9.851919E+01
7.555000E+02  9.567563E-01 -7.393988E+01  1.415519E-03 2.795327E+01  1.400007E-03 2.798882E+01  9.706574E-01 -9.864802E+01
7.557500E+02  9.555064E-01 -7.397016E+01  1.702372E-03 2.922094E+01  1.684796E-03 2.978577E+01  9.693978E-01 -9.870239E+01
7.560000E+02  9.552314E-01 -7.399976E+01  1.876584E-03 2.231499E+01  1.870946E-03 2.260083E+01  9.695437E-01 -9.873225E+01
7.562500E+02  9.550423E-01 -7.408215E+01  1.864882E-03 1.467020E+01  1.858290E-03 1.457204E+01  9.699822E-01 -9.882307E+01
7.565000E+02  9.530324E-01 -7.412572E+01  1.742371E-03 7.225637E+00  1.759088E-03 7.697313E+00  9.697067E-01 -9.894524E+01
7.567500E+02  9.530088E-01 -7.403564E+01  1.491469E-03 6.823916E-01  1.470791E-03 1.482101E+00  9.690630E-01 -9.899809E+01
7.570000E+02  9.552058E-01 -7.411336E+01  1.205514E-03 4.493441E+00  1.202429E-03 4.763687E+00  9.693019E-01 -9.907678E+01
7.572500E+02  9.545772E-01 -7.425467E+01  1.071120E-03 1.197757E+01  1.093380E-03 1.098089E+01  9.690938E-01 -9.915602E+01
7.575000E+02  9.528545E-01 -7.426763E+01  9.771518E-04 2.437681E+01  9.630166E-04 2.418442E+01  9.688842E-01 -9.919100E+01
7.577500E+02  9.538515E-01 -7.423949E+01  1.205975E-03 3.307929E+01  1.226818E-03 3.392537E+01  9.696046E-01 -9.924140E+01
7.580000E+02  9.548625E-01 -7.435489E+01  1.224011E-03 3.212807E+01  1.228131E-03 3.223072E+01  9.703085E-01 -9.935877E+01
7.582500E+02  9.541254E-01 -7.448731E+01  1.240916E-03 3.753421E+01  1.268105E-03 3.727395E+01  9.704453E-01 -9.945865E+01
7.585000E+02  9.523580E-01 -7.459120E+01  1.344623E-03 4.017013E+01  1.316623E-03 3.984872E+01  9.702567E-01 -9.954367E+01
7.587500E+02  9.513701E-01 -7.461216E+01  1.460836E-03 4.633660E+01  1.458749E-03 4.735652E+01  9.706446E-01 -9.964157E+01
7.590000E+02  9.504049E-01 -7.464622E+01  1.666691E-03 4.709155E+01  1.680506E-03 4.718475E+01  9.707388E-01 -9.972415E+01
7.592500E+02  9.482873E-01 -7.459845E+01  1.874752E-03 5.186680E+01  1.894123E-03 5.138045E+01  9.706196E-01 -9.984439E+01
7.595000E+02  9.494819E-01 -7.444777E+01  2.529055E-03 4.774591E+01  2.533127E-03 4.862009E+01  9.702487E-01 -9.991192E+01
7.597500E+02  9.521167E-01 -7.450099E+01  2.894759E-03 3.365162E+01  2.896921E-03 3.368325E+01  9.707735E-01 -9.997903E+01
7.600000E+02  9.518148E-01 -7.459857E+01  2.845294E-03 2.155057E+01  2.847069E-03 2.137544E+01  9.713799E-01 -1.000684E+02
7.602500E+02  9.524743E-01 -7.449570E+01  2.706909E-03 1.326768E+01  2.717019E-03 1.313353E+01  9.715829E-01 -1.001924E+02
7.605000E+02  9.558710E-01 -7.456881E+01  2.461570E-03 6.827170E+00  2.460627E-03 7.016077E+00  9.717827E-01 -1.002887E+02
7.607500E+02  9.571679E-01 -7.478513E+01  2.231879E-03 3.624290E+00  2.243979E-03 4.075768E+00  9.721113E-01 -1.004229E+02
7.610000E+02  9.566657E-01 -7.493548E+01  2.072993E-03 3.014065E+00  2.070940E-03 2.942262E+00  9.716503E-01 -1.005511E+02
7.612500E+02  9.556759E-01 -7.499319E+01  2.005155E-03 1.385206E+00  2.003092E-03 1.691630E+00  9.709223E-01 -1.006781E+02
7.615000E+02  9.561686E-01 -7.503103E+01  1.821747E-03 -1.024042E+00  1.835859E-03 -9.077649E-01  9.700381E-01 -1.007682E+02
7.617500E+02  9.571868E-01 -7.510905E+01  1.684738E-03 -4.867747E-02  1.675623E-03 -3.863676E-01  9.694763E-01 -1.008486E+02
7.620000E+02  9.576779E-01 -7.525232E+01  1.574235E-03 2.159827E+00  1.589073E-03 2.401451E+00  9.689789E-01 -1.009257E+02
7.622500E+02  9.573070E-01 -7.539093E+01  1.488893E-03 4.617532E+00  1.491660E-03 5.304845E+00  9.683688E-01 -1.009451E+02
7.625000E+02  9.563379E-01 -7.550295E+01  1.505427E-03 8.113697E+00  1.494839E-03 8.873075E+00  9.691933E-01 -1.010044E+02
7.627500E+02  9.550367E-01 -7.555952E+01  1.512743E-03 1.075409E+01  1.511174E-03 1.096804E+01  9.695735E-01 -1.010918E+02
7.630000E+02  9.541088E-01 -7.555718E+01  1.547473E-03 1.195423E+01  1.572092E-03 1.133562E+01  9.702608E-01 -1.011631E+02
7.632500E+02  9.544687E-01 -7.555572E+01  1.581181E-03 1.133853E+01  1.560043E-03 1.049266E+01  9.710343E-01 -1.012832E+02
7.635000E+02  9.547544E-01 -7.559452E+01  1.563748E-03 1.138720E+01  1.559167E-03 1.162626E+01  9.713533E-01 -1.014278E+02
7.637500E+02  9.552453E-01 -7.561844E+01  1.508693E-03 1.250319E+01  1.509367E-03 1.155171E+01  9.713932E-01 -1.015435E+02
7.640000E+02  9.564110E-01 -7.564272E+01  1.497584E-03 1.619878E+01  1.502109E-03 1.609957E+01  9.711696E-01 -1.016832E+02
7.642500E+02  9.574530E-01 -7.573421E+01  1.557022E-03 1.697872E+01  1.551658E-03 1.734321E+01  9.710387E-01 -1.017800E+02
7.645000E+02  9.586032E-01 -7.581819E+01  1.588307E-03 1.900903E+01  1.569725E-03 1.939065E+01  9.711773E-01 -1.018943E+02
7.647500E+02  9.596273E-01 -7.592837E+01  1.604816E-03 2.137953E+01  1.587376E-03 2.159723E+01  9.713095E-01 -1.020207E+02
7.650000E+02  9.603729E-01 -7.604310E+01  1.827740E-03 2.502725E+01  1.833379E-03 2.560680E+01  9.713167E-01 -1.021362E+02
7.652500E+02  9.610151E-01 -7.617627E+01  1.934645E-03 2.088794E+01  1.943920E-03 2.057009E+01  9.715212E-01 -1.022552E+02
7.655000E+02  9.611655E-01 -7.631343E+01  1.941633E-03 2.145113E+01  1.922322E-03 2.180254E+01  9.713106E-01 -1.023844E+02
7.657500E+02  9.609797E-01 -7.645115E+01  2.215078E-03 2.517462E+01  2.224925E-03 2.455319E+01  9.710275E-01 -1.025076E+02
7.660000E+02  9.610664E-01 -7.656322E+01  2.525880E-03 1.768112E+01  2.536696E-03 1.695540E+01  9.715298E-01 -1.025973E+02
7.662500E+02  9.612476E-01 -7.669934E+01  2.541389E-03 1.030339E+01  2.514640E-03 1.038557E+01  9.720440E-01 -1.027445E+02
7.665000E+02  9.607509E-01 -7.683944E+01  2.483257E-03 5.935919E+00  2.477192E-03 6.342942E+00  9.721118E-01 -1.029202E+02
7.667500E+02  9.594371E-01 -7.694175E+01  2.470858E-03 4.898580E+00  2.488224E-03 4.631104E+00  9.721003E-01 -1.030752E+02
7.670000E+02  9.590841E-01 -7.698640E+01  2.524404E-03 3.336486E+00  2.523957E-03 3.765664E+00  9.717173E-01 -1.032241E+02
7.672500E+02  9.594469E-01 -7.708172E+01  2.630234E-03 6.539526E-01  2.646093E-03 1.276478E+00  9.710889E-01 -1.033645E+02
7.675000E+02  9.592886E-01 -7.720404E+01  2.664625E-03 -1.374920E+00  2.680478E-03 -1.468612E+00  9.707318E-01 -1.035147E+02
7.677500E+02  9.592604E-01 -7.730792E+01  2.816621E-03 -4.157102E+00  2.826870E-03 -4.040623E+00  9.702650E-01 -1.036597E+02
7.680000E+02  9.586487E-01 -7.741124E+01  2.938520E-03 -8.492569E+00  2.948314E-03 -8.325196E+00  9.696701E-01 -1.038136E+02
7.682500E+02  9.587577E-01 -7.751105E+01  3.035723E-03 -1.327687E+01  3.054883E-03 -1.269366E+01  9.692937E-01 -1.039779E+02
7.685000E+02  9.588368E-01 -7.759753E+01  3.116997E-03 -2.058112E+01  3.113476E-03 -2.038572E+01  9.683997E-01 -1.041404E+02
7.687500E+02  9.590564E-01 -7.772994E+01  2.879962E-03 -2.618623E+01  2.896377E-03 -2.573674E+01  9.679381E-01 -1.042798E+02
7.690000E+02  9.590730E-01 -7.789243E+01  2.803433E-03 -2.370959E+01  2.828804E-03 -2.333881E+01  9.680904E-01 -1.044690E+02
7.692500E+02  9.580089E-01 -7.804745E+01  3.196028E-03 -2.450402E+01  3.207887E-03 -2.426006E+01  9.668334E-01 -1.047424E+02
7.695000E+02  9.565878E-01 -7.815135E+01  3.655700E-03 -3.351612E+01  3.671444E-03 -3.329149E+01  9.632136E-01 -1.049976E+02
7.697500E+02  9.557718E-01 -7.822552E+01  3.822105E-03 -4.754271E+01  3.817141E-03 -4.719446E+01  9.580712E-01 -1.050917E+02
7.700000E+02  9.552883E-01 -7.829456E+01  3.538364E-03 -5.960161E+01  3.557292E-03 -5.963080E+01  9.549464E-01 -1.050515E+02
7.702500E+02  9.551364E-01 -7.836178E+01  3.354700E-03 -6.888320E+01  3.376997E-03 -6.871679E+01  9.526368E-01 -1.050403E+02
7.705000E+02  9.558053E-01 -7.851590E+01  2.881815E-03 -8.395788E+01  2.876253E-03 -8.396872E+01  9.521989E-01 -1.048991E+02
7.707500E+02  9.551038E-01 -7.872358E+01  2.208904E-03 -8.496157E+01  2.213600E-03 -8.545354E+01  9.545670E-01 -1.049809E+02
7.710000E+02  9.531180E-01 -7.889501E+01  2.246783E-03 -8.299342E+01  2.241607E-03 -8.332717E+01  9.524400E-01 -1.051570E+02
7.712500E+02  9.502315E-01 -7.896647E+01  2.094927E-03 -1.008553E+02  2.100396E-03 -1.015112E+02  9.511253E-01 -1.049876E+02
7.715000E+02  9.490846E-01 -7.896191E+01  1.355426E-03 -1.072010E+02  1.345637E-03 -1.067159E+02  9.559371E-01 -1.050118E+02
7.717500E+02  9.489276E-01 -7.902199E+01  9.991897E-04 -9.163541E+01  9.980623E-04 -9.255870E+01  9.583652E-01 -1.053204E+02
7.720000E+02  9.470523E-01 -7.919203E+01  1.107052E-03 -7.714242E+01  1.109408E-03 -7.744370E+01  9.562075E-01 -1.056747E+02
7.722500E+02  9.422540E-01 -7.916709E+01  1.349517E-03 -8.226170E+01  1.344729E-03 -8.307084E+01  9.514249E-01 -1.057628E+02
7.725000E+02  9.418924E-01 -7.878482E+01  1.139279E-03 -1.035086E+02  1.136505E-03 -1.041908E+02  9.514320E-01 -1.056202E+02
7.727500E+02  9.475812E-01 -7.877346E+01  6.038104E-04 -8.998153E+01  6.093476E-04 -9.191503E+01  9.554592E-01 -1.057957E+02
7.730000E+02  9.498456E-01 -7.895402E+01  7.070140E-04 -5.942266E+01  7.063134E-04 -5.758372E+01  9.553053E-01 -1.062083E+02
7.732500E+02  9.516585E-01 -7.911097E+01  9.746012E-04 -5.091426E+01  9.872346E-04 -5.067244E+01  9.516511E-01 -1.066425E+02
7.735000E+02  9.522077E-01 -7.936008E+01  1.339629E-03 -5.381582E+01  1.331508E-03 -5.372691E+01  9.425366E-01 -1.069383E+02
7.737500E+02  9.510218E-01 -7.956530E+01  1.582029E-03 -6.749325E+01  1.581942E-03 -6.757997E+01  9.316127E-01 -1.066774E+02
7.740000E+02  9.496364E-01 -7.972620E+01  1.861936E-03 -8.085634E+01  1.850021E-03 -8.072749E+01  9.286857E-01 -1.061643E+02
7.742500E+02  9.485410E-01 -7.980487E+01  1.486278E-03 -1.020620E+02  1.498606E-03 -1.021528E+02  9.345095E-01 -1.057451E+02
7.745000E+02  9.476447E-01 -7.994344E+01  1.228973E-03 -9.892961E+01  1.227067E-03 -9.849907E+01  9.390804E-01 -1.058943E+02
7.747500E+02  9.452533E-01 -8.015165E+01  1.288247E-03 -9.365528E+01  1.280204E-03 -9.391262E+01  9.380812E-01 -1.061898E+02
7.750000E+02  9.395773E-01 -8.022565E+01  1.368595E-03 -1.015160E+02  1.378056E-03 -1.013735E+02  9.313535E-01 -1.061170E+02
7.752500E+02  9.356084E-01 -7.984376E+01  1.560127E-03 -1.043638E+02  1.555695E-03 -1.044399E+02  9.316064E-01 -1.055556E+02
7.755000E+02  9.407523E-01 -7.962601E+01  1.456870E-03 -1.254521E+02  1.449136E-03 -1.254153E+02  9.411246E-01 -1.053207E+02
7.757500E+02  9.432942E-01 -7.971920E+01  1.200070E-03 -1.301781E+02  1.189940E-03 -1.309758E+02  9.472646E-01 -1.055900E+02
