! Matrix data file written by TouchstoneData, EPCOS AG
! FILENAME: "B4318_x14y14_NB.snp"
! COMMENT: "(TS/B4318_x14y14_NB.s3p) Epcos AG 12/21/2012"
! INFO: nport=3, nfreq=1601
! DATE: "Mon Jan 14 15:54:31 2013"
! USER: "Wee Chuan Tay"
!
! port | pin | signal
! -----|-----|--------
!   1  |  1  |  Input
!   2  |  3  |  Output
!   3  |  4  |  Output
! --------------------
! 
# MHZ S RI R 50
! freq  reS11 imS11  reS12 imS12  reS13 imS13  ...
700  0.11014848947525 -0.938503444194792  -0.000570685515413062 -0.000442604796262459  -0.000394433358451352 -1.6291023712256e-05 
-0.000570685515413062 -0.000442604796262459  0.721837162971496 -0.560609519481658  0.228951781988143 0.27362360060215 
-0.000394433358451352 -1.6291023712256e-05  0.228951781988143 0.27362360060215  0.719483792781829 -0.561496496200561 
700.0625  0.111366793513298 -0.940894722938536  -0.000587156828260051 -0.000437621420132928  -0.000372661219444126 -2.06237730253634e-05 
-0.000587156828260051 -0.000437621420132928  0.721627175807952 -0.561084687709808  0.229134060442447 0.274169713258743 
-0.000372661219444126 -2.06237730253634e-05  0.229134060442447 0.274169713258743  0.719234883785247 -0.561800241470336 
700.125  0.111766286194324 -0.943270981311797  -0.000590303621720524 -0.000408529696869665  -0.000356338277924807 -6.07085239607841e-05 
-0.000590303621720524 -0.000408529696869665  0.721166968345641 -0.561386764049529  0.229407377541065 0.27470138669014 
-0.000356338277924807 -6.07085239607841e-05  0.229407377541065 0.27470138669014  0.718856811523436 -0.562290906906127 
700.1875  0.111305758357048 -0.945187091827391  -0.000612960488069803 -0.000416788432630711  -0.000332935873302632 -5.17136249982287e-05 
-0.000612960488069803 -0.000416788432630711  0.72078901529312 -0.56185495853424  0.2296374887228 0.275197446346283 
-0.000332935873302632 -5.17136249982287e-05  0.2296374887228 0.275197446346283  0.718343913555144 -0.562664687633514 
700.25  0.110449559986591 -0.946557462215422  -0.000590774609008805 -0.000393923983210699  -0.000354022398823873 -7.00277341820767e-05 
-0.000590774609008805 -0.000393923983210699  0.720507860183715 -0.562553167343139  0.230246618390083 0.275758996605872 
-0.000354022398823873 -7.00277341820767e-05  0.230246618390083 0.275758996605872  0.718130469322204 -0.563445150852203 
700.3125  0.109623417258262 -0.947580754756926  -0.000602712563704701 -0.000381618869141677  -0.000347796740243212 -5.13624563609484e-05 
-0.000602712563704701 -0.000381618869141677  0.720050513744353 -0.562754929065704  0.230531744658946 0.276166930794715 
-0.000347796740243212 -5.13624563609484e-05  0.230531744658946 0.276166930794715  0.717602133750914 -0.56369251012802 
700.375  0.108911588788032 -0.948284864425658  -0.000581352447625251 -0.000362525068339892  -0.00036299039493315 -8.08469885669184e-05 
-0.000581352447625251 -0.000362525068339892  0.719564199447631 -0.56333690881729  0.231065332889556 0.276577949523926 
-0.00036299039493315 -8.08469885669184e-05  0.231065332889556 0.276577949523926  0.716960310935973 -0.563916862010955 
700.4375  0.1075619161129 -0.949101448059081  -0.000580988969886677 -0.000383367281756365  -0.000350080619682559 -9.55830655584579e-05 
-0.000580988969886677 -0.000383367281756365  0.719212532043456 -0.563791036605834  0.231532596051692 0.276864230632781 
-0.000350080619682559 -9.55830655584579e-05  0.231532596051692 0.276864230632781  0.716457188129424 -0.564214050769805 
700.5  0.10689464956522 -0.949373722076415  -0.00060955173103139 -0.000360864898539149  -0.000382813756004908 -0.000108862604975003 
-0.00060955173103139 -0.000360864898539149  0.71884262561798 -0.56411862373352  0.231958188116551 0.277312368154525 
-0.000382813756004908 -0.000108862604975003  0.231958188116551 0.277312368154525  0.715838313102721 -0.564492642879485 
700.5625  0.106012128293514 -0.949588894844054  -0.000609144219197334 -0.000357460128725508  -0.000357044584234246 -8.24766721052585e-05 
-0.000609144219197334 -0.000357460128725508  0.718253076076507 -0.564220249652862  0.232334323227405 0.277446672320365 
-0.000357044584234246 -8.24766721052585e-05  0.232334323227405 0.277446672320365  0.715190351009368 -0.56468379497528 
700.625  0.105176478624344 -0.949510157108306  -0.000611824885709213 -0.00033308772253804  -0.000365963249350899 -8.93473261385226e-05 
-0.000611824885709213 -0.00033308772253804  0.7179257273674 -0.564744412899016  0.23287096619606 0.277646362781524 
-0.000365963249350899 -8.93473261385226e-05  0.23287096619606 0.277646362781524  0.714435458183288 -0.564852654933929 
700.6875  0.104285143315792 -0.948852896690367  -0.000622258958173917 -0.000342352694133297  -0.000355031763319858 -0.000106815659819404 
-0.000622258958173917 -0.000342352694133297  0.717392563819884 -0.565030276775359  0.233289405703544 0.277892455458641 
-0.000355031763319858 -0.000106815659819404  0.233289405703544 0.277892455458641  0.714015185832976 -0.564814567565917 
700.75  0.104507848620415 -0.947987556457518  -0.000605433655437083 -0.00032812794961501  -0.000369690824300051 -0.000117168721772032 
-0.000605433655437083 -0.00032812794961501  0.716760575771331 -0.565196454524993  0.233744978904724 0.278197541832924 
-0.000369690824300051 -0.000117168721772032  0.233744978904724 0.278197541832924  0.713536918163299 -0.564966142177581 
700.8125  0.104792259633541 -0.947669863700865  -0.000614629563642667 -0.000363086131983438  -0.000379893303033896 -9.90854241536001e-05 
-0.000614629563642667 -0.000363086131983438  0.716122031211852 -0.56547462940216  0.234125465154647 0.278162091970443 
-0.000379893303033896 -9.90854241536001e-05  0.234125465154647 0.278162091970443  0.712957203388213 -0.564888477325439 
700.875  0.105287104845047 -0.947584807872771  -0.000584082532441245 -0.000368205932318233  -0.000368273496860639 -0.000110281627712539 
-0.000584082532441245 -0.000368205932318233  0.71567130088806 -0.565641164779662  0.234691075980663 0.27837735414505 
-0.000368273496860639 -0.000110281627712539  0.234691075980663 0.27837735414505  0.712503790855407 -0.565169692039489 
700.9375  0.106027364730835 -0.948084771633147  -0.00062757867272012 -0.000368787455954589  -0.00034708867315203 -8.59794126881754e-05 
-0.00062757867272012 -0.000368787455954589  0.714971303939818 -0.565645992755889  0.234930261969566 0.278476744890212 
-0.00034708867315203 -8.59794126881754e-05  0.234930261969566 0.278476744890212  0.712252795696258 -0.565006017684936 
701  0.106612585484981 -0.948736250400542  -0.000642338040051983 -0.000376541342120618  -0.000344656000379474 -8.83544635144063e-05 
-0.000642338040051983 -0.000376541342120618  0.714348554611205 -0.565372467041015  0.235329791903496 0.278491303324699 
-0.000344656000379474 -8.83544635144063e-05  0.235329791903496 0.278491303324699  0.711538434028624 -0.565057575702666 
701.0625  0.10671804100275 -0.949692487716674  -0.000648444081889467 -0.000380729296011851  -0.000330631402903238 -9.67995474638883e-05 
-0.000648444081889467 -0.000380729296011851  0.713904321193694 -0.565701663494109  0.23582760989666 0.278601482510566 
-0.000330631402903238 -9.67995474638883e-05  0.23582760989666 0.278601482510566  0.711138784885406 -0.565001487731933 
701.125  0.106898926198482 -0.950732588768004  -0.00067570444662124 -0.000365460131433793  -0.000334279669914395 -8.86048728716561e-05 
-0.00067570444662124 -0.000365460131433793  0.713603377342223 -0.565548598766326  0.236245535314082 0.278600305318832 
-0.000334279669914395 -8.86048728716561e-05  0.236245535314082 0.278600305318832  0.710569083690642 -0.564969778060912 
701.1875  0.106534600257873 -0.951522052288054  -0.000658786098938437 -0.00036675253068097  -0.000330965151078999 -0.000105071936559398 
-0.000658786098938437 -0.00036675253068097  0.713368117809295 -0.565317153930663  0.236477471888065 0.278763130307197 
-0.000330965151078999 -0.000105071936559398  0.236477471888065 0.278763130307197  0.71038383245468 -0.564786851406097 
701.25  0.106150113046169 -0.952790498733519  -0.000699532422004269 -0.000325549030094408  -0.000320084654958919 -9.72810994426254e-05 
-0.000699532422004269 -0.000325549030094408  0.713018476963042 -0.565235257148742  0.236728705465793 0.278757601976395 
-0.000320084654958919 -9.72810994426254e-05  0.236728705465793 0.278757601976395  0.710145711898803 -0.564638137817382 
701.3125  0.106104373931885 -0.953401505947112  -0.000705689075402917 -0.000321801213431173  -0.000326314635458403 -0.000110611319541931 
-0.000705689075402917 -0.000321801213431173  0.712691128253936 -0.565172612667083  0.237041264772414 0.278753042221069 
-0.000326314635458403 -0.000110611319541931  0.237041264772414 0.278753042221069  0.709826946258544 -0.564333140850066 
701.375  0.105681151151657 -0.95413291454315  -0.000696529692504556 -0.000326346722431482  -0.000299897292279639 -0.000105247207102366 
-0.000696529692504556 -0.000326346722431482  0.71273124217987 -0.565221667289733  0.237297289073467 0.278984904289245 
-0.000299897292279639 -0.000105247207102366  0.237297289073467 0.278984904289245  0.709621369838714 -0.564209401607513 
701.4375  0.105297565460205 -0.955335497856139  -0.000721654127119111 -0.000330042661516928  -0.000312835880322383 -9.69547363638415e-05 
-0.000721654127119111 -0.000330042661516928  0.712496519088744 -0.565137028694152  0.237562254071235 0.279099732637405 
-0.000312835880322383 -9.69547363638415e-05  0.237562254071235 0.279099732637405  0.709373891353606 -0.564305663108825 
701.5  0.104587033390999 -0.95595872402191  -0.000698055198881776 -0.000298343482427299  -0.000314243676257321 -0.00012160341066192 
-0.000698055198881776 -0.000298343482427299  0.712292909622191 -0.565378248691558  0.237834729254245 0.279301106929778 
-0.000314243676257321 -0.00012160341066192  0.237834729254245 0.279301106929778  0.709224343299865 -0.564404606819152 
701.5625  0.104210719466209 -0.957044184207915  -0.000687988416757436 -0.000267648647422903  -0.000302163811284118 -0.000140853917400819 
-0.000687988416757436 -0.000267648647422903  0.71209543943405 -0.565575003623962  0.238119304180145 0.279558807611465 
-0.000302163811284118 -0.000140853917400819  0.238119304180145 0.279558807611465  0.708775043487548 -0.564728260040282 
701.625  0.103633761405945 -0.958000898361205  -0.000692454515956344 -0.000266229777480476  -0.000310143543174491 -0.000117773815873079 
-0.000692454515956344 -0.000266229777480476  0.711793422698974 -0.565734505653381  0.238552659749984 0.279661983251571 
-0.000310143543174491 -0.000117773815873079  0.238552659749984 0.279661983251571  0.708349466323852 -0.564747691154479 
701.6875  0.102494813501835 -0.959137737751006  -0.000679780147038401 -0.000262176341493615  -0.000322162231896073 -0.000111008044768824 
-0.000679780147038401 -0.000262176341493615  0.711423516273498 -0.56581950187683  0.23908219486475 0.279808416962623 
-0.000322162231896073 -0.000111008044768824  0.23908219486475 0.279808416962623  0.708034574985503 -0.564626276493072 
701.75  0.101537324488163 -0.959591209888457  -0.000704103324096652 -0.00024000743724173  -0.000312170217512176 -0.000132591936562676 
-0.000704103324096652 -0.00024000743724173  0.71118801832199 -0.56599599123001  0.239523269236087 0.279956430196762 
-0.000312170217512176 -0.000132591936562676  0.239523269236087 0.279956430196762  0.707448542118072 -0.564258515834808 
701.8125  0.10000853985548 -0.960339546203612  -0.000699908763635905 -0.000280679305433296  -0.000285933536360972 -0.00013309640053194 
-0.000699908763635905 -0.000280679305433296  0.710708916187285 -0.566043198108672  0.240150794386863 0.280052468180656 
-0.000285933536360972 -0.00013309640053194  0.240150794386863 0.280052468180656  0.707404255867003 -0.564485192298888 
701.875  0.0994156450033186 -0.96071422100067  -0.000715996371582152 -0.000263289199210704  -0.000281643529888244 -0.000110666573164054 
-0.000715996371582152 -0.000263289199210704  0.710372328758239 -0.566226959228515  0.240752145648002 0.27991709113121 
-0.000281643529888244 -0.000110666573164054  0.240752145648002 0.27991709113121  0.707116186618804 -0.564219415187835 
701.9375  0.0984976366162298 -0.961108207702635  -0.000721473625162618 -0.000252626807196066  -0.000254717902862468 -0.000143329165439354 
-0.000721473625162618 -0.000252626807196066  0.709713101387023 -0.566238105297088  0.241223089396953 0.279771387577056 
-0.000254717902862468 -0.000143329165439354  0.241223089396953 0.279771387577056  0.707040786743163 -0.56370449066162 
702  0.097811311483383 -0.961431205272673  -0.000712921115336941 -0.000233277409279254  -0.00029150718182791 -0.000175673398189247 
-0.000712921115336941 -0.000233277409279254  0.709341347217559 -0.566010475158691  0.241592064499855 0.279443874955177 
-0.00029150718182791 -0.000175673398189247  0.241592064499855 0.279443874955177  0.706576406955718 -0.563520371913909 
702.0625  0.0970172137022017 -0.961853206157683  -0.000710628926753999 -0.000226989177463112  -0.00028053233108949 -0.000164279379532672 
-0.000710628926753999 -0.000226989177463112  0.709342062473296 -0.566120326519012  0.242069438099861 0.279354244470596 
-0.00028053233108949 -0.000164279379532672  0.242069438099861 0.279354244470596  0.706801056861876 -0.563438713550567 
702.125  0.0962398052215574 -0.962325394153594  -0.000703932077158244 -0.000212628205190413  -0.000270014832494781 -0.000176183501025662 
-0.000703932077158244 -0.000212628205190413  0.708832681179046 -0.565877318382262  0.242385372519492 0.279147803783417 
-0.000270014832494781 -0.000176183501025662  0.242385372519492 0.279147803783417  0.706706702709197 -0.56326538324356 
702.1875  0.0952500849962233 -0.962714672088622  -0.00070981017779559 -0.000200925176613965  -0.000281670276308433 -0.000185815762961283 
-0.00070981017779559 -0.000200925176613965  0.708596885204314 -0.565767765045165  0.242569617927074 0.27889186143875 
-0.000281670276308433 -0.000185815762961283  0.242569617927074 0.27889186143875  0.706746518611907 -0.563119590282439 
702.25  0.0946015343070028 -0.962918460369109  -0.000694447458954529 -0.000207780045457184  -0.000289069736027159 -0.000159479852300137 
-0.000694447458954529 -0.000207780045457184  0.708231806755065 -0.565819263458251  0.242800049483776 0.278711929917336 
-0.000289069736027159 -0.000159479852300137  0.242800049483776 0.278711929917336  0.706830501556396 -0.563339889049529 
702.3125  0.0935347899794577 -0.963552117347716  -0.000693107664119454 -0.000191240746062249  -0.00030337784846779 -0.000202157330932096 
-0.000693107664119454 -0.000191240746062249  0.708336830139159 -0.565452396869659  0.243039913475513 0.278487905859947 
-0.00030337784846779 -0.000202157330932096  0.243039913475513 0.278487905859947  0.706717252731322 -0.563504755496978 
702.375  0.0923781767487524 -0.963725149631499  -0.000709627522155644 -0.000193955631402787  -0.000297615348245018 -0.000170802559296135 
-0.000709627522155644 -0.000193955631402787  0.708007812499999 -0.565293848514556  0.24322884529829 0.278281912207603 
-0.000297615348245018 -0.000170802559296135  0.24322884529829 0.278281912207603  0.706660211086272 -0.563690364360808 
702.4375  0.0917340889573096 -0.964233875274657  -0.000696136849001052 -0.000173126492882148  -0.000283387635136023 -0.000192316430911888 
-0.000696136849001052 -0.000173126492882148  0.707793354988097 -0.565397799015044  0.243396081030368 0.278123706579208 
-0.000283387635136023 -0.000192316430911888  0.243396081030368 0.278123706579208  0.706543922424315 -0.563748717308044 
702.5  0.0910517051815985 -0.964271783828734  -0.00068684041616507 -0.00017832325102063  -0.000278702384093777 -0.000201799572096207 
-0.00068684041616507 -0.00017832325102063  0.707735002040862 -0.564964890480041  0.243424400687217 0.278036147356033 
-0.000278702384093777 -0.000201799572096207  0.243424400687217 0.278036147356033  0.706541895866393 -0.564069628715514 
702.5625  0.0902985781431196 -0.96479171514511  -0.000724100304068999 -0.000186646975635085  -0.000300593936117366 -0.000201397691853345 
-0.000724100304068999 -0.000186646975635085  0.707383155822753 -0.565105080604552  0.24363411962986 0.277875080704688 
-0.000300593936117366 -0.000201397691853345  0.24363411962986 0.277875080704688  0.706085920333861 -0.564064919948577 
702.625  0.0894623771309851 -0.964979290962218  -0.000717660732334482 -0.000171694824530278  -0.000292317767161877 -0.000206251039344352 
-0.000717660732334482 -0.000171694824530278  0.707283496856688 -0.565147578716277  0.243732325732707 0.277699425816536 
-0.000292317767161877 -0.000206251039344352  0.243732325732707 0.277699425816536  0.706124007701873 -0.563816130161285 
702.6875  0.0886687338352202 -0.965583860874175  -0.000697600538842382 -0.000154858971654903  -0.000297855789540336 -0.000202452240046114 
-0.000697600538842382 -0.000154858971654903  0.707184553146361 -0.565473914146422  0.24391634017229 0.277561455965042 
-0.000297855789540336 -0.000202452240046114  0.24391634017229 0.277561455965042  0.705744564533233 -0.563979923725127 
702.75  0.0876698344945906 -0.966202616691588  -0.000701606943039225 -0.000131152046378703  -0.000308266084175557 -0.000171897525433451 
-0.000701606943039225 -0.000131152046378703  0.707021057605742 -0.564861238002776  0.243908055126667 0.277500122785567 
-0.000308266084175557 -0.000171897525433451  0.243908055126667 0.277500122785567  0.705512702465056 -0.563875913619994 
702.8125  0.0865029022097586 -0.966626882553099  -0.000684392580296846 -0.000119903077575146  -0.00027125763881486 -0.000231605219596532 
-0.000684392580296846 -0.000119903077575146  0.706820964813232 -0.564714312553405  0.243955053389072 0.277402147650718 
-0.00027125763881486 -0.000231605219596532  0.243955053389072 0.277402147650718  0.705536663532256 -0.563633322715758 
702.875  0.0854488909244536 -0.967024385929106  -0.000684973318129779 -0.000109473694465123  -0.000277098864899018 -0.000201806651602965 
-0.000684973318129779 -0.000109473694465123  0.706656575202941 -0.564708292484283  0.244001500308514 0.277217164635658 
-0.000277098864899018 -0.000201806651602965  0.244001500308514 0.277217164635658  0.705521583557128 -0.563684582710265 
702.9375  0.0841148048639296 -0.967362225055693  -0.000659175508189948 -0.000140919302793919  -0.000247230898821727 -0.000183829673915171 
-0.000659175508189948 -0.000140919302793919  0.706824541091918 -0.564844727516174  0.243974350392818 0.277151614427567 
-0.000247230898821727 -0.000183829673915171  0.243974350392818 0.277151614427567  0.705400764942168 -0.563722014427184 
703  0.0827300474047659 -0.967906892299651  -0.000676761177601294 -0.000114828184450744  -0.000277058614301496 -0.000233613223826979 
-0.000676761177601294 -0.000114828184450744  0.707191228866576 -0.564713358879089  0.243948504328728 0.277200683951378 
-0.000277058614301496 -0.000233613223826979  0.243948504328728 0.277200683951378  0.705455839633941 -0.56388223171234 
703.0625  0.0810419172048567 -0.96798402070999  -0.000678937620250509 -0.000128670500998851  -0.000266999733867124 -0.000216353226278443 
-0.000678937620250509 -0.000128670500998851  0.70694065093994 -0.564750850200652  0.243866354227066 0.277349278330802 
-0.000266999733867124 -0.000216353226278443  0.243866354227066 0.277349278330802  0.705776453018188 -0.56398332118988 
703.125  0.079862669110298 -0.968008756637572  -0.000667950429487975 -0.000137597846332938  -0.000229780431254768 -0.000241346206166782 
-0.000667950429487975 -0.000137597846332938  0.70716106891632 -0.564850330352782  0.24386229366064 0.277499094605446 
-0.000229780431254768 -0.000241346206166782  0.24386229366064 0.277499094605446  0.705469071865081 -0.564343988895416 
703.1875  0.0783271342515944 -0.967604398727416  -0.000667571759549903 -0.000129324274894316  -0.000249946358962916 -0.000231616097153165 
-0.000667571759549903 -0.000129324274894316  0.706830501556396 -0.565071642398834  0.243968322873115 0.277669593691826 
-0.000249946358962916 -0.000231616097153165  0.243968322873115 0.277669593691826  0.705375969409942 -0.564629316329955 
