! Matrix data file written by TouchstoneData, EPCOS AG
! FILENAME: "LZ49B_3_NB.snp"
! COMMENT: "(TS/LZ49B_3_NB.s2p) EPCOS AG 06.03.2012 16:1"
! INFO: nport=2, nfreq=1601
! DATE: "Thu Apr  5 09:31:33 2012"
! USER: "Wee Chuan Tay"
!
! port | pin | signal
! -----|-----|--------
!   1  |  1  |  Input
!   2  |  4  |  Output
! --------------------
! 
# MHZ S RI R 50
! freq  reS11 imS11  reS21 imS21  reS12 imS12  reS22 imS22
819  0.613806128501891 -0.755032420158385  0.00347203318960964 0.00320110726170241  0.00347203318960964 0.00320110726170241  0.672066986560821 -0.710017085075378 
819.0625  0.612913727760314 -0.755115628242492  0.00347831146791576 0.00320713547989726  0.00347831146791576 0.00320713547989726  0.671320438385009 -0.710327923297881 
819.125  0.611883223056792 -0.755014181137084  0.00349542137701063 0.0032010463764891  0.00349542137701063 0.0032010463764891  0.67052537202835 -0.710447371006011 
819.1875  0.611395061016082 -0.754959285259246  0.00348384329117834 0.00318937574047594  0.00348384329117834 0.00318937574047594  0.670095980167388 -0.710613906383513 
819.25  0.610922336578368 -0.754933774471282  0.00348173314705491 0.00316189101431518  0.00348173314705491 0.00316189101431518  0.66952896118164 -0.710689067840575 
819.3125  0.610262095928191 -0.754793465137481  0.00345073197968304 0.00317032111342995  0.00345073197968304 0.00317032111342995  0.668842375278472 -0.710914134979247 
819.375  0.609588503837585 -0.754889130592345  0.00344098533969372 0.00319754239171742  0.00344098533969372 0.00319754239171742  0.668014705181121 -0.711203336715697 
819.4375  0.608636200428008 -0.754844784736632  0.00345886638388037 0.00321441877167671  0.00345886638388037 0.00321441877167671  0.6673766374588 -0.711299896240233 
819.5  0.608154714107513 -0.754902243614196  0.00351330405101179 0.0032062908867374  0.00351330405101179 0.0032062908867374  0.666800498962401 -0.711412668228148 
819.5625  0.607719838619231 -0.754760086536406  0.00352229620330034 0.00317326595541089  0.00352229620330034 0.00317326595541089  0.666188776493072 -0.711372852325438 
819.625  0.607036232948302 -0.754628777503966  0.00354344327934085 0.00315701775252818  0.00354344327934085 0.00315701775252818  0.665600717067718 -0.711336135864257 
819.6875  0.606406331062316 -0.754504919052123  0.00353290711063891 0.00311956647783517  0.00353290711063891 0.00311956647783517  0.664893031120299 -0.711404263973235 
819.75  0.605953991413116 -0.754330217838286  0.00351335969753563 0.00310701481066643  0.00351335969753563 0.00310701481066643  0.664290010929107 -0.711348891258239 
819.8125  0.605453848838805 -0.754329323768615  0.00349523010663687 0.00309187686070799  0.00349523010663687 0.00309187686070799  0.66403967142105 -0.711515426635741 
819.875  0.605051636695861 -0.754334449768065  0.00345530128106474 0.00306201050989329  0.00345530128106474 0.00306201050989329  0.663614511489867 -0.711609721183776 
819.9375  0.604582846164702 -0.754399180412292  0.00342724879737943 0.00307303795125335  0.00342724879737943 0.00307303795125335  0.663139462471007 -0.711800217628478 
820  0.60390430688858 -0.754587769508361  0.00342084374278783 0.00313222722616046  0.00342084374278783 0.00313222722616046  0.662415385246276 -0.712072432041167 
820.0625  0.603404343128204 -0.754590988159179  0.00345747102983295 0.00315540831070392  0.00345747102983295 0.00315540831070392  0.66175889968872 -0.712273538112639 
820.125  0.602512717247008 -0.754585564136504  0.00349355023354291 0.00314324907958506  0.00349355023354291 0.00314324907958506  0.661102294921874 -0.712472081184386 
820.1875  0.601873993873595 -0.754655182361602  0.00349022902082651 0.00311640265863388  0.00349022902082651 0.00311640265863388  0.660444140434264 -0.712499678134917 
820.25  0.601300060749053 -0.754459083080291  0.00349920021835714 0.00308408716227858  0.00349920021835714 0.00308408716227858  0.6599503159523 -0.712543249130248 
820.3125  0.600745439529418 -0.754523038864135  0.00348298856988548 0.00309077056590467  0.00348298856988548 0.00309077056590467  0.659139990806579 -0.712627828121184 
820.375  0.599899291992187 -0.754331529140471  0.00348341255448758 0.00309769541490823  0.00348341255448758 0.00309769541490823  0.658093333244323 -0.712759256362914 
820.4375  0.599153220653533 -0.754273295402526  0.00349629530683159 0.00308340496849268  0.00349629530683159 0.00308340496849268  0.65746635198593 -0.712614536285399 
820.5  0.598542690277099 -0.754072248935698  0.00350300024729221 0.00304331653751433  0.00350300024729221 0.00304331653751433  0.656984984874724 -0.71247512102127 
820.5625  0.59772503376007 -0.753815531730651  0.00347741588484495 0.00303185044322163  0.00347741588484495 0.00303185044322163  0.656380653381347 -0.712488710880278 
820.625  0.5971000790596 -0.753408968448638  0.00345660338643938 0.00303165975492446  0.00345660338643938 0.00303165975492446  0.65597903728485 -0.712323546409606 
820.6875  0.596583127975463 -0.752903521060943  0.0034736186498776 0.00305557891260832  0.0034736186498776 0.00305557891260832  0.655067145824432 -0.712269008159636 
820.75  0.595976531505584 -0.752332270145415  0.00347637338563799 0.0030500735156238  0.00347637338563799 0.0030500735156238  0.654480576515197 -0.712158381938933 
820.8125  0.595985352993011 -0.75183218717575  0.00347582518588751 0.00305204547476022  0.00347582518588751 0.00305204547476022  0.654050052165984 -0.712010324001311 
820.875  0.595944702625274 -0.751682221889495  0.00346836575772613 0.00303867156617343  0.00346836575772613 0.00303867156617343  0.653788149356841 -0.711861014366149 
820.9375  0.596214592456817 -0.751544356346129  0.00345915206708013 0.00300260633230209  0.00345915206708013 0.00300260633230209  0.653473317623138 -0.71184605360031 
821  0.595894873142242 -0.751815319061278  0.00342596147675066 0.00300981476902961  0.00342596147675066 0.00300981476902961  0.652893245220183 -0.71210753917694 
821.0625  0.595473945140838 -0.752097904682158  0.00340336037334054 0.00304368871729821  0.00340336037334054 0.00304368871729821  0.652379870414733 -0.712131559848784 
821.125  0.594830214977264 -0.75232845544815  0.00343888462521135 0.00306749821174889  0.00343888462521135 0.00306749821174889  0.65194946527481 -0.712285339832305 
821.1875  0.594347178936004 -0.752217829227446  0.00348785379901527 0.00306406046729534  0.00348785379901527 0.00306406046729534  0.651399314403533 -0.712373793125152 
821.25  0.593877494335174 -0.752217054367064  0.00349605502560734 0.00302328716497868  0.00349605502560734 0.00302328716497868  0.650743544101714 -0.712391853332518 
821.3125  0.593272686004638 -0.752189695835112  0.00350431981496512 0.00298971426673233  0.00350431981496512 0.00298971426673233  0.649924099445342 -0.712628602981566 
821.375  0.592748641967773 -0.752017140388488  0.00347694416996091 0.00296688650269061  0.00347694416996091 0.00296688650269061  0.649045884609222 -0.712568044662475 
821.4375  0.592169523239135 -0.751957952976226  0.00347114703617989 0.00295083201490342  0.00347114703617989 0.00295083201490342  0.648478567600249 -0.712592780590056 
821.5  0.59206748008728 -0.751926600933074  0.00344672508072107 0.00294783874414861  0.00344672508072107 0.00294783874414861  0.647986471652984 -0.712242186069488 
821.5625  0.591634035110473 -0.751938998699187  0.00344837154261767 0.00296112988144159  0.00344837154261767 0.00296112988144159  0.64749926328659 -0.712175965309142 
821.625  0.59090632200241 -0.752103567123412  0.00343380158301443 0.00294370204210281  0.00343380158301443 0.00294370204210281  0.646637201309203 -0.712309181690215 
821.6875  0.590052187442779 -0.752208113670348  0.00342888664454221 0.00291901442687958  0.00342888664454221 0.00291901442687958  0.645959258079528 -0.712293744087218 
821.75  0.589133203029632 -0.752389788627624  0.00338123808614909 0.0028905663639307  0.00338123808614909 0.0028905663639307  0.64531910419464 -0.712478578090667 
821.8125  0.588624358177184 -0.752207398414611  0.00333803438115865 0.00291410542558878  0.00333803438115865 0.00291410542558878  0.644747078418731 -0.71237015724182 
821.875  0.587689816951751 -0.751853048801421  0.00334199622739106 0.00296383944805711  0.00334199622739106 0.00296383944805711  0.644009113311767 -0.712368369102477 
821.9375  0.586650490760802 -0.751494407653808  0.00337170937564223 0.00296350684948265  0.00337170937564223 0.00296350684948265  0.642982244491576 -0.712217450141906 
822  0.585615277290343 -0.750928223133086  0.00339444680139422 0.00290041929110884  0.00339444680139422 0.00290041929110884  0.641891062259673 -0.712086975574492 
822.0625  0.584788799285888 -0.750205099582671  0.00329948833677917 0.00284365681000053  0.00329948833677917 0.00284365681000053  0.640902936458587 -0.7119402885437 
822.125  0.584349811077117 -0.749228835105895  0.00317225349135696 0.00294087151996791  0.00317225349135696 0.00294087151996791  0.640060663223266 -0.71156746149063 
822.1875  0.583963811397552 -0.748307228088378  0.0031806114129722 0.00310485030058771  0.0031806114129722 0.00310485030058771  0.63910698890686 -0.71094387769699 
822.25  0.58366298675537 -0.7473486661911  0.00334301451221108 0.0031949687981978  0.00334301451221108 0.0031949687981978  0.638224601745605 -0.710331380367278 
822.3125  0.583621084690093 -0.746508300304412  0.0034824744798243 0.00307635066565125  0.0034824744798243 0.00307635066565125  0.637148678302764 -0.709754288196563 
822.375  0.583780050277709 -0.745947003364562  0.00346569076646119 0.00295923277735709  0.00346569076646119 0.00295923277735709  0.636710464954375 -0.70872813463211 
822.4375  0.584479868412017 -0.745463490486144  0.00341194309294223 0.00290452048648149  0.00341194309294223 0.00290452048648149  0.636178493499755 -0.707896769046782 
822.5  0.584953665733337 -0.745165169239043  0.00334407133050262 0.00289917737245559  0.00334407133050262 0.00289917737245559  0.635883688926696 -0.70690619945526 
822.5625  0.585135281085967 -0.745355784893035  0.00329791824333369 0.00292963534593581  0.00329791824333369 0.00292963534593581  0.6359104514122 -0.70615518093109 
822.625  0.584955632686614 -0.745888948440551  0.00329645921010524 0.00294732640031724  0.00329645921010524 0.00294732640031724  0.635870158672332 -0.705659747123717 
822.6875  0.584803402423858 -0.74622470140457  0.00323816458694636 0.0029308971716091  0.00323816458694636 0.0029308971716091  0.635963439941405 -0.705593526363372 
822.75  0.584238231182098 -0.746433436870574  0.00318392913322895 0.00302116456441581  0.00318392913322895 0.00302116456441581  0.636121988296508 -0.705675601959228 
822.8125  0.583342552185058 -0.746520400047301  0.00323295965790748 0.00309906294569373  0.00323295965790748 0.00309906294569373  0.635599493980407 -0.706022977828978 
822.875  0.582393527030944 -0.746251165866851  0.00331030727829784 0.00310098531190305  0.00331030727829784 0.00310098531190305  0.634978771209716 -0.70624542236328 
822.9375  0.581519126892089 -0.74567025899887  0.00333818804938345 0.0030707906698808  0.00333818804938345 0.0030707906698808  0.633791744709014 -0.706360459327697 
823  0.581031918525695 -0.744998455047606  0.00333981774747371 0.00303270504809915  0.00333981774747371 0.00303270504809915  0.63254415988922 -0.706189453601836 
823.0625  0.580576717853545 -0.744327783584594  0.00330531457439065 0.00304542784579098  0.00330531457439065 0.00304542784579098  0.631130278110503 -0.705735504627227 
823.125  0.580455780029296 -0.743774354457854  0.00331445562187581 0.00309070525690913  0.00331445562187581 0.00309070525690913  0.629708468914031 -0.70497566461563 
823.1875  0.580022037029266 -0.743258297443389  0.00340133195277303 0.00311618694104253  0.00340133195277303 0.00311618694104253  0.628119409084319 -0.703444600105285 
823.25  0.579496264457702 -0.742796480655669  0.00346617016475647 0.00298766931518912  0.00346617016475647 0.00298766931518912  0.626891374588012 -0.701839566230773 
823.3125  0.579414725303649 -0.74215006828308  0.00336816860362887 0.00284145399928093  0.00336816860362887 0.00284145399928093  0.625678598880767 -0.69989651441574 
823.375  0.578680276870727 -0.741442441940307  0.00318774092011153 0.00287568126805126  0.00318774092011153 0.00287568126805126  0.625191748142242 -0.697540462017058 
823.4375  0.578504264354705 -0.740470528602599  0.00310766918119042 0.00301885441876947  0.00310766918119042 0.00301885441876947  0.625096917152404 -0.694949448108672 
823.5  0.578657746315002 -0.739458501338958  0.00317289994563907 0.00317022483795881  0.00317289994563907 0.00317022483795881  0.625712156295776 -0.692248046398162 
823.5625  0.578928053379058 -0.738494992256164  0.00328001205343752 0.00321247859392314  0.00328001205343752 0.00321247859392314  0.626854479312896 -0.689735949039458 
823.625  0.579178154468536 -0.737976133823394  0.0033730340655893 0.00313523272052407  0.0033730340655893 0.00313523272052407  0.628883183002471 -0.687901377677916 
823.6875  0.57947015762329 -0.737525165081023  0.00336393190082161 0.00305668613873421  0.00336393190082161 0.00305668613873421  0.631122946739196 -0.686964094638824 
823.75  0.579676985740661 -0.737037122249602  0.00329681520815938 0.00306667550466954  0.00329681520815938 0.00306667550466954  0.63321167230606 -0.68676596879959 
823.8125  0.579715371131896 -0.736761331558226  0.00326184555888175 0.00313394761178642  0.00326184555888175 0.00313394761178642  0.634926736354827 -0.686801850795745 
823.875  0.579610526561736 -0.736024200916289  0.00333442166447639 0.00321079604327678  0.00333442166447639 0.00321079604327678  0.635991036891936 -0.687299072742461 
823.9375  0.579470574855804 -0.735478281974792  0.00346050306688993 0.00318414391949772  0.00346050306688993 0.00318414391949772  0.636662125587462 -0.687554359436034 
824  0.57978057861328 -0.734600126743316  0.00352339458186179 0.00307396508287638  0.00352339458186179 0.00307396508287638  0.637206017971038 -0.687876105308532 
824.0625  0.58029019832611 -0.73384928703308  0.00345224654302 0.00298402807675302  0.00345224654302 0.00298402807675302  0.637750566005706 -0.687896251678466 
824.125  0.580990195274352 -0.733196675777434  0.00341327383648603 0.00294860999565571  0.00341327383648603 0.00294860999565571  0.638267278671264 -0.687853813171386 
824.1875  0.581813812255859 -0.732894182205199  0.0033644555369392 0.00293710676487535  0.0033644555369392 0.00293710676487535  0.638479769229888 -0.687598168849944 
824.25  0.581878185272216 -0.732807993888854  0.00331261835526674 0.00290476984810083  0.00331261835526674 0.00290476984810083  0.639037191867828 -0.687433302402495 
824.3125  0.582082569599151 -0.732531011104583  0.00322263152338563 0.00294711592141538  0.00322263152338563 0.00294711592141538  0.639665722846984 -0.687255680561065 
824.375  0.582187414169311 -0.732082903385161  0.00317907985299825 0.00303154566790908  0.00317907985299825 0.00303154566790908  0.640566110610961 -0.687408387660979 
824.4375  0.582543611526488 -0.731553316116332  0.00321156019344925 0.00312239583581685  0.00321156019344925 0.00312239583581685  0.641356348991393 -0.687557697296142 
824.5  0.582889318466186 -0.730716288089751  0.00327624275814741 0.00315906398463993  0.00327624275814741 0.00315906398463993  0.641812801361083 -0.687906563282012 
824.5625  0.583200633525848 -0.730053842067718  0.00333496450912206 0.00312190607655793  0.00333496450912206 0.00312190607655793  0.642008185386657 -0.688269495964049 
824.625  0.583715856075286 -0.729413866996764  0.00332531111780553 0.00311283778864889  0.00332531111780553 0.00311283778864889  0.642121374607085 -0.688618004322051 
824.6875  0.584479272365569 -0.728685379028319  0.00333484495058655 0.00316204561386257  0.00333484495058655 0.00316204561386257  0.642340779304504 -0.688995242118834 
824.75  0.585395753383636 -0.727952778339385  0.0033990709343925 0.00313906546216458  0.0033990709343925 0.00313906546216458  0.64247441291809 -0.688891887664794 
824.8125  0.586473286151885 -0.727153182029723  0.00339666998479514 0.00308618170674889  0.00339666998479514 0.00308618170674889  0.642503559589385 -0.688876152038573 
824.875  0.587697505950927 -0.726441025733947  0.0033738313941285 0.00304341304581612  0.0033738313941285 0.00304341304581612  0.64213341474533 -0.688693940639495 
824.9375  0.588958203792571 -0.726166427135466  0.00334402930457144 0.00308030063752084  0.00334402930457144 0.00308030063752084  0.641992151737212 -0.688280284404754 
825  0.590718150138854 -0.725858092308043  0.00341126276180148 0.0030842563137412  0.00341126276180148 0.0030842563137412  0.642680704593658 -0.68744933605194 
825.0625  0.592597544193267 -0.725715994834899  0.00343145406804978 0.00297722732648252  0.00343145406804978 0.00297722732648252  0.643361628055572 -0.686794042587279 
825.125  0.594762980937957 -0.726262569427489  0.00329758075531571 0.00290423550177365  0.00329758075531571 0.00290423550177365  0.644376158714294 -0.686158061027526 
825.1875  0.596542000770568 -0.727178633213042  0.00314648204948753 0.00297550775576383  0.00314648204948753 0.00297550775576383  0.645436167716979 -0.685922443866729 
825.25  0.598174691200256 -0.728617668151854  0.00310741772409528 0.00313089706469327  0.00310741772409528 0.00313089706469327  0.64681589603424 -0.685896277427672 
825.3125  0.599533736705779 -0.730128347873687  0.00316800863947718 0.00326688692439347  0.00316800863947718 0.00326688692439347  0.6483216881752 -0.686232924461364 
825.375  0.600519776344298 -0.731941461563109  0.00329078931827098 0.00332680367864668  0.00329078931827098 0.00332680367864668  0.650009751319884 -0.686926782131194 
825.4375  0.600864589214324 -0.733673036098479  0.00337514071725308 0.00328938849270343  0.00337514071725308 0.00328938849270343  0.651131033897399 -0.688203394412994 
825.5  0.600736200809478 -0.73524510860443  0.00342002452816813 0.00324554764665663  0.00342002452816813 0.00324554764665663  0.651672840118407 -0.689647614955901 
825.5625  0.600587129592895 -0.73644208908081  0.00342573423404246 0.00324199115857482  0.00342573423404246 0.00324199115857482  0.652003169059752 -0.690950095653533 
825.625  0.600571811199187 -0.73748755455017  0.00345654389820993 0.00323469564318656  0.00345654389820993 0.00323469564318656  0.652310788631438 -0.691980123519896 
825.6875  0.60067182779312 -0.738442182540892  0.00347741041332483 0.00321696617174893  0.00347741041332483 0.00321696617174893  0.652156352996825 -0.693080484867095 
825.75  0.60082584619522 -0.739143311977386  0.00350887153763323 0.00321053783409297  0.00350887153763323 0.00321053783409297  0.651920735836028 -0.693857669830321 
825.8125  0.600833356380462 -0.740308463573455  0.00355814932845532 0.00320851849392056  0.00355814932845532 0.00320851849392056  0.651580750942229 -0.694368660449981 
825.875  0.600757837295531 -0.741384863853454  0.00362880551256239 0.00313574005849659  0.00362880551256239 0.00313574005849659  0.651371777057647 -0.694690287113189 
825.9375  0.600826561450957 -0.742365360260009  0.00362312467768787 0.00302021030802279  0.00362312467768787 0.00302021030802279  0.651282608509063 -0.694796383380889 
826  0.600621104240417 -0.743317425251006  0.00355760264210402 0.00293660024181008  0.00355760264210402 0.00293660024181008  0.651755034923553 -0.694979786872863 
826.0625  0.600453674793243 -0.744329869747161  0.00345995952375232 0.0029183569131419  0.00345995952375232 0.0029183569131419  0.652296841144561 -0.695183336734771 
826.125  0.600288689136504 -0.745339989662169  0.00336076458916068 0.0029604296432808  0.00336076458916068 0.0029604296432808  0.65296173095703 -0.6957990527153 
826.1875  0.600031971931457 -0.746138334274291  0.00335967796854675 0.00304575334303081  0.00335967796854675 0.00304575334303081  0.653394103050231 -0.696584165096282 
826.25  0.599490821361541 -0.747118830680846  0.00339498266112058 0.00310722785070538  0.00339498266112058 0.00310722785070538  0.653876960277556 -0.697454631328582 
