! Matrix data file written by TouchstoneData, EPCOS AG
! FILENAME: "LZ39A_pcb5_WB.s3p_newformat"
! COMMENT: "(LZ39A_pcb5_WB.s3p) Epcos AG 6/8/2011 5:14:0"
! INFO: nport=3, nfreq=1601
! DATE: "Mon Jul  4 19:48:59 2011"
! USER: "Michael Schemies"
!
! port | pin | signal
! -----|-----|--------
!   1  |  1  |  in
!   2  |  3  |  out
!   3  |  4  |  out
! --------------------
!
# MHZ S MA R 50
! freq  magS11 angS11  magS12 angS12  magS13 angS13  ...
1.000000E+02  9.962034E-01 -6.578773E+00  2.994816E-04 8.070230E+01  6.012671E-04 8.581389E+01
2.963017E-04 8.238173E+01  9.979651E-01 -6.024516E+00  4.636597E-04 8.583799E+01
5.742719E-04 8.540859E+01  4.750884E-04 8.795027E+01  9.964183E-01 -6.102856E+00
1.024375E+02  9.962230E-01 -6.738985E+00  2.830962E-04 8.716697E+01  5.886088E-04 8.335478E+01
2.681084E-04 7.944603E+01  9.977897E-01 -6.156150E+00  6.166599E-04 6.123686E+01
6.013466E-04 8.283125E+01  5.942465E-04 6.145915E+01  9.963976E-01 -6.242156E+00
1.048750E+02  9.960905E-01 -6.896393E+00  3.045301E-04 8.719128E+01  6.110541E-04 8.381721E+01
3.053789E-04 7.966896E+01  9.978329E-01 -6.306818E+00  2.994285E-04 8.123260E+01
5.950527E-04 8.490180E+01  3.233363E-04 8.454697E+01  9.966842E-01 -6.374609E+00
1.073125E+02  9.961229E-01 -7.111853E+00  3.084641E-04 8.155585E+01  6.448726E-04 8.317895E+01
3.216186E-04 7.967211E+01  9.966365E-01 -6.520263E+00  4.703141E-04 6.804158E+01
6.242876E-04 8.320712E+01  4.484845E-04 6.988304E+01  9.961456E-01 -6.568359E+00
1.097500E+02  9.961697E-01 -7.261951E+00  2.928337E-04 8.254529E+01  6.396064E-04 8.443806E+01
3.268395E-04 8.368745E+01  9.956398E-01 -6.739466E+00  2.366971E-04 8.784720E+01
6.378818E-04 8.201839E+01  2.269896E-04 9.484514E+01  9.970525E-01 -6.731820E+00
1.121875E+02  9.964343E-01 -7.411900E+00  3.151066E-04 8.470062E+01  6.561214E-04 8.311920E+01
3.032839E-04 8.099485E+01  9.957335E-01 -6.915097E+00  5.406606E-04 8.386829E+01
6.536102E-04 8.295378E+01  5.542599E-04 8.606796E+01  9.967229E-01 -6.901483E+00
1.146250E+02  9.962498E-01 -7.567415E+00  3.107071E-04 8.654214E+01  6.801162E-04 8.107322E+01
3.036432E-04 8.252802E+01  9.954407E-01 -7.104234E+00  4.380787E-04 9.149801E+01
6.752868E-04 8.141103E+01  4.275361E-04 9.021708E+01  9.968241E-01 -7.065186E+00
1.170625E+02  9.960849E-01 -7.784507E+00  2.731351E-04 7.596777E+01  6.548414E-04 7.751186E+01
2.660991E-04 7.173795E+01  9.952466E-01 -7.266425E+00  7.651484E-04 1.065260E+02
6.558298E-04 7.946998E+01  7.316335E-04 1.059282E+02  9.965249E-01 -7.195062E+00
1.195000E+02  9.959236E-01 -7.968301E+00  3.306836E-04 8.036826E+01  6.725930E-04 8.564895E+01
3.382128E-04 7.465705E+01  9.952656E-01 -7.406633E+00  5.645226E-04 8.248461E+01
6.594015E-04 8.392005E+01  5.292300E-04 8.208120E+01  9.969696E-01 -7.377722E+00
1.219375E+02  9.956764E-01 -8.041330E+00  3.483436E-04 7.246622E+01  7.497109E-04 7.609660E+01
3.413753E-04 7.632030E+01  9.953801E-01 -7.474039E+00  4.595233E-04 8.738531E+01
7.252195E-04 7.416494E+01  4.317523E-04 9.281612E+01  9.967443E-01 -7.506633E+00
1.243750E+02  9.955588E-01 -8.207685E+00  3.291567E-04 7.942722E+01  6.867425E-04 7.856958E+01
3.182605E-04 8.193710E+01  9.952813E-01 -7.628933E+00  7.053434E-04 7.853152E+01
7.059346E-04 8.487802E+01  7.270056E-04 7.758912E+01  9.961342E-01 -7.655914E+00
1.268125E+02  9.961064E-01 -8.419344E+00  2.901599E-04 8.495423E+01  7.143993E-04 8.238790E+01
3.408879E-04 8.364429E+01  9.957478E-01 -7.777691E+00  5.396257E-04 8.467619E+01
7.225059E-04 8.163466E+01  5.348454E-04 8.503551E+01  9.967262E-01 -7.795077E+00
1.292500E+02  9.956608E-01 -8.589422E+00  3.393645E-04 8.198168E+01  6.982815E-04 8.100777E+01
3.400268E-04 8.274882E+01  9.957913E-01 -7.929176E+00  5.979743E-04 7.721139E+01
7.194127E-04 7.784152E+01  6.312048E-04 8.186798E+01  9.971646E-01 -7.951456E+00
1.316875E+02  9.957208E-01 -8.743813E+00  3.449422E-04 8.002749E+01  7.343624E-04 8.302710E+01
3.467831E-04 7.902568E+01  9.960285E-01 -8.142822E+00  5.722796E-04 8.530061E+01
7.165270E-04 7.946556E+01  5.626508E-04 8.608953E+01  9.969711E-01 -8.148640E+00
1.341250E+02  9.958534E-01 -8.863662E+00  3.364237E-04 8.584631E+01  7.353630E-04 8.078259E+01
3.411684E-04 8.199567E+01  9.963596E-01 -8.254087E+00  6.244368E-04 7.699747E+01
7.515149E-04 8.163138E+01  6.389482E-04 7.548681E+01  9.967938E-01 -8.233888E+00
1.365625E+02  9.967479E-01 -9.088853E+00  3.817633E-04 8.398614E+01  7.986283E-04 8.004016E+01
3.857014E-04 8.476481E+01  9.952735E-01 -8.424044E+00  6.288691E-04 7.721052E+01
7.914102E-04 8.254961E+01  5.810638E-04 7.543980E+01  9.969682E-01 -8.464610E+00
1.390000E+02  9.965077E-01 -9.188710E+00  3.600862E-04 7.695680E+01  7.826315E-04 8.249543E+01
3.692828E-04 7.591981E+01  9.952202E-01 -8.600906E+00  5.781143E-04 7.749419E+01
7.610480E-04 8.008948E+01  5.769240E-04 7.566925E+01  9.974481E-01 -8.586571E+00
1.414375E+02  9.958741E-01 -9.311187E+00  3.553776E-04 8.423321E+01  8.178551E-04 8.258917E+01
3.673942E-04 7.710446E+01  9.950305E-01 -8.704157E+00  5.973765E-04 8.499518E+01
7.887108E-04 8.100029E+01  5.798588E-04 8.288945E+01  9.971288E-01 -8.698104E+00
1.438750E+02  9.950226E-01 -9.450668E+00  3.604763E-04 8.107235E+01  8.184566E-04 8.330111E+01
3.858943E-04 8.048322E+01  9.946753E-01 -8.853331E+00  6.640593E-04 7.547043E+01
8.264850E-04 8.118163E+01  6.615273E-04 7.695061E+01  9.963461E-01 -8.839124E+00
1.463125E+02  9.964489E-01 -9.609048E+00  4.353577E-04 8.268543E+01  8.682888E-04 8.034263E+01
4.065406E-04 8.385884E+01  9.951026E-01 -8.952744E+00  4.902516E-04 9.072943E+01
8.812734E-04 7.876260E+01  4.675357E-04 9.285254E+01  9.962331E-01 -8.947544E+00
1.487500E+02  9.972124E-01 -9.758449E+00  4.227083E-04 7.883244E+01  8.772629E-04 7.952274E+01
4.425938E-04 8.039139E+01  9.957231E-01 -9.089099E+00  6.498997E-04 8.607176E+01
8.818110E-04 7.784419E+01  7.093292E-04 8.935539E+01  9.969734E-01 -9.079272E+00
1.511875E+02  9.972910E-01 -9.897035E+00  4.174520E-04 7.627895E+01  8.587321E-04 8.364058E+01
4.065858E-04 7.600842E+01  9.953082E-01 -9.231866E+00  7.043362E-04 7.074392E+01
8.627660E-04 7.963362E+01  7.173696E-04 7.660872E+01  9.972433E-01 -9.183289E+00
1.536250E+02  9.967735E-01 -1.007454E+01  4.084447E-04 7.549972E+01  9.288708E-04 7.925060E+01
4.036983E-04 7.906241E+01  9.952913E-01 -9.363446E+00  6.435093E-04 8.060530E+01
8.971539E-04 7.960568E+01  6.276446E-04 7.987697E+01  9.975268E-01 -9.365953E+00
1.560625E+02  9.968217E-01 -1.023188E+01  4.191494E-04 8.249614E+01  8.894538E-04 8.093100E+01
4.199181E-04 7.922386E+01  9.959399E-01 -9.507179E+00  6.687832E-04 7.661259E+01
8.680636E-04 8.071943E+01  6.982122E-04 7.663391E+01  9.974851E-01 -9.526509E+00
1.585000E+02  9.968289E-01 -1.041126E+01  4.326543E-04 7.921154E+01  9.213619E-04 7.864304E+01
3.981447E-04 7.900595E+01  9.956553E-01 -9.667297E+00  5.414473E-04 7.467628E+01
9.386214E-04 7.521298E+01  5.155986E-04 7.398343E+01  9.974854E-01 -9.651498E+00
1.609375E+02  9.965643E-01 -1.054758E+01  4.435826E-04 7.674482E+01  9.155329E-04 8.065037E+01
4.328410E-04 7.703840E+01  9.959393E-01 -9.799116E+00  5.779174E-04 7.789513E+01
8.866515E-04 7.988600E+01  5.534021E-04 7.537046E+01  9.984472E-01 -9.787756E+00
1.633750E+02  9.964114E-01 -1.071260E+01  4.487484E-04 8.261692E+01  9.651136E-04 7.805114E+01
4.412334E-04 8.291867E+01  9.959121E-01 -9.911382E+00  6.501545E-04 6.113411E+01
9.711812E-04 7.625100E+01  6.554107E-04 5.865550E+01  9.979083E-01 -9.957760E+00
1.658125E+02  9.972737E-01 -1.085265E+01  4.873329E-04 7.269713E+01  9.798796E-04 7.716090E+01
5.154778E-04 7.201875E+01  9.949026E-01 -1.006489E+01  5.484006E-04 9.112719E+01
9.679065E-04 7.729855E+01  5.268242E-04 9.130362E+01  9.977269E-01 -1.010991E+01
1.682500E+02  9.962598E-01 -1.099418E+01  4.452430E-04 7.290882E+01  9.873725E-04 7.672331E+01
4.217995E-04 7.832305E+01  9.953502E-01 -1.022410E+01  6.376416E-04 8.107472E+01
1.000732E-03 7.567833E+01  6.546259E-04 8.473620E+01  9.971445E-01 -1.029417E+01
1.706875E+02  9.963229E-01 -1.108649E+01  5.477207E-04 7.590959E+01  1.004059E-03 7.812575E+01
5.304350E-04 7.679116E+01  9.950753E-01 -1.029164E+01  5.477861E-04 1.014156E+02
9.905964E-04 7.650001E+01  5.910122E-04 1.025814E+02  9.966050E-01 -1.036488E+01
1.731250E+02  9.965743E-01 -1.126261E+01  3.898870E-04 7.100212E+01  9.462701E-04 7.696896E+01
4.517860E-04 7.336722E+01  9.951824E-01 -1.039524E+01  7.893543E-04 8.522039E+01
9.613918E-04 7.671193E+01  7.569373E-04 8.530805E+01  9.967532E-01 -1.048086E+01
1.755625E+02  9.971802E-01 -1.143773E+01  4.110450E-04 7.854231E+01  9.921247E-04 7.965356E+01
4.455770E-04 7.828570E+01  9.958651E-01 -1.054782E+01  7.889153E-04 8.177984E+01
9.660059E-04 8.035735E+01  7.394641E-04 7.967012E+01  9.974406E-01 -1.062509E+01
1.780000E+02  9.964001E-01 -1.159121E+01  4.004887E-04 7.367562E+01  9.579433E-04 7.617146E+01
3.594103E-04 7.306150E+01  9.954593E-01 -1.070466E+01  1.061231E-03 8.388723E+01
9.311639E-04 7.612103E+01  1.065181E-03 8.610229E+01  9.980398E-01 -1.078005E+01
1.804375E+02  9.964733E-01 -1.169010E+01  4.420440E-04 7.344615E+01  9.381973E-04 7.994560E+01
4.192429E-04 6.997995E+01  9.955542E-01 -1.078209E+01  9.389348E-04 7.327055E+01
9.615102E-04 7.879204E+01  9.905706E-04 7.175318E+01  9.980772E-01 -1.087118E+01
1.828750E+02  9.974411E-01 -1.182265E+01  4.517283E-04 7.943869E+01  9.974872E-04 7.992605E+01
4.566216E-04 7.471954E+01  9.958851E-01 -1.093006E+01  9.995978E-04 8.367508E+01
9.807842E-04 7.988155E+01  1.006601E-03 8.310094E+01  9.976703E-01 -1.102441E+01
1.853125E+02  9.978188E-01 -1.200112E+01  4.571104E-04 8.000399E+01  9.916311E-04 7.592995E+01
4.462977E-04 7.772402E+01  9.955850E-01 -1.110277E+01  1.095923E-03 5.695112E+01
1.020523E-03 7.794787E+01  1.084168E-03 5.915175E+01  9.978057E-01 -1.119358E+01
1.877500E+02  9.980394E-01 -1.218448E+01  5.027594E-04 7.691449E+01  1.045383E-03 7.670439E+01
4.534026E-04 7.628218E+01  9.963262E-01 -1.127024E+01  8.104673E-04 6.905104E+01
1.015201E-03 7.724761E+01  8.201396E-04 6.994981E+01  9.978391E-01 -1.136521E+01
1.901875E+02  9.975654E-01 -1.235243E+01  4.681826E-04 7.793176E+01  1.091045E-03 7.736231E+01
4.867394E-04 8.070890E+01  9.957547E-01 -1.144305E+01  9.267972E-04 7.229911E+01
1.073752E-03 7.635796E+01  8.539368E-04 7.233461E+01  9.977934E-01 -1.156078E+01
1.926250E+02  9.970843E-01 -1.245565E+01  5.267503E-04 7.287013E+01  1.078762E-03 7.701334E+01
5.189099E-04 7.432171E+01  9.948601E-01 -1.154615E+01  7.107911E-04 6.412677E+01
1.094143E-03 7.785933E+01  7.160498E-04 6.594769E+01  9.967413E-01 -1.167786E+01
1.950625E+02  9.970563E-01 -1.257962E+01  5.236562E-04 7.319943E+01  1.126808E-03 7.541922E+01
4.703656E-04 7.415129E+01  9.938703E-01 -1.160852E+01  7.551240E-04 8.889584E+01
1.081593E-03 7.575889E+01  7.412416E-04 8.830044E+01  9.969268E-01 -1.173086E+01
1.975000E+02  9.969818E-01 -1.278301E+01  4.837274E-04 7.677889E+01  1.106570E-03 7.713737E+01
4.975049E-04 7.539681E+01  9.946185E-01 -1.180994E+01  7.707557E-04 6.742421E+01
1.102458E-03 7.751787E+01  7.395080E-04 6.791126E+01  9.977207E-01 -1.191499E+01
1.999375E+02  9.964136E-01 -1.293437E+01  5.017623E-04 7.659296E+01  1.106430E-03 7.483006E+01
5.061811E-04 7.437719E+01  9.941116E-01 -1.192191E+01  7.799587E-04 7.623153E+01
1.113145E-03 7.795120E+01  8.131665E-04 7.958401E+01  9.972898E-01 -1.206468E+01
2.023750E+02  9.964359E-01 -1.307495E+01  4.934153E-04 7.481043E+01  1.126124E-03 7.874172E+01
5.269105E-04 7.542371E+01  9.944155E-01 -1.202986E+01  7.669009E-04 8.003077E+01
1.115582E-03 7.758097E+01  7.387827E-04 7.959684E+01  9.973827E-01 -1.221569E+01
2.048125E+02  9.964505E-01 -1.322887E+01  5.247302E-04 7.616753E+01  1.130963E-03 7.730655E+01
5.279570E-04 7.552894E+01  9.950982E-01 -1.222445E+01  8.375021E-04 8.050018E+01
1.136529E-03 7.643267E+01  8.317053E-04 8.031758E+01  9.970372E-01 -1.233951E+01
2.072500E+02  9.967133E-01 -1.338013E+01  5.518947E-04 7.654560E+01  1.176453E-03 7.766602E+01
5.511179E-04 7.636611E+01  9.953366E-01 -1.235969E+01  8.217253E-04 7.948714E+01
1.152845E-03 7.818663E+01  8.124877E-04 7.864095E+01  9.972393E-01 -1.254357E+01
2.096875E+02  9.963869E-01 -1.349833E+01  5.213302E-04 7.743943E+01  1.184915E-03 7.710390E+01
5.011780E-04 7.435344E+01  9.967621E-01 -1.249816E+01  8.343743E-04 7.697632E+01
1.163727E-03 7.867810E+01  8.262321E-04 7.766482E+01  9.980712E-01 -1.262786E+01
2.121250E+02  9.963298E-01 -1.366280E+01  5.534895E-04 7.963839E+01  1.183114E-03 7.763562E+01
5.438861E-04 7.731231E+01  9.954653E-01 -1.268946E+01  8.131341E-04 7.494256E+01
1.190630E-03 7.736497E+01  8.366056E-04 7.646008E+01  9.976079E-01 -1.279883E+01
2.145625E+02  9.962665E-01 -1.384079E+01  5.697092E-04 7.527189E+01  1.202699E-03 7.635499E+01
5.670265E-04 7.538467E+01  9.947877E-01 -1.281823E+01  8.362167E-04 7.562061E+01
1.191032E-03 7.713831E+01  8.526070E-04 7.656322E+01  9.971748E-01 -1.296248E+01
2.170000E+02  9.955317E-01 -1.395831E+01  5.363268E-04 7.804577E+01  1.213157E-03 7.650967E+01
5.679092E-04 7.244904E+01  9.929114E-01 -1.287011E+01  7.786473E-04 8.072517E+01
1.262759E-03 7.618732E+01  7.782725E-04 8.306544E+01  9.953441E-01 -1.308185E+01
2.194375E+02  9.964125E-01 -1.410589E+01  5.678071E-04 7.601779E+01  1.211997E-03 7.435838E+01
5.603838E-04 7.609182E+01  9.946454E-01 -1.295597E+01  9.167859E-04 7.436448E+01
1.209681E-03 7.445526E+01  9.288220E-04 7.494030E+01  9.967184E-01 -1.317612E+01
2.218750E+02  9.960028E-01 -1.424868E+01  5.671952E-04 7.580221E+01  1.280600E-03 7.530447E+01
5.574123E-04 7.546605E+01  9.950707E-01 -1.312461E+01  8.023814E-04 7.520933E+01
1.227391E-03 7.632123E+01  8.150751E-04 7.564279E+01  9.967855E-01 -1.329472E+01
2.243125E+02  9.962491E-01 -1.440912E+01  5.684964E-04 7.458185E+01  1.256632E-03 7.577788E+01
5.727460E-04 7.526698E+01  9.948761E-01 -1.327497E+01  8.218843E-04 7.396660E+01
1.241680E-03 7.604479E+01  8.228612E-04 7.429940E+01  9.965312E-01 -1.343655E+01
2.267500E+02  9.965895E-01 -1.456031E+01  5.493232E-04 7.886087E+01  1.261433E-03 7.525884E+01
5.683940E-04 7.571924E+01  9.953429E-01 -1.345948E+01  7.695781E-04 8.781534E+01
1.273655E-03 7.652544E+01  7.592078E-04 8.930503E+01  9.971979E-01 -1.359512E+01
2.291875E+02  9.964721E-01 -1.470078E+01  5.816151E-04 7.766045E+01  1.297004E-03 7.665239E+01
5.916912E-04 7.823983E+01  9.951597E-01 -1.357918E+01  8.755433E-04 8.343101E+01
1.303210E-03 7.612469E+01  8.697492E-04 8.362358E+01  9.967365E-01 -1.377441E+01
2.316250E+02  9.965704E-01 -1.486843E+01  6.136693E-04 7.391517E+01  1.308968E-03 7.392278E+01
6.331034E-04 7.416579E+01  9.952732E-01 -1.373389E+01  8.725794E-04 8.302989E+01
1.307623E-03 7.450907E+01  8.733960E-04 8.229104E+01  9.967571E-01 -1.388763E+01
2.340625E+02  9.956119E-01 -1.499482E+01  5.864818E-04 7.345429E+01  1.328684E-03 7.416885E+01
5.810819E-04 7.300856E+01  9.949835E-01 -1.386340E+01  1.046847E-03 8.112267E+01
1.315292E-03 7.413147E+01  1.072837E-03 8.151458E+01  9.965856E-01 -1.402802E+01
2.365000E+02  9.960311E-01 -1.513991E+01  5.994061E-04 7.317421E+01  1.327336E-03 7.525076E+01
5.830127E-04 7.232846E+01  9.950654E-01 -1.397350E+01  1.095951E-03 7.985961E+01
1.353729E-03 7.379362E+01  1.120483E-03 7.961291E+01  9.967578E-01 -1.415910E+01
2.389375E+02  9.959154E-01 -1.532793E+01  6.041069E-04 7.259330E+01  1.299433E-03 7.267250E+01
6.100204E-04 7.209845E+01  9.949017E-01 -1.415233E+01  1.233083E-03 7.917782E+01
1.262211E-03 7.363635E+01  1.237086E-03 7.978431E+01  9.965310E-01 -1.430000E+01
2.413750E+02  9.949703E-01 -1.548510E+01  5.338425E-04 6.452874E+01  1.337868E-03 7.389246E+01
5.131899E-04 6.548434E+01  9.939418E-01 -1.426090E+01  1.123852E-03 7.195254E+01
1.327385E-03 7.508251E+01  1.137418E-03 7.260717E+01  9.958286E-01 -1.445655E+01
2.438125E+02  9.956337E-01 -1.561904E+01  6.105129E-04 7.984813E+01  1.277527E-03 6.855426E+01
6.001208E-04 7.903089E+01  9.947013E-01 -1.437306E+01  1.010142E-03 6.099188E+01
1.276427E-03 6.948537E+01  1.016246E-03 6.081408E+01  9.956145E-01 -1.450859E+01
2.462500E+02  9.963990E-01 -1.575696E+01  6.225487E-04 6.898558E+01  1.328557E-03 7.792206E+01
6.283702E-04 6.984415E+01  9.940966E-01 -1.458367E+01  1.418145E-03 3.285848E+01
1.345790E-03 7.763881E+01  1.423815E-03 3.140165E+01  9.957840E-01 -1.465091E+01
2.486875E+02  9.961827E-01 -1.590313E+01  6.186869E-04 7.497732E+01  1.356749E-03 7.443512E+01
6.063637E-04 7.387206E+01  9.948609E-01 -1.472242E+01  1.046340E-03 5.853193E+01
1.339138E-03 7.468754E+01  1.053720E-03 5.955313E+01  9.968436E-01 -1.482338E+01
2.511250E+02  9.963062E-01 -1.606860E+01  5.984239E-04 7.467370E+01  1.428645E-03 7.439141E+01
6.026543E-04 7.467525E+01  9.944415E-01 -1.483676E+01  1.009994E-03 7.251968E+01
1.419140E-03 7.389287E+01  1.064915E-03 7.157548E+01  9.968641E-01 -1.498025E+01
2.535625E+02  9.962701E-01 -1.625107E+01  7.435343E-04 7.299584E+01  1.389485E-03 7.303236E+01
7.400046E-04 7.307668E+01  9.943733E-01 -1.500184E+01  7.220761E-04 7.988813E+01
1.377622E-03 7.374051E+01  7.353113E-04 7.946922E+01  9.969288E-01 -1.508097E+01
2.560000E+02  9.963367E-01 -1.642774E+01  6.597222E-04 7.021691E+01  1.468102E-03 7.319834E+01
6.344618E-04 6.735628E+01  9.952767E-01 -1.512489E+01  7.785679E-04 8.416451E+01
1.447658E-03 7.302749E+01  7.853834E-04 8.396332E+01  9.969926E-01 -1.526876E+01
2.584375E+02  9.958032E-01 -1.657985E+01  6.750626E-04 7.322725E+01  1.374028E-03 7.394228E+01
6.843654E-04 7.153257E+01  9.963612E-01 -1.530170E+01  8.480253E-04 8.272162E+01
1.389865E-03 7.180718E+01  8.612501E-04 8.149626E+01  9.972984E-01 -1.538905E+01
2.608750E+02  9.963272E-01 -1.673694E+01  5.604173E-04 6.239455E+01  1.407405E-03 7.230252E+01
5.776707E-04 6.451004E+01  9.951455E-01 -1.541312E+01  1.107215E-03 8.319254E+01
1.408286E-03 7.203266E+01  1.095770E-03 8.219468E+01  9.969442E-01 -1.553972E+01
2.633125E+02  9.956760E-01 -1.690310E+01  6.228835E-04 6.767517E+01  1.446987E-03 7.164713E+01
6.238821E-04 6.761992E+01  9.954677E-01 -1.559953E+01  1.108895E-03 8.175392E+01
1.425741E-03 7.281856E+01  1.134354E-03 8.155796E+01  9.967967E-01 -1.570239E+01
2.657500E+02  9.963175E-01 -1.697878E+01  6.297267E-04 6.784451E+01  1.431843E-03 7.159534E+01
6.108028E-04 6.670019E+01  9.949771E-01 -1.569805E+01  1.172325E-03 8.655900E+01
1.440969E-03 7.192872E+01  1.164823E-03 8.625351E+01  9.956396E-01 -1.580234E+01
2.681875E+02  9.963864E-01 -1.712574E+01  6.018088E-04 7.283900E+01  1.444828E-03 7.362071E+01
5.975700E-04 7.319370E+01  9.953599E-01 -1.581042E+01  1.088402E-03 6.975441E+01
1.479269E-03 7.373041E+01  1.072245E-03 7.071497E+01  9.964293E-01 -1.594925E+01
2.706250E+02  9.965548E-01 -1.728582E+01  6.214043E-04 7.407513E+01  1.466889E-03 7.314870E+01
6.005252E-04 7.292264E+01  9.958704E-01 -1.593933E+01  1.042272E-03 7.047567E+01
1.451640E-03 7.348789E+01  1.027463E-03 7.197148E+01  9.968334E-01 -1.612284E+01
2.730625E+02  9.967291E-01 -1.740742E+01  6.379565E-04 7.525417E+01  1.490836E-03 7.301479E+01
6.496245E-04 7.563954E+01  9.961956E-01 -1.606408E+01  1.053124E-03 7.343452E+01
1.482611E-03 7.342696E+01  1.088538E-03 7.359692E+01  9.974098E-01 -1.628338E+01
2.755000E+02  9.969834E-01 -1.758104E+01  6.764253E-04 7.499281E+01  1.482798E-03 7.327283E+01
7.064203E-04 7.502120E+01  9.965799E-01 -1.625900E+01  1.103594E-03 7.338182E+01
1.494607E-03 7.373092E+01  1.079028E-03 7.290377E+01  9.968284E-01 -1.642560E+01
2.779375E+02  9.971109E-01 -1.776002E+01  6.357805E-04 7.260655E+01  1.505784E-03 7.239281E+01
6.425245E-04 7.230847E+01  9.963973E-01 -1.635808E+01  1.090198E-03 7.340114E+01
1.462225E-03 7.299825E+01  1.098320E-03 7.383603E+01  9.971852E-01 -1.657950E+01
2.803750E+02  9.970375E-01 -1.794705E+01  6.679848E-04 7.116192E+01  1.542728E-03 7.374466E+01
6.798003E-04 7.339786E+01  9.967760E-01 -1.643493E+01  1.126808E-03 7.395162E+01
1.528242E-03 7.195337E+01  1.121737E-03 7.405669E+01  9.972037E-01 -1.673817E+01
2.828125E+02  9.967912E-01 -1.808030E+01  6.666097E-04 7.257935E+01  1.536111E-03 7.182164E+01
7.301187E-04 7.200516E+01  9.978360E-01 -1.654603E+01  1.108517E-03 7.401312E+01
1.530282E-03 7.256867E+01  1.127271E-03 7.258787E+01  9.972731E-01 -1.689611E+01
