! Matrix data file written by TouchstoneData, EPCOS AG
! FILENAME: "LZ28A_X18Y18_Pcb03_WB.s2p_newformat"
! COMMENT: "(LZ28A_X18Y18_Pcb03_WB.s2p) Epcos AG 6/3/201"
! INFO: nport=2, nfreq=1601
! DATE: "Mon Jun 20 20:14:27 2011"
! USER: "Michael Schemies"
!
! port | pin | signal
! -----|-----|--------
!   1  |  1  |  in
!   2  |  4  |  out
! --------------------
!
# MHZ S MA R 50
! freq  magS11 angS11  magS21 angS21  magS12 angS12  magS22 angS22
5.000000E+01  9.939803E-01 -4.468649E+00  5.199331E-04 7.986132E+01  5.619953E-04 8.517751E+01  9.982276E-01 -6.497803E+00
5.246875E+01  9.939159E-01 -4.713689E+00  5.347767E-04 9.608676E+01  5.555049E-04 9.796690E+01  9.984019E-01 -6.844658E+00
5.493750E+01  9.947948E-01 -4.859894E+00  5.523782E-04 8.177027E+01  4.776241E-04 8.106145E+01  9.987587E-01 -7.127009E+00
5.740625E+01  9.951720E-01 -5.190904E+00  4.965169E-04 8.342621E+01  5.162302E-04 8.218494E+01  9.989189E-01 -7.515391E+00
5.987500E+01  9.958780E-01 -5.352165E+00  4.868044E-04 8.719789E+01  4.730783E-04 8.227783E+01  9.988824E-01 -7.802984E+00
6.234375E+01  9.958664E-01 -5.552631E+00  4.443786E-04 6.317887E+01  4.658372E-04 6.440778E+01  9.990607E-01 -8.089022E+00
6.481250E+01  9.966995E-01 -5.785688E+00  5.625507E-04 8.243306E+01  5.479426E-04 8.427824E+01  9.991732E-01 -8.364520E+00
6.728125E+01  9.966506E-01 -5.888984E+00  6.519866E-04 8.373964E+01  6.252283E-04 8.585160E+01  9.990775E-01 -8.597811E+00
6.975000E+01  9.964079E-01 -6.223803E+00  5.540494E-04 6.975095E+01  5.480902E-04 7.469055E+01  9.991528E-01 -9.131661E+00
7.221875E+01  9.959687E-01 -6.388322E+00  6.766426E-04 9.354489E+01  6.990923E-04 9.179446E+01  9.985157E-01 -9.375261E+00
7.468750E+01  9.959800E-01 -6.563960E+00  6.333016E-04 7.586419E+01  6.395721E-04 7.631675E+01  9.979755E-01 -9.641368E+00
7.715625E+01  9.967355E-01 -6.747286E+00  6.986444E-04 7.872210E+01  7.262925E-04 7.823659E+01  9.985103E-01 -9.971826E+00
7.962500E+01  9.966533E-01 -6.988422E+00  6.290650E-04 8.518313E+01  6.482760E-04 8.638720E+01  9.980000E-01 -1.024753E+01
8.209375E+01  9.962711E-01 -7.154284E+00  6.261461E-04 8.228205E+01  6.307766E-04 8.379069E+01  9.986896E-01 -1.053946E+01
8.456250E+01  9.966080E-01 -7.390046E+00  8.317779E-04 7.942019E+01  8.206933E-04 8.231007E+01  9.986326E-01 -1.090598E+01
8.703125E+01  9.968042E-01 -7.644424E+00  6.862817E-04 8.306850E+01  7.246986E-04 8.087278E+01  9.986409E-01 -1.122055E+01
8.950000E+01  9.964918E-01 -7.819945E+00  7.239090E-04 7.801898E+01  7.033902E-04 7.811307E+01  9.990045E-01 -1.148940E+01
9.196875E+01  9.961809E-01 -8.054794E+00  8.431260E-04 8.821324E+01  8.565717E-04 8.898534E+01  9.984183E-01 -1.187532E+01
9.443750E+01  9.961014E-01 -8.283848E+00  8.243625E-04 6.756544E+01  8.108862E-04 6.790943E+01  9.973339E-01 -1.219902E+01
9.690625E+01  9.961331E-01 -8.543931E+00  8.294138E-04 8.082708E+01  8.325628E-04 8.415977E+01  9.982745E-01 -1.256551E+01
9.937500E+01  9.959022E-01 -8.787548E+00  8.575142E-04 7.700912E+01  8.406350E-04 7.731793E+01  9.968522E-01 -1.281764E+01
1.018438E+02  9.958867E-01 -8.957558E+00  1.026082E-03 7.616388E+01  1.045844E-03 7.654001E+01  9.983469E-01 -1.313014E+01
1.043125E+02  9.958834E-01 -9.134761E+00  8.246554E-04 7.846458E+01  8.107607E-04 8.020034E+01  9.974929E-01 -1.345183E+01
1.067812E+02  9.958450E-01 -9.367430E+00  7.405461E-04 7.912448E+01  7.693256E-04 7.800177E+01  9.972491E-01 -1.373215E+01
1.092500E+02  9.961317E-01 -9.613916E+00  9.955604E-04 7.602340E+01  9.995267E-04 7.725232E+01  9.951807E-01 -1.424429E+01
1.117188E+02  9.960051E-01 -9.832475E+00  9.454466E-04 7.084013E+01  9.458151E-04 7.187059E+01  9.950355E-01 -1.457005E+01
1.141875E+02  9.964061E-01 -1.002209E+01  1.077713E-03 7.322663E+01  1.071369E-03 7.621700E+01  9.955034E-01 -1.493158E+01
1.166562E+02  9.963204E-01 -1.027844E+01  9.760355E-04 7.529441E+01  9.910694E-04 7.584295E+01  9.947136E-01 -1.528582E+01
1.191250E+02  9.963323E-01 -1.048779E+01  1.011303E-03 7.709737E+01  9.960082E-04 7.784672E+01  9.946535E-01 -1.560071E+01
1.215938E+02  9.958090E-01 -1.074339E+01  1.131990E-03 7.256082E+01  1.114873E-03 7.236619E+01  9.944654E-01 -1.590749E+01
1.240625E+02  9.945720E-01 -1.093901E+01  1.056955E-03 7.757330E+01  1.049773E-03 7.649868E+01  9.934386E-01 -1.602412E+01
1.265312E+02  9.947835E-01 -1.107834E+01  1.112062E-03 7.527347E+01  1.098765E-03 7.442101E+01  9.944870E-01 -1.635783E+01
1.290000E+02  9.955767E-01 -1.136299E+01  1.125611E-03 7.512543E+01  1.109076E-03 7.654326E+01  9.947355E-01 -1.670503E+01
1.314688E+02  9.958006E-01 -1.160290E+01  1.096798E-03 7.578905E+01  1.139016E-03 7.586597E+01  9.943632E-01 -1.710468E+01
1.339375E+02  9.952179E-01 -1.171347E+01  1.144165E-03 7.564154E+01  1.173785E-03 7.577778E+01  9.944525E-01 -1.743576E+01
1.364062E+02  9.953067E-01 -1.195799E+01  1.174959E-03 7.123101E+01  1.163597E-03 7.309043E+01  9.948499E-01 -1.777537E+01
1.388750E+02  9.955054E-01 -1.222689E+01  1.240514E-03 7.050928E+01  1.182839E-03 7.190448E+01  9.940943E-01 -1.810268E+01
1.413438E+02  9.957128E-01 -1.241724E+01  1.286452E-03 7.264739E+01  1.315324E-03 7.290111E+01  9.945667E-01 -1.837699E+01
1.438125E+02  9.954652E-01 -1.262421E+01  1.303036E-03 7.383688E+01  1.330471E-03 7.443090E+01  9.943977E-01 -1.869690E+01
1.462812E+02  9.952512E-01 -1.288219E+01  1.298457E-03 7.288405E+01  1.300131E-03 7.380626E+01  9.946323E-01 -1.904486E+01
1.487500E+02  9.937912E-01 -1.304578E+01  1.258009E-03 6.777577E+01  1.242241E-03 6.870980E+01  9.940250E-01 -1.923715E+01
1.512188E+02  9.952675E-01 -1.324919E+01  1.085428E-03 6.957390E+01  1.116109E-03 6.929165E+01  9.937419E-01 -1.949602E+01
1.536875E+02  9.947740E-01 -1.346252E+01  1.281895E-03 7.078866E+01  1.312432E-03 7.031892E+01  9.936207E-01 -1.986044E+01
1.561562E+02  9.950499E-01 -1.364628E+01  1.187333E-03 6.296471E+01  1.189322E-03 6.257666E+01  9.929323E-01 -2.000966E+01
1.586250E+02  9.953234E-01 -1.387093E+01  1.266335E-03 7.330604E+01  1.289867E-03 7.528824E+01  9.942931E-01 -2.039931E+01
1.610938E+02  9.955745E-01 -1.408492E+01  1.320677E-03 7.295093E+01  1.349861E-03 7.292401E+01  9.950634E-01 -2.072184E+01
1.635625E+02  9.953267E-01 -1.430540E+01  1.305866E-03 7.150430E+01  1.356147E-03 7.104992E+01  9.945446E-01 -2.106600E+01
1.660312E+02  9.953356E-01 -1.453066E+01  1.375957E-03 7.209240E+01  1.371747E-03 7.353661E+01  9.949768E-01 -2.142535E+01
1.685000E+02  9.951194E-01 -1.477682E+01  1.390859E-03 7.122883E+01  1.388421E-03 7.134234E+01  9.943063E-01 -2.167281E+01
1.709688E+02  9.938622E-01 -1.500250E+01  1.428383E-03 7.147143E+01  1.452727E-03 7.145011E+01  9.932863E-01 -2.200273E+01
1.734375E+02  9.941954E-01 -1.506716E+01  1.478000E-03 6.813365E+01  1.439752E-03 6.777901E+01  9.928863E-01 -2.216557E+01
1.759062E+02  9.949427E-01 -1.526660E+01  1.396350E-03 7.123706E+01  1.432255E-03 7.175693E+01  9.943818E-01 -2.243081E+01
1.783750E+02  9.952362E-01 -1.548323E+01  1.529692E-03 6.905170E+01  1.517524E-03 6.949379E+01  9.948938E-01 -2.282166E+01
1.808438E+02  9.952302E-01 -1.571999E+01  1.501213E-03 6.899934E+01  1.519601E-03 6.870283E+01  9.946387E-01 -2.314291E+01
1.833125E+02  9.947050E-01 -1.589945E+01  1.558057E-03 5.953918E+01  1.564325E-03 6.078544E+01  9.912595E-01 -2.346472E+01
1.857812E+02  9.946251E-01 -1.617096E+01  1.536822E-03 6.937482E+01  1.524755E-03 6.898468E+01  9.944591E-01 -2.365638E+01
1.882500E+02  9.954019E-01 -1.639970E+01  1.632309E-03 7.023297E+01  1.646475E-03 6.936216E+01  9.947929E-01 -2.403428E+01
1.907188E+02  9.958601E-01 -1.659884E+01  1.597764E-03 6.971062E+01  1.598602E-03 6.886192E+01  9.952440E-01 -2.434848E+01
1.931875E+02  9.950976E-01 -1.677306E+01  1.649742E-03 6.796411E+01  1.653579E-03 6.851125E+01  9.942150E-01 -2.466259E+01
1.956562E+02  9.937811E-01 -1.697712E+01  1.670939E-03 6.944095E+01  1.640816E-03 7.123045E+01  9.938139E-01 -2.496948E+01
1.981250E+02  9.941832E-01 -1.709952E+01  1.694161E-03 6.707360E+01  1.674404E-03 6.759781E+01  9.939734E-01 -2.523982E+01
2.005938E+02  9.944158E-01 -1.734967E+01  1.513707E-03 6.050208E+01  1.533451E-03 6.068107E+01  9.922925E-01 -2.539149E+01
2.030625E+02  9.945444E-01 -1.758361E+01  1.633281E-03 6.686593E+01  1.637895E-03 6.779826E+01  9.942033E-01 -2.579477E+01
2.055312E+02  9.943024E-01 -1.776719E+01  1.660506E-03 6.414563E+01  1.695284E-03 6.329689E+01  9.942449E-01 -2.608486E+01
2.080000E+02  9.946210E-01 -1.798848E+01  1.738237E-03 6.574863E+01  1.729519E-03 6.600040E+01  9.957386E-01 -2.641814E+01
2.104688E+02  9.953335E-01 -1.820669E+01  1.758030E-03 6.385885E+01  1.766302E-03 6.412122E+01  9.947651E-01 -2.669774E+01
2.129375E+02  9.951208E-01 -1.838440E+01  1.667434E-03 6.836563E+01  1.704567E-03 6.847531E+01  9.949398E-01 -2.700281E+01
2.154062E+02  9.953220E-01 -1.866019E+01  1.772537E-03 6.766157E+01  1.807827E-03 6.753453E+01  9.946023E-01 -2.730704E+01
2.178750E+02  9.946691E-01 -1.890686E+01  1.803336E-03 6.581594E+01  1.835258E-03 6.569063E+01  9.947389E-01 -2.764244E+01
2.203438E+02  9.921226E-01 -1.910359E+01  1.901690E-03 6.268371E+01  1.896354E-03 6.357133E+01  9.924197E-01 -2.796688E+01
2.228125E+02  9.934243E-01 -1.920436E+01  1.744240E-03 6.677015E+01  1.742889E-03 6.695746E+01  9.936441E-01 -2.810224E+01
2.252812E+02  9.936045E-01 -1.940777E+01  1.908122E-03 6.578176E+01  1.921508E-03 6.576824E+01  9.946097E-01 -2.848726E+01
2.277500E+02  9.941161E-01 -1.959672E+01  1.881672E-03 5.675046E+01  1.899469E-03 5.663205E+01  9.930895E-01 -2.880272E+01
2.302188E+02  9.945529E-01 -1.982156E+01  1.874234E-03 6.331407E+01  1.866129E-03 6.340999E+01  9.944939E-01 -2.907079E+01
2.326875E+02  9.942394E-01 -1.999705E+01  1.937618E-03 6.319589E+01  1.938896E-03 6.410271E+01  9.936954E-01 -2.951870E+01
2.351562E+02  9.946978E-01 -2.027930E+01  1.923058E-03 6.349206E+01  1.931403E-03 6.381324E+01  9.945780E-01 -2.967544E+01
2.376250E+02  9.946646E-01 -2.053570E+01  1.910314E-03 6.338119E+01  1.907699E-03 6.322573E+01  9.944376E-01 -2.998969E+01
2.400938E+02  9.950949E-01 -2.074045E+01  1.945632E-03 6.352152E+01  1.967883E-03 6.368622E+01  9.945337E-01 -3.036161E+01
2.425625E+02  9.949133E-01 -2.103360E+01  1.961609E-03 6.394544E+01  1.981590E-03 6.393778E+01  9.941530E-01 -3.072796E+01
2.450312E+02  9.936036E-01 -2.119259E+01  1.911929E-03 6.205207E+01  1.914352E-03 6.134399E+01  9.920238E-01 -3.076248E+01
2.475000E+02  9.934168E-01 -2.132785E+01  1.947752E-03 6.218716E+01  1.923737E-03 6.212886E+01  9.939194E-01 -3.115137E+01
2.499688E+02  9.925507E-01 -2.152043E+01  1.986824E-03 5.826078E+01  1.965709E-03 5.855386E+01  9.926805E-01 -3.140488E+01
2.524375E+02  9.941172E-01 -2.179074E+01  2.023315E-03 6.264692E+01  2.039674E-03 6.301941E+01  9.941637E-01 -3.174628E+01
2.549062E+02  9.950973E-01 -2.199308E+01  2.013882E-03 6.329651E+01  2.028614E-03 6.344582E+01  9.942773E-01 -3.211185E+01
2.573750E+02  9.946460E-01 -2.218488E+01  2.004123E-03 6.240215E+01  1.989551E-03 6.305182E+01  9.948558E-01 -3.244838E+01
2.598438E+02  9.946586E-01 -2.242518E+01  2.081272E-03 6.306148E+01  2.113074E-03 6.241862E+01  9.949636E-01 -3.275408E+01
2.623125E+02  9.949988E-01 -2.266248E+01  2.125798E-03 6.051380E+01  2.142454E-03 6.163085E+01  9.949421E-01 -3.301763E+01
2.647812E+02  9.948522E-01 -2.285371E+01  2.138816E-03 6.104346E+01  2.127902E-03 6.136102E+01  9.952155E-01 -3.337342E+01
2.672500E+02  9.941078E-01 -2.303743E+01  2.126336E-03 6.198085E+01  2.136067E-03 6.200604E+01  9.951831E-01 -3.370049E+01
2.697188E+02  9.921121E-01 -2.322321E+01  2.170666E-03 6.094081E+01  2.155355E-03 6.108661E+01  9.925685E-01 -3.397420E+01
2.721875E+02  9.934562E-01 -2.339646E+01  2.207806E-03 5.849109E+01  2.211007E-03 5.858635E+01  9.927432E-01 -3.424173E+01
2.746562E+02  9.936589E-01 -2.362565E+01  2.331353E-03 5.907603E+01  2.361856E-03 5.926252E+01  9.947125E-01 -3.452052E+01
2.771250E+02  9.937522E-01 -2.384106E+01  2.385236E-03 5.851849E+01  2.417198E-03 5.839286E+01  9.939410E-01 -3.494332E+01
2.795938E+02  9.942703E-01 -2.408347E+01  2.061259E-03 5.889604E+01  2.075461E-03 5.956670E+01  9.952023E-01 -3.504581E+01
2.820625E+02  9.945478E-01 -2.429740E+01  2.245853E-03 5.996120E+01  2.245783E-03 6.070510E+01  9.959020E-01 -3.537921E+01
2.845312E+02  9.941030E-01 -2.447057E+01  2.268925E-03 5.972440E+01  2.280705E-03 5.961144E+01  9.961781E-01 -3.577611E+01
2.870000E+02  9.941454E-01 -2.468977E+01  2.227110E-03 5.825884E+01  2.225377E-03 5.876886E+01  9.954905E-01 -3.609676E+01
2.894688E+02  9.945032E-01 -2.490246E+01  2.195941E-03 5.722451E+01  2.192600E-03 5.798811E+01  9.943357E-01 -3.614597E+01
2.919375E+02  9.941342E-01 -2.518298E+01  2.297758E-03 5.637231E+01  2.307654E-03 5.643234E+01  9.963088E-01 -3.648388E+01
2.944062E+02  9.919773E-01 -2.528859E+01  2.285100E-03 5.640160E+01  2.278309E-03 5.665784E+01  9.930503E-01 -3.672592E+01
2.968750E+02  9.925296E-01 -2.552380E+01  2.272872E-03 5.872141E+01  2.277789E-03 5.896751E+01  9.961590E-01 -3.702577E+01
2.993438E+02  9.924365E-01 -2.570735E+01  2.333829E-03 5.818632E+01  2.305465E-03 5.842547E+01  9.953735E-01 -3.732100E+01
3.018125E+02  9.927318E-01 -2.592720E+01  2.321075E-03 5.768006E+01  2.336401E-03 5.710919E+01  9.953086E-01 -3.760087E+01
3.042812E+02  9.933402E-01 -2.616862E+01  2.285152E-03 5.693623E+01  2.326097E-03 5.732083E+01  9.954456E-01 -3.790707E+01
3.067500E+02  9.937646E-01 -2.635104E+01  2.331665E-03 5.714775E+01  2.352948E-03 5.649878E+01  9.952450E-01 -3.819834E+01
3.092188E+02  9.942131E-01 -2.654519E+01  2.430864E-03 5.728787E+01  2.479931E-03 5.716707E+01  9.955660E-01 -3.851198E+01
3.116875E+02  9.935052E-01 -2.678006E+01  2.415263E-03 5.579251E+01  2.449860E-03 5.609261E+01  9.955686E-01 -3.879765E+01
3.141562E+02  9.931323E-01 -2.696230E+01  2.415992E-03 5.716409E+01  2.406403E-03 5.712050E+01  9.956114E-01 -3.914278E+01
3.166250E+02  9.924832E-01 -2.723623E+01  2.507544E-03 5.678811E+01  2.478999E-03 5.650749E+01  9.952182E-01 -3.949529E+01
3.190938E+02  9.908346E-01 -2.731694E+01  2.603892E-03 5.501212E+01  2.599405E-03 5.559754E+01  9.932993E-01 -3.971258E+01
3.215625E+02  9.917724E-01 -2.756905E+01  2.493498E-03 5.348372E+01  2.506446E-03 5.333074E+01  9.921399E-01 -4.006666E+01
3.240312E+02  9.922873E-01 -2.772773E+01  2.470876E-03 5.477211E+01  2.473727E-03 5.522852E+01  9.943582E-01 -4.020124E+01
3.265000E+02  9.922584E-01 -2.797503E+01  2.487978E-03 5.480316E+01  2.486928E-03 5.497259E+01  9.943065E-01 -4.052263E+01
3.289688E+02  9.929489E-01 -2.820452E+01  2.462361E-03 5.461476E+01  2.471080E-03 5.336046E+01  9.949203E-01 -4.079450E+01
3.314375E+02  9.927604E-01 -2.839889E+01  2.571073E-03 5.457665E+01  2.586558E-03 5.441067E+01  9.953306E-01 -4.113283E+01
3.339062E+02  9.929157E-01 -2.862459E+01  2.432967E-03 5.338153E+01  2.447499E-03 5.413424E+01  9.945529E-01 -4.137068E+01
3.363750E+02  9.927013E-01 -2.883998E+01  2.568157E-03 5.336856E+01  2.544275E-03 5.394374E+01  9.942267E-01 -4.174739E+01
3.388438E+02  9.924999E-01 -2.907797E+01  2.488034E-03 5.086774E+01  2.478279E-03 5.129857E+01  9.921366E-01 -4.198889E+01
3.413125E+02  9.915899E-01 -2.934793E+01  2.500962E-03 5.265719E+01  2.501902E-03 5.220175E+01  9.937171E-01 -4.239174E+01
3.437812E+02  9.907886E-01 -2.944542E+01  2.546994E-03 5.329000E+01  2.552730E-03 5.306267E+01  9.923748E-01 -4.259832E+01
3.462500E+02  9.914323E-01 -2.966923E+01  2.582005E-03 5.504957E+01  2.557469E-03 5.415395E+01  9.933517E-01 -4.290639E+01
3.487188E+02  9.920464E-01 -2.985066E+01  2.655418E-03 5.132917E+01  2.671290E-03 5.088069E+01  9.932510E-01 -4.320033E+01
3.511875E+02  9.922505E-01 -3.005237E+01  2.563911E-03 5.287197E+01  2.586847E-03 5.206542E+01  9.938679E-01 -4.352991E+01
3.536562E+02  9.922912E-01 -3.028259E+01  2.620880E-03 5.324941E+01  2.620374E-03 5.242076E+01  9.946821E-01 -4.384511E+01
3.561250E+02  9.920468E-01 -3.048837E+01  2.704382E-03 5.210889E+01  2.722780E-03 5.175042E+01  9.936514E-01 -4.407100E+01
3.585938E+02  9.916204E-01 -3.073477E+01  2.578007E-03 5.098491E+01  2.587489E-03 5.113943E+01  9.942653E-01 -4.442284E+01
3.610625E+02  9.917112E-01 -3.099093E+01  2.766964E-03 5.260614E+01  2.772640E-03 5.242859E+01  9.944784E-01 -4.479807E+01
3.635312E+02  9.913752E-01 -3.124231E+01  2.776004E-03 5.063072E+01  2.754919E-03 5.115194E+01  9.937524E-01 -4.513656E+01
3.660000E+02  9.898468E-01 -3.149518E+01  2.778985E-03 4.892222E+01  2.774633E-03 4.910655E+01  9.901545E-01 -4.563929E+01
3.684688E+02  9.898851E-01 -3.155740E+01  2.712240E-03 4.900144E+01  2.703153E-03 4.892716E+01  9.912253E-01 -4.549910E+01
3.709375E+02  9.904463E-01 -3.174236E+01  2.722063E-03 4.865450E+01  2.711636E-03 4.851762E+01  9.919463E-01 -4.588977E+01
3.734062E+02  9.914829E-01 -3.199102E+01  2.726487E-03 5.060009E+01  2.754650E-03 5.070602E+01  9.932483E-01 -4.610188E+01
3.758750E+02  9.912075E-01 -3.222242E+01  2.740275E-03 5.101275E+01  2.739519E-03 5.023512E+01  9.935620E-01 -4.646516E+01
3.783438E+02  9.912467E-01 -3.248295E+01  2.822321E-03 4.927371E+01  2.837849E-03 4.908499E+01  9.935057E-01 -4.674948E+01
3.808125E+02  9.910205E-01 -3.270414E+01  2.734249E-03 4.795673E+01  2.738751E-03 4.772682E+01  9.926958E-01 -4.709373E+01
3.832812E+02  9.912419E-01 -3.291620E+01  2.758017E-03 4.876746E+01  2.760145E-03 4.860100E+01  9.904616E-01 -4.732880E+01
3.857500E+02  9.909607E-01 -3.317305E+01  2.860615E-03 4.818957E+01  2.859990E-03 4.820527E+01  9.939081E-01 -4.767762E+01
3.882188E+02  9.898569E-01 -3.341203E+01  2.785575E-03 4.938458E+01  2.776614E-03 4.952914E+01  9.927712E-01 -4.799017E+01
3.906875E+02  9.878760E-01 -3.365135E+01  2.788218E-03 4.974823E+01  2.789266E-03 4.993718E+01  9.916497E-01 -4.832364E+01
3.931562E+02  9.886158E-01 -3.374322E+01  2.907333E-03 4.716055E+01  2.911000E-03 4.670950E+01  9.908091E-01 -4.849639E+01
3.956250E+02  9.897696E-01 -3.394698E+01  2.803137E-03 4.896059E+01  2.808847E-03 4.860260E+01  9.922200E-01 -4.882711E+01
3.980938E+02  9.908020E-01 -3.419952E+01  2.903555E-03 4.781454E+01  2.904049E-03 4.806757E+01  9.924557E-01 -4.913684E+01
4.005625E+02  9.898974E-01 -3.442081E+01  2.874760E-03 4.726599E+01  2.880113E-03 4.732835E+01  9.919380E-01 -4.937638E+01
4.030312E+02  9.902434E-01 -3.463311E+01  2.809878E-03 4.638820E+01  2.835747E-03 4.639113E+01  9.920759E-01 -4.970641E+01
4.055000E+02  9.906043E-01 -3.485114E+01  2.881098E-03 4.665680E+01  2.898996E-03 4.700394E+01  9.927657E-01 -4.998934E+01
4.079688E+02  9.896163E-01 -3.509708E+01  3.003476E-03 4.636126E+01  2.985169E-03 4.638543E+01  9.921730E-01 -5.036680E+01
4.104375E+02  9.893160E-01 -3.533639E+01  2.964908E-03 4.447872E+01  2.974368E-03 4.495232E+01  9.888582E-01 -5.062450E+01
4.129062E+02  9.895903E-01 -3.562428E+01  2.949165E-03 4.473033E+01  2.928210E-03 4.447638E+01  9.920804E-01 -5.091689E+01
4.153750E+02  9.876305E-01 -3.582412E+01  2.921135E-03 4.483330E+01  2.927568E-03 4.490196E+01  9.874229E-01 -5.133920E+01
4.178438E+02  9.877164E-01 -3.592652E+01  2.942319E-03 4.602795E+01  2.930208E-03 4.608299E+01  9.894809E-01 -5.122906E+01
4.203125E+02  9.880125E-01 -3.612538E+01  2.934284E-03 4.562797E+01  2.945834E-03 4.565761E+01  9.910798E-01 -5.160134E+01
4.227812E+02  9.886480E-01 -3.638754E+01  2.889042E-03 4.608585E+01  2.895258E-03 4.610874E+01  9.911204E-01 -5.190965E+01
4.252500E+02  9.881155E-01 -3.659739E+01  2.957823E-03 4.508646E+01  2.973593E-03 4.495707E+01  9.908704E-01 -5.224654E+01
4.277188E+02  9.877465E-01 -3.676922E+01  3.094864E-03 4.561156E+01  3.074235E-03 4.497304E+01  9.904018E-01 -5.244860E+01
4.301875E+02  9.887989E-01 -3.699670E+01  3.012481E-03 4.353653E+01  3.010303E-03 4.366860E+01  9.915066E-01 -5.279695E+01
4.326562E+02  9.892378E-01 -3.718527E+01  2.958214E-03 4.407139E+01  2.989992E-03 4.460782E+01  9.916929E-01 -5.307895E+01
4.351250E+02  9.887783E-01 -3.743988E+01  3.054056E-03 4.444527E+01  3.067919E-03 4.441545E+01  9.918212E-01 -5.340260E+01
4.375938E+02  9.883865E-01 -3.774203E+01  3.074040E-03 4.397271E+01  3.075957E-03 4.431266E+01  9.917469E-01 -5.373645E+01
