! Matrix data file written by TouchstoneData, EPCOS AG
! FILENAME: "B4315_WB_matched.s2p"
! COMMENT: "including matching"
! INFO: nport=2, nfreq=1601
! DATE: "Thu Jan 31 15:53:01 2013"
! USER: "Michael Schemies"
!
! port | pin | signal
! -----|-----|--------
!   1  |  1  |  in
!   2  |  4  |  out
! --------------------
!
# MHZ S MA R 50
! freq  magS11 angS11  magS21 angS21  magS12 angS12  magS22 angS22
5.000000E+01  9.999768E-01 1.656192E+02  6.000953E-06 -1.078536E+02  6.000953E-06 -1.078536E+02  9.999940E-01 1.727958E+02
5.371875E+01  9.999681E-01 1.645534E+02  8.396231E-06 -1.047580E+02  8.396231E-06 -1.047580E+02  9.999946E-01 1.722589E+02
5.743750E+01  9.999275E-01 1.634890E+02  9.771972E-06 -1.036899E+02  9.771972E-06 -1.036899E+02  9.999913E-01 1.717224E+02
6.115625E+01  9.999481E-01 1.624232E+02  1.206678E-05 -1.067742E+02  1.206678E-05 -1.067742E+02  9.999891E-01 1.711856E+02
6.487500E+01  9.999355E-01 1.613584E+02  1.482361E-05 -1.061782E+02  1.482361E-05 -1.061782E+02  9.999921E-01 1.706480E+02
6.859375E+01  9.999554E-01 1.602955E+02  1.697986E-05 -1.072997E+02  1.697986E-05 -1.072997E+02  9.999876E-01 1.701111E+02
7.231250E+01  9.998575E-01 1.592326E+02  2.205955E-05 -1.093878E+02  2.205955E-05 -1.093878E+02  9.999825E-01 1.695741E+02
7.603125E+01  9.999331E-01 1.581735E+02  2.344407E-05 -1.075541E+02  2.344407E-05 -1.075541E+02  9.999796E-01 1.690361E+02
7.975000E+01  9.999027E-01 1.571112E+02  2.678066E-05 -1.073416E+02  2.678066E-05 -1.073416E+02  9.999750E-01 1.684983E+02
8.346875E+01  9.999290E-01 1.560532E+02  3.066312E-05 -1.100974E+02  3.066312E-05 -1.100974E+02  9.999864E-01 1.679600E+02
8.718750E+01  9.999197E-01 1.549959E+02  3.568889E-05 -1.103435E+02  3.568889E-05 -1.103435E+02  9.999783E-01 1.674229E+02
9.090625E+01  9.999073E-01 1.539366E+02  4.059722E-05 -1.110421E+02  4.059722E-05 -1.110421E+02  9.999797E-01 1.668842E+02
9.462500E+01  9.999635E-01 1.528798E+02  4.376208E-05 -1.112558E+02  4.376208E-05 -1.112558E+02  9.999885E-01 1.663447E+02
9.834375E+01  9.999147E-01 1.518249E+02  4.744519E-05 -1.116996E+02  4.744519E-05 -1.116996E+02  9.999739E-01 1.658060E+02
1.020625E+02  9.998582E-01 1.507730E+02  5.418338E-05 -1.131143E+02  5.418338E-05 -1.131143E+02  9.999608E-01 1.652665E+02
1.057812E+02  9.998805E-01 1.497204E+02  6.247673E-05 -1.134799E+02  6.247673E-05 -1.134799E+02  9.999678E-01 1.647264E+02
1.095000E+02  9.998582E-01 1.486735E+02  6.842208E-05 -1.179854E+02  6.842208E-05 -1.179854E+02  9.999480E-01 1.641855E+02
1.132188E+02  9.998319E-01 1.476237E+02  7.777649E-05 -1.165911E+02  7.777649E-05 -1.165911E+02  9.999716E-01 1.636454E+02
1.169375E+02  9.997330E-01 1.465729E+02  8.248941E-05 -1.158707E+02  8.248941E-05 -1.158707E+02  9.999399E-01 1.631063E+02
1.206562E+02  9.997095E-01 1.455188E+02  9.157142E-05 -1.221352E+02  9.157142E-05 -1.221352E+02  9.999041E-01 1.625642E+02
1.243750E+02  9.997690E-01 1.444819E+02  9.734390E-05 -1.194656E+02  9.734390E-05 -1.194656E+02  9.999150E-01 1.620250E+02
1.280938E+02  9.998515E-01 1.434353E+02  1.072515E-04 -1.198830E+02  1.072515E-04 -1.198830E+02  9.999277E-01 1.614834E+02
1.318125E+02  9.997041E-01 1.423983E+02  1.146388E-04 -1.201052E+02  1.146388E-04 -1.201052E+02  9.999461E-01 1.609409E+02
1.355312E+02  9.996065E-01 1.413542E+02  1.294860E-04 -1.203189E+02  1.294860E-04 -1.203189E+02  9.999348E-01 1.603977E+02
1.392500E+02  9.995511E-01 1.403199E+02  1.349067E-04 -1.219937E+02  1.349067E-04 -1.219937E+02  9.999458E-01 1.598536E+02
1.429688E+02  9.997520E-01 1.392778E+02  1.523389E-04 -1.227575E+02  1.523389E-04 -1.227575E+02  9.998613E-01 1.593113E+02
1.466875E+02  9.995901E-01 1.382427E+02  1.686558E-04 -1.251612E+02  1.686558E-04 -1.251612E+02  9.998575E-01 1.587671E+02
1.504062E+02  9.996541E-01 1.372178E+02  1.679859E-04 -1.241075E+02  1.679859E-04 -1.241075E+02  9.998769E-01 1.582273E+02
1.541250E+02  9.995035E-01 1.361800E+02  1.845929E-04 -1.256745E+02  1.845929E-04 -1.256745E+02  9.998600E-01 1.576789E+02
1.578438E+02  9.994351E-01 1.351473E+02  1.937122E-04 -1.254666E+02  1.937122E-04 -1.254666E+02  9.999259E-01 1.571381E+02
1.615625E+02  9.994810E-01 1.341221E+02  2.129315E-04 -1.258108E+02  2.129315E-04 -1.258108E+02  9.998561E-01 1.565930E+02
1.652812E+02  9.995720E-01 1.330971E+02  2.275274E-04 -1.277854E+02  2.275274E-04 -1.277854E+02  9.998485E-01 1.560458E+02
1.690000E+02  9.992066E-01 1.320705E+02  2.407124E-04 -1.280861E+02  2.407124E-04 -1.280861E+02  9.997525E-01 1.554986E+02
1.727188E+02  9.993693E-01 1.310596E+02  2.553840E-04 -1.289341E+02  2.553840E-04 -1.289341E+02  9.998173E-01 1.549562E+02
1.764375E+02  9.994371E-01 1.300449E+02  2.697819E-04 -1.287284E+02  2.697819E-04 -1.287284E+02  9.998431E-01 1.544070E+02
1.801562E+02  9.992425E-01 1.290365E+02  2.888093E-04 -1.293239E+02  2.888093E-04 -1.293239E+02  9.998736E-01 1.538605E+02
1.838750E+02  9.992722E-01 1.280109E+02  3.076072E-04 -1.302030E+02  3.076072E-04 -1.302030E+02  9.998981E-01 1.533103E+02
1.875938E+02  9.994979E-01 1.269957E+02  3.288897E-04 -1.310881E+02  3.288897E-04 -1.310881E+02  9.998602E-01 1.527642E+02
1.913125E+02  9.993266E-01 1.259782E+02  3.502341E-04 -1.316703E+02  3.502341E-04 -1.316703E+02  9.997717E-01 1.522118E+02
1.950312E+02  9.991739E-01 1.249729E+02  3.753884E-04 -1.349272E+02  3.753884E-04 -1.349272E+02  9.997972E-01 1.516669E+02
1.987500E+02  9.989755E-01 1.239807E+02  3.869532E-04 -1.341814E+02  3.869532E-04 -1.341814E+02  9.998461E-01 1.511241E+02
2.024688E+02  9.991325E-01 1.229659E+02  4.018667E-04 -1.349840E+02  4.018667E-04 -1.349840E+02  9.998115E-01 1.505689E+02
2.061875E+02  9.991753E-01 1.219732E+02  4.299606E-04 -1.356829E+02  4.299606E-04 -1.356829E+02  9.998452E-01 1.500187E+02
2.099062E+02  9.993008E-01 1.209883E+02  4.493616E-04 -1.363287E+02  4.493616E-04 -1.363287E+02  9.998497E-01 1.494681E+02
2.136250E+02  9.990192E-01 1.199762E+02  4.862413E-04 -1.371490E+02  4.862413E-04 -1.371490E+02  9.997276E-01 1.489088E+02
2.173438E+02  9.988374E-01 1.189960E+02  5.071271E-04 -1.390611E+02  5.071271E-04 -1.390611E+02  9.996173E-01 1.483654E+02
2.210625E+02  9.990132E-01 1.180105E+02  5.235029E-04 -1.393187E+02  5.235029E-04 -1.393187E+02  9.997988E-01 1.478175E+02
2.247812E+02  9.990923E-01 1.170249E+02  5.405305E-04 -1.400408E+02  5.405305E-04 -1.400408E+02  9.997186E-01 1.472599E+02
2.285000E+02  9.989257E-01 1.160209E+02  5.848279E-04 -1.424430E+02  5.848279E-04 -1.424430E+02  9.996640E-01 1.467043E+02
2.322188E+02  9.986288E-01 1.150107E+02  6.030451E-04 -1.417741E+02  6.030451E-04 -1.417741E+02  9.995953E-01 1.461421E+02
2.359375E+02  9.985286E-01 1.140609E+02  6.026907E-04 -1.420665E+02  6.026907E-04 -1.420665E+02  9.997681E-01 1.456022E+02
2.396562E+02  9.985280E-01 1.130676E+02  6.603679E-04 -1.424304E+02  6.603679E-04 -1.424304E+02  9.996376E-01 1.450361E+02
2.433750E+02  9.986737E-01 1.121385E+02  6.776487E-04 -1.440244E+02  6.776487E-04 -1.440244E+02  9.996272E-01 1.444931E+02
2.470938E+02  9.986753E-01 1.111449E+02  7.056434E-04 -1.444319E+02  7.056434E-04 -1.444319E+02  9.997520E-01 1.439370E+02
2.508125E+02  9.988409E-01 1.101671E+02  7.468325E-04 -1.451583E+02  7.468325E-04 -1.451583E+02  9.996565E-01 1.433780E+02
2.545312E+02  9.986122E-01 1.092151E+02  7.711335E-04 -1.451409E+02  7.711335E-04 -1.451409E+02  9.997810E-01 1.428222E+02
2.582500E+02  9.987057E-01 1.082292E+02  8.031928E-04 -1.466915E+02  8.031928E-04 -1.466915E+02  9.996840E-01 1.422607E+02
2.619688E+02  9.987162E-01 1.072619E+02  8.408847E-04 -1.464960E+02  8.408847E-04 -1.464960E+02  9.996840E-01 1.416941E+02
2.656875E+02  9.981892E-01 1.063394E+02  8.804530E-04 -1.483479E+02  8.804530E-04 -1.483479E+02  9.994317E-01 1.411430E+02
2.694062E+02  9.985841E-01 1.053838E+02  8.936353E-04 -1.491296E+02  8.936353E-04 -1.491296E+02  9.996746E-01 1.405931E+02
2.731250E+02  9.983601E-01 1.044184E+02  9.405420E-04 -1.492532E+02  9.405420E-04 -1.492532E+02  9.996208E-01 1.400316E+02
2.768438E+02  9.982757E-01 1.034746E+02  9.829818E-04 -1.502763E+02  9.829818E-04 -1.502763E+02  9.996487E-01 1.394680E+02
2.805625E+02  9.982210E-01 1.025395E+02  1.007900E-03 -1.500884E+02  1.007900E-03 -1.500884E+02  9.995681E-01 1.388909E+02
2.842812E+02  9.983405E-01 1.015751E+02  1.052285E-03 -1.510128E+02  1.052285E-03 -1.510128E+02  9.996014E-01 1.383345E+02
2.880000E+02  9.983675E-01 1.006304E+02  1.119622E-03 -1.518451E+02  1.119622E-03 -1.518451E+02  9.995238E-01 1.377573E+02
2.917188E+02  9.976513E-01 9.972101E+01  1.138010E-03 -1.533000E+02  1.138010E-03 -1.533000E+02  9.994258E-01 1.372105E+02
2.954375E+02  9.978516E-01 9.878233E+01  1.187885E-03 -1.537407E+02  1.187885E-03 -1.537407E+02  9.994711E-01 1.366460E+02
2.991562E+02  9.974921E-01 9.785208E+01  1.219294E-03 -1.545052E+02  1.219294E-03 -1.545052E+02  9.994339E-01 1.360824E+02
3.028750E+02  9.977070E-01 9.690289E+01  1.275270E-03 -1.568929E+02  1.275270E-03 -1.568929E+02  9.994603E-01 1.355117E+02
3.065938E+02  9.981553E-01 9.600493E+01  1.285532E-03 -1.572929E+02  1.285532E-03 -1.572929E+02  9.994047E-01 1.349455E+02
3.103125E+02  9.978956E-01 9.505796E+01  1.344991E-03 -1.576275E+02  1.344991E-03 -1.576275E+02  9.993130E-01 1.343776E+02
3.140312E+02  9.969212E-01 9.418605E+01  1.353844E-03 -1.592222E+02  1.353844E-03 -1.592222E+02  9.990876E-01 1.338236E+02
3.177500E+02  9.974497E-01 9.324671E+01  1.392777E-03 -1.588781E+02  1.392777E-03 -1.588781E+02  9.993532E-01 1.332581E+02
3.214688E+02  9.970960E-01 9.232190E+01  1.444413E-03 -1.589380E+02  1.444413E-03 -1.589380E+02  9.994514E-01 1.326941E+02
3.251875E+02  9.971378E-01 9.140279E+01  1.502881E-03 -1.598411E+02  1.502881E-03 -1.598411E+02  9.992838E-01 1.321142E+02
3.289062E+02  9.973039E-01 9.050599E+01  1.565930E-03 -1.606123E+02  1.565930E-03 -1.606123E+02  9.994457E-01 1.315339E+02
3.326250E+02  9.970342E-01 8.958654E+01  1.603526E-03 -1.613477E+02  1.603526E-03 -1.613477E+02  9.992497E-01 1.309705E+02
3.363438E+02  9.964235E-01 8.867782E+01  1.681632E-03 -1.633836E+02  1.681632E-03 -1.633836E+02  9.988011E-01 1.303792E+02
3.400625E+02  9.967144E-01 8.782753E+01  1.671578E-03 -1.640870E+02  1.671578E-03 -1.640870E+02  9.988552E-01 1.298308E+02
3.437812E+02  9.965981E-01 8.691221E+01  1.718035E-03 -1.642100E+02  1.718035E-03 -1.642100E+02  9.990065E-01 1.292613E+02
3.475000E+02  9.967505E-01 8.602463E+01  1.778535E-03 -1.637261E+02  1.778535E-03 -1.637261E+02  9.991724E-01 1.286824E+02
3.512188E+02  9.966468E-01 8.512765E+01  1.834195E-03 -1.646002E+02  1.834195E-03 -1.646002E+02  9.991230E-01 1.281073E+02
3.549375E+02  9.966804E-01 8.424386E+01  1.912879E-03 -1.654772E+02  1.912879E-03 -1.654772E+02  9.989968E-01 1.275098E+02
3.586562E+02  9.967448E-01 8.330754E+01  1.984055E-03 -1.664653E+02  1.984055E-03 -1.664653E+02  9.991009E-01 1.269323E+02
3.623750E+02  9.959213E-01 8.250403E+01  2.019422E-03 -1.679795E+02  2.019422E-03 -1.679795E+02  9.987679E-01 1.263738E+02
3.660938E+02  9.965605E-01 8.161536E+01  2.059637E-03 -1.670593E+02  2.059637E-03 -1.670593E+02  9.991148E-01 1.257936E+02
3.698125E+02  9.963715E-01 8.071919E+01  2.139301E-03 -1.685354E+02  2.139301E-03 -1.685354E+02  9.991592E-01 1.252148E+02
3.735312E+02  9.962579E-01 7.986999E+01  2.193645E-03 -1.694088E+02  2.193645E-03 -1.694088E+02  9.989926E-01 1.246320E+02
3.772500E+02  9.960295E-01 7.899399E+01  2.248117E-03 -1.697621E+02  2.248117E-03 -1.697621E+02  9.991094E-01 1.240336E+02
3.809688E+02  9.961458E-01 7.808686E+01  2.312127E-03 -1.706811E+02  2.312127E-03 -1.706811E+02  9.989253E-01 1.234347E+02
3.846875E+02  9.945639E-01 7.722558E+01  2.360935E-03 -1.723150E+02  2.360935E-03 -1.723150E+02  9.982966E-01 1.228637E+02
3.884062E+02  9.952425E-01 7.638020E+01  2.377989E-03 -1.729883E+02  2.377989E-03 -1.729883E+02  9.985174E-01 1.222940E+02
3.921250E+02  9.954543E-01 7.552832E+01  2.460924E-03 -1.728077E+02  2.460924E-03 -1.728077E+02  9.988177E-01 1.217055E+02
3.958438E+02  9.952487E-01 7.467097E+01  2.516330E-03 -1.732144E+02  2.516330E-03 -1.732144E+02  9.988633E-01 1.211228E+02
3.995625E+02  9.951078E-01 7.384402E+01  2.582474E-03 -1.741709E+02  2.582474E-03 -1.741709E+02  9.987024E-01 1.205309E+02
4.032812E+02  9.948458E-01 7.295398E+01  2.676225E-03 -1.747533E+02  2.676225E-03 -1.747533E+02  9.986915E-01 1.199249E+02
4.070000E+02  9.947381E-01 7.207706E+01  2.742595E-03 -1.759674E+02  2.742595E-03 -1.759674E+02  9.985360E-01 1.193097E+02
4.107188E+02  9.939524E-01 7.129574E+01  2.783360E-03 -1.767760E+02  2.783360E-03 -1.767760E+02  9.978094E-01 1.187816E+02
4.144375E+02  9.949235E-01 7.041360E+01  2.865611E-03 -1.778357E+02  2.865611E-03 -1.778357E+02  9.983594E-01 1.181964E+02
4.181562E+02  9.943164E-01 6.954534E+01  2.935438E-03 -1.786177E+02  2.935438E-03 -1.786177E+02  9.983666E-01 1.175939E+02
4.218750E+02  9.940771E-01 6.875523E+01  2.945928E-03 -1.791458E+02  2.945928E-03 -1.791458E+02  9.982994E-01 1.169972E+02
4.255938E+02  9.933911E-01 6.791412E+01  2.988039E-03 1.796390E+02  2.988039E-03 1.796390E+02  9.983414E-01 1.163889E+02
4.293125E+02  9.940597E-01 6.705724E+01  3.096626E-03 1.798622E+02  3.096626E-03 1.798622E+02  9.983011E-01 1.158099E+02
4.330312E+02  9.922618E-01 6.629722E+01  3.166541E-03 1.780715E+02  3.166541E-03 1.780715E+02  9.973221E-01 1.152207E+02
4.367500E+02  9.932095E-01 6.546955E+01  3.214390E-03 1.788694E+02  3.214390E-03 1.788694E+02  9.978783E-01 1.146440E+02
4.404688E+02  9.937908E-01 6.463394E+01  3.271746E-03 1.779943E+02  3.271746E-03 1.779943E+02  9.983942E-01 1.140232E+02
4.441875E+02  9.931478E-01 6.384572E+01  3.359593E-03 1.767757E+02  3.359593E-03 1.767757E+02  9.983561E-01 1.134314E+02
4.479062E+02  9.932672E-01 6.300888E+01  3.441925E-03 1.762229E+02  3.441925E-03 1.762229E+02  9.980699E-01 1.128109E+02
4.516250E+02  9.930744E-01 6.215639E+01  3.514892E-03 1.758210E+02  3.514892E-03 1.758210E+02  9.982592E-01 1.121947E+02
4.553438E+02  9.921061E-01 6.132642E+01  3.621966E-03 1.749389E+02  3.621966E-03 1.749389E+02  9.974543E-01 1.115690E+02
4.590625E+02  9.924738E-01 6.059354E+01  3.621860E-03 1.740903E+02  3.621860E-03 1.740903E+02  9.975864E-01 1.110490E+02
4.627812E+02  9.924240E-01 5.980427E+01  3.704460E-03 1.736367E+02  3.704460E-03 1.736367E+02  9.979252E-01 1.104220E+02
4.665000E+02  9.928003E-01 5.900554E+01  3.770688E-03 1.731668E+02  3.770688E-03 1.731668E+02  9.980846E-01 1.098148E+02
4.702188E+02  9.922114E-01 5.823063E+01  3.850275E-03 1.722580E+02  3.850275E-03 1.722580E+02  9.976942E-01 1.092085E+02
4.739375E+02  9.924848E-01 5.741180E+01  3.958949E-03 1.717250E+02  3.958949E-03 1.717250E+02  9.976157E-01 1.085987E+02
4.776562E+02  9.919654E-01 5.661084E+01  4.076802E-03 1.709964E+02  4.076802E-03 1.709964E+02  9.979535E-01 1.079899E+02
4.813750E+02  9.915466E-01 5.586795E+01  4.139472E-03 1.694501E+02  4.139472E-03 1.694501E+02  9.966595E-01 1.073978E+02
4.850938E+02  9.916950E-01 5.509506E+01  4.185861E-03 1.685935E+02  4.185861E-03 1.685935E+02  9.970696E-01 1.068381E+02
4.888125E+02  9.917470E-01 5.427672E+01  4.244052E-03 1.681438E+02  4.244052E-03 1.681438E+02  9.971883E-01 1.062180E+02
4.925312E+02  9.909685E-01 5.351577E+01  4.367657E-03 1.662676E+02  4.367657E-03 1.662676E+02  9.972488E-01 1.056073E+02
4.962500E+02  9.913704E-01 5.273777E+01  4.355247E-03 1.662678E+02  4.355247E-03 1.662678E+02  9.971073E-01 1.050131E+02
4.999688E+02  9.913581E-01 5.194980E+01  4.417729E-03 1.660856E+02  4.417729E-03 1.660856E+02  9.969703E-01 1.044081E+02
5.036875E+02  9.894445E-01 5.115079E+01  4.539945E-03 1.650801E+02  4.539945E-03 1.650801E+02  9.961307E-01 1.037294E+02
5.074062E+02  9.896633E-01 5.052082E+01  4.554167E-03 1.649946E+02  4.554167E-03 1.649946E+02  9.965566E-01 1.032026E+02
5.111250E+02  9.903866E-01 4.975977E+01  4.620520E-03 1.642569E+02  4.620520E-03 1.642569E+02  9.972080E-01 1.025845E+02
5.148438E+02  9.902473E-01 4.900213E+01  4.715734E-03 1.642792E+02  4.715734E-03 1.642792E+02  9.971279E-01 1.020042E+02
5.185625E+02  9.892528E-01 4.820100E+01  4.819628E-03 1.629705E+02  4.819628E-03 1.629705E+02  9.970094E-01 1.013613E+02
5.222812E+02  9.892289E-01 4.749903E+01  4.881774E-03 1.623934E+02  4.881774E-03 1.623934E+02  9.972204E-01 1.007388E+02
5.260000E+02  9.900950E-01 4.670708E+01  5.029562E-03 1.615503E+02  5.029562E-03 1.615503E+02  9.965044E-01 1.001057E+02
5.297188E+02  9.874726E-01 4.598403E+01  5.052966E-03 1.607666E+02  5.052966E-03 1.607666E+02  9.959343E-01 9.955736E+01
5.334375E+02  9.874499E-01 4.523270E+01  5.121239E-03 1.603234E+02  5.121239E-03 1.603234E+02  9.960892E-01 9.893315E+01
5.371562E+02  9.888069E-01 4.454092E+01  5.220583E-03 1.600087E+02  5.220583E-03 1.600087E+02  9.963649E-01 9.831373E+01
5.408750E+02  9.885441E-01 4.382730E+01  5.328324E-03 1.590759E+02  5.328324E-03 1.590759E+02  9.971035E-01 9.770334E+01
5.445938E+02  9.878256E-01 4.304162E+01  5.412167E-03 1.582453E+02  5.412167E-03 1.582453E+02  9.966122E-01 9.708643E+01
5.483125E+02  9.880576E-01 4.237881E+01  5.484698E-03 1.574685E+02  5.484698E-03 1.574685E+02  9.964662E-01 9.645090E+01
5.520312E+02  9.859937E-01 4.156621E+01  5.606354E-03 1.559607E+02  5.606354E-03 1.559607E+02  9.946597E-01 9.584288E+01
5.557500E+02  9.869791E-01 4.094738E+01  5.601571E-03 1.563031E+02  5.601571E-03 1.563031E+02  9.959694E-01 9.526171E+01
5.594688E+02  9.879896E-01 4.021334E+01  5.665337E-03 1.556318E+02  5.665337E-03 1.556318E+02  9.960255E-01 9.467371E+01
5.631875E+02  9.866552E-01 3.949352E+01  5.791177E-03 1.554981E+02  5.791177E-03 1.554981E+02  9.962437E-01 9.404154E+01
5.669062E+02  9.866668E-01 3.880589E+01  5.904302E-03 1.543177E+02  5.904302E-03 1.543177E+02  9.958575E-01 9.341484E+01
5.706250E+02  9.858735E-01 3.804542E+01  6.040349E-03 1.535564E+02  6.040349E-03 1.535564E+02  9.953241E-01 9.274292E+01
5.743438E+02  9.851452E-01 3.728567E+01  6.133823E-03 1.523288E+02  6.133823E-03 1.523288E+02  9.950906E-01 9.212144E+01
5.780625E+02  9.855118E-01 3.670583E+01  6.107729E-03 1.508050E+02  6.107729E-03 1.508050E+02  9.947072E-01 9.160190E+01
5.817812E+02  9.855554E-01 3.604743E+01  6.146995E-03 1.513095E+02  6.146995E-03 1.513095E+02  9.955755E-01 9.092487E+01
5.855000E+02  9.858814E-01 3.531393E+01  6.226603E-03 1.510185E+02  6.226603E-03 1.510185E+02  9.954076E-01 9.034071E+01
5.892188E+02  9.864572E-01 3.457873E+01  6.372255E-03 1.509051E+02  6.372255E-03 1.509051E+02  9.958757E-01 8.971022E+01
5.929375E+02  9.851381E-01 3.389124E+01  6.521103E-03 1.499904E+02  6.521103E-03 1.499904E+02  9.951503E-01 8.904761E+01
5.966562E+02  9.836998E-01 3.325418E+01  6.618974E-03 1.491682E+02  6.618974E-03 1.491682E+02  9.943742E-01 8.840209E+01
6.003750E+02  9.825503E-01 3.257687E+01  6.765117E-03 1.469628E+02  6.765117E-03 1.469628E+02  9.927978E-01 8.781493E+01
6.040938E+02  9.846363E-01 3.192393E+01  6.757791E-03 1.466339E+02  6.757791E-03 1.466339E+02  9.935747E-01 8.721984E+01
6.078125E+02  9.839853E-01 3.114402E+01  6.770307E-03 1.455394E+02  6.770307E-03 1.455394E+02  9.945981E-01 8.658902E+01
6.115312E+02  9.841085E-01 3.053406E+01  6.826006E-03 1.459200E+02  6.826006E-03 1.459200E+02  9.949597E-01 8.598629E+01
6.152500E+02  9.839499E-01 2.985529E+01  6.890795E-03 1.455432E+02  6.890795E-03 1.455432E+02  9.947719E-01 8.533111E+01
6.189688E+02  9.846995E-01 2.905423E+01  7.046166E-03 1.452003E+02  7.046166E-03 1.452003E+02  9.941277E-01 8.463764E+01
6.226875E+02  9.845114E-01 2.841426E+01  7.192726E-03 1.444904E+02  7.192726E-03 1.444904E+02  9.944072E-01 8.398408E+01
6.264062E+02  9.838094E-01 2.786890E+01  7.175764E-03 1.435325E+02  7.175764E-03 1.435325E+02  9.932771E-01 8.347744E+01
6.301250E+02  9.853468E-01 2.716448E+01  7.329257E-03 1.431907E+02  7.329257E-03 1.431907E+02  9.946197E-01 8.284300E+01
6.338438E+02  9.844121E-01 2.648049E+01  7.374895E-03 1.425338E+02  7.374895E-03 1.425338E+02  9.944183E-01 8.220087E+01
6.375625E+02  9.843018E-01 2.582782E+01  7.503175E-03 1.420401E+02  7.503175E-03 1.420401E+02  9.950804E-01 8.156464E+01
6.412812E+02  9.848407E-01 2.518432E+01  7.586575E-03 1.412292E+02  7.586575E-03 1.412292E+02  9.941656E-01 8.092687E+01
