! Matrix data file written by TouchstoneData, EPCOS AG
! FILENAME: "B4319_x34y35_NB.snp"
! COMMENT: "(TS/B4319_x34y35_NB.s2p) Epcos AG 12/18/2012"
! INFO: nport=2, nfreq=801
! DATE: "Wed Jan 16 16:31:57 2013"
! USER: "Wee Chuan Tay"
!
! port | pin | signal
! -----|-----|--------
!   1  |  1  |  Input
!   2  |  4  |  Output
! --------------------
! 
# MHZ S RI R 50
! freq  reS11 imS11  reS21 imS21  reS12 imS12  reS22 imS22
720  0.285775691270828 -0.919052183628081  -0.000761657109251247 0.000198367524717469  -0.000761657109251247 0.000198367524717469  0.332944899797439 -0.906353533267974 
720.175  0.28681081533432 -0.91835445165634  -0.000673789589200171 0.000283893867162988  -0.000673789589200171 0.000283893867162988  0.334162056446075 -0.905451834201812 
720.35  0.287744432687759 -0.919697523117064  -0.000501393515150995 0.000288963172351942  -0.000501393515150995 0.000288963172351942  0.336140483617782 -0.906591475009917 
720.525  0.287333548069 -0.920723736286162  -0.000425744903623128 0.000232204678468407  -0.000425744903623128 0.000232204678468407  0.336545348167419 -0.90878117084503 
720.7  0.286540120840072 -0.922034919261931  -0.000392112371628174 0.000181709408934694  -0.000392112371628174 0.000181709408934694  0.335827827453613 -0.910859823226928 
720.875  0.285284787416458 -0.923126220703124  -0.000384147191653029 0.000113002508442151  -0.000384147191653029 0.000113002508442151  0.334268569946289 -0.912261307239531 
721.05  0.283247858285904 -0.923202633857726  -0.000361577069270425 9.63873171713208e-05  -0.000361577069270425 9.63873171713208e-05  0.332967370748519 -0.913193523883818 
721.225  0.281628906726837 -0.922698199748992  -0.000335692428052426 6.81250821799041e-05  -0.000335692428052426 6.81250821799041e-05  0.331666827201843 -0.914012193679808 
721.4  0.280369520187378 -0.920958280563353  -0.00031518608739134 8.44488090478991e-06  -0.00031518608739134 8.44488090478991e-06  0.330155372619628 -0.914477884769438 
721.575  0.280975133180618 -0.919181466102599  -0.000328393784002401 -3.1631650927011e-05  -0.000328393784002401 -3.1631650927011e-05  0.329329848289489 -0.914815604686736 
721.75  0.28281757235527 -0.918787837028502  -0.000337857520207763 -1.61708530868055e-05  -0.000337857520207763 -1.61708530868055e-05  0.328371971845626 -0.915790796279906 
721.925  0.28380474448204 -0.920954406261443  -0.000347547276760452 -5.0491093134042e-05  -0.000347547276760452 -5.0491093134042e-05  0.326884299516677 -0.916311562061308 
722.1  0.282253921031952 -0.92361158132553  -0.000337630379362964 -7.91433594713455e-05  -0.000337630379362964 -7.91433594713455e-05  0.32543322443962 -0.916609227657317 
722.275  0.279110819101333 -0.924237072467803  -0.000341670602210798 -0.000130602937133517  -0.000341670602210798 -0.000130602937133517  0.323625236749649 -0.917519450187682 
722.45  0.276643335819244 -0.922993898391722  -0.000366957887308673 -0.000142207172757481  -0.000366957887308673 -0.000142207172757481  0.321806371212005 -0.917460322380065 
722.625  0.276526868343353 -0.921344876289366  -0.000391798108466902 -0.000141348064062186  -0.000391798108466902 -0.000141348064062186  0.320163905620574 -0.917591810226439 
722.8  0.277852475643158 -0.921173751354216  -0.000425198057200761 -0.000136306363856421  -0.000425198057200761 -0.000136306363856421  0.319376170635223 -0.917865872383116 
722.975  0.278594523668289 -0.922695577144622  -0.000449157567345538 -0.00012666013208218  -0.000449157567345538 -0.00012666013208218  0.317939966917038 -0.918719828128813 
723.15  0.278394609689712 -0.925330400466918  -0.000414242225815543 -0.000117870371468598  -0.000414242225815543 -0.000117870371468598  0.316752046346664 -0.919501245021819 
723.325  0.276617646217346 -0.927405416965483  -0.000409241634770297 -0.000141198295750656  -0.000409241634770297 -0.000141198295750656  0.314688205718994 -0.92047744989395 
723.5  0.274655520915985 -0.928943812847136  -0.000436534071923234 -0.000142862598295324  -0.000436534071923234 -0.000142862598295324  0.312209486961364 -0.92040306329727 
723.675  0.272734105587005 -0.93015682697296  -0.000455586981843227 -0.000137645634822547  -0.000455586981843227 -0.000137645634822547  0.309955865144729 -0.919788062572478 
723.85  0.270432502031326 -0.931160807609557  -0.000473847801913508 -0.000118715110147605  -0.000473847801913508 -0.000118715110147605  0.308629363775253 -0.918974637985228 
724.025  0.267830073833465 -0.931688308715819  -0.000470624872832561 -0.000100366509286687  -0.000470624872832561 -0.000100366509286687  0.307105660438537 -0.91849660873413 
724.2  0.265246272087097 -0.931815326213835  -0.000436029018601404 -8.44658534333577e-05  -0.000436029018601404 -8.44658534333577e-05  0.305705845355987 -0.91789823770523 
724.375  0.263254046440124 -0.931609034538268  -0.000389750275644474 -9.36603719310371e-05  -0.000389750275644474 -9.36603719310371e-05  0.304704695940017 -0.91773498058319 
724.55  0.261619299650192 -0.931363344192504  -0.000376743555534632 -0.000117700870760018  -0.000376743555534632 -0.000117700870760018  0.302974969148635 -0.918446540832518 
724.725  0.25981917977333 -0.931445956230162  -0.000384746104828083 -0.000159836366947275  -0.000384746104828083 -0.000159836366947275  0.30032205581665 -0.918824434280394 
724.9  0.257460922002792 -0.931574702262877  -0.000357619675924071 -0.00016715065430617  -0.000357619675924071 -0.00016715065430617  0.296593457460403 -0.917915165424346 
725.075  0.254789441823959 -0.93053764104843  -0.000377012212993578 -0.000198157104023267  -0.000377012212993578 -0.000198157104023267  0.293087035417556 -0.915140628814696 
725.25  0.253343164920807 -0.928663015365599  -0.000412489869631828 -0.000220609821553808  -0.000412489869631828 -0.000220609821553808  0.291159123182296 -0.91076236963272 
725.425  0.252933770418167 -0.927201151847838  -0.000413552654208617 -0.000173628781340086  -0.000413552654208617 -0.000173628781340086  0.291566997766494 -0.906097412109374 
725.6  0.25283658504486 -0.926322937011718  -0.000390522996895016 -0.000213271123357118  -0.000390522996895016 -0.000213271123357118  0.293647974729538 -0.902595221996306 
725.775  0.253410518169403 -0.925964534282683  -0.000413237532484346 -0.000206898141186685  -0.000413237532484346 -0.000206898141186685  0.298023551702499 -0.900798976421355 
725.95  0.253157317638397 -0.927503168582915  -0.000335186079610139 -0.000188101854291745  -0.000335186079610139 -0.000188101854291745  0.300904899835586 -0.902921557426451 
726.125  0.251498520374298 -0.928409457206725  -0.000320669350912795 -0.000279038547887467  -0.000320669350912795 -0.000279038547887467  0.301711767911911 -0.905017614364623 
726.3  0.249762594699859 -0.928598046302794  -0.000351672802935355 -0.000313763594022021  -0.000351672802935355 -0.000313763594022021  0.302023589611053 -0.906919300556182 
726.475  0.247642874717712 -0.928862333297728  -0.000351820403011516 -0.000340428043273279  -0.000351820403011516 -0.000340428043273279  0.301399260759353 -0.90896165370941 
726.65  0.245646625757217 -0.927783489227294  -0.000350211805198342 -0.000403217345592567  -0.000350211805198342 -0.000403217345592567  0.30028086900711 -0.910321176052092 
726.825  0.244850277900695 -0.926712155342101  -0.000408168212743477 -0.000449382889200934  -0.000408168212743477 -0.000449382889200934  0.298827767372131 -0.910397768020629 
727  0.243537858128547 -0.926248669624327  -0.000450289517175407 -0.000465736447949895  -0.000450289517175407 -0.000465736447949895  0.298702448606491 -0.910234928131102 
727.175  0.242818683385849 -0.924765467643736  -0.000459867296740413 -0.00046699307858944  -0.000459867296740413 -0.00046699307858944  0.299063503742218 -0.911047518253325 
727.35  0.242906004190445 -0.923062920570372  -0.000509605451952668 -0.000518503598868848  -0.000509605451952668 -0.000518503598868848  0.298842906951904 -0.912628471851348 
727.525  0.244373306632042 -0.92317897081375  -0.000546439172467218 -0.000542042369488628  -0.000546439172467218 -0.000542042369488628  0.298321366310119 -0.914358437061308 
727.7  0.243976175785064 -0.924312710762023  -0.000590950861806051 -0.000559032749151813  -0.000590950861806051 -0.000559032749151813  0.297037750482559 -0.91608417034149 
727.875  0.242793977260589 -0.923359811305998  -0.000657665077596905 -0.000669042725348846  -0.000657665077596905 -0.000669042725348846  0.294861674308776 -0.916471242904662 
728.05  0.244320422410965 -0.921894133090972  -0.000883135799085723 -0.000627721427008511  -0.000883135799085723 -0.000627721427008511  0.294354885816574 -0.915807723999022 
728.225  0.246746212244033 -0.923054397106169  -0.000942247686907651 -0.000425960126449355  -0.000942247686907651 -0.000425960126449355  0.295186579227447 -0.916684567928313 
728.4  0.247288331389427 -0.925497353076934  -0.000903592299437153 -0.00031615432817489  -0.000903592299437153 -0.00031615432817489  0.294603139162063 -0.919242501258849 
728.575  0.246971428394317 -0.927887976169585  -0.000844923401018606 -0.000275487022008748  -0.000844923401018606 -0.000275487022008748  0.292822778224945 -0.921068012714385 
728.75  0.246094599366188 -0.929933488368987  -0.000811790756415577 -0.00025903549976647  -0.000811790756415577 -0.00025903549976647  0.290799170732498 -0.922476172447203 
728.925  0.244892075657844 -0.931719243526458  -0.000805910764029251 -0.000277700615697541  -0.000805910764029251 -0.000277700615697541  0.288695931434631 -0.923177659511565 
729.1  0.244132965803146 -0.933729112148284  -0.000820048502646389 -0.000250006865826436  -0.000820048502646389 -0.000250006865826436  0.287032306194305 -0.923512339591979 
729.275  0.242876932024955 -0.935614228248595  -0.000814592029200869 -0.000255997831118294  -0.000814592029200869 -0.000255997831118294  0.285492062568664 -0.923978030681609 
729.45  0.241101756691932 -0.937168359756468  -0.00082055712118745 -0.000251877107075416  -0.00082055712118745 -0.000251877107075416  0.283662587404251 -0.924791574478148 
729.625  0.239529907703399 -0.938751041889189  -0.000830085860798138 -0.000226351003220771  -0.000830085860798138 -0.000226351003220771  0.282208442687988 -0.924740076065062 
729.8  0.2377769947052 -0.940159082412718  -0.000813152786577122 -0.000203691372007598  -0.000813152786577122 -0.000203691372007598  0.281559109687805 -0.925427258014678 
729.975  0.236019149422645 -0.941820383071898  -0.00080094297300093 -0.000202966191864107  -0.00080094297300093 -0.000202966191864107  0.279936790466308 -0.926643013954161 
730.15  0.234067067503929 -0.94321572780609  -0.00080980532220565 -0.000197782246686985  -0.00080980532220565 -0.000197782246686985  0.27772918343544 -0.927341163158416 
730.325  0.231839850544929 -0.944291472434996  -0.000823178648715841 -0.00019834416161757  -0.000823178648715841 -0.00019834416161757  0.275332659482956 -0.927548646926879 
730.5  0.229838907718658 -0.945269107818602  -0.000825759256258609 -0.000210269390663598  -0.000825759256258609 -0.000210269390663598  0.273021608591079 -0.92666071653366 
730.675  0.227870881557464 -0.946040272712706  -0.000819594366475941 -0.000181450050149579  -0.000819594366475941 -0.000181450050149579  0.271920710802078 -0.925464272499083 
730.85  0.225400179624557 -0.946736812591551  -0.00084646313916892 -0.000175317298271694  -0.00084646313916892 -0.000175317298271694  0.272008627653122 -0.925011932849883 
731.025  0.223288550972938 -0.947124242782592  -0.000844053400214763 -0.000134382029500557  -0.000844053400214763 -0.000134382029500557  0.272075712680816 -0.925054311752318 
731.2  0.221255213022232 -0.947861790657042  -0.000822457397589462 -0.000107672727608588  -0.000822457397589462 -0.000107672727608588  0.271919578313827 -0.926500260829924 
731.375  0.219351261854171 -0.948846042156218  -0.000797226821305232 -0.000144158562761732  -0.000797226821305232 -0.000144158562761732  0.27099859714508 -0.928062856197356 
731.55  0.216676548123359 -0.949614763259886  -0.000786235439591111 -0.000164603683515452  -0.000786235439591111 -0.000164603683515452  0.269350528717041 -0.929810822010039 
731.725  0.214120507240295 -0.950000226497649  -0.000820509565528484 -0.000188622761925217  -0.000820509565528484 -0.000188622761925217  0.267168521881103 -0.930684566497802 
731.9  0.212014511227607 -0.950148105621337  -0.000847463379614057 -0.000166757883562241  -0.000847463379614057 -0.000166757883562241  0.265249520540237 -0.93120241165161 
732.075  0.209665924310684 -0.950363278388976  -0.000878095685038718 -0.000152955064550042  -0.000878095685038718 -0.000152955064550042  0.263332843780517 -0.931435644626616 
732.25  0.207860514521599 -0.950349509716033  -0.000899632315849888 -0.000112351095594932  -0.000899632315849888 -0.000112351095594932  0.261507660150528 -0.931521832942961 
732.425  0.205867886543274 -0.950886011123656  -0.000877716636750849 -0.000105150211311411  -0.000877716636750849 -0.000105150211311411  0.260198652744293 -0.931045949459075 
732.6  0.203477725386619 -0.951034903526305  -0.000888525159098209 -0.000103502145066159  -0.000888525159098209 -0.000103502145066159  0.259287148714065 -0.930570662021636 
732.775  0.201437562704086 -0.950968086719512  -0.000914971809834243 -6.99072770657951e-05  -0.000914971809834243 -6.99072770657951e-05  0.25892749428749 -0.93081110715866 
732.95  0.199447184801101 -0.950914561748503  -0.000930138339754197 -4.10907377954574e-05  -0.000930138339754197 -4.10907377954574e-05  0.258124262094497 -0.931834459304808 
733.125  0.197851300239563 -0.950713217258452  -0.000919931539101528 1.3187159311201e-06  -0.000919931539101528 1.3187159311201e-06  0.256634205579757 -0.932337522506713 
733.3  0.197004064917564 -0.950993955135344  -0.000886800000444057 4.25044581788825e-05  -0.000886800000444057 4.25044581788825e-05  0.255709767341613 -0.932193517684935 
733.475  0.195623084902763 -0.951729178428649  -0.000847920164233076 6.7986398789799e-05  -0.000847920164233076 6.7986398789799e-05  0.255418449640274 -0.932865202426909 
733.65  0.194065123796463 -0.952595829963683  -0.000831396260764452 9.27192122617272e-05  -0.000831396260764452 9.27192122617272e-05  0.255012363195419 -0.934200823307036 
733.825  0.192173555493355 -0.953359663486479  -0.000785912474384534 8.66092887008564e-05  -0.000785912474384534 8.66092887008564e-05  0.254078149795532 -0.935727596282958 
734  0.190308481454849 -0.953746199607848  -0.000742135831387715 8.44507412693931e-05  -0.000742135831387715 8.44507412693931e-05  0.252609223127365 -0.937405943870543 
734.175  0.188799947500229 -0.954354763031004  -0.000701176701113584 6.49877656542231e-05  -0.000701176701113584 6.49877656542231e-05  0.250714987516403 -0.938745021820067 
734.35  0.187060728669166 -0.955188632011412  -0.000696756440447644 4.00785993406317e-05  -0.000696756440447644 4.00785993406317e-05  0.248677209019661 -0.939784765243529 
734.525  0.185046881437301 -0.956245362758635  -0.000681900273775683 2.29253582801903e-05  -0.000681900273775683 2.29253582801903e-05  0.246724754571914 -0.940980195999144 
734.7  0.182877019047737 -0.957060515880583  -0.000680938683217393 7.47046988180956e-06  -0.000680938683217393 7.47046988180956e-06  0.244975343346595 -0.941919147968291 
734.875  0.180648267269134 -0.958114027976988  -0.000666145788272844 3.90879176848105e-06  -0.000666145788272844 3.90879176848105e-06  0.2427898645401 -0.942909777164458 
735.05  0.178172752261162 -0.958845257759093  -0.000652373273624109 -2.76923328783596e-05  -0.000652373273624109 -2.76923328783596e-05  0.24085447192192 -0.943910241127013 
735.225  0.175562515854835 -0.959659159183501  -0.000666385720251129 -4.33009481639602e-05  -0.000666385720251129 -4.33009481639602e-05  0.238494083285331 -0.944590866565703 
735.4  0.172652438282966 -0.960075378417967  -0.000654071918688716 -6.97772447892931e-05  -0.000654071918688716 -6.97772447892931e-05  0.236603006720543 -0.945231616497038 
735.575  0.169968292117119 -0.9603174328804  -0.000670595967676492 -7.54396896809341e-05  -0.000670595967676492 -7.54396896809341e-05  0.234202295541763 -0.946399688720702 
735.75  0.167391255497932 -0.960695266723632  -0.000676865689456464 -0.000109976190287853  -0.000676865689456464 -0.000109976190287853  0.231990292668342 -0.946869015693663 
735.925  0.164758071303367 -0.96095848083496  -0.000709525425918402 -0.000109649710793747  -0.000709525425918402 -0.000109649710793747  0.229400530457496 -0.947819709777831 
736.1  0.162403509020805 -0.960792839527129  -0.000712880515493454 -0.000103224505437538  -0.000712880515493454 -0.000103224505437538  0.226893112063408 -0.948469400405882 
736.275  0.160114988684654 -0.961112618446349  -0.000726813566870989 -9.83123318292204e-05  -0.000726813566870989 -9.83123318292204e-05  0.224548101425171 -0.948726773262023 
736.45  0.157599747180938 -0.961245656013488  -0.000746984587749468 -0.000116496179543902  -0.000746984587749468 -0.000116496179543902  0.222248926758766 -0.948806524276732 
736.625  0.155231013894081 -0.961344242095946  -0.000751061190385374 -0.000129334555822425  -0.000751061190385374 -0.000129334555822425  0.220374435186386 -0.948973596096038 
736.8  0.152889907360077 -0.961698532104491  -0.000775076856371017 -0.0001037657566485  -0.000775076856371017 -0.0001037657566485  0.218510419130325 -0.949398458003996 
736.975  0.15031236410141 -0.961898922920226  -0.000766558339819314 -0.000109733213321306  -0.000766558339819314 -0.000109733213321306  0.216424360871315 -0.95017772912979 
737.15  0.147554188966751 -0.9621365070343  -0.000793644081568347 -9.01650164450986e-05  -0.000793644081568347 -9.01650164450986e-05  0.21409797668457 -0.950848340988158 
737.325  0.145004868507385 -0.962426960468291  -0.000816295476397501 -5.6514243624406e-05  -0.000816295476397501 -5.6514243624406e-05  0.21159216761589 -0.951167941093444 
737.5  0.142118602991104 -0.962945103645323  -0.000786360440542923 -3.00360670735246e-05  -0.000786360440542923 -3.00360670735246e-05  0.209271997213363 -0.951468169689177 
737.675  0.139378726482391 -0.962903857231139  -0.000747819227399306 -9.32818943510937e-06  -0.000747819227399306 -9.32818943510937e-06  0.207117110490799 -0.951901972293852 
737.85  0.136183947324753 -0.963247656822203  -0.000714489055098967 -2.80007070614375e-05  -0.000714489055098967 -2.80007070614375e-05  0.20499087870121 -0.952404618263243 
738.025  0.133073329925537 -0.963642179965972  -0.00072856913902797 -6.65540610498285e-05  -0.00072856913902797 -6.65540610498285e-05  0.202592432498932 -0.952908635139464 
738.2  0.130333513021469 -0.963683068752288  -0.000758938462240623 -7.74931577325335e-05  -0.000758938462240623 -7.74931577325335e-05  0.200556293129921 -0.953527152538298 
738.375  0.126896098256111 -0.963525295257567  -0.000766532029956581 -9.64281061897056e-05  -0.000766532029956581 -9.64281061897056e-05  0.198029220104217 -0.953874588012694 
738.55  0.123444750905037 -0.963202655315398  -0.000774881773395465 -9.0101380919805e-05  -0.000774881773395465 -9.0101380919805e-05  0.195527642965316 -0.95442372560501 
738.725  0.120219938457012 -0.962821602821349  -0.000762635725550355 -8.03397269919516e-05  -0.000762635725550355 -8.03397269919516e-05  0.193388104438781 -0.954719185829161 
738.9  0.11634174734354 -0.962078869342803  -0.000775247579440476 -9.25002568692436e-05  -0.000775247579440476 -9.25002568692436e-05  0.19057510793209 -0.95491850376129 
739.075  0.112579315900802 -0.960829138755797  -0.000807232019724326 -7.22747208783404e-05  -0.000807232019724326 -7.22747208783404e-05  0.187839493155479 -0.955277323722838 
739.25  0.109544642269611 -0.958940863609313  -0.000813967693829911 -6.85715385770892e-05  -0.000813967693829911 -6.85715385770892e-05  0.185328856110573 -0.955259799957274 
739.425  0.106834210455417 -0.957822561264037  -0.000789098907262088 -7.47751728340519e-05  -0.000789098907262088 -7.47751728340519e-05  0.182777509093284 -0.955609083175658 
739.6  0.10335574299097 -0.956143021583556  -0.000798993365606294 -6.31679085927319e-05  -0.000798993365606294 -6.31679085927319e-05  0.179857447743416 -0.955591678619384 
