! Matrix data file written by TouchstoneData, EPCOS AG
! FILENAME: "LZ39A_pcb5_NB.s3p_newformat"
! COMMENT: "(LZ39A_pcb5_NB.s3p) Epcos AG 6/8/2011 5:13:5"
! INFO: nport=3, nfreq=801
! DATE: "Mon Jul  4 19:48:54 2011"
! USER: "Michael Schemies"
!
! port | pin | signal
! -----|-----|--------
!   1  |  1  |  in
!   2  |  3  |  out
!   3  |  4  |  out
! --------------------
!
# MHZ S MA R 50
! freq  magS11 angS11  magS12 angS12  magS13 angS13  ...
1.438655E+03  9.588474E-01 -9.622400E+01  1.861582E-03 1.261876E+02  4.308465E-03 1.739855E+02
1.790848E-03 1.251500E+02  9.535282E-01 -9.112677E+01  6.276147E-03 -1.429352E+02
4.243334E-03 1.744734E+02  6.446753E-03 -1.430343E+02  9.552426E-01 -9.367353E+01
1.439030E+03  9.588806E-01 -9.629347E+01  1.877258E-03 1.243682E+02  4.376530E-03 1.739649E+02
1.796783E-03 1.242341E+02  9.527901E-01 -9.120893E+01  7.054721E-03 -1.395893E+02
4.300367E-03 1.739407E+02  7.256161E-03 -1.396931E+02  9.542237E-01 -9.375503E+01
1.439405E+03  9.596618E-01 -9.635341E+01  1.540855E-03 1.212025E+02  4.554445E-03 1.724480E+02
1.493304E-03 1.215609E+02  9.535287E-01 -9.119640E+01  7.942002E-03 -1.425611E+02
4.448455E-03 1.726139E+02  8.165541E-03 -1.427821E+02  9.540779E-01 -9.377942E+01
1.439780E+03  9.606005E-01 -9.643247E+01  1.329421E-03 1.276721E+02  4.536927E-03 1.710713E+02
1.261559E-03 1.278930E+02  9.547138E-01 -9.130463E+01  7.895021E-03 -1.410723E+02
4.457017E-03 1.712355E+02  8.136985E-03 -1.412253E+02  9.544379E-01 -9.387275E+01
1.440155E+03  9.607252E-01 -9.653075E+01  1.381727E-03 1.312841E+02  4.610377E-03 1.716380E+02
1.316615E-03 1.308537E+02  9.536290E-01 -9.142266E+01  9.644817E-03 -1.392199E+02
4.544856E-03 1.715403E+02  9.904813E-03 -1.392756E+02  9.536707E-01 -9.386555E+01
1.440530E+03  9.607845E-01 -9.662312E+01  1.156576E-03 1.272493E+02  4.809095E-03 1.702662E+02
1.107775E-03 1.283616E+02  9.528387E-01 -9.142433E+01  1.051104E-02 -1.451464E+02
4.738237E-03 1.703113E+02  1.080697E-02 -1.452407E+02  9.543089E-01 -9.391742E+01
1.440905E+03  9.604713E-01 -9.669000E+01  9.415621E-04 1.313898E+02  4.925065E-03 1.676134E+02
9.107411E-04 1.316520E+02  9.532573E-01 -9.148739E+01  1.053518E-02 -1.498152E+02
4.844591E-03 1.677368E+02  1.086387E-02 -1.499260E+02  9.547943E-01 -9.400348E+01
1.441280E+03  9.608666E-01 -9.675293E+01  7.422464E-04 1.442932E+02  4.936367E-03 1.658556E+02
7.089176E-04 1.456258E+02  9.528596E-01 -9.154938E+01  1.076130E-02 -1.498512E+02
4.863639E-03 1.662328E+02  1.105870E-02 -1.498780E+02  9.540466E-01 -9.409851E+01
1.441655E+03  9.612128E-01 -9.683970E+01  7.420270E-04 1.639952E+02  4.949714E-03 1.643520E+02
7.224677E-04 1.632883E+02  9.522482E-01 -9.161279E+01  1.114008E-02 -1.487551E+02
4.877953E-03 1.644254E+02  1.144104E-02 -1.489725E+02  9.534704E-01 -9.416538E+01
1.442030E+03  9.613779E-01 -9.694064E+01  8.012178E-04 1.698850E+02  4.976708E-03 1.632108E+02
7.564227E-04 1.699249E+02  9.519560E-01 -9.161749E+01  1.228540E-02 -1.506930E+02
4.882761E-03 1.634405E+02  1.265169E-02 -1.507015E+02  9.530909E-01 -9.417382E+01
1.442405E+03  9.613111E-01 -9.703093E+01  7.790833E-04 -1.799040E+02  4.971032E-03 1.626876E+02
7.455993E-04 1.794850E+02  9.530532E-01 -9.168794E+01  1.227697E-02 -1.557443E+02
4.913154E-03 1.625766E+02  1.262187E-02 -1.557928E+02  9.540356E-01 -9.423797E+01
1.442780E+03  9.609399E-01 -9.712982E+01  7.678320E-04 -1.666646E+02  5.076217E-03 1.615927E+02
7.208170E-04 -1.654268E+02  9.527745E-01 -9.184439E+01  1.179591E-02 -1.548877E+02
5.014546E-03 1.616532E+02  1.211057E-02 -1.546887E+02  9.540072E-01 -9.436673E+01
1.443155E+03  9.606299E-01 -9.720008E+01  1.023633E-03 -1.503249E+02  5.133010E-03 1.584216E+02
1.011304E-03 -1.515211E+02  9.507378E-01 -9.190058E+01  1.297973E-02 -1.483449E+02
5.008459E-03 1.587718E+02  1.334976E-02 -1.482637E+02  9.524584E-01 -9.444539E+01
1.443530E+03  9.608036E-01 -9.727300E+01  1.149124E-03 -1.571678E+02  4.973953E-03 1.580399E+02
1.086470E-03 -1.557051E+02  9.514116E-01 -9.183540E+01  1.484531E-02 -1.543893E+02
4.883500E-03 1.582369E+02  1.529165E-02 -1.543860E+02  9.523139E-01 -9.443640E+01
1.443905E+03  9.608175E-01 -9.736220E+01  1.202631E-03 -1.529479E+02  4.975386E-03 1.578789E+02
1.137826E-03 -1.535780E+02  9.525032E-01 -9.190464E+01  1.518834E-02 -1.597668E+02
4.889491E-03 1.577365E+02  1.563569E-02 -1.598619E+02  9.526932E-01 -9.447664E+01
1.444280E+03  9.604669E-01 -9.744227E+01  1.310114E-03 -1.466862E+02  5.088913E-03 1.575945E+02
1.231266E-03 -1.464929E+02  9.531054E-01 -9.198410E+01  1.496908E-02 -1.636514E+02
4.992350E-03 1.573866E+02  1.540395E-02 -1.635561E+02  9.533250E-01 -9.454862E+01
1.444655E+03  9.604516E-01 -9.753271E+01  1.482559E-03 -1.407777E+02  5.176153E-03 1.551616E+02
1.412199E-03 -1.403173E+02  9.527341E-01 -9.211786E+01  1.486381E-02 -1.627745E+02
5.106018E-03 1.554338E+02  1.532265E-02 -1.626972E+02  9.525107E-01 -9.465277E+01
1.445030E+03  9.603588E-01 -9.760463E+01  1.847600E-03 -1.411298E+02  5.109411E-03 1.523644E+02
1.751495E-03 -1.413916E+02  9.516813E-01 -9.213502E+01  1.602161E-02 -1.634434E+02
5.013812E-03 1.522806E+02  1.648893E-02 -1.633822E+02  9.524947E-01 -9.467576E+01
1.445405E+03  9.599219E-01 -9.769598E+01  1.887932E-03 -1.417120E+02  5.115680E-03 1.514138E+02
1.842802E-03 -1.416117E+02  9.524505E-01 -9.218207E+01  1.589527E-02 -1.674017E+02
5.023969E-03 1.512883E+02  1.635649E-02 -1.673020E+02  9.523020E-01 -9.477358E+01
1.445780E+03  9.595945E-01 -9.778928E+01  2.198433E-03 -1.433868E+02  4.908004E-03 1.480202E+02
2.099002E-03 -1.440755E+02  9.519448E-01 -9.226601E+01  1.659492E-02 -1.673830E+02
4.844085E-03 1.479129E+02  1.709965E-02 -1.672632E+02  9.505794E-01 -9.480333E+01
1.446155E+03  9.594877E-01 -9.787784E+01  2.345594E-03 -1.464310E+02  4.666445E-03 1.482568E+02
2.244942E-03 -1.464078E+02  9.523424E-01 -9.230843E+01  1.711951E-02 -1.711385E+02
4.604439E-03 1.483465E+02  1.761748E-02 -1.712191E+02  9.512613E-01 -9.472418E+01
1.446530E+03  9.590304E-01 -9.798212E+01  2.307455E-03 -1.492748E+02  4.683096E-03 1.498567E+02
2.203566E-03 -1.504426E+02  9.535130E-01 -9.241873E+01  1.690018E-02 -1.744658E+02
4.600954E-03 1.497674E+02  1.740744E-02 -1.744649E+02  9.527559E-01 -9.483946E+01
1.446905E+03  9.586207E-01 -9.807420E+01  2.397777E-03 -1.469590E+02  4.760200E-03 1.480427E+02
2.299007E-03 -1.468726E+02  9.533140E-01 -9.254166E+01  1.686657E-02 -1.749063E+02
4.665642E-03 1.479708E+02  1.736201E-02 -1.748483E+02  9.526561E-01 -9.493257E+01
1.447280E+03  9.580241E-01 -9.812994E+01  2.644476E-03 -1.419648E+02  4.673846E-03 1.457779E+02
2.496825E-03 -1.422094E+02  9.520055E-01 -9.267476E+01  1.719278E-02 -1.754213E+02
4.577987E-03 1.456124E+02  1.769055E-02 -1.752852E+02  9.524400E-01 -9.497163E+01
1.447655E+03  9.581122E-01 -9.815668E+01  2.941255E-03 -1.471268E+02  4.327132E-03 1.447772E+02
2.817272E-03 -1.473505E+02  9.515804E-01 -9.270307E+01  1.796110E-02 -1.787142E+02
4.269049E-03 1.448595E+02  1.850975E-02 -1.787570E+02  9.529018E-01 -9.500317E+01
1.448030E+03  9.580538E-01 -9.825641E+01  2.945670E-03 -1.479272E+02  4.266434E-03 1.480940E+02
2.796103E-03 -1.477653E+02  9.515023E-01 -9.277676E+01  1.782060E-02 1.785146E+02
4.180093E-03 1.480327E+02  1.835245E-02 1.785578E+02  9.535375E-01 -9.508887E+01
1.448405E+03  9.572879E-01 -9.830477E+01  3.073109E-03 -1.451206E+02  4.229735E-03 1.483271E+02
2.975053E-03 -1.455632E+02  9.505571E-01 -9.288922E+01  1.764486E-02 1.753290E+02
4.162949E-03 1.479179E+02  1.819941E-02 1.753733E+02  9.535913E-01 -9.517741E+01
1.448780E+03  9.574253E-01 -9.836165E+01  3.736345E-03 -1.425633E+02  4.279104E-03 1.460885E+02
3.594248E-03 -1.432017E+02  9.483454E-01 -9.286366E+01  1.715824E-02 1.764830E+02
4.230412E-03 1.458527E+02  1.766770E-02 1.766327E+02  9.537453E-01 -9.522486E+01
1.449155E+03  9.571593E-01 -9.842826E+01  3.941302E-03 -1.533897E+02  3.933531E-03 1.468237E+02
3.770141E-03 -1.532573E+02  9.498963E-01 -9.283107E+01  1.792016E-02 1.747154E+02
3.855090E-03 1.465943E+02  1.843099E-02 1.747682E+02  9.545514E-01 -9.526432E+01
1.449530E+03  9.569987E-01 -9.849205E+01  3.969800E-03 -1.545320E+02  3.853547E-03 1.498429E+02
3.796944E-03 -1.544213E+02  9.496517E-01 -9.293766E+01  1.828127E-02 1.719073E+02
3.799002E-03 1.501210E+02  1.880146E-02 1.719370E+02  9.549307E-01 -9.537471E+01
1.449905E+03  9.566664E-01 -9.855378E+01  4.295349E-03 -1.565546E+02  3.928823E-03 1.530024E+02
4.111033E-03 -1.563540E+02  9.491264E-01 -9.292873E+01  1.829290E-02 1.685721E+02
3.856537E-03 1.530899E+02  1.884864E-02 1.686311E+02  9.550928E-01 -9.548111E+01
1.450280E+03  9.568649E-01 -9.862283E+01  4.513214E-03 -1.593200E+02  4.076318E-03 1.533205E+02
4.296428E-03 -1.592245E+02  9.492051E-01 -9.293671E+01  1.761496E-02 1.662671E+02
3.988341E-03 1.529580E+02  1.813905E-02 1.663058E+02  9.550407E-01 -9.555805E+01
1.450655E+03  9.571731E-01 -9.871645E+01  4.725089E-03 -1.657459E+02  4.023108E-03 1.526968E+02
4.527419E-03 -1.657665E+02  9.505995E-01 -9.293189E+01  1.755207E-02 1.659547E+02
3.975916E-03 1.528849E+02  1.807258E-02 1.660051E+02  9.557028E-01 -9.565132E+01
1.451030E+03  9.565584E-01 -9.882896E+01  4.746209E-03 -1.664183E+02  4.143197E-03 1.543633E+02
4.524730E-03 -1.661575E+02  9.503225E-01 -9.303703E+01  1.741652E-02 1.637983E+02
4.052103E-03 1.540895E+02  1.791600E-02 1.639827E+02  9.556329E-01 -9.578421E+01
1.451405E+03  9.563518E-01 -9.885718E+01  5.041950E-03 -1.734032E+02  4.123025E-03 1.522609E+02
4.834941E-03 -1.727137E+02  9.512611E-01 -9.306396E+01  1.796101E-02 1.619952E+02
4.052275E-03 1.523792E+02  1.849429E-02 1.621071E+02  9.546259E-01 -9.590610E+01
1.451780E+03  9.564858E-01 -9.891852E+01  4.847844E-03 -1.776755E+02  3.974744E-03 1.539602E+02
4.638261E-03 -1.775970E+02  9.513821E-01 -9.303330E+01  1.657491E-02 1.585167E+02
3.922611E-03 1.541451E+02  1.704416E-02 1.585556E+02  9.541076E-01 -9.588437E+01
1.452155E+03  9.563399E-01 -9.900286E+01  4.725773E-03 1.789948E+02  4.104967E-03 1.558652E+02
4.529948E-03 1.791120E+02  9.531873E-01 -9.316417E+01  1.690828E-02 1.597550E+02
4.015900E-03 1.558687E+02  1.738444E-02 1.597990E+02  9.546377E-01 -9.599609E+01
1.452530E+03  9.567072E-01 -9.904452E+01  4.656981E-03 1.765708E+02  4.183521E-03 1.556219E+02
4.449307E-03 1.766857E+02  9.535541E-01 -9.325200E+01  1.689120E-02 1.569606E+02
4.133039E-03 1.556879E+02  1.742078E-02 1.570805E+02  9.543509E-01 -9.607404E+01
1.452905E+03  9.560207E-01 -9.913147E+01  4.538528E-03 1.746450E+02  4.190194E-03 1.555926E+02
4.324944E-03 1.749025E+02  9.537145E-01 -9.340180E+01  1.713442E-02 1.554613E+02
4.123768E-03 1.554356E+02  1.763975E-02 1.554765E+02  9.543178E-01 -9.616120E+01
1.453280E+03  9.561008E-01 -9.917588E+01  4.513285E-03 1.715674E+02  4.215977E-03 1.555379E+02
4.311656E-03 1.715520E+02  9.529125E-01 -9.344390E+01  1.659638E-02 1.505205E+02
4.134378E-03 1.555359E+02  1.706264E-02 1.505143E+02  9.536792E-01 -9.623372E+01
1.453655E+03  9.561757E-01 -9.924087E+01  4.354241E-03 1.691346E+02  4.260550E-03 1.564922E+02
4.153506E-03 1.694511E+02  9.537155E-01 -9.352224E+01  1.572330E-02 1.509677E+02
4.189697E-03 1.565880E+02  1.620763E-02 1.510670E+02  9.539636E-01 -9.627959E+01
1.454030E+03  9.562380E-01 -9.933796E+01  4.113977E-03 1.677597E+02  4.210729E-03 1.569964E+02
3.928256E-03 1.678974E+02  9.527101E-01 -9.362584E+01  1.550562E-02 1.467044E+02
4.143531E-03 1.567997E+02  1.599197E-02 1.467328E+02  9.534348E-01 -9.633864E+01
1.454405E+03  9.566402E-01 -9.940127E+01  3.973593E-03 1.680542E+02  4.282708E-03 1.584633E+02
3.823696E-03 1.683682E+02  9.529136E-01 -9.362324E+01  1.423967E-02 1.455862E+02
4.224459E-03 1.587304E+02  1.464493E-02 1.455841E+02  9.542575E-01 -9.637124E+01
1.454780E+03  9.563506E-01 -9.950045E+01  3.861219E-03 1.677521E+02  4.422611E-03 1.588380E+02
3.714815E-03 1.679113E+02  9.536335E-01 -9.373475E+01  1.375187E-02 1.475749E+02
4.334834E-03 1.591764E+02  1.415969E-02 1.477064E+02  9.550172E-01 -9.647896E+01
1.455155E+03  9.560592E-01 -9.954095E+01  3.841371E-03 1.678788E+02  4.541886E-03 1.588279E+02
3.689096E-03 1.678525E+02  9.530865E-01 -9.384498E+01  1.396254E-02 1.456751E+02
4.486601E-03 1.588400E+02  1.438154E-02 1.457516E+02  9.544638E-01 -9.659808E+01
1.455530E+03  9.567348E-01 -9.962403E+01  3.810269E-03 1.676601E+02  4.627535E-03 1.583772E+02
3.635685E-03 1.678664E+02  9.531660E-01 -9.388329E+01  1.307198E-02 1.427521E+02
4.548130E-03 1.581686E+02  1.348279E-02 1.428500E+02  9.542688E-01 -9.665653E+01
1.455905E+03  9.566938E-01 -9.971606E+01  3.778416E-03 1.667555E+02  4.715043E-03 1.578379E+02
3.598848E-03 1.665852E+02  9.537305E-01 -9.389672E+01  1.169493E-02 1.432306E+02
4.640462E-03 1.576281E+02  1.205418E-02 1.432577E+02  9.543703E-01 -9.671252E+01
1.456280E+03  9.572566E-01 -9.980178E+01  3.632278E-03 1.659448E+02  4.721554E-03 1.580972E+02
3.474324E-03 1.657581E+02  9.551067E-01 -9.401833E+01  1.149456E-02 1.487922E+02
4.656735E-03 1.579774E+02  1.183833E-02 1.489347E+02  9.552985E-01 -9.680181E+01
1.456655E+03  9.572277E-01 -9.994296E+01  3.535479E-03 1.661459E+02  4.907043E-03 1.576919E+02
3.390087E-03 1.663719E+02  9.545765E-01 -9.413661E+01  1.189422E-02 1.465373E+02
4.840928E-03 1.579949E+02  1.226355E-02 1.465547E+02  9.551681E-01 -9.691115E+01
1.457030E+03  9.571653E-01 -1.000443E+02  3.533933E-03 1.671304E+02  5.072679E-03 1.565813E+02
3.380151E-03 1.668014E+02  9.548851E-01 -9.418181E+01  1.128492E-02 1.451166E+02
4.985937E-03 1.565120E+02  1.161627E-02 1.452598E+02  9.553737E-01 -9.700781E+01
1.457405E+03  9.565000E-01 -1.001521E+02  3.473626E-03 1.660642E+02  5.150093E-03 1.544634E+02
3.314024E-03 1.657381E+02  9.563474E-01 -9.422351E+01  1.016991E-02 1.475898E+02
5.043253E-03 1.545187E+02  1.048735E-02 1.475858E+02  9.555316E-01 -9.709070E+01
1.457780E+03  9.561962E-01 -1.001894E+02  3.321418E-03 1.662553E+02  5.216708E-03 1.530464E+02
3.213248E-03 1.660909E+02  9.567216E-01 -9.437141E+01  1.044625E-02 1.506800E+02
5.129971E-03 1.531689E+02  1.074341E-02 1.506433E+02  9.553763E-01 -9.720198E+01
1.458155E+03  9.563079E-01 -1.002277E+02  3.329632E-03 1.675373E+02  5.189908E-03 1.508560E+02
3.159489E-03 1.676464E+02  9.565132E-01 -9.444086E+01  1.015648E-02 1.510998E+02
5.108093E-03 1.510186E+02  1.046161E-02 1.511898E+02  9.550436E-01 -9.726765E+01
1.458530E+03  9.565920E-01 -1.003220E+02  3.276140E-03 1.660302E+02  5.121584E-03 1.495493E+02
3.140896E-03 1.664230E+02  9.563756E-01 -9.454017E+01  1.036610E-02 1.524248E+02
5.045281E-03 1.494444E+02  1.068048E-02 1.525969E+02  9.549556E-01 -9.733755E+01
1.458905E+03  9.567583E-01 -1.004558E+02  3.075371E-03 1.681218E+02  5.051711E-03 1.499772E+02
2.919719E-03 1.677051E+02  9.560968E-01 -9.457060E+01  9.802450E-03 1.520179E+02
4.965705E-03 1.498411E+02  1.008187E-02 1.520329E+02  9.548081E-01 -9.739817E+01
1.459280E+03  9.562066E-01 -1.005825E+02  3.055545E-03 1.714885E+02  5.277456E-03 1.476364E+02
2.912946E-03 1.719106E+02  9.568062E-01 -9.465331E+01  9.678864E-03 1.547932E+02
5.164196E-03 1.475540E+02  9.973412E-03 1.548909E+02  9.547990E-01 -9.751236E+01
1.459655E+03  9.558130E-01 -1.006728E+02  3.091014E-03 1.712244E+02  5.015164E-03 1.447175E+02
2.935396E-03 1.716035E+02  9.573203E-01 -9.474139E+01  9.383524E-03 1.560835E+02
4.934201E-03 1.450542E+02  9.662597E-03 1.561260E+02  9.545844E-01 -9.754638E+01
1.460030E+03  9.549189E-01 -1.007600E+02  3.034707E-03 1.734774E+02  4.640850E-03 1.444344E+02
2.907811E-03 1.737767E+02  9.572353E-01 -9.483489E+01  9.572213E-03 1.589615E+02
4.564643E-03 1.443899E+02  9.836058E-03 1.590170E+02  9.548819E-01 -9.762586E+01
1.460405E+03  9.547849E-01 -1.008489E+02  2.980680E-03 1.737842E+02  4.739377E-03 1.474217E+02
2.855479E-03 1.738933E+02  9.575720E-01 -9.494560E+01  9.440373E-03 1.593786E+02
4.649124E-03 1.475529E+02  9.700167E-03 1.595129E+02  9.555638E-01 -9.773632E+01
1.460780E+03  9.545754E-01 -1.009738E+02  2.934054E-03 1.784523E+02  4.768259E-03 1.465929E+02
2.795243E-03 1.783758E+02  9.574419E-01 -9.506395E+01  9.439921E-03 1.616227E+02
4.689599E-03 1.464170E+02  9.749336E-03 1.617901E+02  9.555550E-01 -9.784251E+01
1.461155E+03  9.535059E-01 -1.010754E+02  3.001747E-03 -1.781869E+02  4.771895E-03 1.456428E+02
2.849445E-03 -1.779281E+02  9.575652E-01 -9.517556E+01  9.395332E-03 1.635569E+02
4.687608E-03 1.457696E+02  9.669930E-03 1.636757E+02  9.557758E-01 -9.792652E+01
1.461530E+03  9.529764E-01 -1.010906E+02  3.321496E-03 -1.760316E+02  4.546784E-03 1.435904E+02
3.176028E-03 -1.756040E+02  9.573950E-01 -9.526741E+01  9.768769E-03 1.661500E+02
4.459372E-03 1.434615E+02  1.007246E-02 1.662311E+02  9.563823E-01 -9.801219E+01
1.461905E+03  9.529911E-01 -1.011889E+02  3.311603E-03 -1.788023E+02  4.421859E-03 1.472935E+02
3.159731E-03 -1.791276E+02  9.571673E-01 -9.538139E+01  9.934221E-03 1.658650E+02
4.355014E-03 1.470928E+02  1.023208E-02 1.660089E+02  9.564520E-01 -9.813468E+01
1.462280E+03  9.527610E-01 -1.012716E+02  3.289839E-03 -1.743976E+02  4.469636E-03 1.462068E+02
3.141032E-03 -1.744101E+02  9.564922E-01 -9.545226E+01  9.880165E-03 1.669545E+02
4.422285E-03 1.461191E+02  1.019174E-02 1.669268E+02  9.562918E-01 -9.824237E+01
1.462655E+03  9.522902E-01 -1.013708E+02  3.530194E-03 -1.711655E+02  4.428094E-03 1.474788E+02
3.398860E-03 -1.714197E+02  9.562408E-01 -9.552133E+01  1.017901E-02 1.689924E+02
4.357671E-03 1.473673E+02  1.049290E-02 1.690047E+02  9.560481E-01 -9.833689E+01
1.463030E+03  9.515758E-01 -1.014735E+02  3.738000E-03 -1.737605E+02  4.422178E-03 1.483109E+02
3.572865E-03 -1.739127E+02  9.570671E-01 -9.557297E+01  1.042438E-02 1.688844E+02
4.399273E-03 1.483773E+02  1.072105E-02 1.687963E+02  9.560681E-01 -9.841313E+01
1.463405E+03  9.506994E-01 -1.015343E+02  3.778683E-03 -1.719217E+02  4.601518E-03 1.477828E+02
3.614189E-03 -1.724404E+02  9.576085E-01 -9.567325E+01  1.048705E-02 1.696307E+02
4.537433E-03 1.479024E+02  1.081003E-02 1.695225E+02  9.566806E-01 -9.849645E+01
1.463780E+03  9.505513E-01 -1.015636E+02  4.150654E-03 -1.720601E+02  4.377744E-03 1.458885E+02
3.977012E-03 -1.725151E+02  9.575805E-01 -9.579629E+01  1.087109E-02 1.701938E+02
4.304690E-03 1.456193E+02  1.120599E-02 1.702227E+02  9.567840E-01 -9.861134E+01
1.464155E+03  9.498783E-01 -1.016283E+02  4.282225E-03 -1.741952E+02  4.359227E-03 1.480696E+02
4.106675E-03 -1.743454E+02  9.578923E-01 -9.590802E+01  1.100196E-02 1.692990E+02
4.265985E-03 1.479769E+02  1.133770E-02 1.694473E+02  9.567385E-01 -9.874283E+01
1.464530E+03  9.503741E-01 -1.016675E+02  4.431370E-03 -1.768316E+02  4.338197E-03 1.494824E+02
4.226471E-03 -1.769076E+02  9.578458E-01 -9.600090E+01  1.103393E-02 1.696443E+02
4.282787E-03 1.493427E+02  1.136812E-02 1.696412E+02  9.567719E-01 -9.887192E+01
1.464905E+03  9.509393E-01 -1.017582E+02  4.426446E-03 -1.758791E+02  4.527032E-03 1.483691E+02
4.250064E-03 -1.758233E+02  9.577384E-01 -9.610227E+01  1.113513E-02 1.707265E+02
4.468427E-03 1.482369E+02  1.145619E-02 1.708399E+02  9.564459E-01 -9.898754E+01
1.465280E+03  9.505949E-01 -1.018883E+02  4.713673E-03 -1.787585E+02  4.427853E-03 1.471773E+02
4.487702E-03 -1.790009E+02  9.578253E-01 -9.618622E+01  1.155290E-02 1.708449E+02
4.346687E-03 1.470231E+02  1.187555E-02 1.709726E+02  9.563914E-01 -9.909146E+01
1.465655E+03  9.498758E-01 -1.019793E+02  4.829485E-03 1.795712E+02  4.276902E-03 1.465793E+02
4.621417E-03 1.798414E+02  9.579474E-01 -9.629474E+01  1.185667E-02 1.702492E+02
4.186069E-03 1.466201E+02  1.221010E-02 1.703791E+02  9.562211E-01 -9.919439E+01
1.466030E+03  9.493681E-01 -1.020165E+02  4.717990E-03 1.760928E+02  4.267010E-03 1.492613E+02
4.511541E-03 1.759905E+02  9.580794E-01 -9.637723E+01  1.184290E-02 1.689502E+02
4.188936E-03 1.494449E+02  1.217790E-02 1.690599E+02  9.563749E-01 -9.930065E+01
1.466405E+03  9.486967E-01 -1.020492E+02  4.620468E-03 1.772654E+02  4.294668E-03 1.491337E+02
4.385086E-03 1.769712E+02  9.578915E-01 -9.647460E+01  1.182337E-02 1.696833E+02
4.202034E-03 1.490564E+02  1.213148E-02 1.698582E+02  9.559037E-01 -9.942127E+01
1.466780E+03  9.488831E-01 -1.021279E+02  4.715678E-03 1.775698E+02  4.252786E-03 1.490914E+02
