! Matrix data file written by TouchstoneData, EPCOS AG
! FILENAME: "newformat_LZ14B_1_WB.s2p"
! COMMENT: "(LZ14B_1_WB.s2p) EPCOS AG 15.12.2011 14:51:3"
! INFO: nport=2, nfreq=1601
! DATE: "Thu Dec 15 15:57:37 2011"
! USER: "Sergey Rostovtsev"
!
! port | pin | signal
! -----|-----|--------
!   1  |  1  |  in
!   2  |  4  |  out
! --------------------
! 
# MHZ S MA R 50
! freq  magS11 angS11  magS21 angS21  magS12 angS12  magS22 angS22
1.000000E+01  9.947377E-01 -9.478791E-01  1.419849E-04 9.979420E+01  1.071966E-04 9.027345E+01  9.930089E-01 -1.182006E+00 
1.249375E+01  9.969382E-01 -8.312380E-01  2.276329E-04 8.530822E+01  2.038352E-04 6.574605E+01  9.969866E-01 -1.082154E+00 
1.498750E+01  9.938411E-01 -8.172536E-01  1.660521E-04 8.978271E+01  2.048665E-04 8.429665E+01  9.933849E-01 -1.118098E+00 
1.748125E+01  9.978682E-01 -9.561815E-01  2.695181E-04 9.442460E+01  2.540674E-04 9.645962E+01  1.000433E+00 -1.208218E+00 
1.997500E+01  9.965079E-01 -1.086672E+00  2.079469E-04 1.288550E+02  2.054619E-04 1.243628E+02  9.987864E-01 -1.662655E+00 
2.246875E+01  9.992017E-01 -1.356203E+00  4.082189E-04 6.805976E+01  4.010143E-04 7.380829E+01  1.002071E+00 -1.905517E+00 
2.496250E+01  9.989329E-01 -1.628865E+00  3.942791E-04 8.217856E+01  3.628828E-04 8.248668E+01  1.000188E+00 -1.957000E+00 
2.745625E+01  9.995161E-01 -1.689816E+00  2.863426E-04 8.924086E+01  3.245807E-04 8.100130E+01  9.989476E-01 -2.315740E+00 
2.995000E+01  1.000010E+00 -1.792627E+00  3.694449E-04 9.374572E+01  3.572854E-04 8.494464E+01  1.000221E+00 -2.454442E+00 
3.244375E+01  9.993759E-01 -1.947044E+00  3.834113E-04 8.991603E+01  4.401000E-04 8.893759E+01  9.991179E-01 -2.725569E+00 
3.493750E+01  9.979597E-01 -2.260791E+00  3.899771E-04 8.069357E+01  4.113191E-04 7.818803E+01  9.982149E-01 -3.017910E+00 
3.743125E+01  1.000234E+00 -2.264710E+00  4.585623E-04 7.847915E+01  5.217097E-04 7.866730E+01  9.997119E-01 -3.150178E+00 
3.992500E+01  9.996157E-01 -2.440043E+00  5.067962E-04 9.530990E+01  4.648680E-04 9.318583E+01  9.993849E-01 -3.346656E+00 
4.241875E+01  9.993846E-01 -2.611821E+00  5.266253E-04 7.937196E+01  4.824707E-04 8.651118E+01  9.996293E-01 -3.578352E+00 
4.491250E+01  9.988515E-01 -2.770231E+00  5.779897E-04 8.655035E+01  5.508832E-04 8.773035E+01  9.990147E-01 -3.783912E+00 
4.740625E+01  9.984580E-01 -2.964109E+00  5.457977E-04 9.169542E+01  5.259961E-04 8.856944E+01  9.988725E-01 -4.019019E+00 
4.990000E+01  9.990149E-01 -2.980918E+00  6.741710E-04 8.361363E+01  6.846300E-04 8.506894E+01  9.983540E-01 -4.096461E+00 
5.239375E+01  9.988129E-01 -3.229292E+00  6.679206E-04 8.886933E+01  6.653185E-04 8.809654E+01  9.985577E-01 -4.337513E+00 
5.488750E+01  9.989790E-01 -3.376273E+00  7.101099E-04 8.438150E+01  7.002793E-04 8.372708E+01  9.980640E-01 -4.566419E+00 
5.738125E+01  9.992114E-01 -3.516948E+00  6.781623E-04 8.731846E+01  6.804375E-04 8.741843E+01  9.987906E-01 -4.732553E+00 
5.987500E+01  9.993395E-01 -3.671560E+00  7.336772E-04 8.375085E+01  7.257567E-04 8.415175E+01  9.990378E-01 -4.976700E+00 
6.236875E+01  9.991341E-01 -3.837409E+00  7.900634E-04 8.433595E+01  7.858179E-04 8.476499E+01  9.989620E-01 -5.174014E+00 
6.486250E+01  9.993244E-01 -3.967914E+00  7.925684E-04 8.438385E+01  8.032106E-04 8.523396E+01  9.993320E-01 -5.360712E+00 
6.735625E+01  9.998255E-01 -4.141628E+00  8.524477E-04 8.542140E+01  8.507436E-04 8.518773E+01  9.991154E-01 -5.525476E+00 
6.985000E+01  9.996006E-01 -4.324903E+00  8.561082E-04 8.270219E+01  8.607102E-04 8.264035E+01  9.990316E-01 -5.835658E+00 
7.234375E+01  9.980260E-01 -4.403298E+00  9.467746E-04 8.999330E+01  9.529626E-04 8.959915E+01  9.974770E-01 -5.959577E+00 
7.483750E+01  9.990301E-01 -4.602691E+00  9.005228E-04 8.194716E+01  9.028714E-04 8.190313E+01  9.984082E-01 -6.175223E+00 
7.733125E+01  9.989158E-01 -4.761656E+00  1.001959E-03 8.402037E+01  1.006715E-03 8.368727E+01  9.985791E-01 -6.375199E+00 
7.982500E+01  9.989785E-01 -4.910570E+00  9.405057E-04 8.099857E+01  9.547424E-04 8.080848E+01  9.985696E-01 -6.567290E+00 
8.231875E+01  9.992247E-01 -5.040948E+00  1.037138E-03 8.385013E+01  1.037896E-03 8.398448E+01  9.988649E-01 -6.741549E+00 
8.481250E+01  9.991695E-01 -5.237026E+00  1.062113E-03 8.101829E+01  1.077225E-03 8.070927E+01  9.985356E-01 -6.994147E+00 
8.730625E+01  9.989879E-01 -5.402933E+00  1.090994E-03 8.333485E+01  1.091576E-03 8.311628E+01  9.979115E-01 -7.234857E+00 
8.980000E+01  9.987061E-01 -5.567153E+00  1.051516E-03 8.478193E+01  1.051121E-03 8.486787E+01  9.983087E-01 -7.363632E+00 
9.229375E+01  9.989474E-01 -5.699917E+00  1.162682E-03 8.189279E+01  1.170775E-03 8.163889E+01  9.983618E-01 -7.637230E+00 
9.478750E+01  9.981432E-01 -5.883850E+00  1.187459E-03 8.257782E+01  1.186984E-03 8.236511E+01  9.980322E-01 -7.882724E+00 
9.728125E+01  9.986966E-01 -5.977082E+00  1.210033E-03 8.390870E+01  1.212048E-03 8.365674E+01  9.980389E-01 -7.948298E+00 
9.977500E+01  9.987533E-01 -6.147111E+00  1.286084E-03 8.439464E+01  1.287350E-03 8.404945E+01  9.983338E-01 -8.212640E+00 
1.022687E+02  9.988193E-01 -6.300764E+00  1.324256E-03 8.013064E+01  1.327371E-03 8.024550E+01  9.983779E-01 -8.421712E+00 
1.047625E+02  9.986910E-01 -6.473389E+00  1.323709E-03 8.387887E+01  1.327468E-03 8.415377E+01  9.978658E-01 -8.647020E+00 
1.072562E+02  9.983701E-01 -6.635796E+00  1.341862E-03 8.229834E+01  1.346176E-03 8.183530E+01  9.985526E-01 -8.823993E+00 
1.097500E+02  9.989898E-01 -6.789661E+00  1.443221E-03 8.196688E+01  1.447235E-03 8.183516E+01  9.982123E-01 -9.073431E+00 
1.122438E+02  9.988425E-01 -6.958292E+00  1.355689E-03 8.114643E+01  1.346535E-03 8.117298E+01  9.984174E-01 -9.213628E+00 
1.147375E+02  9.991142E-01 -7.113527E+00  1.477613E-03 8.406890E+01  1.460069E-03 8.370665E+01  9.982924E-01 -9.429889E+00 
1.172313E+02  9.982194E-01 -7.314390E+00  1.371987E-03 7.914333E+01  1.366397E-03 7.872602E+01  9.977645E-01 -9.611928E+00 
1.197250E+02  9.979187E-01 -7.396026E+00  1.423043E-03 7.975600E+01  1.419238E-03 7.955837E+01  9.971417E-01 -9.821539E+00 
1.222188E+02  9.980655E-01 -7.553978E+00  1.530377E-03 7.668011E+01  1.527853E-03 7.609593E+01  9.973734E-01 -9.976509E+00 
1.247125E+02  9.984544E-01 -7.728611E+00  1.513119E-03 7.950425E+01  1.507675E-03 7.951449E+01  9.984540E-01 -1.018158E+01 
1.272062E+02  9.984306E-01 -7.889354E+00  1.563657E-03 7.839687E+01  1.559801E-03 7.830307E+01  9.982036E-01 -1.038712E+01 
1.297000E+02  9.989447E-01 -8.055872E+00  1.609416E-03 8.042581E+01  1.614490E-03 8.032294E+01  9.987512E-01 -1.061429E+01 
1.321937E+02  9.985444E-01 -8.218649E+00  1.630380E-03 7.887354E+01  1.626354E-03 7.876645E+01  9.984500E-01 -1.080000E+01 
1.346875E+02  9.985210E-01 -8.377889E+00  1.683819E-03 8.103481E+01  1.681312E-03 8.132890E+01  9.986572E-01 -1.100194E+01 
1.371813E+02  9.984209E-01 -8.512684E+00  1.712049E-03 8.075175E+01  1.699631E-03 8.076845E+01  9.985530E-01 -1.121584E+01 
1.396750E+02  9.980750E-01 -8.708878E+00  1.743818E-03 7.837870E+01  1.742123E-03 7.860748E+01  9.985170E-01 -1.147251E+01 
1.421687E+02  9.978501E-01 -8.916504E+00  1.776426E-03 7.876884E+01  1.780770E-03 7.849531E+01  9.986003E-01 -1.169080E+01 
1.446625E+02  9.979102E-01 -9.018894E+00  1.772272E-03 8.050932E+01  1.771486E-03 8.058787E+01  9.977613E-01 -1.182676E+01 
1.471562E+02  9.981844E-01 -9.154543E+00  1.782321E-03 7.909281E+01  1.754773E-03 7.953390E+01  9.979508E-01 -1.198192E+01 
1.496500E+02  9.985121E-01 -9.345098E+00  1.892828E-03 7.641318E+01  1.907795E-03 7.650201E+01  9.984047E-01 -1.221991E+01 
1.521438E+02  9.986016E-01 -9.497272E+00  1.914320E-03 7.676801E+01  1.923459E-03 7.681536E+01  9.983675E-01 -1.243789E+01 
1.546375E+02  9.989634E-01 -9.676023E+00  1.889881E-03 7.859388E+01  1.883711E-03 7.883443E+01  9.984582E-01 -1.263273E+01 
1.571312E+02  9.988458E-01 -9.858695E+00  1.953980E-03 7.873647E+01  1.955201E-03 7.839226E+01  9.984022E-01 -1.283570E+01 
1.596250E+02  9.986526E-01 -1.003300E+01  1.983302E-03 7.867573E+01  1.986542E-03 7.842543E+01  9.987105E-01 -1.306470E+01 
1.621188E+02  9.999259E-01 -1.015656E+01  2.035179E-03 7.889078E+01  2.036054E-03 7.892507E+01  9.997115E-01 -1.325854E+01 
1.646125E+02  9.988597E-01 -1.037318E+01  2.073731E-03 7.877035E+01  2.073871E-03 7.878144E+01  9.980021E-01 -1.352347E+01 
1.671062E+02  9.979900E-01 -1.044867E+01  1.983798E-03 7.428260E+01  1.988294E-03 7.408651E+01  9.961447E-01 -1.363058E+01 
1.696000E+02  9.979246E-01 -1.063035E+01  1.952837E-03 7.196948E+01  1.971044E-03 7.193053E+01  9.962458E-01 -1.375650E+01 
1.720938E+02  9.980677E-01 -1.077166E+01  2.003785E-03 6.265732E+01  1.981109E-03 6.283232E+01  9.957578E-01 -1.390132E+01 
1.745875E+02  9.982812E-01 -1.090946E+01  2.172301E-03 7.265049E+01  2.177663E-03 7.270346E+01  9.967308E-01 -1.414391E+01 
1.770813E+02  9.987497E-01 -1.116017E+01  2.235259E-03 7.534637E+01  2.226298E-03 7.551286E+01  9.971482E-01 -1.446545E+01 
1.795750E+02  9.986657E-01 -1.127918E+01  2.120827E-03 7.552761E+01  2.118870E-03 7.580504E+01  9.981373E-01 -1.458807E+01 
1.820687E+02  9.990024E-01 -1.138161E+01  2.158205E-03 7.764942E+01  2.178918E-03 7.733069E+01  9.990768E-01 -1.470267E+01 
1.845625E+02  9.991993E-01 -1.156628E+01  2.258227E-03 7.632649E+01  2.250623E-03 7.648667E+01  9.987160E-01 -1.494387E+01 
1.870563E+02  9.994227E-01 -1.174946E+01  2.291086E-03 7.644310E+01  2.288166E-03 7.637068E+01  9.991388E-01 -1.516893E+01 
1.895500E+02  9.989190E-01 -1.188372E+01  2.322397E-03 7.591680E+01  2.299147E-03 7.590443E+01  9.986014E-01 -1.541696E+01 
1.920437E+02  9.986659E-01 -1.200188E+01  2.332840E-03 7.577136E+01  2.333550E-03 7.559012E+01  9.968058E-01 -1.554354E+01 
1.945375E+02  9.972352E-01 -1.214645E+01  2.291402E-03 7.491726E+01  2.292591E-03 7.509043E+01  9.956744E-01 -1.553219E+01 
1.970312E+02  9.986545E-01 -1.234545E+01  2.428436E-03 7.458083E+01  2.428115E-03 7.466536E+01  9.976911E-01 -1.588611E+01 
1.995250E+02  9.988009E-01 -1.248979E+01  2.431003E-03 7.542186E+01  2.438148E-03 7.532375E+01  9.979532E-01 -1.607276E+01 
2.020188E+02  9.987197E-01 -1.264721E+01  2.451012E-03 7.577531E+01  2.447390E-03 7.545446E+01  9.976787E-01 -1.629404E+01 
2.045125E+02  9.983609E-01 -1.283792E+01  2.529646E-03 7.523697E+01  2.518328E-03 7.500721E+01  9.981727E-01 -1.644494E+01 
2.070062E+02  9.986653E-01 -1.302241E+01  2.500242E-03 7.516322E+01  2.480716E-03 7.477026E+01  9.974916E-01 -1.668877E+01 
2.095000E+02  9.985271E-01 -1.305696E+01  2.564887E-03 7.512631E+01  2.568064E-03 7.483593E+01  9.995630E-01 -1.689640E+01 
2.119938E+02  9.979726E-01 -1.330446E+01  2.602246E-03 7.381722E+01  2.591861E-03 7.386313E+01  9.980499E-01 -1.709874E+01 
2.144875E+02  9.970447E-01 -1.339708E+01  2.596226E-03 7.388132E+01  2.588837E-03 7.392590E+01  9.954322E-01 -1.720378E+01 
2.169812E+02  9.974315E-01 -1.357251E+01  2.624310E-03 7.394409E+01  2.617201E-03 7.384800E+01  9.965492E-01 -1.737057E+01 
2.194750E+02  9.975408E-01 -1.375120E+01  2.661683E-03 7.337584E+01  2.668898E-03 7.327403E+01  9.974318E-01 -1.760478E+01 
2.219688E+02  9.973908E-01 -1.388226E+01  2.735918E-03 7.409324E+01  2.724636E-03 7.399002E+01  9.967999E-01 -1.777673E+01 
2.244625E+02  9.982314E-01 -1.402509E+01  2.754432E-03 7.330701E+01  2.737526E-03 7.335072E+01  9.963936E-01 -1.799957E+01 
2.269563E+02  9.989860E-01 -1.416619E+01  2.848353E-03 7.351554E+01  2.853233E-03 7.329358E+01  9.958509E-01 -1.821873E+01 
2.294500E+02  9.980912E-01 -1.433007E+01  2.865128E-03 7.349987E+01  2.863021E-03 7.357049E+01  9.966333E-01 -1.842550E+01 
2.319437E+02  9.977702E-01 -1.449021E+01  2.888630E-03 7.371756E+01  2.898014E-03 7.355510E+01  9.966844E-01 -1.859478E+01 
2.344375E+02  9.982711E-01 -1.450715E+01  2.854359E-03 7.392553E+01  2.857378E-03 7.393128E+01  9.973489E-01 -1.867704E+01 
2.369313E+02  9.971686E-01 -1.478508E+01  2.886431E-03 7.344171E+01  2.887151E-03 7.339075E+01  9.968496E-01 -1.903642E+01 
2.394250E+02  9.974836E-01 -1.492320E+01  2.796977E-03 7.073311E+01  2.787699E-03 7.070235E+01  9.957291E-01 -1.910019E+01 
2.419187E+02  9.981382E-01 -1.514864E+01  2.886576E-03 7.157688E+01  2.879805E-03 7.141951E+01  9.965889E-01 -1.938356E+01 
2.444125E+02  9.982957E-01 -1.526520E+01  2.942625E-03 7.267468E+01  2.945104E-03 7.260287E+01  9.967844E-01 -1.952761E+01 
2.469062E+02  9.979324E-01 -1.541576E+01  2.994995E-03 7.184746E+01  2.996461E-03 7.177655E+01  9.972487E-01 -1.974331E+01 
2.494000E+02  9.976442E-01 -1.553748E+01  3.086051E-03 7.015482E+01  3.077292E-03 6.989865E+01  9.968682E-01 -1.993707E+01 
2.518938E+02  9.977113E-01 -1.566739E+01  3.138345E-03 7.062331E+01  3.134642E-03 7.054978E+01  9.967551E-01 -2.015156E+01 
2.543875E+02  9.978412E-01 -1.582326E+01  3.202759E-03 6.991085E+01  3.207280E-03 6.968519E+01  9.967103E-01 -2.035207E+01 
2.568813E+02  9.978462E-01 -1.597435E+01  3.157832E-03 7.092644E+01  3.165221E-03 7.091005E+01  9.967615E-01 -2.056904E+01 
2.593750E+02  9.973121E-01 -1.615192E+01  3.097852E-03 7.093889E+01  3.096736E-03 7.117365E+01  9.966267E-01 -2.079071E+01 
2.618687E+02  9.972544E-01 -1.623642E+01  3.055150E-03 7.006652E+01  3.048568E-03 7.019250E+01  9.940998E-01 -2.096576E+01 
2.643625E+02  9.976528E-01 -1.638266E+01  3.081893E-03 7.061854E+01  3.076768E-03 7.054894E+01  9.963039E-01 -2.108999E+01 
2.668562E+02  9.980818E-01 -1.655648E+01  3.170351E-03 7.011944E+01  3.184596E-03 7.027289E+01  9.970268E-01 -2.133320E+01 
2.693500E+02  9.978639E-01 -1.668314E+01  3.191718E-03 7.040299E+01  3.182111E-03 7.026365E+01  9.973473E-01 -2.150609E+01 
2.718438E+02  9.978362E-01 -1.681193E+01  3.255476E-03 7.016734E+01  3.248690E-03 7.006921E+01  9.972429E-01 -2.173077E+01 
2.743375E+02  9.977393E-01 -1.699499E+01  3.305649E-03 7.027640E+01  3.301597E-03 7.033777E+01  9.973653E-01 -2.195447E+01 
2.768313E+02  9.976286E-01 -1.712078E+01  3.314716E-03 6.996376E+01  3.310152E-03 6.983201E+01  9.973060E-01 -2.220179E+01 
2.793250E+02  9.976200E-01 -1.726303E+01  3.377247E-03 6.969902E+01  3.373038E-03 6.971396E+01  9.973724E-01 -2.243022E+01 
2.818188E+02  9.975345E-01 -1.742634E+01  3.426141E-03 6.950519E+01  3.425420E-03 6.957650E+01  9.972706E-01 -2.267982E+01 
2.843125E+02  9.968754E-01 -1.762444E+01  3.477650E-03 6.911956E+01  3.480632E-03 6.909804E+01  9.965376E-01 -2.294616E+01 
2.868062E+02  9.975748E-01 -1.772819E+01  3.448827E-03 6.873716E+01  3.443143E-03 6.877691E+01  9.954063E-01 -2.300401E+01 
2.893000E+02  9.977041E-01 -1.783972E+01  3.404674E-03 6.893380E+01  3.398937E-03 6.884922E+01  9.958062E-01 -2.320479E+01 
2.917937E+02  9.977574E-01 -1.798118E+01  3.441772E-03 6.856839E+01  3.446056E-03 6.847236E+01  9.963986E-01 -2.339226E+01 
2.942875E+02  9.978794E-01 -1.815729E+01  3.497480E-03 6.882627E+01  3.499051E-03 6.855149E+01  9.972357E-01 -2.362983E+01 
2.967812E+02  9.977862E-01 -1.828652E+01  3.558680E-03 6.924717E+01  3.549334E-03 6.920866E+01  9.972333E-01 -2.384265E+01 
2.992750E+02  9.977670E-01 -1.843733E+01  3.625581E-03 6.868634E+01  3.619840E-03 6.876482E+01  9.971426E-01 -2.408229E+01 
3.017688E+02  9.977918E-01 -1.857001E+01  3.645644E-03 6.789296E+01  3.646742E-03 6.783447E+01  9.969046E-01 -2.432385E+01 
3.042625E+02  9.974836E-01 -1.872594E+01  3.688227E-03 6.753294E+01  3.681784E-03 6.741656E+01  9.964626E-01 -2.457023E+01 
3.067563E+02  9.969730E-01 -1.892747E+01  3.779015E-03 6.752821E+01  3.777248E-03 6.741930E+01  9.954507E-01 -2.485467E+01 
3.092500E+02  9.969724E-01 -1.896133E+01  3.734782E-03 6.672165E+01  3.737740E-03 6.649255E+01  9.919195E-01 -2.499936E+01 
3.117437E+02  9.971866E-01 -1.913763E+01  3.720120E-03 6.752727E+01  3.735523E-03 6.746713E+01  9.941749E-01 -2.505508E+01 
3.142375E+02  9.971394E-01 -1.925644E+01  3.700940E-03 6.648143E+01  3.700057E-03 6.675448E+01  9.947639E-01 -2.520120E+01 
3.167312E+02  9.974174E-01 -1.940752E+01  3.776027E-03 6.683252E+01  3.764614E-03 6.699248E+01  9.956596E-01 -2.542238E+01 
3.192250E+02  9.974606E-01 -1.954179E+01  3.699595E-03 6.468505E+01  3.706376E-03 6.466730E+01  9.955796E-01 -2.562948E+01 
3.217188E+02  9.981767E-01 -1.977530E+01  3.784361E-03 6.542828E+01  3.783892E-03 6.528413E+01  9.966186E-01 -2.595348E+01 
3.242125E+02  9.971821E-01 -1.988671E+01  3.776612E-03 6.517696E+01  3.779759E-03 6.512228E+01  9.965059E-01 -2.613071E+01 
3.267063E+02  9.973063E-01 -2.003004E+01  3.808228E-03 6.563628E+01  3.813674E-03 6.561810E+01  9.963649E-01 -2.637683E+01 
3.292000E+02  9.973868E-01 -2.017889E+01  3.850603E-03 6.601866E+01  3.860301E-03 6.607590E+01  9.960129E-01 -2.659936E+01 
3.316938E+02  9.962603E-01 -2.028690E+01  3.903011E-03 6.563436E+01  3.910751E-03 6.562896E+01  9.954104E-01 -2.687823E+01 
3.341875E+02  9.969076E-01 -2.042003E+01  3.967040E-03 6.566685E+01  3.964599E-03 6.565911E+01  9.943100E-01 -2.693435E+01 
3.366812E+02  9.966892E-01 -2.056370E+01  3.961136E-03 6.589919E+01  3.968624E-03 6.597513E+01  9.955945E-01 -2.711645E+01 
3.391750E+02  9.970588E-01 -2.067383E+01  3.979080E-03 6.570031E+01  3.970566E-03 6.541784E+01  9.958972E-01 -2.732876E+01 
3.416687E+02  9.971590E-01 -2.083445E+01  3.959521E-03 6.586485E+01  3.952337E-03 6.592059E+01  9.958513E-01 -2.756758E+01 
3.441625E+02  9.967240E-01 -2.095920E+01  3.992753E-03 6.492153E+01  3.997288E-03 6.513361E+01  9.960894E-01 -2.777784E+01 
3.466562E+02  9.966605E-01 -2.112518E+01  4.059765E-03 6.592777E+01  4.053322E-03 6.593796E+01  9.961583E-01 -2.799965E+01 
3.491500E+02  9.965955E-01 -2.128588E+01  4.121722E-03 6.497092E+01  4.123373E-03 6.489028E+01  9.963285E-01 -2.822233E+01 
3.516438E+02  9.966395E-01 -2.144830E+01  4.170533E-03 6.455540E+01  4.174151E-03 6.451434E+01  9.958143E-01 -2.845721E+01 
3.541375E+02  9.949386E-01 -2.156228E+01  4.157464E-03 6.441384E+01  4.162195E-03 6.412063E+01  9.944123E-01 -2.858613E+01 
3.566313E+02  9.957311E-01 -2.171626E+01  4.198084E-03 6.382524E+01  4.198187E-03 6.372647E+01  9.919621E-01 -2.891128E+01 
3.591250E+02  9.964502E-01 -2.191084E+01  4.197083E-03 6.426596E+01  4.207945E-03 6.433014E+01  9.943635E-01 -2.900742E+01 
3.616187E+02  9.965688E-01 -2.205240E+01  4.224657E-03 6.472481E+01  4.230390E-03 6.471338E+01  9.944407E-01 -2.919564E+01 
3.641125E+02  9.964692E-01 -2.218283E+01  4.395206E-03 6.379858E+01  4.386148E-03 6.383069E+01  9.948318E-01 -2.942733E+01 
3.666062E+02  9.964825E-01 -2.230793E+01  4.410621E-03 6.313582E+01  4.417799E-03 6.315790E+01  9.941459E-01 -2.957418E+01 
3.691000E+02  9.965570E-01 -2.253261E+01  4.251599E-03 6.114294E+01  4.257119E-03 6.110320E+01  9.938455E-01 -2.982111E+01 
3.715938E+02  9.964223E-01 -2.267957E+01  4.331189E-03 6.127965E+01  4.345840E-03 6.105569E+01  9.945003E-01 -3.003809E+01 
3.740875E+02  9.965836E-01 -2.283079E+01  4.338974E-03 5.645878E+01  4.336882E-03 5.637266E+01  9.934006E-01 -3.021294E+01 
3.765813E+02  9.965988E-01 -2.299050E+01  4.300634E-03 6.143994E+01  4.306977E-03 6.137694E+01  9.942119E-01 -3.042010E+01 
3.790750E+02  9.959908E-01 -2.310510E+01  4.361268E-03 6.051073E+01  4.368113E-03 6.036668E+01  9.936659E-01 -3.067734E+01 
3.815688E+02  9.965862E-01 -2.325965E+01  4.326164E-03 6.178562E+01  4.327235E-03 6.176815E+01  9.931708E-01 -3.072491E+01 
3.840625E+02  9.963391E-01 -2.340501E+01  4.386620E-03 6.245240E+01  4.385255E-03 6.247630E+01  9.936273E-01 -3.093431E+01 
3.865562E+02  9.976490E-01 -2.357681E+01  4.491913E-03 6.203771E+01  4.496081E-03 6.196741E+01  9.957545E-01 -3.113479E+01 
3.890500E+02  9.957490E-01 -2.372233E+01  4.581707E-03 6.204472E+01  4.601231E-03 6.199748E+01  9.939335E-01 -3.136703E+01 
3.915437E+02  9.960964E-01 -2.386774E+01  4.496554E-03 6.057270E+01  4.503867E-03 6.052757E+01  9.934178E-01 -3.151974E+01 
3.940375E+02  9.963449E-01 -2.401180E+01  4.574680E-03 6.190196E+01  4.571846E-03 6.190507E+01  9.941930E-01 -3.172904E+01 
3.965312E+02  9.964973E-01 -2.418185E+01  4.524094E-03 6.074811E+01  4.532002E-03 6.060481E+01  9.943189E-01 -3.192553E+01 
3.990250E+02  9.965638E-01 -2.435610E+01  4.580839E-03 6.105749E+01  4.583054E-03 6.077199E+01  9.945305E-01 -3.213967E+01 
