! Matrix data file written by TouchstoneData, EPCOS AG
! FILENAME: "LZ41A_WB.s2p_newformat"
! COMMENT: "(LZ41A_WB.s2p) EPCOS AG 19.07.2011 16:03:21"
! INFO: nport=2, nfreq=1601
! DATE: "Thu Jul 21 17:56:14 2011"
! USER: "Michael Schemies"
!
! port | pin | signal
! -----|-----|--------
!   1  |  1  |  in
!   2  |  4  |  out
! --------------------
!
# MHZ S MA R 50
! freq  magS11 angS11  magS21 angS21  magS12 angS12  magS22 angS22
5.000000E+01  9.984542E-01 -5.552034E+00  8.457569E-05 7.170595E+01  5.936504E-05 7.401422E+01  9.989713E-01 -4.950856E+00
5.246875E+01  9.985271E-01 -5.907876E+00  5.836118E-05 7.296311E+01  5.600004E-05 7.421938E+01  9.986597E-01 -5.310664E+00
5.493750E+01  9.985691E-01 -6.200569E+00  6.322264E-05 7.802753E+01  6.651260E-05 7.545315E+01  9.985240E-01 -5.527284E+00
5.740625E+01  9.986060E-01 -6.439757E+00  7.250794E-05 6.776150E+01  6.783418E-05 6.410707E+01  9.991163E-01 -5.740251E+00
5.987500E+01  9.987583E-01 -6.710262E+00  7.772831E-05 8.421556E+01  7.437110E-05 8.205789E+01  9.993831E-01 -5.989233E+00
6.234375E+01  9.987074E-01 -6.984979E+00  7.336720E-05 7.733331E+01  7.066634E-05 7.722225E+01  9.991971E-01 -6.239732E+00
6.481250E+01  9.989245E-01 -7.247110E+00  8.565913E-05 9.607122E+01  8.424020E-05 1.012397E+02  9.993661E-01 -6.470007E+00
6.728125E+01  9.993744E-01 -7.482670E+00  1.109795E-04 9.661662E+01  1.053589E-04 9.596477E+01  9.993720E-01 -6.646654E+00
6.975000E+01  9.993463E-01 -7.790610E+00  7.010982E-05 8.033070E+01  7.724422E-05 7.974838E+01  9.994295E-01 -6.991879E+00
7.221875E+01  9.984132E-01 -8.041592E+00  1.468605E-04 3.327424E+01  1.441747E-04 3.534994E+01  9.987099E-01 -7.205343E+00
7.468750E+01  9.991870E-01 -8.295497E+00  1.037081E-04 7.669926E+01  9.181788E-05 8.062563E+01  9.986222E-01 -7.437143E+00
7.715625E+01  9.990970E-01 -8.591125E+00  1.029020E-04 8.604765E+01  9.697589E-05 8.479274E+01  9.985335E-01 -7.653957E+00
7.962500E+01  9.991655E-01 -8.841638E+00  1.331323E-04 7.138573E+01  1.359296E-04 7.405988E+01  9.986024E-01 -7.921279E+00
8.209375E+01  9.990530E-01 -9.076045E+00  1.342840E-04 7.284509E+01  1.345159E-04 7.417729E+01  9.991811E-01 -8.096009E+00
8.456250E+01  9.990227E-01 -9.392392E+00  1.084169E-04 7.704824E+01  1.026468E-04 8.094100E+01  9.990433E-01 -8.374428E+00
8.703125E+01  9.991423E-01 -9.676030E+00  7.584456E-05 9.076933E+01  7.893550E-05 8.653613E+01  9.988637E-01 -8.613277E+00
8.950000E+01  9.989827E-01 -9.958376E+00  1.068488E-04 7.800886E+01  1.120885E-04 7.669363E+01  9.991232E-01 -8.826406E+00
9.196875E+01  9.994521E-01 -1.022578E+01  1.383203E-04 8.181926E+01  1.284101E-04 8.376334E+01  9.991646E-01 -9.067331E+00
9.443750E+01  9.990790E-01 -1.050299E+01  1.531143E-04 7.156943E+01  1.582454E-04 7.017862E+01  9.990065E-01 -9.422188E+00
9.690625E+01  9.993537E-01 -1.075892E+01  9.931194E-05 8.639708E+01  9.576826E-05 8.793364E+01  9.989070E-01 -9.561102E+00
9.937500E+01  9.995956E-01 -1.100176E+01  1.223013E-04 7.333254E+01  1.290237E-04 7.219348E+01  9.991806E-01 -9.780363E+00
1.018438E+02  1.000028E+00 -1.125139E+01  1.403125E-04 6.976595E+01  1.392420E-04 6.754345E+01  9.994035E-01 -1.003000E+01
1.043125E+02  9.999137E-01 -1.153414E+01  1.247424E-04 7.732422E+01  1.210770E-04 8.110003E+01  9.992078E-01 -1.027138E+01
1.067812E+02  9.993119E-01 -1.180537E+01  1.300932E-04 7.373426E+01  1.317269E-04 7.690632E+01  9.995264E-01 -1.050232E+01
1.092500E+02  9.994829E-01 -1.209083E+01  1.384426E-04 7.674295E+01  1.493099E-04 7.493749E+01  9.994231E-01 -1.075955E+01
1.117188E+02  9.992771E-01 -1.232777E+01  1.278490E-04 6.679184E+01  1.069007E-04 5.954267E+01  9.995873E-01 -1.101438E+01
1.141875E+02  9.996149E-01 -1.263979E+01  1.354066E-04 6.759795E+01  1.394004E-04 6.929155E+01  9.996574E-01 -1.123417E+01
1.166562E+02  9.972883E-01 -1.291386E+01  1.626613E-04 4.875334E+01  1.638199E-04 4.978251E+01  9.991737E-01 -1.150321E+01
1.191250E+02  9.991501E-01 -1.317278E+01  1.455131E-04 7.670668E+01  1.558911E-04 7.743718E+01  9.985741E-01 -1.177528E+01
1.215938E+02  9.985532E-01 -1.345167E+01  1.732973E-04 7.667423E+01  1.792513E-04 7.999719E+01  9.983002E-01 -1.194266E+01
1.240625E+02  9.993141E-01 -1.367908E+01  1.428349E-04 7.753892E+01  1.434899E-04 7.654021E+01  9.987083E-01 -1.216723E+01
1.265312E+02  9.990638E-01 -1.397535E+01  1.655500E-04 7.080706E+01  1.650923E-04 7.240192E+01  9.987937E-01 -1.237966E+01
1.290000E+02  9.992407E-01 -1.423603E+01  1.682934E-04 6.824845E+01  1.703357E-04 6.957393E+01  9.988358E-01 -1.262998E+01
1.314688E+02  9.993741E-01 -1.451826E+01  1.545465E-04 7.774526E+01  1.508111E-04 7.814622E+01  9.989347E-01 -1.286395E+01
1.339375E+02  9.994860E-01 -1.478838E+01  1.694087E-04 7.328165E+01  1.689895E-04 7.336430E+01  9.984747E-01 -1.307828E+01
1.364062E+02  9.993404E-01 -1.506187E+01  1.710394E-04 6.914291E+01  1.855275E-04 6.841975E+01  9.988349E-01 -1.337206E+01
1.388750E+02  9.992562E-01 -1.529087E+01  1.712300E-04 7.293152E+01  1.725986E-04 7.273065E+01  9.979405E-01 -1.362563E+01
1.413438E+02  9.990902E-01 -1.562379E+01  1.710631E-04 7.517009E+01  1.640507E-04 7.347778E+01  9.990223E-01 -1.387113E+01
1.438125E+02  9.988511E-01 -1.590761E+01  1.625203E-04 7.829429E+01  1.722689E-04 7.625427E+01  9.986147E-01 -1.413896E+01
1.462812E+02  9.981789E-01 -1.610337E+01  1.936167E-04 7.197904E+01  2.023070E-04 6.771608E+01  9.981690E-01 -1.428777E+01
1.487500E+02  9.986670E-01 -1.641073E+01  1.802884E-04 7.477773E+01  1.883456E-04 7.444753E+01  9.984919E-01 -1.454987E+01
1.512188E+02  9.991829E-01 -1.666201E+01  1.870488E-04 7.241879E+01  1.818632E-04 6.735826E+01  9.985477E-01 -1.479854E+01
1.536875E+02  9.992091E-01 -1.694723E+01  1.898896E-04 7.335140E+01  1.920548E-04 6.890220E+01  9.987575E-01 -1.504399E+01
1.561562E+02  9.986379E-01 -1.717964E+01  1.692107E-04 7.473125E+01  1.772488E-04 7.451557E+01  9.988291E-01 -1.527124E+01
1.586250E+02  9.990203E-01 -1.751723E+01  2.061222E-04 6.847860E+01  2.117158E-04 6.811698E+01  9.988274E-01 -1.552407E+01
1.610938E+02  9.977913E-01 -1.773042E+01  2.145074E-04 7.125343E+01  2.207938E-04 6.924022E+01  9.994381E-01 -1.576020E+01
1.635625E+02  9.993056E-01 -1.802026E+01  1.922680E-04 7.695084E+01  1.857336E-04 7.635079E+01  9.991105E-01 -1.602750E+01
1.660312E+02  9.981286E-01 -1.837353E+01  2.316088E-04 6.555490E+01  2.325610E-04 6.690531E+01  9.982384E-01 -1.627782E+01
1.685000E+02  9.986113E-01 -1.860976E+01  2.051348E-04 7.469129E+01  2.052365E-04 7.812374E+01  9.979963E-01 -1.652449E+01
1.709688E+02  9.981237E-01 -1.884853E+01  2.168477E-04 6.527419E+01  2.151726E-04 6.437277E+01  9.973822E-01 -1.675583E+01
1.734375E+02  9.986102E-01 -1.904032E+01  1.964000E-04 6.844771E+01  1.902953E-04 7.078799E+01  9.976625E-01 -1.691444E+01
1.759062E+02  9.986806E-01 -1.935807E+01  2.015490E-04 7.000045E+01  1.945001E-04 7.039420E+01  9.980224E-01 -1.720359E+01
1.783750E+02  9.985559E-01 -1.973550E+01  1.828263E-04 7.307818E+01  1.814790E-04 7.071977E+01  9.966970E-01 -1.754592E+01
1.808438E+02  9.990488E-01 -1.992536E+01  2.227728E-04 7.211863E+01  2.281142E-04 6.945805E+01  9.972728E-01 -1.768005E+01
1.833125E+02  9.989041E-01 -2.019030E+01  2.161515E-04 6.823233E+01  2.115301E-04 6.745820E+01  9.983775E-01 -1.789104E+01
1.857812E+02  9.995191E-01 -2.047741E+01  2.194044E-04 7.095269E+01  2.170430E-04 7.217405E+01  9.982404E-01 -1.818234E+01
1.882500E+02  9.989037E-01 -2.076331E+01  2.327857E-04 7.313169E+01  2.412770E-04 6.999316E+01  9.980647E-01 -1.840450E+01
1.907188E+02  9.991740E-01 -2.104957E+01  2.346755E-04 6.669499E+01  2.282749E-04 6.659589E+01  9.987895E-01 -1.872916E+01
1.931875E+02  9.969120E-01 -2.129758E+01  2.168700E-04 7.387215E+01  2.119108E-04 7.001920E+01  9.963851E-01 -1.881843E+01
1.956562E+02  9.976521E-01 -2.152164E+01  2.432805E-04 6.767790E+01  2.499083E-04 6.787653E+01  9.970055E-01 -1.908821E+01
1.981250E+02  9.984642E-01 -2.181312E+01  2.389750E-04 6.337272E+01  2.309471E-04 6.505038E+01  9.976965E-01 -1.940287E+01
2.005938E+02  9.981565E-01 -2.200372E+01  2.470773E-04 5.925535E+01  2.414846E-04 6.004620E+01  9.977587E-01 -1.962337E+01
2.030625E+02  9.986158E-01 -2.234203E+01  2.226140E-04 6.742102E+01  2.415243E-04 6.619139E+01  9.972567E-01 -1.991050E+01
2.055312E+02  9.970670E-01 -2.268090E+01  2.411883E-04 6.089289E+01  2.444646E-04 5.945525E+01  9.971006E-01 -2.013944E+01
2.080000E+02  9.985475E-01 -2.290237E+01  2.566778E-04 6.378594E+01  2.492254E-04 6.299770E+01  9.976035E-01 -2.037146E+01
2.104688E+02  9.980490E-01 -2.312811E+01  2.643917E-04 6.572931E+01  2.584960E-04 6.745737E+01  9.997117E-01 -2.061150E+01
2.129375E+02  9.986942E-01 -2.342908E+01  2.673602E-04 6.969268E+01  2.613968E-04 6.849593E+01  9.978490E-01 -2.084125E+01
2.154062E+02  9.978154E-01 -2.373730E+01  2.655453E-04 6.699987E+01  2.711014E-04 6.722599E+01  9.975295E-01 -2.112076E+01
2.178750E+02  9.972552E-01 -2.395380E+01  2.627374E-04 5.872688E+01  2.648728E-04 6.041175E+01  9.966387E-01 -2.135288E+01
2.203438E+02  9.982819E-01 -2.419052E+01  2.684777E-04 6.028076E+01  2.620581E-04 6.072802E+01  9.968717E-01 -2.152127E+01
2.228125E+02  9.976921E-01 -2.444331E+01  2.489619E-04 6.213065E+01  2.462751E-04 6.397798E+01  9.972053E-01 -2.180643E+01
2.252812E+02  9.994861E-01 -2.471309E+01  2.831784E-04 6.252957E+01  2.954092E-04 6.145067E+01  9.958003E-01 -2.205285E+01
2.277500E+02  9.985023E-01 -2.500019E+01  2.663473E-04 5.941028E+01  2.715257E-04 6.014090E+01  9.973597E-01 -2.230032E+01
2.302188E+02  9.985156E-01 -2.527830E+01  2.979762E-04 6.075436E+01  2.977541E-04 6.138993E+01  9.971045E-01 -2.260024E+01
2.326875E+02  9.984816E-01 -2.526414E+01  2.745498E-04 6.527429E+01  2.797591E-04 6.508352E+01  9.975236E-01 -2.250336E+01
2.351562E+02  9.986570E-01 -2.572473E+01  2.845924E-04 6.804167E+01  2.788452E-04 6.619488E+01  9.976773E-01 -2.295482E+01
2.376250E+02  9.983227E-01 -2.611530E+01  2.910009E-04 6.547713E+01  2.902683E-04 6.495757E+01  9.972529E-01 -2.326577E+01
2.400938E+02  9.983022E-01 -2.638067E+01  2.940600E-04 6.456466E+01  2.974947E-04 6.432776E+01  9.971505E-01 -2.351370E+01
2.425625E+02  9.978986E-01 -2.669185E+01  2.774738E-04 6.435961E+01  2.699148E-04 6.328378E+01  9.969358E-01 -2.379473E+01
2.450312E+02  9.978158E-01 -2.685975E+01  3.005534E-04 6.154686E+01  2.976061E-04 6.179185E+01  9.970127E-01 -2.395052E+01
2.475000E+02  9.982475E-01 -2.715188E+01  3.014052E-04 6.383822E+01  2.975388E-04 6.224167E+01  9.972166E-01 -2.419516E+01
2.499688E+02  9.966229E-01 -2.731702E+01  2.899844E-04 6.470460E+01  2.887230E-04 6.531557E+01  9.972989E-01 -2.443964E+01
2.524375E+02  9.978869E-01 -2.765414E+01  3.263996E-04 6.005857E+01  3.239826E-04 6.053069E+01  9.973764E-01 -2.470492E+01
2.549062E+02  9.969808E-01 -2.794719E+01  3.196394E-04 5.795225E+01  3.331330E-04 5.879667E+01  9.974420E-01 -2.494292E+01
2.573750E+02  9.978398E-01 -2.812578E+01  3.040123E-04 6.036092E+01  2.956069E-04 6.155880E+01  9.973433E-01 -2.518808E+01
2.598438E+02  9.978566E-01 -2.845896E+01  3.101401E-04 6.391456E+01  3.088266E-04 6.093884E+01  9.974583E-01 -2.543309E+01
2.623125E+02  9.981032E-01 -2.869125E+01  3.058293E-04 5.975823E+01  2.984909E-04 5.810125E+01  9.975380E-01 -2.569578E+01
2.647812E+02  9.975080E-01 -2.902111E+01  3.124771E-04 5.992275E+01  3.182838E-04 5.875184E+01  9.967706E-01 -2.596592E+01
2.672500E+02  9.973040E-01 -2.919136E+01  3.292087E-04 6.351554E+01  3.302412E-04 6.325977E+01  9.963396E-01 -2.614173E+01
2.697188E+02  9.976508E-01 -2.944969E+01  3.093161E-04 5.932353E+01  3.237789E-04 5.999129E+01  9.966346E-01 -2.636641E+01
2.721875E+02  9.977820E-01 -2.971192E+01  3.408365E-04 6.696132E+01  3.281934E-04 6.372125E+01  9.953360E-01 -2.658716E+01
2.746562E+02  9.976964E-01 -3.001487E+01  3.311641E-04 6.395248E+01  3.297034E-04 6.249504E+01  9.967352E-01 -2.682969E+01
2.771250E+02  9.975775E-01 -3.025373E+01  3.304898E-04 5.816261E+01  3.291504E-04 5.776899E+01  9.963206E-01 -2.714739E+01
2.795938E+02  9.975068E-01 -3.051952E+01  3.330742E-04 5.918577E+01  3.345429E-04 5.977011E+01  9.967423E-01 -2.733098E+01
2.820625E+02  9.972388E-01 -3.078818E+01  3.318458E-04 6.036115E+01  3.416893E-04 6.148303E+01  9.964575E-01 -2.759577E+01
2.845312E+02  9.972627E-01 -3.106645E+01  3.275677E-04 5.747688E+01  3.342826E-04 5.512486E+01  9.960798E-01 -2.782642E+01
2.870000E+02  9.976047E-01 -3.135621E+01  3.553286E-04 5.782985E+01  3.448867E-04 5.697383E+01  9.962838E-01 -2.802986E+01
2.894688E+02  9.965799E-01 -3.154657E+01  3.444462E-04 5.449651E+01  3.242430E-04 5.426886E+01  9.952381E-01 -2.824811E+01
2.919375E+02  9.970865E-01 -3.183646E+01  2.960632E-04 5.408583E+01  2.973705E-04 5.528042E+01  9.955992E-01 -2.840928E+01
2.944062E+02  9.960390E-01 -3.202630E+01  3.617558E-04 5.800601E+01  3.491307E-04 5.845661E+01  9.965521E-01 -2.871930E+01
2.968750E+02  9.970264E-01 -3.231780E+01  3.327729E-04 5.561767E+01  3.373276E-04 5.461699E+01  9.958008E-01 -2.896970E+01
2.993438E+02  9.947431E-01 -3.269033E+01  3.545493E-04 6.562681E+01  3.550950E-04 6.640014E+01  9.966290E-01 -2.921262E+01
3.018125E+02  9.974609E-01 -3.284255E+01  3.592962E-04 5.621364E+01  3.552204E-04 5.576376E+01  9.967962E-01 -2.944362E+01
3.042812E+02  9.968562E-01 -3.315103E+01  3.782143E-04 5.416581E+01  3.861725E-04 5.868824E+01  9.965740E-01 -2.969081E+01
3.067500E+02  9.972393E-01 -3.336820E+01  3.605792E-04 5.630193E+01  3.703552E-04 5.720362E+01  9.964678E-01 -2.995351E+01
3.092188E+02  9.969901E-01 -3.364931E+01  3.603011E-04 5.771020E+01  3.556204E-04 5.610304E+01  9.961446E-01 -3.019562E+01
3.116875E+02  9.968152E-01 -3.390521E+01  3.470752E-04 5.371101E+01  3.504798E-04 5.230208E+01  9.962682E-01 -3.044917E+01
3.141562E+02  9.960421E-01 -3.412371E+01  3.488007E-04 5.170742E+01  3.378299E-04 5.307705E+01  9.951981E-01 -3.061936E+01
3.166250E+02  9.971361E-01 -3.436553E+01  3.553750E-04 5.440937E+01  3.601589E-04 5.592376E+01  9.956870E-01 -3.086303E+01
3.190938E+02  9.972805E-01 -3.463804E+01  3.837702E-04 5.850987E+01  3.804592E-04 5.843895E+01  9.955475E-01 -3.110111E+01
3.215625E+02  9.979930E-01 -3.498558E+01  3.840654E-04 5.837625E+01  3.778775E-04 5.826544E+01  9.964886E-01 -3.139153E+01
3.240312E+02  9.976950E-01 -3.519538E+01  3.716490E-04 5.639900E+01  3.650633E-04 5.635808E+01  9.958706E-01 -3.163938E+01
3.265000E+02  9.973810E-01 -3.546312E+01  4.062697E-04 5.817171E+01  3.923874E-04 5.659618E+01  9.959671E-01 -3.180587E+01
3.289688E+02  9.972558E-01 -3.573474E+01  3.814231E-04 5.387084E+01  3.885323E-04 5.556409E+01  9.955235E-01 -3.208299E+01
3.314375E+02  9.970498E-01 -3.598521E+01  3.708242E-04 5.628222E+01  3.779474E-04 5.671287E+01  9.954324E-01 -3.225747E+01
3.339062E+02  9.969324E-01 -3.622882E+01  4.266819E-04 5.123630E+01  4.185745E-04 5.346463E+01  9.955922E-01 -3.250499E+01
3.363750E+02  9.966818E-01 -3.652284E+01  3.975091E-04 5.423307E+01  3.899399E-04 5.312425E+01  9.951214E-01 -3.276790E+01
3.388438E+02  9.954182E-01 -3.663718E+01  3.745374E-04 4.725962E+01  3.719143E-04 4.898240E+01  9.938371E-01 -3.289431E+01
3.413125E+02  9.964423E-01 -3.699133E+01  3.956087E-04 5.514721E+01  3.859299E-04 5.410957E+01  9.954116E-01 -3.319364E+01
3.437812E+02  9.947746E-01 -3.721562E+01  4.048472E-04 5.131220E+01  4.065180E-04 5.065578E+01  9.942379E-01 -3.346394E+01
3.462500E+02  9.960283E-01 -3.744494E+01  3.810491E-04 5.390817E+01  3.691080E-04 5.364227E+01  9.950406E-01 -3.362836E+01
3.487188E+02  9.955022E-01 -3.775220E+01  3.814238E-04 5.357757E+01  3.763822E-04 5.518636E+01  9.953984E-01 -3.390270E+01
3.511875E+02  9.963170E-01 -3.794865E+01  4.130838E-04 5.082171E+01  4.037067E-04 5.141439E+01  9.956095E-01 -3.414972E+01
3.536562E+02  9.954318E-01 -3.817498E+01  3.988993E-04 5.226882E+01  3.963331E-04 5.177064E+01  9.945413E-01 -3.429897E+01
3.561250E+02  9.960934E-01 -3.844865E+01  4.067415E-04 5.404355E+01  4.093051E-04 5.511669E+01  9.951660E-01 -3.464614E+01
3.585938E+02  9.964826E-01 -3.878685E+01  4.108898E-04 5.225687E+01  4.094109E-04 5.157144E+01  9.957347E-01 -3.494797E+01
3.610625E+02  9.955378E-01 -3.904009E+01  4.341802E-04 5.190704E+01  4.187589E-04 5.105077E+01  9.943075E-01 -3.517999E+01
3.635312E+02  9.959781E-01 -3.923666E+01  4.077119E-04 5.243749E+01  4.028923E-04 5.243039E+01  9.946384E-01 -3.531855E+01
3.660000E+02  9.959233E-01 -3.946062E+01  4.049418E-04 4.929437E+01  4.129488E-04 4.973118E+01  9.944653E-01 -3.553316E+01
3.684688E+02  9.957304E-01 -3.978065E+01  4.188310E-04 5.176908E+01  4.287787E-04 5.083624E+01  9.941923E-01 -3.585685E+01
3.709375E+02  9.955731E-01 -4.005355E+01  4.357142E-04 5.082471E+01  4.263596E-04 5.158679E+01  9.940004E-01 -3.611162E+01
3.734062E+02  9.959610E-01 -4.030368E+01  4.396799E-04 5.203895E+01  4.403463E-04 5.138030E+01  9.946620E-01 -3.631202E+01
3.758750E+02  9.955076E-01 -4.058203E+01  4.324233E-04 5.134054E+01  4.308767E-04 5.036827E+01  9.940582E-01 -3.658212E+01
3.783438E+02  9.959455E-01 -4.084092E+01  4.389158E-04 4.953870E+01  4.423457E-04 5.037524E+01  9.943210E-01 -3.679052E+01
3.808125E+02  9.955121E-01 -4.111325E+01  4.561801E-04 4.999462E+01  4.555655E-04 5.033879E+01  9.936354E-01 -3.707987E+01
3.832812E+02  9.949401E-01 -4.133333E+01  4.321942E-04 4.872332E+01  4.294784E-04 4.714190E+01  9.926599E-01 -3.729205E+01
3.857500E+02  9.954241E-01 -4.159615E+01  4.662430E-04 4.458295E+01  4.614987E-04 4.422645E+01  9.929956E-01 -3.748095E+01
3.882188E+02  9.936517E-01 -4.176642E+01  4.710546E-04 4.293823E+01  4.670433E-04 4.242825E+01  9.919289E-01 -3.772524E+01
3.906875E+02  9.942629E-01 -4.206960E+01  4.513936E-04 4.958744E+01  4.413491E-04 5.015296E+01  9.910875E-01 -3.798685E+01
3.931562E+02  9.929637E-01 -4.226231E+01  4.465078E-04 4.626447E+01  4.426875E-04 4.628052E+01  9.928870E-01 -3.818319E+01
3.956250E+02  9.939831E-01 -4.253236E+01  4.513029E-04 4.791581E+01  4.488731E-04 4.815230E+01  9.928064E-01 -3.843359E+01
3.980938E+02  9.939278E-01 -4.283034E+01  4.296075E-04 4.720771E+01  4.411727E-04 4.728761E+01  9.935396E-01 -3.863594E+01
4.005625E+02  9.943844E-01 -4.309553E+01  4.457231E-04 4.855707E+01  4.472833E-04 4.757453E+01  9.940451E-01 -3.892986E+01
4.030312E+02  9.943332E-01 -4.335912E+01  4.524956E-04 4.463761E+01  4.472394E-04 4.417346E+01  9.942721E-01 -3.920733E+01
4.055000E+02  9.948891E-01 -4.358196E+01  4.615851E-04 4.859835E+01  4.673340E-04 4.821999E+01  9.941971E-01 -3.944878E+01
4.079688E+02  9.947875E-01 -4.385205E+01  4.615024E-04 4.522798E+01  4.572251E-04 4.628998E+01  9.936979E-01 -3.973474E+01
4.104375E+02  9.898977E-01 -4.333389E+01  4.481082E-04 4.732519E+01  4.304763E-04 4.858507E+01  9.879121E-01 -3.952372E+01
4.129062E+02  9.953174E-01 -4.435294E+01  4.454155E-04 4.781006E+01  4.435792E-04 4.682190E+01  9.933666E-01 -4.019646E+01
4.153750E+02  9.953636E-01 -4.464158E+01  4.730461E-04 4.519446E+01  4.731771E-04 4.480082E+01  9.932051E-01 -4.046362E+01
4.178438E+02  9.947683E-01 -4.489171E+01  4.595314E-04 4.607985E+01  4.568151E-04 4.538860E+01  9.927878E-01 -4.068775E+01
4.203125E+02  9.947237E-01 -4.516148E+01  4.887024E-04 4.733180E+01  4.827474E-04 4.629612E+01  9.927932E-01 -4.092810E+01
4.227812E+02  9.951671E-01 -4.544155E+01  4.752388E-04 4.504122E+01  4.747180E-04 4.429535E+01  9.926276E-01 -4.120082E+01
4.252500E+02  9.946453E-01 -4.571276E+01  4.850372E-04 4.375439E+01  4.918677E-04 4.380655E+01  9.924724E-01 -4.141585E+01
4.277188E+02  9.944880E-01 -4.592769E+01  5.080220E-04 4.715731E+01  5.116093E-04 4.743813E+01  9.929569E-01 -4.169516E+01
4.301875E+02  9.938764E-01 -4.622989E+01  4.732983E-04 4.615883E+01  4.710168E-04 4.678770E+01  9.919426E-01 -4.189211E+01
4.326562E+02  9.931474E-01 -4.644741E+01  5.072615E-04 4.212333E+01  5.022417E-04 4.136040E+01  9.916203E-01 -4.220493E+01
4.351250E+02  9.928831E-01 -4.662110E+01  4.828256E-04 4.155679E+01  4.863469E-04 4.298128E+01  9.903678E-01 -4.232806E+01
4.375938E+02  9.917079E-01 -4.648510E+01  4.908671E-04 4.543770E+01  4.830364E-04 4.501031E+01  9.912891E-01 -4.239259E+01
4.400625E+02  9.929758E-01 -4.716099E+01  5.162555E-04 3.799995E+01  5.102655E-04 3.693642E+01  9.915703E-01 -4.280471E+01
