! Matrix data file written by TouchstoneData, EPCOS AG
! FILENAME: "AA30A_7_R01C20_NB.snp"
! COMMENT: "(TS/AA30A_7_R01C20_NB.s2p) Epcos AG 7/22/201"
! INFO: nport=2, nfreq=1601
! DATE: "Mon Aug 12 13:21:00 2013"
! USER: "Wee Chuan Tay"
!
! port | pin | signal
! -----|-----|--------
!   1  |  1  |  Input
!   2  |  4  |  Output
! --------------------
! 
# MHZ S RI R 50
! freq  reS11 imS11  reS21 imS21  reS12 imS12  reS22 imS22
772  -0.455739617347717 -0.863094091415404  0.00343068281654268 -0.000383833059458994  0.00343068281654268 -0.000383833059458994  -0.42391613125801 -0.879278242588042 
772.0875  -0.456599116325378 -0.862556815147399  0.0033840910764411 -0.000342455023201183  0.0033840910764411 -0.000342455023201183  -0.424618542194366 -0.879044175148009 
772.175  -0.457296967506408 -0.862390518188475  0.00335738668218255 -0.000318440826958977  0.00335738668218255 -0.000318440826958977  -0.425280690193176 -0.878638625144957 
772.2625  -0.458090722560882 -0.861899971961974  0.00329885585233568 -0.000251361547270791  0.00329885585233568 -0.000251361547270791  -0.426091611385345 -0.87808185815811 
772.35  -0.458934277296066 -0.861250638961791  0.00325106654781847 -0.000209405145142228  0.00325106654781847 -0.000209405145142228  -0.426822155714034 -0.877707421779631 
772.4375  -0.459678024053573 -0.860864281654357  0.00319993053562938 -0.000147997139720247  0.00319993053562938 -0.000147997139720247  -0.427442759275436 -0.877521574497222 
772.525  -0.460536420345306 -0.860176324844359  0.00315829366445541 -8.93225442268889e-05  0.00315829366445541 -8.93225442268889e-05  -0.428020656108856 -0.877050340175628 
772.6125  -0.461277097463607 -0.859460055828093  0.00308704271446913 -1.09612178675889e-05  0.00308704271446913 -1.09612178675889e-05  -0.428821384906768 -0.876353859901427 
772.7  -0.46181783080101 -0.859397470951079  0.00302066642325371 6.77059742884014e-05  0.00302066642325371 6.77059742884014e-05  -0.429447829723358 -0.876206934452056 
772.7875  -0.462328970432281 -0.858618140220641  0.002980547840707 0.000181951698323246  0.002980547840707 0.000181951698323246  -0.429923921823501 -0.875651776790618 
772.875  -0.463081061840057 -0.858246088027953  0.00292036216706037 0.00031833612592891  0.00292036216706037 0.00031833612592891  -0.430686831474304 -0.875297725200652 
772.9625  -0.463773488998412 -0.857726991176604  0.002917634206824 0.000443618002464064  0.002917634206824 0.000443618002464064  -0.431403398513793 -0.874568462371825 
773.05  -0.464364200830459 -0.857097804546355  0.00293187610805034 0.000555070902919398  0.00293187610805034 0.000555070902919398  -0.431839048862457 -0.87445557117462 
773.1375  -0.465189844369888 -0.856642127037047  0.00290265318471938 0.000621155137196185  0.00290265318471938 0.000621155137196185  -0.432476192712783 -0.874103307723998 
773.225  -0.466046750545501 -0.856035530567168  0.00288381904829292 0.000726493162801491  0.00288381904829292 0.000726493162801491  -0.433157712221145 -0.873559117317198 
773.3125  -0.46686092019081 -0.855193257331847  0.00284028297755867 0.000832670804811644  0.00284028297755867 0.000832670804811644  -0.433690249919891 -0.873104333877562 
773.4  -0.467310935258865 -0.854505240917205  0.00280927633866667 0.00098624295787886  0.00280927633866667 0.00098624295787886  -0.434401720762252 -0.872548103332518 
773.4875  -0.46784821152687 -0.853605031967162  0.00277077674400061 0.00110064941691234  0.00277077674400061 0.00110064941691234  -0.434930980205535 -0.87225043773651 
773.575  -0.468509286642074 -0.853067457675933  0.00276650360319763 0.0012820545816794  0.00276650360319763 0.0012820545816794  -0.435839384794235 -0.871694326400756 
773.6625  -0.468951553106307 -0.852412164211272  0.00274252914823591 0.00144832819933071  0.00274252914823591 0.00144832819933071  -0.436279565095901 -0.871354103088378 
773.75  -0.469641774892806 -0.851782858371734  0.00279257120564579 0.00165070634102449  0.00279257120564579 0.00165070634102449  -0.436645627021789 -0.870667457580565 
773.8375  -0.469875067472457 -0.851078093051909  0.00284413329791277 0.00182961393147707  0.00284413329791277 0.00182961393147707  -0.437386631965637 -0.870385885238646 
773.925  -0.470287293195724 -0.850465893745421  0.00294995587319135 0.00199209945276379  0.00294995587319135 0.00199209945276379  -0.437947422266006 -0.869955420494078 
774.0125  -0.470925986766815 -0.850132226943968  0.0030396138317883 0.00212736357934772  0.0030396138317883 0.00212736357934772  -0.438539683818817 -0.869393229484557 
774.1  -0.471425056457519 -0.849247157573699  0.00314475235063582 0.00224032346159219  0.00314475235063582 0.00224032346159219  -0.43910464644432 -0.869119226932524 
774.1875  -0.471996068954467 -0.848568379878997  0.00322517030872403 0.00235030346084386  0.00322517030872403 0.00235030346084386  -0.43976217508316 -0.868532299995421 
774.275  -0.472537338733672 -0.847980737686156  0.00329065101686864 0.00246756453998386  0.00329065101686864 0.00246756453998386  -0.440405219793319 -0.867982864379882 
774.3625  -0.473086535930633 -0.847536146640776  0.00337940570898353 0.0025757938856259  0.00337940570898353 0.0025757938856259  -0.441027373075485 -0.867388188838958 
774.45  -0.473475575447082 -0.846754550933837  0.00349360820837319 0.00266931892838328  0.00349360820837319 0.00266931892838328  -0.441502422094344 -0.86666452884674 
774.5375  -0.474083840847015 -0.845831334590911  0.00361161911860108 0.0027162170736119  0.00361161911860108 0.0027162170736119  -0.441832959651946 -0.866317451000212 
774.625  -0.474400579929351 -0.844938158988952  0.0037102720234543 0.00273278646636753  0.0037102720234543 0.00273278646636753  -0.44234538078308 -0.865596711635588 
774.7125  -0.474974811077117 -0.844467699527739  0.00370536337140947 0.00275857478845864  0.00370536337140947 0.00275857478845864  -0.443063408136367 -0.865296781063079 
774.8  -0.47524157166481 -0.84377485513687  0.00368555809836833 0.00279575702734291  0.00368555809836833 0.00279575702734291  -0.443496942520141 -0.8647443652153 
774.8875  -0.475803911685943 -0.843043982982634  0.00362526101525872 0.00288430950604378  0.00362526101525872 0.00288430950604378  -0.444215238094329 -0.86433982849121 
774.975  -0.47609668970108 -0.842363774776458  0.00357675936538725 0.00304364925250411  0.00357675936538725 0.00304364925250411  -0.444747745990753 -0.863581418991088 
775.0625  -0.476543456315994 -0.841771006584166  0.00353007216472178 0.00322788266930729  0.00353007216472178 0.00322788266930729  -0.445364534854888 -0.863009572029113 
775.15  -0.476706862449645 -0.840959608554839  0.00350220745895057 0.00346446863841264  0.00350220745895057 0.00346446863841264  -0.445716202259063 -0.86233079433441 
775.2375  -0.476906061172485 -0.840100467205046  0.00349922419991344 0.0037544536171481  0.00349922419991344 0.0037544536171481  -0.446272552013397 -0.861583709716796 
775.325  -0.477355271577834 -0.839454531669616  0.00358961755409836 0.00408289115875959  0.00358961755409836 0.00408289115875959  -0.446658462285995 -0.861435532569884 
775.4125  -0.477571070194244 -0.838699340820311  0.00373235240112989 0.00442676688544451  0.00373235240112989 0.00442676688544451  -0.447245717048644 -0.860363483428954 
775.5  -0.477574527263641 -0.838317036628722  0.00397008215077221 0.00477975048124789  0.00397008215077221 0.00477975048124789  -0.447695523500442 -0.859750747680663 
775.5875  -0.477969378232955 -0.837752878665923  0.00429845741018652 0.00508016091771423  0.00429845741018652 0.00508016091771423  -0.447963774204254 -0.858942925930022 
775.675  -0.478106021881103 -0.836975038051604  0.00469828397035598 0.00531001412309705  0.00469828397035598 0.00531001412309705  -0.448140144348144 -0.858249366283416 
775.7625  -0.478258103132247 -0.836590588092803  0.00516304792836307 0.00538775115273891  0.00516304792836307 0.00538775115273891  -0.448411464691162 -0.857779681682586 
775.85  -0.478290021419524 -0.836023151874541  0.00554104638285934 0.00534544908441602  0.00554104638285934 0.00534544908441602  -0.448583334684371 -0.857464969158171 
775.9375  -0.47830194234848 -0.835755765438079  0.00579880457371472 0.00521902344189584  0.00579880457371472 0.00521902344189584  -0.448739618062972 -0.856965303421019 
776.025  -0.478672862052917 -0.835461735725402  0.00593486544676124 0.00516613177023827  0.00593486544676124 0.00516613177023827  -0.449314385652542 -0.85636818408966 
776.1125  -0.478897720575332 -0.835173726081847  0.0060842002276331 0.00522431940771638  0.0060842002276331 0.00522431940771638  -0.449423879384994 -0.856176674365996 
776.2  -0.47901701927185 -0.834588348865508  0.00629084254615007 0.00530879735015331  0.00629084254615007 0.00530879735015331  -0.449747204780578 -0.8554048538208 
776.2875  -0.479250252246856 -0.834507882595061  0.00661104125902055 0.0053757638670504  0.00661104125902055 0.0053757638670504  -0.450164258480071 -0.854605078697203 
776.375  -0.479551404714584 -0.834249973297118  0.00694804056547581 0.00534137175418435  0.00694804056547581 0.00534137175418435  -0.450193792581558 -0.85433256626129 
776.4625  -0.480081439018249 -0.834024667739867  0.00725029502063988 0.00517280539497732  0.00725029502063988 0.00517280539497732  -0.45043721795082 -0.853990852832793 
776.55  -0.48066285252571 -0.833619952201842  0.00741007691249249 0.00497764511965214  0.00741007691249249 0.00497764511965214  -0.450778722763061 -0.85370373725891 
776.6375  -0.481254696846008 -0.833312511444091  0.00745934736914931 0.00479229260236024  0.00745934736914931 0.00479229260236024  -0.450935781002044 -0.853589177131652 
776.725  -0.481744796037673 -0.832545459270476  0.00747033883817493 0.00466724019497632  0.00747033883817493 0.00466724019497632  -0.451462656259536 -0.853491902351378 
776.8125  -0.482257395982742 -0.832148849964141  0.00740619306452571 0.0046258324291557  0.00740619306452571 0.0046258324291557  -0.451930075883865 -0.853276014328002 
776.9  -0.48251336812973 -0.831422090530394  0.00737608014605938 0.00468115811236202  0.00737608014605938 0.00468115811236202  -0.452568560838699 -0.852563977241515 
776.9875  -0.482539951801299 -0.830890774726866  0.00737619702704249 0.00481847510673105  0.00737619702704249 0.00481847510673105  -0.453421711921691 -0.852286458015441 
777.075  -0.482966899871826 -0.830398201942443  0.00746662355959414 0.00498609640635549  0.00746662355959414 0.00498609640635549  -0.45393407344818 -0.851407349109648 
777.1625  -0.483145326375961 -0.830071806907653  0.00758955930359659 0.00515913357958196  0.00758955930359659 0.00515913357958196  -0.454662561416625 -0.850669801235198 
777.25  -0.483527809381484 -0.829546332359313  0.00777723081409929 0.00528143579140304  0.00777723081409929 0.00528143579140304  -0.454996049404144 -0.849982023239135 
777.3375  -0.483739882707595 -0.829338550567626  0.00798565801233051 0.00541808805428444  0.00798565801233051 0.00541808805428444  -0.45525649189949 -0.849402368068694 
777.425  -0.484334528446197 -0.828532993793486  0.00823372649028896 0.00549483275972306  0.00823372649028896 0.00549483275972306  -0.455400228500366 -0.848524630069732 
777.5125  -0.484705865383148 -0.827979028224944  0.0084798722527921 0.00555327208712696  0.0084798722527921 0.00555327208712696  -0.455632358789443 -0.848198652267455 
777.6  -0.485163003206252 -0.827553927898406  0.00869578961282966 0.00554064963944255  0.00869578961282966 0.00554064963944255  -0.455864816904067 -0.847506523132323 
777.6875  -0.485441833734512 -0.826946079730986  0.00886048004031179 0.00558527489192782  0.00886048004031179 0.00558527489192782  -0.456427216529846 -0.846924602985381 
777.775  -0.485759228467941 -0.826387047767638  0.00897042872384188 0.00566233647987245  0.00897042872384188 0.00566233647987245  -0.456693828105926 -0.846259772777556 
777.8625  -0.486179113388061 -0.825754463672637  0.00914876163005827 0.00580268236808477  0.00914876163005827 0.00580268236808477  -0.457197278738021 -0.845226943492888 
777.95  -0.486076712608337 -0.825202405452727  0.00936039304360745 0.00603205244988201  0.00936039304360745 0.00603205244988201  -0.457167506217956 -0.844306409358977 
778.0375  -0.486161142587661 -0.824725806713103  0.00974675873294471 0.00627991533838211  0.00974675873294471 0.00627991533838211  -0.45718890428543 -0.843260943889617 
778.125  -0.486289650201797 -0.82417321205139  0.0101864309981465 0.00644258363172411  0.0101864309981465 0.00644258363172411  -0.456947863101959 -0.842657148838042 
778.2125  -0.48655006289482 -0.823809564113616  0.0107176341116428 0.00650215963833032  0.0107176341116428 0.00650215963833032  -0.456685245037078 -0.841946899890898 
778.3  -0.486626297235488 -0.823364675045012  0.0112260673195123 0.00649700220674275  0.0112260673195123 0.00649700220674275  -0.456538081169128 -0.841474890708922 
778.3875  -0.486989349126815 -0.822667658329009  0.011780418921262 0.00647695176303385  0.011780418921262 0.00647695176303385  -0.456304848194122 -0.840979278087615 
778.475  -0.487104535102844 -0.822330117225646  0.0123946131207049 0.00632299296557902  0.0123946131207049 0.00632299296557902  -0.456133216619491 -0.840613722801207 
778.5625  -0.487340033054351 -0.821756303310393  0.0130363660864532 0.00603582384064793  0.0130363660864532 0.00603582384064793  -0.45560336112976 -0.840317845344542 
778.65  -0.487309366464614 -0.821370363235472  0.0135632399469614 0.00560874538496135  0.0135632399469614 0.00560874538496135  -0.455305695533752 -0.840232372283934 
778.7375  -0.487709015607833 -0.820752263069152  0.0140292351134121 0.00512624834664165  0.0140292351134121 0.00512624834664165  -0.454807311296462 -0.840458393096923 
778.825  -0.487915188074111 -0.820084750652312  0.0143500976264476 0.00455461139790713  0.0143500976264476 0.00455461139790713  -0.454619854688644 -0.840833365917205 
778.9125  -0.487826764583587 -0.819333791732787  0.0145592638291419 0.00392730277962982  0.0145592638291419 0.00392730277962982  -0.454675108194351 -0.841243386268615 
779  -0.487589716911315 -0.818759858608245  0.0145829580724239 0.00336671818513423  0.0145829580724239 0.00336671818513423  -0.455295503139495 -0.842155337333678 
779.0875  -0.487429559230804 -0.818298518657683  0.0145197492092848 0.00293178483843803  0.0145197492092848 0.00293178483843803  -0.456034958362579 -0.842331588268279 
779.175  -0.487121939659118 -0.817734122276305  0.014426166191697 0.00264264596626161  0.014426166191697 0.00264264596626161  -0.456845641136169 -0.842341005802153 
779.2625  -0.486429512500762 -0.817554473876952  0.014424598775804 0.00242665247060358  0.014424598775804 0.00242665247060358  -0.457558214664459 -0.841855347156524 
779.35  -0.486099451780319 -0.817862212657927  0.0144579974003136 0.00219190097413957  0.0144579974003136 0.00219190097413957  -0.45806211233139 -0.841507136821746 
779.4375  -0.48644533753395 -0.818201780319213  0.0145527436397969 0.00198397645726799  0.0145527436397969 0.00198397645726799  -0.458516538143157 -0.841274023056029 
779.525  -0.486442506313323 -0.81817317008972  0.014636056497693 0.00168365228455513  0.014636056497693 0.00168365228455513  -0.458737403154373 -0.840725600719451 
779.6125  -0.487161517143249 -0.818418383598326  0.0146599560976028 0.00137559848371893  0.0146599560976028 0.00137559848371893  -0.459078282117843 -0.840896487236022 
779.7  -0.487784147262573 -0.818296015262603  0.0146156721748412 0.00104057643329724  0.0146156721748412 0.00104057643329724  -0.459574103355407 -0.840819835662841 
779.7875  -0.488283067941665 -0.817958533763884  0.014510822482407 0.000792839739006015  0.014510822482407 0.000792839739006015  -0.460408002138137 -0.840628087520598 
779.875  -0.488898128271102 -0.817725121974944  0.0143934497609734 0.000659902027109639  0.0143934497609734 0.000659902027109639  -0.461107313632964 -0.840108811855315 
779.9625  -0.489180296659469 -0.816817700862883  0.0143107897602021 0.00059481870266609  0.0143107897602021 0.00059481870266609  -0.461421072483062 -0.839492976665496 
780.05  -0.489629119634628 -0.816082417964934  0.0143662225455045 0.000569135940168054  0.0143662225455045 0.000569135940168054  -0.46166968345642 -0.838762760162352 
780.1375  -0.48966896533966 -0.815394461154937  0.0145047130063176 0.00050972163444385  0.0145047130063176 0.00050972163444385  -0.461650848388671 -0.83797377347946 
780.225  -0.489388048648834 -0.814278364181517  0.0146919735707342 0.000409061511163601  0.0146919735707342 0.000409061511163601  -0.461321473121642 -0.837737381458281 
780.3125  -0.488780885934829 -0.813780605792998  0.0149200381711125 0.000238105254538824  0.0149200381711125 0.000238105254538824  -0.46092528104782 -0.837667763233184 
780.4  -0.488337248563766 -0.813459157943724  0.0151387639343738 -1.4526511222357e-05  0.0151387639343738 -1.4526511222357e-05  -0.460812658071517 -0.837881088256835 
780.4875  -0.487534821033477 -0.813382685184478  0.0153793911449611 -0.000363925122655929  0.0153793911449611 -0.000363925122655929  -0.460608929395675 -0.838326513767241 
780.575  -0.487164139747619 -0.813652098178862  0.0155061748810112 -0.000831562530947851  0.0155061748810112 -0.000831562530947851  -0.460930109024047 -0.838843405246734 
780.6625  -0.486860364675521 -0.814293682575225  0.0154728507623077 -0.00132782314904033  0.0154728507623077 -0.00132782314904033  -0.461246758699416 -0.839674949645995 
780.75  -0.486860841512679 -0.81479525566101  0.0153489015065133 -0.00170429801801219  0.0153489015065133 -0.00170429801801219  -0.462158620357513 -0.840118408203124 
780.8375  -0.487030267715453 -0.815079808235167  0.0152027560397982 -0.00198426755378022  0.0152027560397982 -0.00198426755378022  -0.463490039110183 -0.840207636356353 
780.925  -0.48701325058937 -0.815525591373442  0.0150894536636769 -0.00219143531285226  0.0150894536636769 -0.00219143531285226  -0.464387655258178 -0.84005957841873 
781.0125  -0.487288415431976 -0.815470814704894  0.0150613901205361 -0.00241573504172265  0.0150613901205361 -0.00241573504172265  -0.464981287717819 -0.839403629302977 
781.1  -0.487405538558959 -0.816035985946654  0.0150837041437626 -0.00267518556211143  0.0150837041437626 -0.00267518556211143  -0.465223282575607 -0.839297890663146 
781.1875  -0.487809062004089 -0.816141188144683  0.0150934844277799 -0.003005126491189  0.0150934844277799 -0.003005126491189  -0.465852469205856 -0.83926099538803 
781.275  -0.48793414235115 -0.816516578197478  0.0150235234759747 -0.00336060661356895  0.0150235234759747 -0.00336060661356895  -0.466055929660796 -0.838997960090636 
781.3625  -0.488333612680434 -0.816581189632415  0.0148921934887766 -0.00373103318270295  0.0148921934887766 -0.00373103318270295  -0.466498315334319 -0.839413344860076 
781.45  -0.488437414169311 -0.81686359643936  0.0146823166869581 -0.00408396800048648  0.0146823166869581 -0.00408396800048648  -0.46718356013298 -0.839229345321654 
781.5375  -0.488556236028671 -0.81717962026596  0.0144652440212667 -0.00437490548938512  0.0144652440212667 -0.00437490548938512  -0.467905551195144 -0.839236021041869 
781.625  -0.488743752241134 -0.817571997642516  0.0141972489655018 -0.00464200018905102  0.0141972489655018 -0.00464200018905102  -0.468571543693542 -0.839496731758116 
781.7125  -0.489257842302322 -0.81830996274948  0.0139010986313223 -0.00482531613670288  0.0139010986313223 -0.00482531613670288  -0.469349741935729 -0.839611291885375 
781.8  -0.489702463150024 -0.818758904933928  0.0136423301883041 -0.00497438153252005  0.0136423301883041 -0.00497438153252005  -0.470209836959838 -0.839734137058257 
781.8875  -0.49034434556961 -0.819428145885466  0.0133951986208558 -0.00506528187543153  0.0133951986208558 -0.00506528187543153  -0.470922619104385 -0.839736819267272 
781.975  -0.491392403841018 -0.820148348808288  0.0131985028274357 -0.005123533308506  0.0131985028274357 -0.005123533308506  -0.471902102231979 -0.839364945888518 
782.0625  -0.492379069328307 -0.820488154888152  0.0130544672720134 -0.0051873147021979  0.0130544672720134 -0.0051873147021979  -0.472586065530776 -0.839367926120757 
