! Matrix data file written by TouchstoneData, EPCOS AG
! FILENAME: "AA53A_2_05_WB.snp"
! COMMENT: "(TS/AA53A_2_05_WB.s3p) Epcos AG 2/1/2013 3:4"
! INFO: nport=3, nfreq=1601
! DATE: "Wed Mar  6 17:06:09 2013"
! USER: "Wee Chuan Tay"
!
! port | pin | signal
! -----|-----|--------
!   1  |  1  |  Input
!   2  |  3  |  Output
!   3  |  4  |  Output
! --------------------
! 
# MHZ S RI R 50
! freq  reS11 imS11  reS12 imS12  reS13 imS13  ...
50  0.992555677890776 -0.112375773489475  7.29317598597846e-05 0.000332227034959943  1.51803642438608e-05 0.000377889766241425 
7.29317598597846e-05 0.000332227034959943  0.996001660823821 -0.08190980553627  -2.78100023933803e-05 0.000292382639599965 
1.51803642438608e-05 0.000377889766241425  -2.78100023933803e-05 0.000292382639599965  0.997526884078978 -0.0840633511543272 
53.71875  0.991377592086791 -0.119283370673656  5.52071869606153e-05 0.000382096914108843  5.20868288731436e-05 0.000389805558370427 
5.52071869606153e-05 0.000382096914108843  0.995918869972228 -0.0890650451183318  3.22767955367454e-05 0.000355967509676704 
5.20868288731436e-05 0.000389805558370427  3.22767955367454e-05 0.000355967509676704  0.996368587017058 -0.0882327705621718 
57.4375  0.989237964153288 -0.126537248492241  3.37350220434019e-05 0.000391212524846197  3.77943633793621e-05 0.000422693687141873 
3.37350220434019e-05 0.000391212524846197  0.994769811630248 -0.0947915986180304  8.47279989102392e-05 0.000391768946428784 
3.77943633793621e-05 0.000422693687141873  8.47279989102392e-05 0.000391768946428784  0.994962513446806 -0.0944387614727019 
61.15625  0.9885156750679 -0.135204523801803  9.52774644247258e-05 0.000426290367613547  0.0001291554326599 0.000416585171478802 
9.52774644247258e-05 0.000426290367613547  0.993817627429961 -0.100056953728199  -5.46525861864212e-05 0.000330277194734664 
0.0001291554326599 0.000416585171478802  -5.46525861864212e-05 0.000330277194734664  0.994331777095793 -0.0998052284121512 
64.875  0.987528920173644 -0.144422069191932  6.88993459334598e-05 0.000462897820398212  6.39910813333701e-05 0.000474974789540284 
6.88993459334598e-05 0.000462897820398212  0.993429362773894 -0.107826881110668  1.64358943948174e-05 0.000321668456308544 
6.39910813333701e-05 0.000474974789540284  1.64358943948174e-05 0.000321668456308544  0.993764519691466 -0.106872007250786 
68.59375  0.987629950046538 -0.152547195553779  8.21082903712524e-05 0.000442690623458476  7.56518802518259e-05 0.000459554270491936 
8.21082903712524e-05 0.000442690623458476  0.992782235145568 -0.112974904477596  0.000123325087770354 0.000763914780691267 
7.56518802518259e-05 0.000459554270491936  0.000123325087770354 0.000763914780691267  0.992771923542021 -0.111858882009983 
72.3125  0.985078871250151 -0.158650815486908  6.30460926913658e-05 0.000434544985182584  0.000125059948913986 0.00043888034997508 
6.30460926913658e-05 0.000434544985182584  0.992516100406645 -0.117515757679939  9.0791450929828e-05 0.000497314264066519 
0.000125059948913986 0.00043888034997508  9.0791450929828e-05 0.000497314264066519  0.994525849819182 -0.119996353983879 
76.03125  0.984058082103728 -0.1669552475214  0.000104484275652794 0.000530524586793036  7.04862959537424e-05 0.000576275837374853 
0.000104484275652794 0.000530524586793036  0.990682899951934 -0.124603807926178  2.66701717919205e-05 0.000149184292240534 
7.04862959537424e-05 0.000576275837374853  2.66701717919205e-05 0.000149184292240534  0.991305232048033 -0.123680680990219 
79.75  0.982283949851988 -0.176170036196708  0.000104615588497837 0.000516125117428602  9.55218929448169e-05 0.000508939294377343 
0.000104615588497837 0.000516125117428602  0.989964246749877 -0.130563020706177  5.60011430934538e-05 0.000419377436628566 
9.55218929448169e-05 0.000508939294377343  5.60011430934538e-05 0.000419377436628566  0.991222500801085 -0.12970070540905 
83.46875  0.98145282268524 -0.183486118912697  0.000242494272242766 0.000306581074255519  0.000231221878493671 0.000393083158996888 
0.000242494272242766 0.000306581074255519  0.989349663257598 -0.136927917599678  -0.000262782530626283 0.00104469625512138 
0.000231221878493671 0.000393083158996888  -0.000262782530626283 0.00104469625512138  0.989805638790129 -0.135387763381004 
87.1875  0.980162918567656 -0.191358685493469  0.000159973424160853 0.00054462577099912  0.00015013061783975 0.000534265622263776 
0.000159973424160853 0.00054462577099912  0.988750517368315 -0.141188129782676  1.10036423848215e-05 0.000522775342687966 
0.00015013061783975 0.000534265622263776  1.10036423848215e-05 0.000522775342687966  0.990766465663908 -0.141268566250801 
90.90625  0.978269696235655 -0.200383722782135  0.000118344054499176 0.000602129875915126  0.000130448242998683 0.000632793933618815 
0.000118344054499176 0.000602129875915126  0.988406717777251 -0.148075610399246  0.000120334192615702 0.000626190420007334 
0.000130448242998683 0.000632793933618815  0.000120334192615702 0.000626190420007334  0.989320933818816 -0.147733941674232 
94.625  0.977466881275176 -0.208984404802322  8.82860076671934e-05 0.000601688923779877  8.92548923729921e-05 0.000601781124714763 
8.82860076671934e-05 0.000601688923779877  0.987371921539305 -0.154319420456886  -4.31832486356144e-05 0.000658382166875528 
8.92548923729921e-05 0.000601781124714763  -4.31832486356144e-05 0.000658382166875528  0.987409591674803 -0.15456511080265 
98.34375  0.975212812423705 -0.216958418488502  0.000235159015574027 0.000658934877719731  0.000237012209254317 0.00071342827868648 
0.000235159015574027 0.000658934877719731  0.98598676919937 -0.1601203083992  2.12870600080353e-06 0.00057551290956326 
0.000237012209254317 0.00071342827868648  2.12870600080353e-06 0.00057551290956326  0.986901819705962 -0.159741714596748 
102.0625  0.973000586032866 -0.223962277173996  0.000132729925098829 0.00068729917984456  0.000137479823024478 0.000704692618455739 
0.000132729925098829 0.00068729917984456  0.985077023506163 -0.16639743745327  9.00735467439517e-05 0.000473681051516907 
0.000137479823024478 0.000704692618455739  9.00735467439517e-05 0.000473681051516907  0.984595060348509 -0.164947643876076 
105.78125  0.97107708454132 -0.231419786810875  0.000189161975868047 0.000653805938782172  0.000194641041161959 0.000633207790087909 
0.000189161975868047 0.000653805938782172  0.984041094779967 -0.172755300998688  0.00012612829959835 0.000657341413898395 
0.000194641041161959 0.000633207790087909  0.00012612829959835 0.000657341413898395  0.984437704086302 -0.171881929039955 
109.5  0.969004034996031 -0.239314928650856  0.000199337278900202 0.000736612564651297  0.000201410570298322 0.000782561051892119 
0.000199337278900202 0.000736612564651297  0.981965005397795 -0.179563373327255  5.54616890440231e-05 0.000536637147888542 
0.000201410570298322 0.000782561051892119  5.54616890440231e-05 0.000536637147888542  0.983553290367125 -0.176870584487915 
113.21875  0.967168688774108 -0.246667444705963  0.000155274690769148 0.000723670469596984  0.000166334277309944 0.000742699106922374 
0.000155274690769148 0.000723670469596984  0.982015013694762 -0.185527727007866  0.000116430819616653 0.00065130725852214 
0.000166334277309944 0.000742699106922374  0.000116430819616653 0.00065130725852214  0.981881916522978 -0.183784604072571 
116.9375  0.963863611221312 -0.25493848323822  0.000265636030235328 0.000627440662356095  0.000235292260185816 0.000706126069417225 
0.000265636030235328 0.000627440662356095  0.979327559471129 -0.189725592732429  4.06669496442192e-05 0.00116355239879339 
0.000235292260185816 0.000706126069417225  4.06669496442192e-05 0.00116355239879339  0.980377972126006 -0.190185368061065 
120.65625  0.961885809898375 -0.264208257198333  0.000190204169484787 0.000771815830376001  0.000193458108697087 0.00081227839109488 
0.000190204169484787 0.000771815830376001  0.978117763996123 -0.196737408638  0.000207167053304148 0.000560434185899796 
0.000193458108697087 0.00081227839109488  0.000207167053304148 0.000560434185899796  0.979710280895232 -0.195256128907203 
124.375  0.959994316101073 -0.269833505153656  0.000267789102508687 0.000827312062028797  0.000239478031289764 0.000746205012546854 
0.000267789102508687 0.000827312062028797  0.976650953292845 -0.201871410012245  0.000485849071992562 0.000937177625019105 
0.000239478031289764 0.000746205012546854  0.000485849071992562 0.000937177625019105  0.978729009628294 -0.199549987912178 
128.09375  0.958841741085051 -0.277288824319839  0.000266779461526312 0.000547288567759098  0.000281167303910479 0.000483807234559209 
0.000266779461526312 0.000547288567759098  0.975748181343077 -0.207151770591736  -3.6050680137123e-05 0.00125600921455771 
0.000281167303910479 0.000483807234559209  -3.6050680137123e-05 0.00125600921455771  0.978040933609008 -0.206173866987228 
131.8125  0.955781757831572 -0.285463958978653  0.000253970792982728 0.000829280441394077  0.000263760797679425 0.000826802628580483 
0.000253970792982728 0.000829280441394077  0.974929869174956 -0.213879600167274  0.000144758952956182 0.000727581209503116 
0.000263760797679425 0.000826802628580483  0.000144758952956182 0.000727581209503116  0.977079808712004 -0.212155044078827 
135.53125  0.952489316463469 -0.293448090553283  0.000142466473334935 0.000718153984053062  0.000216125983570237 0.000869849434820937 
0.000142466473334935 0.000718153984053062  0.973192274570464 -0.220044732093811  0.00066974520450458 0.00113421224523336 
0.000216125983570237 0.000869849434820937  0.00066974520450458 0.00113421224523336  0.974508821964263 -0.217862948775291 
139.25  0.950026154518126 -0.300153166055679  0.000270568052656018 0.000844867259729656  0.000283822679193691 0.000952404225245121 
0.000270568052656018 0.000844867259729656  0.972604751586913 -0.226577833294868  0.000166272548085545 0.000733259192202242 
0.000283822679193691 0.000952404225245121  0.000166272548085545 0.000733259192202242  0.974040567874907 -0.22386959195137 
142.96875  0.948467910289763 -0.309413492679596  0.00028746972384397 0.000869315408635886  0.000255241997365375 0.000904605811228977 
0.00028746972384397 0.000869315408635886  0.969562828540801 -0.23104590177536  0.000100875389762223 0.000624893786152826 
0.000255241997365375 0.000904605811228977  0.000100875389762223 0.000624893786152826  0.972236037254332 -0.231300473213195 
146.6875  0.944540679454802 -0.317898958921432  0.000429362000431866 0.000890642986632885  0.000459241389762611 0.000927824497921394 
0.000429362000431866 0.000890642986632885  0.967891097068785 -0.237935289740562  0.000111076569737634 0.000830824195872994 
0.000459241389762611 0.000927824497921394  0.000111076569737634 0.000830824195872994  0.971707582473754 -0.23685622215271 
150.40625  0.943355977535246 -0.323331952095031  0.000322395746479743 0.000887752539711075  0.000317930098390208 0.000934226525714623 
0.000322395746479743 0.000887752539711075  0.96750509738922 -0.243071645498275  0.000176400906639174 0.000841022760141642 
0.000317930098390208 0.000934226525714623  0.000176400906639174 0.000841022760141642  0.969448149204253 -0.240750312805175 
154.125  0.939772367477416 -0.331546276807785  0.000287234375718981 0.000876233505550774  0.000310494127916173 0.000934033596422525 
0.000287234375718981 0.000876233505550774  0.964969098567961 -0.250091224908828  0.000235572493693326 0.000812630867585542 
0.000310494127916173 0.000934033596422525  0.000235572493693326 0.000812630867585542  0.968784749507903 -0.247218504548072 
157.84375  0.936504185199736 -0.339977771043777  0.000403999234549702 0.00105971045559272  0.000359934623702431 0.000999751151539386 
0.000403999234549702 0.00105971045559272  0.964860439300536 -0.255061119794845  0.000212700586416759 0.000953423354076224 
0.000359934623702431 0.000999751151539386  0.000212700586416759 0.000953423354076224  0.966682374477385 -0.253698676824569 
161.5625  0.934372782707213 -0.346252709627151  0.00028496868617367 0.000823722046334298  0.00031543878139928 0.000869423238327728 
0.00028496868617367 0.000823722046334298  0.962343931198119 -0.260329753160476  0.00024849022156559 0.000969545391853901 
0.00031543878139928 0.000869423238327728  0.00024849022156559 0.000969545391853901  0.965059936046599 -0.258888721466064 
165.28125  0.932014286518096 -0.355087339878082  0.00037352487561293 0.0010289245401509  0.000393888985854575 0.00107020087307319 
0.00037352487561293 0.0010289245401509  0.960449099540709 -0.266471058130264  0.000278838648227975 0.000969109125435354 
0.000393888985854575 0.00107020087307319  0.000278838648227975 0.000969109125435354  0.962981224060057 -0.265520900487899 
169  0.928308010101317 -0.361893355846405  0.000379458608222195 0.000997476920019837  0.000404163962230087 0.00103324447991326 
0.000379458608222195 0.000997476920019837  0.957373917102812 -0.273069590330124  0.00132238894002512 0.00134462898131459 
0.000404163962230087 0.00103324447991326  0.00132238894002512 0.00134462898131459  0.95929592847824 -0.270972847938537 
172.71875  0.92547959089279 -0.36827677488327  0.000439886483945884 0.00105157797224819  0.000451282423455269 0.000964432401815431 
0.000439886483945884 0.00105157797224819  0.957264840602874 -0.277239173650741  0.00024704357929295 0.000608253700193019 
0.000451282423455269 0.000964432401815431  0.00024704357929295 0.000608253700193019  0.960364282131194 -0.276052713394165 
176.4375  0.922936320304869 -0.375282794237136  0.00039659622416366 0.00105676206294447  0.000457456597359852 0.00116192124551162 
0.00039659622416366 0.00105676206294447  0.955407798290251 -0.283856868743896  7.68933459767142e-05 0.000527743541169912 
0.000457456597359852 0.00116192124551162  7.68933459767142e-05 0.000527743541169912  0.958570778369902 -0.282803684473037 
180.15625  0.919315695762633 -0.381684958934783  0.000469680686364883 0.000972890818957242  0.000915013108169662 0.00096314834081568 
0.000469680686364883 0.000972890818957242  0.954838097095488 -0.289438605308532  0.000261555098404643 0.00117512850556522 
0.000915013108169662 0.00096314834081568  0.000261555098404643 0.00117512850556522  0.95585000514984 -0.28700777888298 
183.875  0.916998386383055 -0.389985680580139  0.000320192950312049 0.000855799822602423  0.000388192682294176 0.0010328377247788 
0.000320192950312049 0.000855799822602423  0.95357435941696 -0.295584559440612  0.0004565873532556 0.00116744684055447 
0.000388192682294176 0.0010328377247788  0.0004565873532556 0.00116744684055447  0.95434284210205 -0.292967498302459 
187.59375  0.914865255355834 -0.398581564426422  0.000396974879549817 0.00105057848850264  0.000367675296729431 0.00100484496215358 
0.000396974879549817 0.00105057848850264  0.951245307922362 -0.300731033086776  0.000298137150821276 0.000713667279342191 
0.000367675296729431 0.00100484496215358  0.000298137150821276 0.000713667279342191  0.953959584236144 -0.300025969743728 
191.3125  0.910550713539122 -0.405595898628234  0.000415521106333472 0.00112232670653612  0.000393240610719659 0.00118108693277463 
0.000415521106333472 0.00112232670653612  0.946772098541258 -0.306784033775329  0.000480514208902606 0.000703743600752206 
0.000393240610719659 0.00118108693277463  0.000480514208902606 0.000703743600752206  0.951938092708586 -0.305542141199112 
195.03125  0.905781865119933 -0.412712335586547  0.000531889410922305 0.00108359422301873  0.000580031657591463 0.00115456798812375 
0.000531889410922305 0.00108359422301873  0.947059512138365 -0.311503142118454  0.000320622028084472 0.00119444541633129 
0.000580031657591463 0.00115456798812375  0.000320622028084472 0.00119444541633129  0.949062228202818 -0.309757769107818 
198.75  0.902665674686431 -0.418807864189147  0.000605445413384588 0.00103522802237421  0.000562484026886524 0.00102433405118063 
0.000605445413384588 0.00103522802237421  0.946423768997191 -0.316393196582794  0.000240555898926687 0.00111398031003773 
0.000562484026886524 0.00102433405118063  0.000240555898926687 0.00111398031003773  0.947443962097167 -0.315980464220047 
202.46875  0.899631857872008 -0.425867706537246  0.000358232646249235 0.00115270604146644  0.000508285971591251 0.00110740819945931 
0.000358232646249235 0.00115270604146644  0.943173110485076 -0.323466926813125  0.000334404932800681 0.000924912397749724 
0.000508285971591251 0.00110740819945931  0.000334404932800681 0.000924912397749724  0.945318043231963 -0.322045296430587 
206.1875  0.897896707057952 -0.433626562356948  0.000508678203914316 0.0011741115595214  0.000536410399945454 0.00114830135134979 
0.000508678203914316 0.0011741115595214  0.942240655422209 -0.328926891088485  0.000409900079830551 0.00102624640567228 
0.000536410399945454 0.00114830135134979  0.000409900079830551 0.00102624640567228  0.943350613117217 -0.328302562236785 
209.90625  0.895027995109557 -0.440507888793945  0.000518665619893001 0.0011838236823678  0.000538165069883691 0.00124581484124064 
0.000518665619893001 0.0011838236823678  0.940484821796416 -0.333635538816452  0.000347762601450087 0.00112841825466603 
0.000538165069883691 0.00124581484124064  0.000347762601450087 0.00112841825466603  0.942403972148894 -0.334292769432067 
213.625  0.889912128448485 -0.446996867656707  0.00057171829394065 0.00109674938721582  0.000614009535638617 0.00114387413486838 
0.00057171829394065 0.00109674938721582  0.936561942100524 -0.340718537569046  0.000571058597415687 0.00110970868263394 
0.000614009535638617 0.00114387413486838  0.000571058597415687 0.00110970868263394  0.939347445964812 -0.338784039020538 
217.34375  0.886738121509551 -0.454848915338516  0.000552728073671461 0.00115414068568498  0.000572430872125552 0.0011603957391344 
0.000552728073671461 0.00115414068568498  0.935348153114318 -0.34538647532463  0.00053425194346346 0.00123689736938104 
0.000572430872125552 0.0011603957391344  0.00053425194346346 0.00123689736938104  0.937515377998351 -0.344565063714981 
221.0625  0.883410394191741 -0.461101680994033  0.000594662007642912 0.00118977797683328  0.00068269783514552 0.0013345125480555 
0.000594662007642912 0.00118977797683328  0.934549450874327 -0.350427478551864  0.000386248095310294 0.000898952886927875 
0.00068269783514552 0.0013345125480555  0.000386248095310294 0.000898952886927875  0.935394048690795 -0.348682016134262 
224.78125  0.880607187747954 -0.467384159564971  0.00066026716376655 0.000966751889791342  0.000584114575758577 0.00117711920756846 
0.00066026716376655 0.000966751889791342  0.930477440357207 -0.355853050947189  0.000234868173720315 0.00107930199010297 
0.000584114575758577 0.00117711920756846  0.000234868173720315 0.00107930199010297  0.932508349418639 -0.354896694421768 
228.5  0.876080334186553 -0.475025385618209  0.000527511758264155 0.00104808597825467  0.000598986196564512 0.00114915048470721 
0.000527511758264155 0.00104808597825467  0.929274737834929 -0.36172816157341  0.000515095802256839 0.00156991521362215 
0.000598986196564512 0.00114915048470721  0.000515095802256839 0.00156991521362215  0.931477665901183 -0.360700756311416 
232.21875  0.870879113674163 -0.483398377895355  0.000662960432237015 0.00120082462672144  0.000574560835957528 0.00115191226359456 
0.000662960432237015 0.00120082462672144  0.924543797969817 -0.369127243757247  0.000897148740477862 0.00126157258637249 
0.000574560835957528 0.00115191226359456  0.000897148740477862 0.00126157258637249  0.927668571472167 -0.367916315793991 
235.9375  0.867624640464782 -0.488086640834808  0.000467862686491573 0.00125556497368961  0.000711312197381632 0.00108492450090125 
0.000467862686491573 0.00125556497368961  0.924491465091704 -0.370280176401138  0.00117220997344702 -0.000623683677986266 
0.000711312197381632 0.00108492450090125  0.00117220997344702 -0.000623683677986266  0.926078021526335 -0.3701693713665 
239.65625  0.864034950733184 -0.49598866701126  0.000642583734588699 0.00121768104145303  0.000661895814118908 0.00124480132944882 
0.000642583734588699 0.00121768104145303  0.92187875509262 -0.378171384334564  0.000303049193462357 0.00104674813337624 
