! Matrix data file written by TouchstoneData, EPCOS AG
! FILENAME: "B4327_01_NB.snp"
! COMMENT: "(B4327_01_NB.s2p) Epcos AG 5/16/2013 2:20:38"
! INFO: nport=2, nfreq=2001
! DATE: "Thu May 23 14:27:32 2013"
! USER: "Rosemary Xue"
!
! port | pin | signal
! -----|-----|--------
!   1  |  1  |  IN
!   2  |  4  |  OUT
! --------------------
! 
# MHZ S RI R 50
! freq  reS11 imS11  reS21 imS21  reS12 imS12  reS22 imS22
1382.4  -0.0445548854768275 -0.963178038597106  0.00152975355740636 0.000256337778409944  0.00152449938468635 0.000281515473034233  -0.116535894572735 -0.964906990528105 
1382.6  -0.045264609158039 -0.963393628597258  0.00150637852493673 0.000272422883426771  0.00150412553921342 0.000295385980280117  -0.116982251405716 -0.964988529682158 
1382.8  -0.0458203963935374 -0.963389456272124  0.00153728993609547 0.000237461354117841  0.00151933194138109 0.000272263918304816  -0.11755433678627 -0.964910566806792 
1383  -0.046257548034191 -0.963326036930083  0.00158079259563237 0.000244668452069164  0.00153200072236359 0.000246075884206221  -0.117850743234157 -0.965071797370909 
1383.2  -0.0467251949012279 -0.963270366191863  0.00153269444126635 0.000186257617315278  0.0015366036677733 0.000170080369571224  -0.118660680949688 -0.964773476123808 
1383.4  -0.0471714697778224 -0.963208258152007  0.00147537293378263 0.000133882946101949  0.00148538779467344 0.00016753344971221  -0.118786551058292 -0.964429259300231 
1383.6  -0.0475174151360988 -0.962906420230864  0.0014517541276291 0.000119778029329609  0.00147067103534937 0.000135993963340298  -0.11934345960617 -0.964516818523406 
1383.8  -0.0484244301915168 -0.962994933128356  0.00146831956226378 0.000102219026302919  0.0014567713951692 0.000106627194327303  -0.119698002934456 -0.964659214019774 
1384  -0.0483751296997069 -0.962579667568206  0.00138723012059927 3.68784676538781e-05  0.00139412260614335 5.84298541070894e-05  -0.120255015790462 -0.964692175388335 
1384.2  -0.0487201698124408 -0.962426424026488  0.00134602433536201 -1.12863517642836e-05  0.00134119519498199 -1.60599229275249e-05  -0.120787568390369 -0.964664697647093 
1384.4  -0.0490290969610213 -0.962507486343382  0.0012121822219342 -3.61161874025129e-05  0.00119929399807006 -1.49390416481765e-05  -0.121136546134949 -0.964256286621092 
1384.6  -0.0490439161658286 -0.96249747276306  0.00111412280239165 -3.71025962522254e-05  0.00111076084431261 -2.24593895836734e-05  -0.121666423976421 -0.96420782804489 
1384.8  -0.049382947385311 -0.962589025497435  0.00102919875644147 2.78803581750254e-05  0.00104209163691848 7.24296987755226e-05  -0.121853843331337 -0.964233577251433 
1385  -0.0496782362461089 -0.962692022323607  0.000963883998338135 0.000111049084807746  0.000997869414277377 0.00015388845349662  -0.122222289443016 -0.964130222797392 
1385.2  -0.0499725081026553 -0.962781965732573  0.000938083452638241 0.000198186316993088  0.000950608868151905 0.000225129042519257  -0.122505806386471 -0.964227199554442 
1385.4  -0.050411358475685 -0.962854266166686  0.000975014816503974 0.000230425925110467  0.000999862561002376 0.000251382210990415  -0.123140379786491 -0.964279711246489 
1385.6  -0.0509185045957564 -0.962808907032012  0.000980538316071036 0.000271413213340566  0.00095445162151009 0.000260896718828008  -0.123773120343685 -0.964292526245116 
1385.8  -0.051218207925558 -0.962874352931975  0.000936373486183586 0.000285909714875743  0.000923156214412304 0.000259640917647631  -0.124341085553169 -0.964062392711638 
1386  -0.0517067164182662 -0.962960779666899  0.000933841569349172 0.000316120858769865  0.000935271789785477 0.000317725178319962  -0.124843381345272 -0.963948071002959 
1386.2  -0.052156701683998 -0.962789952754973  0.000962467980571093 0.00035250501241535  0.000957238022238018 0.000361150712706149  -0.125460505485534 -0.963736534118651 
1386.4  -0.0525314882397651 -0.962793469429015  0.000914175412617626 0.000350337038980798  0.000923446961678566 0.000347536988556386  -0.126008987426758 -0.963459610939024 
1386.6  -0.0530105978250503 -0.962550878524779  0.000908362155314537 0.000399830983951689  0.000923651328776034 0.000357792770955712  -0.126011297106743 -0.963332295417784 
1386.8  -0.0533679276704787 -0.96249485015869  0.000892832526005806 0.000397126219468192  0.000922014762181791 0.000392606132663787  -0.126485884189606 -0.962855935096739 
1387  -0.0535558238625525 -0.962247073650359  0.000877507554832848 0.000470541621325539  0.00087407499086112 0.000445739802671597  -0.12647345662117 -0.96293008327484 
1387.2  -0.0540104657411574 -0.96196812391281  0.000890528783202173 0.000532394275069238  0.000890587922185661 0.00048034021165222  -0.126601949334144 -0.962835311889647 
1387.4  -0.0544333644211291 -0.961807548999785  0.000910600065253677 0.000516878091730178  0.000923339161090555 0.000482609379105271  -0.127190381288528 -0.962898015975951 
1387.6  -0.054428607225418 -0.961639165878295  0.000969209999311718 0.000505540985614062  0.0009367490420118 0.000501279602758588  -0.12733456492424 -0.96322602033615 
1387.8  -0.0547613650560378 -0.961484611034392  0.000937555509153756 0.000539683969691397  0.000937277567572894 0.000531062891241164  -0.128194183111191 -0.963011741638182 
1388  -0.055203266441822 -0.961298465728758  0.000960603414569052 0.000528006465174259  0.000939987716265025 0.000509896257426591  -0.128616616129875 -0.963054537773131 
1388.2  -0.0555874444544314 -0.961249530315398  0.000970142835285517 0.000523304974194617  0.000977242598310115 0.000540348875802012  -0.129295319318771 -0.96267259120941 
1388.4  -0.0561795011162757 -0.961179614067076  0.000959030585363509 0.000528746633790435  0.000967224303167316 0.000535150640644134  -0.129670783877373 -0.962660431861876 
1388.6  -0.0564312264323234 -0.960747838020323  0.000973718764726075 0.000546529481653125  0.000965581566561016 0.000544889306183906  -0.129956781864166 -0.962181270122527 
1388.8  -0.0564671121537684 -0.960889399051665  0.000928956666029992 0.000533901271410288  0.000927540531847628 0.000525823328644038  -0.130085721611976 -0.962403059005736 
1389  -0.0567766726016997 -0.960754811763762  0.000928473949898036 0.000549261923879386  0.000938575190957638 0.000552118581254036  -0.130716919898987 -0.96245229244232 
1389.2  -0.0571443066000937 -0.960903525352477  0.000930271286051722 0.000588448252528907  0.000947163498494776 0.00059194612549618  -0.131323233246803 -0.962349712848662 
1389.4  -0.0574389994144439 -0.960930347442626  0.000961348239798101 0.000609586713835598  0.000963343365583571 0.000575059442780913  -0.131914690136909 -0.962138712406157 
1389.6  -0.0579242482781409 -0.961119353771208  0.000943431339692326 0.00058446836192161  0.000973535818047824 0.000599512073677034  -0.132230326533317 -0.961956977844237 
1389.8  -0.0582777746021746 -0.961235225200652  0.000980538781732323 0.000602875777985902  0.000956574222072961 0.000592747936025263  -0.132602080702782 -0.962102472782134 
1390  -0.0587978325784205 -0.961092710494994  0.000984019250608983 0.000593052594922484  0.00101033295504749 0.000618170946836473  -0.133315771818161 -0.962066769599913 
1390.2  -0.0592035986483096 -0.961415350437163  0.00100409635342657 0.000606180750764908  0.00100101949647069 0.000592687400057913  -0.133785620331764 -0.961796045303343 
1390.4  -0.0602742843329905 -0.961252331733702  0.00102534296456724 0.000595515477471055  0.00101873290259391 0.000579457497224213  -0.134056881070137 -0.961740493774413 
1390.6  -0.0606807954609393 -0.961623847484587  0.00102970271836966 0.000552766083274038  0.0010245032608509 0.000574635399971159  -0.134660601615906 -0.96166169643402 
1390.8  -0.0609922371804713 -0.961116731166838  0.00101123272906989 0.000555250153411181  0.000995388487353923 0.000530772958882154  -0.135295942425728 -0.961675107479094 
1391  -0.0617006197571753 -0.961156010627745  0.000983608420938256 0.000565301103051753  0.000979020027443769 0.000530611432623119  -0.135611444711685 -0.961621522903441 
1391.2  -0.0618890784680842 -0.961060345172881  0.000948714150581511 0.000561662949621679  0.00098218326456845 0.000589125265832992  -0.13618141412735 -0.961232304573058 
1391.4  -0.0624200478196143 -0.961135506629942  0.0009624429512769 0.000583298970013858  0.000996340648271146 0.000587990100029857  -0.13640558719635 -0.960929036140441 
1391.6  -0.0627440214157103 -0.961260259151457  0.000972057634498926 0.000582324690185488  0.000974806724116208 0.000596974161453546  -0.137074112892151 -0.961189806461333 
1391.8  -0.0632396787405013 -0.961242675781249  0.000964437844231727 0.000565130379982294  0.000949026725720616 0.000569247407838704  -0.137449741363525 -0.96117478609085 
1392  -0.0636408179998397 -0.961546480655669  0.00097743410151452 0.000593699864111842  0.000957553973421456 0.000579712621401997  -0.138134375214577 -0.961210131645201 
1392.2  -0.0642385035753249 -0.961606800556182  0.000980794080533089 0.000548664655070753  0.000968430074863138 0.00054749194532633  -0.138812899589538 -0.9607275724411 
1392.4  -0.0647359043359755 -0.961520850658415  0.000968912441749128 0.000554952421225609  0.000995131325908007 0.000563748937565834  -0.139226093888283 -0.960660815238951 
1392.6  -0.0655036792159079 -0.96150505542755  0.00098559679463506 0.000584381981752814  0.000968871579971167 0.000582558277528734  -0.139716371893883 -0.960535705089568 
1392.8  -0.0656519979238509 -0.961288452148436  0.00100364186801016 0.000577332917600871  0.00100979057606309 0.000568475807085634  -0.140034794807434 -0.960649847984313 
1393  -0.0661824420094489 -0.961390078067778  0.00103917066007852 0.000549818330910058  0.00103366887196898 0.000546104158274831  -0.140580907464027 -0.960486531257628 
1393.2  -0.0666720196604728 -0.961385130882262  0.00106096116360277 0.000514450133778156  0.00100545212626457 0.000531038036569954  -0.141009479761123 -0.960464656352996 
1393.4  -0.0665989518165587 -0.961487531661986  0.00101584161166101 0.000500467373058201  0.0010014217114076 0.000500781578011812  -0.14189150929451 -0.960304856300353 
1393.6  -0.067134603857994 -0.961315631866454  0.00100000645034015 0.00049787445459515  0.000982182682491841 0.000487902405438946  -0.142398655414581 -0.960181415081023 
1393.8  -0.0673212260007857 -0.961498200893401  0.000998392817564311 0.00050344946794212  0.000959540891926738 0.000509698991663755  -0.142983600497246 -0.959920227527617 
1394  -0.0678608044981955 -0.961558043956755  0.000973664049524816 0.000504102325066925  0.000980436219833793 0.000487461686134339  -0.143474221229553 -0.959751665592192 
1394.2  -0.0684797391295432 -0.961904942989348  0.00098084448836744 0.000465038581751288  0.000981907593086364 0.000464201672002674  -0.14398929476738 -0.959674596786498 
1394.4  -0.0689402297139166 -0.96177715063095  0.000994107802398505 0.000447823200374843  0.000991794047877195 0.000453059357823805  -0.144595026969909 -0.959204673767088 
1394.6  -0.0696197897195815 -0.961803555488585  0.000995229929685595 0.000442246178863571  0.000965550891123714 0.000434678047895432  -0.145048856735229 -0.958938717842101 
1394.8  -0.0702030211687087 -0.961775720119475  0.000976548762992026 0.000375467410776765  0.000968173786532136 0.000408976862672717  -0.144988745450973 -0.95864713191986 
1395  -0.0707125589251517 -0.96162700653076  0.00093498209025711 0.000357355631422252  0.000963834929279985 0.00036302991793491  -0.145200699567795 -0.958391129970549 
1395.2  -0.0711263120174407 -0.961300969123839  0.00094734155572951 0.000323615240631626  0.000914052943699064 0.00031826351187192  -0.145109549164772 -0.958474695682524 
1395.4  -0.0713780000805854 -0.961268424987792  0.000843762536533179 0.000319815619150177  0.000848722120281311 0.00030973376124166  -0.145486921072006 -0.958582043647765 
1395.6  -0.0720384120941161 -0.960875809192656  0.000777835724875333 0.000284664856735618  0.000789238954894246 0.000309366121655331  -0.145866215229034 -0.958968102931975 
1395.8  -0.072433829307556 -0.96105247735977  0.000772044295445086 0.00032764274510555  0.00075633905362338 0.000299435894703493  -0.146602988243103 -0.958897709846495 
1396  -0.0727237313985823 -0.960691809654234  0.000731559179257603 0.000368832435924561  0.000733124034013601 0.00035398843465373  -0.147284507751465 -0.958773314952849 
1396.2  -0.0729848295450209 -0.960502505302428  0.000730523956008257 0.000372417620383204  0.000717610470019282 0.000346350338077173  -0.14762407541275 -0.95868146419525 
1396.4  -0.0736304372549056 -0.960542142391204  0.000700811913702638 0.000353735056705774  0.0006903667235747 0.000369565706932918  -0.147938892245292 -0.958328545093535 
1396.6  -0.0738664641976355 -0.960535526275634  0.00066806672839448 0.000396428746171296  0.000672828347887845 0.000365219952072949  -0.148341819643974 -0.958407282829283 
1396.8  -0.0745127350091933 -0.960295975208281  0.000686505925841631 0.000391027744626627  0.000652494665700944 0.000393733265809716  -0.148996591567993 -0.958536088466643 
1397  -0.07508847117424 -0.960084140300749  0.000637175515294076 0.000391533103538678  0.000635017990134658 0.000401393423089758  -0.149539515376091 -0.958403944969176 
1397.2  -0.0752874985337256 -0.959540486335753  0.000607886526267977 0.000416170834796504  0.000566146336495878 0.000424624478910119  -0.149983540177345 -0.958347678184508 
1397.4  -0.0757951214909552 -0.959739327430724  0.00057878310326487 0.000421894976170734  0.000595664023421706 0.000441602984210477  -0.150422245264053 -0.958572328090666 
1397.6  -0.0760141387581824 -0.95940053462982  0.000554407131858171 0.00047822465421632  0.000563922338187696 0.000464498531073333  -0.150894373655319 -0.958551764488219 
1397.8  -0.0760844573378562 -0.959198713302611  0.000573420256841929 0.000460820418084041  0.000562115397769959 0.000444400211563335  -0.1517423838377 -0.958623230457305 
1398  -0.0761252865195273 -0.959160447120665  0.000567948212847115 0.000477821624372156  0.000549180898815395 0.000488490622956307  -0.152243047952652 -0.958655118942259 
1398.2  -0.0768503993749617 -0.959176003932952  0.000524599221535028 0.00049941969336942  0.000528828415554018 0.000506992742884905  -0.152947962284088 -0.958415508270262 
1398.4  -0.0769168660044669 -0.959182679653166  0.000518015411216767 0.000546095601748676  0.000557718798518182 0.000554065685719253  -0.15384279191494 -0.958334267139434 
1398.6  -0.077111668884754 -0.959472060203551  0.000524180650245399 0.000535169325303288  0.000528524222318084 0.000567445997148754  -0.154703423380852 -0.958297789096831 
1398.8  -0.0775985568761824 -0.95967411994934  0.000574105419218542 0.000588174385484309  0.000563985377084465 0.000554230064153672  -0.155381739139557 -0.957830369472502 
1399  -0.0780703350901602 -0.959398925304412  0.000588554888963701 0.000550463155377657  0.000567466020584108 0.00055091065587476  -0.155784636735916 -0.957381606101988 
1399.2  -0.0786766111850737 -0.959354937076567  0.000562275119591506 0.000506543030496688  0.000543645059224219 0.000507833727169783  -0.155997470021248 -0.95717418193817 
1399.4  -0.0792192071676253 -0.959029614925383  0.000518465181812645 0.000530034478288145  0.000532261619810016 0.000501848349813373  -0.156201124191284 -0.957001626491545 
1399.6  -0.07910568267107 -0.959059119224547  0.000514019920956344 0.000524926988873632  0.000492293329443784 0.000499396061059089  -0.15687446296215 -0.957238554954528 
1399.8  -0.0797706395387648 -0.959145963191985  0.000505200354382397 0.000550559256225826  0.000493365339934827 0.000543043366633357  -0.157393857836723 -0.956642627716063 
1400  -0.0801341831684111 -0.95878368616104  0.000477208057418467 0.000528802804183216  0.000501558010000737 0.000537932559382172  -0.157994240522384 -0.956595063209532 
1400.2  -0.0804287046194075 -0.958949863910674  0.000459146278444679 0.00052202114602551  0.000452844251412899 0.000527497148141266  -0.158534601330757 -0.955990910530089 
1400.4  -0.0807638317346571 -0.958756446838378  0.000438295654021204 0.000569768133573235  0.00040859598084353 0.000581691914703698  -0.159305542707443 -0.956042647361754 
1400.6  -0.0811737775802611 -0.958780467510222  0.000408422842156143 0.000561704277060927  0.000409331929404289 0.000585388741455974  -0.160052090883255 -0.955443382263182 
1400.8  -0.0816386789083479 -0.95900398492813  0.000390896602766589 0.000579580781050028  0.000394952628994361 0.000602195214014502  -0.160386979579925 -0.954879999160765 
1401  -0.0822569504380225 -0.958767235279082  0.000385091523639859 0.000615879718679936  0.000392895803088323 0.000599101476836951  -0.160934314131737 -0.954048335552214 
1401.2  -0.082686699926853 -0.958906054496764  0.000371047528460623 0.00061321828979999  0.000388910819310696 0.000599611666984857  -0.161297246813774 -0.953304648399352 
1401.4  -0.083240322768688 -0.958775222301482  0.000338831450790168 0.000650925096124412  0.000350350484950469 0.000666273641400041  -0.161067053675651 -0.952731132507323 
1401.6  -0.0837584063410758 -0.958463668823241  0.00037959052133374 0.00070110382512212  0.000340331258485094 0.00069018197245896  -0.161117285490036 -0.952065765857695 
1401.8  -0.0843576416373251 -0.958321154117583  0.000384410755941645 0.000711199711076917  0.000387280044378714 0.000700960343237968  -0.16104993224144 -0.951873004436492 
1402  -0.0844864398241042 -0.958350300788878  0.000398128991946579 0.000706783612258734  0.00036396022187546 0.00071179127553478  -0.160747200250625 -0.951797604560851 
1402.2  -0.0849351957440375 -0.958302974700926  0.000385528051992879 0.000727783422917129  0.000376979121938349 0.000732615997549148  -0.160946249961853 -0.9521906375885 
1402.4  -0.0851223692297934 -0.958538353443144  0.000381122896214948 0.000722469529137017  0.00036917396937497 0.000721190648619087  -0.161546096205711 -0.952308952808379 
1402.6  -0.0857592299580572 -0.958573818206786  0.000372805865481497 0.000737070979084821  0.000378071854356677 0.000721231743227692  -0.162514835596084 -0.951676547527312 
1402.8  -0.0860996842384337 -0.958544969558714  0.000304568035062403 0.000738972215913238  0.000340407859766857 0.000720518757589163  -0.16210675239563 -0.950516343116759 
1403  -0.086666204035282 -0.958582460880278  0.000300794752547518 0.000784659874625506  0.000319243030389772 0.000791597063653173  -0.16134749352932 -0.950522303581236 
1403.2  -0.0872068926692007 -0.95870804786682  0.000350294605595992 0.000836730410810562  0.000321968109346927 0.000796018575783821  -0.160953193902969 -0.950542509555815 
1403.4  -0.0876408591866492 -0.958621978759764  0.000347733381204308 0.000845875707454981  0.000350201502442361 0.0008379218634218  -0.160838276147842 -0.951309859752654 
1403.6  -0.0885554179549216 -0.958707153797148  0.000377786636818201 0.000848181429319086  0.000374704046407715 0.000849980628117921  -0.160769164562225 -0.952356576919554 
1403.8  -0.0888453796505926 -0.958795428276061  0.000341038976330311 0.000801023154053839  0.000353861803887413 0.000864882953464987  -0.16141252219677 -0.952898323535918 
1404  -0.0891980081796644 -0.958428382873534  0.000340742786647753 0.000821389548946174  0.000329753529513256 0.000844193098600956  -0.162278264760971 -0.953153133392333 
1404.2  -0.0895454883575438 -0.958038747310637  0.000348389061400668 0.000872426375281068  0.000315542216412724 0.000874724530149253  -0.162914410233497 -0.953450739383696 
1404.4  -0.090090364217758 -0.958107113838194  0.000342331244610251 0.000922602310311051  0.000351612601662055 0.000882563181221487  -0.163235023617744 -0.95361566543579 
1404.6  -0.0904879271984099 -0.95819979906082  0.000363429106073455 0.000939391320571305  0.000343594321748242 0.000900696904864164  -0.164098516106605 -0.953981459140776 
1404.8  -0.0910399854183195 -0.958036720752715  0.000391987734474243 0.000952005153521898  0.000399391341488809 0.000956143485382201  -0.164545118808746 -0.953990578651427 
1405  -0.091557741165161 -0.958069562911986  0.000448589125880972 0.000934132433030756  0.000421462114900352 0.000945779203902932  -0.165367320179939 -0.953905045986174 
