! Matrix data file written by TouchstoneData, EPCOS AG
! FILENAME: "B4329_NB.snp"
! COMMENT: "(B4329_NB.s3p) Epcos AG 6/28/2013 11:17:24 A"
! INFO: nport=3, nfreq=1601
! DATE: "Fri Jul 12 10:16:26 2013"
! USER: "Rosemary Xue"
!
! port | pin | signal
! -----|-----|--------
!   1  |  1  |  IN
!   2  |  3  |  OUT_BAL
!   3  |  4  |  OUT_BAL
! --------------------
! 
# MHZ S RI R 50
! freq  reS11 imS11  reS12 imS12  reS13 imS13  ...
2455  -0.707609176635741 -0.627386331558227  -0.0126811033114791 0.00730511033907531  -0.0139176305383444 0.0103287743404507 
 -0.0127136763185262 0.00734507106244562  -0.142306953668594 -0.921434342861174  -0.018080435693264 0.00143232650589198 
 -0.0139256501570344 0.0104278856888413  -0.0180459041148424 0.00143945415038615  -0.117524310946464 -0.923057913780211 
2455.25  -0.707908153533935 -0.627136528491973  -0.0126848351210356 0.00727739883586763  -0.0139758931472897 0.0104033006355166 
 -0.0126987397670746 0.00734145520254968  -0.143128097057342 -0.921498537063597  -0.0179220531135797 0.00135605013929307 
 -0.0139706674963236 0.0104134399443865  -0.0179155934602022 0.00133960240054875  -0.117988370358944 -0.92319232225418 
2455.5  -0.708577156066894 -0.626756072044372  -0.0126996431499719 0.0072888247668743  -0.0139952413737774 0.0103823468089104 
 -0.0127160400152206 0.00736025068908928  -0.143452286720276 -0.921078264713286  -0.0178145244717598 0.00118679157458245 
 -0.0139620555564761 0.0104125738143921  -0.0178203769028186 0.00115359213668853  -0.118699818849563 -0.923105895519255 
2455.75  -0.708803176879882 -0.626317381858825  -0.0127250254154205 0.00728999916464089  -0.0140016032382846 0.0104310167953372 
 -0.0127415731549263 0.00734553858637808  -0.143955066800117 -0.921005725860594  -0.0178550295531749 0.000989145017229023 
 -0.0140215139836073 0.0104546044021845  -0.0178164076060056 0.000969176529906692  -0.119462974369526 -0.92306077480316 
2456  -0.709248840808867 -0.625770807266234  -0.0127370115369558 0.00731300329789518  -0.0140604451298713 0.010520190000534 
 -0.0127384252846241 0.00734713068231939  -0.144290521740913 -0.920853614807128  -0.0178921744227409 0.000750058505218478 
 -0.0140373921021819 0.0105306748300791  -0.0178506933152675 0.00075979594839737  -0.120304577052593 -0.922403633594512 
2456.25  -0.709561705589294 -0.625456809997558  -0.012751143425703 0.00729670841246842  -0.0139790121465921 0.0105803720653057 
 -0.0127679333090782 0.00734662683680652  -0.14459003508091 -0.92054373025894  -0.0180281568318605 0.000516915984917433 
 -0.0140113746747374 0.0105983465909958  -0.017969636246562 0.000516790605615826  -0.120591908693313 -0.921816468238829 
2456.5  -0.710113286972045 -0.624881923198699  -0.0127728208899498 0.00730940606445072  -0.0139340236783027 0.0106062870472669 
 -0.0128209851682186 0.00732231792062519  -0.145135805010795 -0.920384824275969  -0.0182561688125133 0.000373205664800481 
 -0.0139252031221986 0.010626814328134  -0.0182481128722429 0.000375783856725321  -0.120662048459053 -0.921413004398345 
2456.75  -0.710334539413451 -0.624399423599242  -0.0128112183883786 0.00731348851695655  -0.0138577027246356 0.010589680634439 
 -0.0128253074362874 0.00734217837452887  -0.145667433738708 -0.920243740081786  -0.018493365496397 0.000426772719947622 
 -0.0138871651142835 0.0106082577258348  -0.0184877086430788 0.000446053105406464  -0.120977513492107 -0.921429693698882 
2457  -0.710785329341888 -0.623835384845733  -0.0128580490127206 0.00732464296743272  -0.0138819925487041 0.0105803413316607 
 -0.0128691103309393 0.00738982763141392  -0.146209448575973 -0.920150458812712  -0.0185038764029741 0.000541378220077605 
 -0.0138571625575423 0.0105782067403197  -0.0184465330094099 0.000558563508093358  -0.121410332620144 -0.921351969242095 
2457.25  -0.711148917675017 -0.623448908329009  -0.0128496252000332 0.00734411925077437  -0.0138582633808255 0.0106007875874638 
 -0.0128742000088095 0.00739963445812462  -0.14657624065876 -0.919987201690673  -0.0184073373675346 0.000502285023685546 
 -0.0138753969222307 0.0106001421809196  -0.0183643046766519 0.000507105374708773  -0.121924795210361 -0.921265006065367 
2457.5  -0.711583673954009 -0.622920334339141  -0.0128471385687589 0.0073921801522374  -0.0138493152335286 0.0106030711904168 
 -0.0128863994032144 0.00741134537383912  -0.147296026349068 -0.919820427894591  -0.0183963552117347 0.000339353893650696 
 -0.0138360587880015 0.0106117539107799  -0.018332939594984 0.000319216982461513  -0.122627817094326 -0.921309590339659 
2457.75  -0.712079763412475 -0.622560262680053  -0.0128870364278555 0.00737308664247392  -0.0138616161420941 0.0105961039662361 
 -0.0128646697849035 0.00744228437542914  -0.148038253188133 -0.919969797134398  -0.0184019226580858 0.000186282384674997 
 -0.0138812130317092 0.0106056816875934  -0.0183389894664287 0.000138080227770843  -0.123025126755237 -0.92120462656021 
2458  -0.712336659431456 -0.621967315673827  -0.0128716100007295 0.00736073777079581  -0.0138969300314784 0.0106355454772711 
 -0.0128927892073989 0.00740902125835417  -0.148809731006622 -0.919640421867369  -0.0184215530753135 -5.38795757165645e-05 
 -0.0138941528275609 0.0106484154239297  -0.0183608289808035 -5.15778701810633e-05  -0.123645484447479 -0.921256601810454 
2458.25  -0.713103294372558 -0.621567964553832  -0.0128930853679776 0.00736461998894809  -0.0138733377680182 0.0106627559289336 
 -0.012905697338283 0.00740892672911285  -0.149493962526321 -0.919444620609282  -0.0185238532721996 -0.000217298686038703 
 -0.0138766262680292 0.010680191218853  -0.0184854380786419 -0.000192693711142056  -0.124714680016041 -0.921004414558409 
2458.5  -0.713723063468932 -0.621105909347533  -0.0129152536392212 0.00735492352396248  -0.0139005491510033 0.0106933889910579 
 -0.0129360985010862 0.00743789458647369  -0.150267854332924 -0.919146716594695  -0.01851861551404 -0.000303684588288889 
 -0.0138960238546133 0.0107196839526295  -0.0184930264949798 -0.000332641298882664  -0.125114843249321 -0.920652806758879 
2458.75  -0.714134633541106 -0.620454847812652  -0.0129425171762705 0.00734252482652662  -0.013898067176342 0.0107726966962218 
 -0.0129465274512768 0.00738370744511484  -0.15125934779644 -0.918658971786498  -0.018526641651988 -0.000575715908780695 
 -0.0138838263228535 0.0107871014624834  -0.0184470731765031 -0.000594228797126563  -0.125897228717804 -0.920524418354033 
2459  -0.714468121528624 -0.619668304920196  -0.0129585629329085 0.00733032403513788  -0.0138736246153712 0.0108116520568728 
 -0.0129664298146963 0.00736249098554252  -0.151668950915336 -0.917996048927306  -0.0185901839286089 -0.000851435645017775 
 -0.0138840405270457 0.0108091225847602  -0.0185672156512737 -0.000844378373585643  -0.126390382647514 -0.920333683490752 
2459.25  -0.714864253997802 -0.619361042976378  -0.0130044454708695 0.00732414657250045  -0.0138695361092686 0.0108741968870163 
 -0.0130228986963629 0.00735334772616623  -0.151847392320633 -0.91752403974533  -0.018682699650526 -0.00110083690378815 
 -0.0138465818017721 0.0108579127117991  -0.0186429806053638 -0.00111731805372983  -0.126933678984642 -0.920020282268523 
2459.5  -0.715297102928161 -0.618843615055083  -0.013061061501503 0.00730502605438231  -0.0138716278597712 0.010895580984652 
 -0.0130687756463885 0.0073599563911557  -0.152456372976303 -0.917474627494811  -0.0188387427479028 -0.0013541019288823 
 -0.0138451140373945 0.0109088709577918  -0.0187776666134596 -0.00137213454581797  -0.127750858664512 -0.919610857963561 
2459.75  -0.716031372547149 -0.618332028388976  -0.0130875715985894 0.00729017704725264  -0.0138649549335241 0.010966426692903 
 -0.0130998427048325 0.00734798284247516  -0.152888119220733 -0.916893839836119  -0.0189554598182439 -0.00169437588192522 
 -0.0138505455106497 0.0109889945015311  -0.0188903771340847 -0.00174662587232887  -0.128440469503403 -0.919171035289763 
2460  -0.716410338878631 -0.617649435997008  -0.0131389228627085 0.00727827707305549  -0.0137795768678188 0.0110554145649075 
 -0.01315822545439 0.0073231505230069  -0.153323113918304 -0.916644811630248  -0.0192303396761417 -0.00204515107907354 
 -0.0137826707214117 0.0110332109034061  -0.0192001983523368 -0.00208717212080955  -0.128807336091995 -0.918746054172515 
2460.25  -0.716882824897765 -0.617216408252715  -0.01320780813694 0.00728999171406029  -0.0137437749654054 0.0110830701887607 
 -0.0132153201848268 0.00734798284247516  -0.15344226360321 -0.916487395763396  -0.0195924267172813 -0.00217992276884615 
 -0.0137389963492751 0.011074410751462  -0.0195359028875827 -0.00220481608994305  -0.129227563738823 -0.918409526348113 
2460.5  -0.717284262180327 -0.616672873497008  -0.0132215330377221 0.00732760969549416  -0.0137407602742314 0.0110720694065094 
 -0.0132374493405223 0.00741501338779925  -0.154090106487274 -0.91624093055725  -0.0197169091552496 -0.00225242879241704 
 -0.013742801733315 0.0110815409570932  -0.0196787137538194 -0.00227115699090063  -0.12983289361 -0.918092846870421 
2460.75  -0.717462360858916 -0.616047263145446  -0.0132354376837611 0.00730049423873423  -0.0137242311611771 0.0111101269721985 
 -0.0132671222090721 0.00736565934494136  -0.154661864042282 -0.916071653366088  -0.019730057567358 -0.00249306648038327 
 -0.0137420697137713 0.0111658293753862  -0.0196961164474487 -0.00250730710104107  -0.130526408553123 -0.917732536792754 
2461  -0.717809855937957 -0.615829646587371  -0.0132308658212423 0.00728619238361715  -0.0137161808088422 0.0112233571708202 
 -0.0132733229547739 0.00734392786398528  -0.155435249209404 -0.915538668632506  -0.0197691433131694 -0.00286112213507294 
 -0.0137129751965403 0.0112133752554655  -0.0197393856942653 -0.00288566364906728  -0.131167814135551 -0.917099893093108 
2461.25  -0.718158245086669 -0.615169405937194  -0.0132895363494754 0.00724250869825481  -0.0136776221916079 0.011323943734169 
 -0.0133270611986518 0.00728541892021893  -0.15626123547554 -0.914653122425078  -0.019898772239685 -0.00342060485854744 
 -0.0136744203045964 0.0113188661634922  -0.0198731422424316 -0.00346146593801676  -0.131510242819786 -0.916194200515746 
2461.5  -0.71852284669876 -0.614668309688567  -0.0133564071729779 0.00720384344458578  -0.0135858077555895 0.0114043336361646 
 -0.0133913718163967 0.00723875174298881  -0.156387418508529 -0.914001822471617  -0.0203026495873928 -0.00407358678057789 
 -0.0136030688881874 0.0114046093076467  -0.0202481504529714 -0.00411486951634287  -0.131835639476776 -0.915140688419341 
2461.75  -0.718819081783294 -0.614315330982207  -0.0135033717378974 0.00717722717672585  -0.0134559199213981 0.0114760752767324 
 -0.0135282017290592 0.00720344390720127  -0.156671568751335 -0.913299381732939  -0.020944932475686 -0.00468463962897657 
 -0.0134540302678942 0.0115063935518265  -0.0209157764911651 -0.00471559865400194  -0.131787315011024 -0.914298474788664 
2462  -0.719438731670379 -0.613864004611968  -0.0136265121400356 0.00718599604442714  -0.0132904276251793 0.0115136029198766 
 -0.0136450566351413 0.00723260501399635  -0.156619668006897 -0.912633359432219  -0.0218265689909458 -0.00507268821820616 
 -0.0132821761071682 0.0115081137046218  -0.0217945482581853 -0.00508879357948898  -0.13150942325592 -0.913832306861876 
2462.25  -0.719792962074279 -0.613486647605895  -0.0137435961514711 0.00723939528688787  -0.0131566952913999 0.0114539545029402 
 -0.0137419104576111 0.00727884704247115  -0.156814247369766 -0.912316739559172  -0.0226406585425138 -0.00509236520156263 
 -0.0131875229999423 0.0114816566929221  -0.0225944183766841 -0.00511019956320523  -0.131399214267731 -0.913837730884551 
2462.5  -0.720205545425414 -0.612866401672362  -0.0138250831514597 0.00731133157387374  -0.0130885615944862 0.011442250572145 
 -0.0138408159837126 0.00733513943850992  -0.156999692320823 -0.911879122257231  -0.0232623293995857 -0.00503314146772026 
 -0.0131018199026584 0.0114567540585995  -0.0232329666614532 -0.00506667047739028  -0.131667882204056 -0.9136705994606 
2462.75  -0.720660686492919 -0.612009942531585  -0.0139089282602072 0.00736797740682958  -0.0130277182906866 0.0114149721339345 
 -0.0139244711026549 0.00742653943598269  -0.157377451658249 -0.911780238151549  -0.0237727873027324 -0.0049319784156978 
 -0.0130337784066796 0.0114199370145798  -0.0237382128834724 -0.00494759436696767  -0.132028207182884 -0.913542330265044 
2463  -0.720758080482482 -0.611409544944762  -0.0139451529830694 0.00740883219987152  -0.0129664950072765 0.0114009799435735 
 -0.0139563018456101 0.00746012246236203  -0.157761737704277 -0.911176741123198  -0.0240887757390737 -0.00504517322406172 
 -0.0129812294617295 0.0114270113408565  -0.02404803968966 -0.00508930720388888  -0.1325873285532 -0.913298666477202 
2463.25  -0.720829546451568 -0.610870420932769  -0.0140359662473202 0.00741184270009397  -0.0128915011882782 0.0114425271749496 
 -0.0140431364998221 0.00744414841756223  -0.157957896590233 -0.910453140735625  -0.0246850792318582 -0.0054524391889572 
 -0.012894089333713 0.0114373425021767  -0.0246822740882635 -0.00544328102841972  -0.132711187005043 -0.912787854671477 
2463.5  -0.721039354801177 -0.610389590263366  -0.014154783450067 0.00747201731428502  -0.0127672040835023 0.0114075355231762 
 -0.0141766080632806 0.00753529788926242  -0.157689526677131 -0.909985005855559  -0.0256495550274848 -0.00555234123021363 
 -0.0128042651340365 0.0114247500896454  -0.025593027472496 -0.00559083092957734  -0.132292345166206 -0.912364423274993 
2463.75  -0.720956444740294 -0.610020577907561  -0.0142555944621563 0.00752248382195829  -0.0126914167776704 0.0113304629921913 
 -0.0143086435273289 0.00759037816897033  -0.157307118177414 -0.909822165966033  -0.0265602767467498 -0.00547335483133792 
 -0.0126806320622563 0.0113479709252715  -0.0265242382884025 -0.00545409414917229  -0.132492065429687 -0.912212252616881 
2464  -0.72132921218872 -0.609553515911102  -0.014362926594913 0.00767120579257606  -0.0126208858564496 0.0112650347873568 
 -0.0143959196284413 0.00772034330293534  -0.157353818416595 -0.909823238849639  -0.0273916665464639 -0.00508830742910503 
 -0.0126398056745529 0.0112719032913446  -0.0273543186485767 -0.0050723343156278  -0.132718726992607 -0.912449777126311 
2464.25  -0.721722841262816 -0.609373688697814  -0.0144289350137114 0.00774829881265758  -0.0126021448522806 0.0112279830500483 
 -0.014443508349359 0.00781479198485611  -0.157647624611854 -0.910118579864501  -0.0279623121023178 -0.00484491884708403 
 -0.012608309276402 0.0112175503745675  -0.0279177334159612 -0.00486033968627452  -0.133087798953056 -0.912063896656035 
2464.5  -0.722326278686522 -0.608913421630858  -0.0144936386495828 0.0078772436827421  -0.0125228650867939 0.0112087382003665 
 -0.0145007232204079 0.00793545413762329  -0.157648712396622 -0.910087406635283  -0.0287599992007017 -0.00468437513336538 
 -0.0125254839658737 0.0112167941406369  -0.0287419483065605 -0.00468424148857592  -0.133102193474769 -0.911669254302977 
2464.75  -0.72277396917343 -0.608324885368346  -0.0146057149395346 0.00799357052892445  -0.0124588711187243 0.0111098391935229 
 -0.0145864561200142 0.0080759087577462  -0.157727062702179 -0.910262882709502  -0.0296262223273515 -0.00414483854547142 
 -0.0124361179769039 0.0111336121335625  -0.0296067874878644 -0.00413028150796889  -0.133101791143417 -0.911625146865844 
2465  -0.723042309284209 -0.607984781265258  -0.014603478834033 0.00817031692713497  -0.0123876798897981 0.01102339848876 
 -0.0146105382591486 0.00821550842374561  -0.158210694789886 -0.910729825496672  -0.0302380993962287 -0.00338303390890359 
 -0.0124165620654821 0.0110363261774182  -0.0302301906049251 -0.00338524300605058  -0.133185148239136 -0.911931216716765 
2465.25  -0.723507463932036 -0.607564270496368  -0.0145899271592498 0.00831989478319882  -0.0123948259279132 0.0109507972374558 
 -0.0145987207069993 0.00835081469267605  -0.15899184346199 -0.910797059535979  -0.0305431149899959 -0.00277470983564853 
 -0.0124220848083496 0.0109798526391387  -0.0305271781980991 -0.00279840664006769  -0.133458316326141 -0.911992251873015 
2465.5  -0.724010348320006 -0.606768608093261  -0.0145797338336706 0.00842596683651207  -0.0123676909133792 0.0108792195096612 
 -0.0145927844569087 0.00845951680094002  -0.159573420882225 -0.9104425907135  -0.0309920646250247 -0.00230232789181172 
 -0.0123622566461563 0.0109080988913774  -0.0309290457516908 -0.0023006466217339  -0.13365663588047 -0.912077009677886 
2465.75  -0.724396467208861 -0.606329202651977  -0.0145784365013242 0.00854228064417837  -0.0123583590611815 0.0108373546972871 
 -0.0145870866253972 0.0085810739547014  -0.159827649593353 -0.910537600517272  -0.0314045473933219 -0.0016909436089918 
 -0.012357821688056 0.0108148194849491  -0.0313631519675254 -0.00172875775024294  -0.134076312184334 -0.912313282489775 
2466  -0.724607944488524 -0.605936050415038  -0.0145639581605792 0.00866674818098543  -0.0123580433428287 0.0107425730675459 
 -0.0145768793299794 0.00868981610983608  -0.160231232643127 -0.910485386848448  -0.0316418372094631 -0.000994447036646309 
 -0.012372262775898 0.0107883624732494  -0.031619980931282 -0.0010048229014501  -0.134285911917686 -0.912477254867552 
2466.25  -0.724801063537597 -0.605348885059356  -0.0144959520548582 0.00874990317970512  -0.0123938862234354 0.0106917880475521 
 -0.0145410448312759 0.00879878364503382  -0.160887435078621 -0.910438418388366  -0.0316561050713062 -0.000439689785707743 
 -0.0123979728668928 0.0107300151139498  -0.0315953567624092 -0.000479934446047993  -0.134990781545639 -0.91268491744995 
2466.5  -0.725189387798308 -0.605072438716888  -0.0144652090966701 0.00880904216319321  -0.0124247511848807 0.0106938732787967 
 -0.0144902653992176 0.00883481465280054  -0.161496818065643 -0.910418987274169  -0.0317252650856971 -8.83600514498541e-05 
 -0.0124134318903088 0.0106875412166118  -0.0315358936786651 -0.000143728480907157  -0.135660573840141 -0.912366449832915 
2466.75  -0.725766241550444 -0.604685187339782  -0.0144421057775616 0.00886446516960857  -0.012415979988873 0.0106991911306977 
 -0.0144617967307567 0.00890326313674448  -0.162117004394531 -0.910185992717742  -0.0319011025130748 0.000171141218743287 
 -0.0124338641762733 0.0107111688703298  -0.0318881161510944 0.000213791761780158  -0.136243015527725 -0.911946296691893 
2467  -0.726031899452208 -0.604384541511535  -0.0144496690481901 0.00892122462391851  -0.0123729733750224 0.0106888487935066 
 -0.0144771309569478 0.00898275990039108  -0.162870392203331 -0.910080552101134  -0.032179307192564 0.00055672461166978 
 -0.0123944310471415 0.0106986472383141  -0.0321118906140327 0.000554548285435886  -0.13642144203186 -0.911867916584014 
2467.25  -0.726789116859435 -0.604113161563872  -0.0144119588658213 0.00899460352957247  -0.0123684220016002 0.0106558166444301 
 -0.0144572537392378 0.00902833417057989  -0.163353592157364 -0.909664690494536  -0.0324535779654979 0.0009032977395691 
 -0.0123953716829419 0.0106511916965246  -0.0324230268597602 0.000881853804457935  -0.13649582862854 -0.911653876304625 
2467.5  -0.727487087249755 -0.603610575199126  -0.014463092200458 0.00908624287694691  -0.0123237827792763 0.010597500950098 
 -0.014457618817687 0.00914628710597752  -0.163605079054832 -0.909216105937956  -0.0328004658222198 0.00140199880115688 
 -0.0123658739030361 0.0106107639148831  -0.032733354717493 0.00139241432771086  -0.136861056089401 -0.911554694175719 
2467.75  -0.728262305259704 -0.603511333465575  -0.0144414464011788 0.009168847464025  -0.0123523138463497 0.0105353659018874 
 -0.0144391665235162 0.00923046842217443  -0.163817226886749 -0.909213125705718  -0.0330695286393165 0.00196753465570509 
 -0.0123371873050928 0.0105449324473738  -0.0330528058111667 0.0019055176526308  -0.137117356061935 -0.911870002746581 
2468  -0.72894924879074 -0.602714717388152  -0.0144047895446419 0.0093047861009836  -0.0123524097725749 0.0104876374825835 
 -0.0144159058108926 0.00932098738849161  -0.16417521238327 -0.909337818622588  -0.0333010293543338 0.00273711723275482 
