! Matrix data file written by TouchstoneData, EPCOS AG
! FILENAME: "B4329_WB.snp"
! COMMENT: "(B4329_WB.s3p) Epcos AG 6/28/2013 11:17:32 A"
! INFO: nport=3, nfreq=1601
! DATE: "Fri Jul 12 10:25:16 2013"
! USER: "Rosemary Xue"
!
! port | pin | signal
! -----|-----|--------
!   1  |  1  |  IN
!   2  |  3  |  OUT_BAL
!   3  |  4  |  OUT_BAL
! --------------------
! 
# MHZ S RI R 50
! freq  reS11 imS11  reS12 imS12  reS13 imS13  ...
50  0.996575295925139 -0.0623053051531314  6.55515250969075e-08 0.000131261360365898  -0.000110789573227521 5.3462226787815e-05 
 5.45790571777617e-05 0.000131858469103463  0.998152434825896 -0.0384239144623279  -4.36414884461556e-05 0.000230339675908909 
 8.78430637385464e-06 6.835629028501e-05  -4.50144143542276e-05 0.000297139311442152  0.99860507249832 -0.0381752997636794 
53.71875  0.995640158653258 -0.0674302652478217  -1.82263875103672e-06 7.96256717876533e-05  5.82287384531811e-06 4.50040242867545e-05 
 1.64781813509763e-05 8.8278924522456e-05  0.998679041862486 -0.04088382050395  -2.47338448389201e-06 0.000233982660574839 
 4.25303624069785e-05 5.91667776461692e-05  -9.76358387561051e-06 0.00020979018881917  0.998083293437956 -0.04060310870409 
57.4375  0.995722591876982 -0.0720465332269667  1.36092412503786e-05 9.57765078055674e-05  1.26675331557635e-05 2.63338515651413e-05 
 2.33775390370284e-05 0.000108271138742566  0.998485207557677 -0.0422731265425681  5.69417807128048e-06 0.000412147957831622 
 5.04242188981153e-06 6.29982678219677e-05  3.9348719838017e-07 0.000403655751142652  0.997725188732146 -0.0432353019714355 
61.15625  0.995154082775115 -0.076348803937435  4.36503942182754e-05 7.55400105845184e-05  2.86336507997476e-05 3.5746557841776e-05 
 1.49629693169118e-06 8.8730361312628e-05  0.997898995876311 -0.0451966524124145  -0.000152796492329799 0.000376260199118406 
 5.32845697307494e-05 4.11457258451265e-05  -0.000124721162137576 0.000406554085202516  0.997211098670958 -0.0462754443287849 
64.875  0.994721949100493 -0.0814336091279982  1.84066393558169e-05 0.000146603269968182  2.65695666712418e-06 4.45836776634679e-05 
 1.41060845635366e-05 0.00015519282897003  0.998407900333403 -0.0476118400692939  2.20021483983146e-05 0.000291831413051114 
 1.36404723889428e-05 2.93971206701827e-05  2.8861390092061e-05 0.000290408730506898  0.996374070644377 -0.0477213561534881 
68.59375  0.993944048881529 -0.0863760858774184  3.22269697790035e-05 0.000102715166576673  -4.09796747646851e-08 7.14372727088632e-05 
 3.08405942632817e-05 9.84021899057554e-05  0.99809157848358 -0.0514989010989665  9.89228938124144e-05 0.000573315133806319 
 -2.52628160524182e-05 9.46778745856138e-05  8.48193085403183e-05 0.000561443972401322  0.996432304382323 -0.0515100918710231 
72.3125  0.992983043193816 -0.0899234190583228  1.2336660802248e-05 0.000109506465378218  5.16548516316107e-06 7.58295573177749e-05 
 4.0721210098127e-05 0.000129575244500302  0.997253894805907 -0.0531742349267005  3.96129644286703e-06 0.000448683073045687 
 -7.15598343958846e-06 8.00571360741743e-05  4.95994681841695e-05 0.000450987368822099  0.996452569961546 -0.0543468371033668 
76.03125  0.993488371372222 -0.0948527231812475  4.01426541429828e-06 0.00011732603161363  -2.33779292102554e-06 9.69774773693645e-05 
 2.2956179236644e-05 0.00011485494178487  0.997115969657897 -0.0567943155765532  -1.22957389976364e-05 0.000216857428313233 
 -1.58885325163283e-06 9.30735477595592e-05  -8.77495494933102e-06 0.000244112190557644  0.996045887470244 -0.0571021176874637 
79.75  0.992489159107207 -0.0993668735027312  -1.90051723620855e-05 0.000148966544657015  2.43412378040376e-05 6.24221866019071e-05 
 2.01022521650885e-05 0.000162042153533548  0.99746400117874 -0.0590959601104258  0.00013905689411331 0.000395004666643218 
 3.5060576919932e-05 6.55159237794579e-05  0.000140563031891361 0.00037245688145049  0.996340811252593 -0.0602188520133494 
83.46875  0.992042183876036 -0.103941634297371  3.55369338649326e-05 0.000151902917423286  1.4135110177449e-05 0.000135056106955745 
 1.12877678475343e-05 0.000170502797118388  0.99725705385208 -0.0612572282552718  0.000111050198029261 0.000401480938307942 
 -3.8510170270456e-06 0.000117521187348757  0.000130265718325973 0.000412887951824815  0.996076345443724 -0.0632656291127204 
87.1875  0.990561008453368 -0.10913947969675  4.37416310887785e-05 0.000138562099891715  -1.87277037184686e-05 0.000120578304631636 
 3.09344322886319e-05 0.000155724410433323  0.997463762760161 -0.0641178414225577  5.81407875870356e-05 0.000304894027067349 
 -2.895285251725e-05 0.000143074517836795  5.80361265747343e-05 0.000294102588668466  0.995804905891417 -0.0651440247893332 
90.90625  0.991403996944426 -0.113443247973919  5.48039170098492e-05 0.000145281912409701  -1.86917088740302e-06 8.96907731657849e-05 
 4.32226333941799e-05 0.000169010963873007  0.997177243232726 -0.0670140758156775  0.000108346859633457 0.000377930031390862 
 9.31936847337057e-06 9.78766765911134e-05  0.000104627273685765 0.000389018474379555  0.995971381664275 -0.0676136687397956 
94.625  0.989758074283598 -0.118251450359821  4.60976225440391e-05 0.000191108701983467  -5.75536396354438e-05 0.000108513391751331 
 4.85656419186854e-05 0.000200650101760403  0.996890544891356 -0.0696675181388854  -8.0021782196127e-05 0.000371354457456619 
 -5.02958428114654e-05 9.37594741117211e-05  -8.39443673612552e-05 0.000356606586137787  0.993747830390929 -0.0705697387456893 
98.34375  0.989826202392577 -0.121481485664844  4.39306222688174e-06 0.000163991455337964  -7.17961984264549e-06 0.000138881208840758 
 5.52921846974642e-05 0.000163449905812741  0.995986521244048 -0.0725906938314436  2.97409260383575e-05 0.000293922785203905 
 -9.7532174549997e-06 0.000123873789561913  3.23241438309197e-05 0.000294073834083975  0.994770050048827 -0.0731348544359206 
102.0625  0.988874077796935 -0.127022713422775  3.78181139240042e-05 0.000163779710419476  1.67685630003689e-05 0.000109262604382821 
 2.756674621196e-05 0.000159141200128943  0.996359646320342 -0.0751800015568732  3.11457442876418e-05 0.000533608545083554 
 1.60111212608172e-05 0.000111278379336  3.85815001209267e-05 0.000515098741743715  0.994575023651122 -0.0761695653200148 
105.78125  0.988555669784544 -0.130599156022072  1.56497317220783e-05 0.000185431243153289  5.44238446309465e-06 0.000201953473151662 
 2.78710849670461e-05 0.000225492505705916  0.995502650737761 -0.0782386586070059  -0.000159191215061583 0.00039758867933415 
 3.38935715262779e-05 0.000164077340741642  -0.000144711215398275 0.000399249838665129  0.993775069713591 -0.0790192037820815 
109.5  0.988417506217955 -0.135957062244415  4.41050178778824e-05 0.000179805487277918  3.14972494379618e-05 0.00012078649160685 
 3.49430556525477e-05 0.000168900252901949  0.995813727378844 -0.0816761031746863  -2.60908291238593e-05 0.000557149061933161 
 1.53917717398145e-05 0.00012739043449983  -1.82869680429576e-05 0.000520429690368475  0.994379699230193 -0.0819330066442488 
113.21875  0.986870944499968 -0.140542030334472  2.48790274781641e-05 0.000206205717404373  -8.30860881251284e-06 0.000109429602161981 
 3.82069956685883e-05 0.000214201994822361  0.995234131813048 -0.0834430381655692  8.26226896606387e-05 0.000635120784863831 
 -5.20978983331589e-06 0.000155626592459157  8.07254837127404e-05 0.000652875809464605  0.993851661682128 -0.0841164365410803 
116.9375  0.986546516418456 -0.145108073949814  -1.70096075180482e-06 0.000220910267671571  5.10248082719045e-06 0.000106887593574357 
 2.01628499780782e-05 0.000196909866645001  0.994745910167693 -0.0868601351976393  -0.000176876928890124 0.000755056506022813 
 3.05158628179925e-05 0.000132517801830545  -0.000200987298740074 0.00072609167546034  0.992792785167693 -0.0884495154023169 
120.65625  0.984817266464232 -0.148889034986496  5.23667986271904e-05 0.000191233877558262  -1.02723697636975e-05 0.000103305697848555 
 3.76442767446861e-05 0.000187584591913037  0.994762241840361 -0.0881612822413443  0.000148183607961983 0.000598198326770218 
 -5.26527287547649e-07 9.15306882234292e-05  0.000162103067850694 0.000592125521507116  0.993180096149443 -0.0894890725612639 
124.375  0.985102832317351 -0.154369801282882  1.3664536709257e-05 0.000210881844395772  1.09670527308481e-05 0.000148475301102735 
 1.66930203704397e-05 0.000211106773349457  0.995509445667266 -0.090828016400337  0.00026701090973802 0.000730697996914388 
 2.35188017541077e-05 0.000185277574928478  0.000259861146332697 0.000729643856175246  0.993341267108916 -0.092236429452896 
128.09375  0.983938097953795 -0.159013569355011  3.48568355548196e-05 0.000195205022464507  -1.285734015255e-06 0.000119412019557786 
 4.18691815866624e-05 0.000181244875420817  0.994147837162016 -0.0939879342913626  -3.05703724734486e-06 0.000659017998259516 
 1.08169961094973e-05 0.000102379504824057  4.69251644972247e-05 0.000670860812533648  0.992760121822356 -0.0951560065150259 
131.8125  0.982523083686827 -0.163137972354889  4.64221193396953e-05 0.000205788310267963  4.92394574393985e-05 0.000176807719981298 
 3.81415120500606e-05 0.000246713403612376  0.994699835777281 -0.0969612598419188  8.70452004164691e-06 0.000593239092268051 
 5.97187863604632e-05 0.000134118236019276  2.90766492980766e-05 0.000578137987758966  0.99271523952484 -0.0979801863431929 
135.53125  0.982625901699065 -0.167673274874687  2.57758620136884e-05 0.000206193915801123  2.96274847642053e-05 0.000159930248628371 
 2.00711328943726e-05 0.000179464390384965  0.993950247764586 -0.100041553378105  3.42872299370357e-05 0.000685473729390652 
 3.4369597415207e-05 0.000129663108964451  5.00201495015063e-05 0.000714314868673684  0.992031097412108 -0.100511252880096 
139.25  0.981141388416289 -0.172609031200409  5.21812835359016e-05 0.000245564238866792  2.35452444030671e-05 0.000148996696225368 
 2.90756252070424e-05 0.000232217178563588  0.993469476699828 -0.102806508541107  3.25153996527661e-05 0.000691990775521846 
 8.78851733432385e-06 0.000205967866349966  3.26076697092504e-05 0.000712724518962206  0.991923093795775 -0.104145206511021 
142.96875  0.979989707469939 -0.175615280866623  6.1821410781704e-05 0.000222595874220133  1.53176915773656e-05 0.000184344447916374 
 6.41876031295398e-05 0.000229181168833748  0.992546379566191 -0.10472622513771  0.000160024719662033 0.000664357678033413 
 4.90444144816139e-05 0.000173505977727473  0.000128798244986683 0.000641500053461642  0.990988373756407 -0.105458527803421 
146.6875  0.978963792324065 -0.180986151099205  1.88213616638678e-05 0.000247510353801773  3.31507981172763e-05 0.00013219726679381 
 6.36554323136808e-05 0.000224300514673815  0.992792069911955 -0.107909314334392  9.57612501224505e-05 0.000821690191514792 
 5.92779615544715e-05 0.000121418168419041  8.19519336801024e-05 0.000820121786091478  0.991236805915831 -0.107953011989593 
150.40625  0.978090226650237 -0.185477718710899  2.83778572338634e-05 0.000217043809243478  6.19644924881869e-05 0.000142701988806948 
 3.6376528441906e-05 0.000247948482865468  0.992088615894316 -0.109987959265709  0.000132682063849643 0.000711305125150831 
 2.49604745476973e-05 0.000158184455358424  0.000122643905342557 0.000726316997315736  0.990797400474547 -0.111210733652115 
154.125  0.978058755397795 -0.189750641584396  5.78086583118421e-05 0.000265114940702916  -1.45166040965705e-06 0.000220949455979281 
 3.52824681613129e-05 0.000228012839215808  0.992159783840178 -0.112912200391292  0.000168009079061449 0.000731270061805846 
 -3.17726608045632e-06 0.000219720284803771  0.000185847879038193 0.000754470296669753  0.991066396236418 -0.114455714821815 
157.84375  0.977064490318297 -0.194466710090637  5.97575381107164e-05 0.000270220829406754  1.67204962053802e-05 0.000202517490833998 
 4.34611247328576e-05 0.000251293269684539  0.991789579391478 -0.115923471748829  0.00014372834993992 0.000858634419273587 
 3.6438876122702e-05 0.000198446010472253  0.000103690319519956 0.000825963972602041  0.990650296211241 -0.116803497076034 
161.5625  0.975749135017394 -0.198584973812103  2.77950312010944e-05 0.00025407923385501  2.79668493021746e-05 0.000172691055922769 
 2.45667743001832e-05 0.000249196309596301  0.991142451763152 -0.119169652462005  0.000191456900211052 0.000755164248403163 
 1.21120547191822e-05 0.000217712906305679  0.000171790452441201 0.000757647445425393  0.989517390727996 -0.118998140096664 
165.28125  0.973840177059172 -0.203349843621254  4.58917338619358e-06 0.000254625017987565  8.83220127434471e-06 0.00019137526396662 
 5.93955846852624e-05 0.000237112966715359  0.989221811294554 -0.121840983629227  0.000181487965164706 0.000675531453453006 
 2.84086581814336e-05 0.000183176234713756  0.000172441796166823 0.000678905227687211  0.988574445247649 -0.121883913874626 
169  0.973867416381835 -0.206388145685196  2.98904360533925e-05 0.000286840804619715  4.85415512230248e-06 0.00023012375459075 
 4.65349767182489e-05 0.000277424027444795  0.990123152732848 -0.123978681862354  0.000103583741292823 0.00089774501975626 
 3.29019821947441e-05 0.00020283748744987  0.00012748219887726 0.000904841057490559  0.989448130130766 -0.124219335615635 
172.71875  0.973473727703093 -0.211105391383171  6.87877836753616e-05 0.000273777404800058  7.20243842806668e-05 0.000193796178791672 
 4.6002031012904e-05 0.000243455942836591  0.990434825420378 -0.126569658517837  6.75812698318624e-05 0.000850085925776513 
 2.63539823208703e-05 0.000210658152354882  5.44473914487754e-06 0.0008357324404642  0.989327251911162 -0.125921204686165 
176.4375  0.972442626953124 -0.215782403945923  8.84025648701938e-05 0.000286280206637458  3.67599968740252e-05 0.00020899205992464 
 7.30105093680324e-05 0.000286549446173013  0.989795267581938 -0.129197105765343  8.45672839204782e-05 0.000864140689373018 
 2.653357842064e-05 0.000176819055923261  0.000126108338008635 0.00089686631690711  0.989131689071654 -0.128828734159469 
180.15625  0.972265303134917 -0.219528436660766  4.26441183662974e-05 0.000298484665108845  5.43774440302515e-05 0.000221650596358814 
 3.99312593799551e-05 0.000304343615425751  0.989865124225615 -0.131524264812469  0.000284736423054711 0.000809602148365231 
 5.32652047695593e-05 0.000239320492255502  0.000299937120871619 0.000812452228274198  0.988321006298064 -0.132223233580589 
183.875  0.970297455787657 -0.223834410309791  5.43866990483367e-05 0.000266110582742841  2.76081154879649e-05 0.000204472191398964 
 3.82964972232004e-05 0.000306261412333698  0.989389061927794 -0.134459093213081  6.18968770140783e-05 0.00085184571798891 
 5.69954863749445e-06 0.00022813369287178  8.50648139021361e-05 0.000812805199529977  0.987912595272063 -0.134184092283249 
187.59375  0.969052970409392 -0.229199960827827  1.6264217265416e-05 0.000315656361635775  -2.25020812649746e-06 0.000225100462557748 
 4.5768636482535e-05 0.000281238520983607  0.988692522048949 -0.137547254562378  3.41677659889684e-05 0.000743550364859404 
 2.01558286789805e-05 0.000249715114478022  3.13568452838809e-05 0.000739178387448193  0.987514793872832 -0.137565448880195 
191.3125  0.968660295009612 -0.232190936803817  4.29177016485483e-05 0.000287460250547156  4.25987382186578e-05 0.000210371072171256 
 6.2895727751311e-05 0.000286137888906524  0.988108634948729 -0.138879612088203  0.000124593381769955 0.000757669447921218 
 5.14542516611983e-05 0.000207063669222408  8.77710408531131e-05 0.000786851916927846  0.987207055091856 -0.13922655582428 
195.03125  0.967533707618712 -0.236733764410019  7.2311842814088e-05 0.000330990529619158  6.77592543070206e-05 0.000203261981368997 
 8.98872895049864e-05 0.000292090640868992  0.988012969493865 -0.142280250787735  -0.000127300765598193 0.000959524244535716 
 9.15197015274318e-05 0.000213986146263779  -0.000136792456032709 0.000978606287389996  0.987367212772368 -0.141320511698723 
198.75  0.96623396873474 -0.24126635491848  6.93563342792915e-05 0.000354619871359319  8.69847353897059e-05 0.00031047422089614 
 6.42155719106087e-05 0.00036457387614064  0.986944794654845 -0.144336357712745  -8.72414384502919e-05 0.000795600994024428 
 7.7730444900226e-05 0.000302765110973269  -0.000105018661997747 0.000788221019320192  0.986421227455138 -0.145398497581482 
202.46875  0.965805888175963 -0.245757147669792  9.40790559980089e-05 0.0003003443707712  2.74099402304274e-05 0.000242315378272906 
 8.25452807475814e-05 0.000309648545226083  0.987023413181304 -0.147119402885437  0.000118237519927789 0.00110078928992152 
 2.14082065213006e-05 0.000257490755757318  0.000119887430628296 0.00111748487688601  0.986105024814604 -0.14761771261692 
206.1875  0.964424848556517 -0.249469116330146  6.62993406876923e-05 0.000274802936473862  3.33404423145112e-05 0.000211567879887298 
 0.000100085060694255 0.0002860197564587  0.986254930496214 -0.149904996156692  -6.38841229374522e-05 0.00134986126795411 
 8.5338924691314e-06 0.000206357566639781  -3.83673468604685e-05 0.00133425369858741  0.985779643058776 -0.149807468056679 
209.90625  0.96395719051361 -0.253632515668869  0.00011824239481939 0.000323718588333578  0.000129284409922548 0.000261280307313428 
 0.000106017629150301 0.000334045937051997  0.986588001251219 -0.152321144938469  -6.43384846625851e-05 0.00108386087231338 
 0.000109868909930811 0.000222872418817133  -4.44400211563335e-05 0.00105408951640129  0.985657930374144 -0.152149870991707 
213.625  0.961661517620085 -0.256749957799911  4.6613840822829e-05 0.000327908288454638  5.04634299431928e-05 0.000242839130805806 
 5.81878011871596e-05 0.000344235071679578  0.9849014878273 -0.154431164264679  0.000361758226063103 0.00125190091785043 
 5.36926563654562e-05 0.000258100393693895  0.000327711313730106 0.00124113727360964  0.984713792800902 -0.153854548931122 
217.34375  0.96047931909561 -0.260987877845764  5.38193780812436e-05 0.000293230055831373  5.43575733900071e-05 0.000215333711821586 
 6.80192752042786e-05 0.000305113993817941  0.985226809978484 -0.156967952847481  0.00021377245138865 0.00135649845469743 
 5.45275943295566e-05 0.000203910167329014  0.000190323684364558 0.00135283393319696  0.984891951084136 -0.15664042532444 
221.0625  0.960170805454253 -0.265499860048294  7.28449158486912e-05 0.000339270918630064  4.989278386347e-05 0.00021630764240399 
 9.27442088141108e-05 0.000324798602377997  0.984561204910277 -0.159331396222114  0.000179044858668931 0.00121118919923901 
 5.82510292588268e-05 0.000205238611670211  0.00017016418860294 0.00119789724703878  0.984343945980071 -0.159942641854286 
224.78125  0.958900094032286 -0.269624710083007  8.12324942671695e-05 0.000307124864775688  3.49662113876548e-05 0.00025306097813882 
 7.37210866645911e-05 0.000350061309291051  0.984306395053862 -0.161626845598221  0.000653597991913558 0.00117465294897556 
 5.3821822803002e-05 0.000286611641058699  0.000699356896802784 0.0012079271255061  0.984042227268218 -0.161816149950027 
228.5  0.957709252834319 -0.274736255407333  8.0205238191411e-05 0.000364913605153561  3.08772287098691e-05 0.000215665379073471 
 0.000117416762805078 0.000347478082403541  0.984031200408934 -0.165227219462394  0.000376600131858141 0.00139188056346029 
 1.5691866792622e-05 0.000237835993175395  0.000359019206371159 0.00138962955679744  0.983844399452208 -0.164149463176727 
232.21875  0.955031275749205 -0.282387167215347  7.7290605986491e-05 0.000335790653480218  6.29939167993144e-05 0.000245600327616558 
 6.815333472332e-05 0.000361785554559902  0.982733011245726 -0.170168355107307  0.0003646528639365 0.000938018667511644 
 4.60838600702119e-05 0.000232426638831385  0.00039436310180463 0.00090946152340621  0.981906712055205 -0.170007303357124 
235.9375  0.955125629901885 -0.282510340213775  9.43834165809678e-05 0.000364328589057551  6.04160632065033e-05 0.000263240333879367 
 3.65494488505647e-05 0.000366313441190869  0.981445133686064 -0.16920006275177  0.000703547964803876 0.000763215648476036 
 5.29967037437019e-05 0.000244560680584983  0.000718319730367513 0.000759280752390625  0.981880605220793 -0.169294446706772 
