! Matrix data file written by TouchstoneData, EPCOS AG
! FILENAME: "AA74A_WB.s3p"
! COMMENT: "(AA74A_X10Y9_WB.s3p) Epcos AG 11/14/2012 1:5"
! INFO: nport=3, nfreq=1601
! DATE: "Thu Dec  6 15:32:55 2012"
! USER: "Adrian Ma"
!
! port | pin | signal
! -----|-----|--------
!   1  |  1  |  IN
!   2  |  3  |  OUT_BAL
!   3  |  4  |  OUT_BAL
! --------------------
! 
# MHZ S RI R 50
! freq  reS11 imS11  reS12 imS12  reS13 imS13  ...
880  0.561552107334136 0.781084120273589  0.000166539626661688 -0.000675397459417583  5.76197671762203e-05 -2.69538504653611e-05 
0.000148756531416439 -0.000647209701128305  0.691450834274291 -0.701413989067077  4.15515096392483e-05 0.00040319049730897 
6.27281551714988e-05 -5.30291690665764e-05  6.85799968778157e-05 0.000404791760956869  0.691467702388762 -0.703495740890502 
881.0125  0.555506110191344 0.785115182399749  0.000153003871673718 -0.000630572088994087  5.52339552086779e-05 -6.38557758065873e-05 
0.000188912483281456 -0.000642818689811976  0.690096676349639 -0.701274693012237  0.00014163536252454 0.000499007699545474 
5.54703874513508e-05 -5.52740857528989e-05  0.00018401155830361 0.000495608139317484  0.690381169319152 -0.70296025276184 
882.025  0.548923254013061 0.788847982883452  0.000182390460395255 -0.000607869180385025  3.24871580232867e-05 -4.91223581775558e-05 
0.00019551235891413 -0.000578118953853847  0.68881857395172 -0.701794385910033  0.000255106075201184 0.000480949180200697 
7.82775314291941e-05 5.06129981658888e-06  0.000243483096710407 0.000458782073110343  0.689530014991759 -0.703120708465575 
883.0375  0.541746258735656 0.794787883758544  0.000238795342738741 -0.000606561196036638  5.54113248654177e-05 -5.42431953363122e-05 
0.000195304455701262 -0.000625995453447105  0.688859462738036 -0.702001273632049  0.000358153833076359 0.000434427609434352 
7.78237445047127e-05 -8.57915947563016e-05  0.000352175644366071 0.000460369890788571  0.689897894859313 -0.703470647335052 
884.05  0.535147428512572 0.79979234933853  0.000199556001462043 -0.000607539783231915  4.36691989307293e-05 -9.23505212995225e-05 
0.000212554194149562 -0.000591619755141438  0.688588738441466 -0.702561080455779  0.000298597937216983 0.000470358150778339 
-2.80941458186135e-06 -0.000114048314571847  0.00031148607376963 0.000468315411126242  0.689152002334594 -0.703763604164123 
885.0625  0.528585493564605 0.804350435733794  0.000249144592089579 -0.000618902791757138  1.46181373565924e-05 -4.79945410916117e-05 
0.000247695948928595 -0.00063354236772284  0.688747346401214 -0.703297913074492  0.000567029463127257 0.00021468463819474 
3.66481799574104e-05 -3.23539061355405e-05  0.000539349566679449 0.000188200720003806  0.688150763511657 -0.704197943210601 
886.075  0.522234022617339 0.808431923389434  0.000251494260737673 -0.000627286033704878  3.42663333867677e-05 -6.01922110945453e-05 
0.000246068666456268 -0.000606381800025703  0.688210189342498 -0.704226553440093  0.000355393334757537 0.000250070675974712 
9.16798308026047e-05 -7.66429293435068e-05  0.000360258301952855 0.000301813211990521  0.68708300590515 -0.70481652021408 
887.0875  0.515288114547729 0.812710881233214  0.000289475254248828 -0.000620783714111896  3.57237740900019e-06 -5.48379139218015e-05 
0.000294147786917166 -0.000638676690869035  0.687299251556396 -0.70456826686859  0.00054468441521749 0.000205816337256693 
5.77798055019231e-05 -7.57290836190806e-05  0.000540767970960588 0.000245975417783484  0.686643242835998 -0.706041157245635 
888.1  0.508214890956878 0.816898941993712  0.000280125852441416 -0.000650392204988749  -2.43042018155393e-06 -0.000102696474641562 
0.000301102583762259 -0.000656088057439776  0.686466872692107 -0.705129921436309  0.000462971016531811 3.07921873172746e-05 
3.19974105877919e-06 -0.000110034467070364  0.000453934975666926 2.29802099056542e-05  0.686185956001281 -0.70736801624298 
889.1125  0.501706600189208 0.820763707160949  0.000293633551336826 -0.000665888772346081  -7.40387768018992e-05 -0.000117874325951562 
0.000301844876958058 -0.000660325051285328  0.685809493064879 -0.705241203308104  0.00053032726282254 -0.000131992492242717 
-4.46711310360116e-05 -0.000102163139672484  0.000541702494956554 -0.000135122070787475  0.685585916042327 -0.708444774150847 
890.125  0.494850575923919 0.824923992156981  0.000348646193742753 -0.000700247765053065  -8.78843420650812e-05 -9.06753921299243e-05 
0.000329356902511791 -0.000671608897391708  0.685080289840697 -0.705979466438292  0.000538268534000964 -0.000204406169359573 
-7.16148933861406e-05 -7.07512590452099e-05  0.000546753930393608 -0.000200956055778079  0.684953331947326 -0.708539783954619 
891.1375  0.487814247608184 0.829076409339904  0.000314793927827851 -0.000748246966395529  -0.000107032094092574 -8.38935648062035e-06 
0.000284953508526087 -0.000713492743670942  0.684623420238494 -0.707086443901061  0.000370086723705754 -0.000428051862400026 
-6.88891304889695e-05 -2.72714423772414e-05  0.00035137837403454 -0.000412178458645941  0.683843851089477 -0.709054768085479 
892.15  0.481060624122619 0.832242727279662  0.000290673080598936 -0.000741370429750534  -9.74847062025221e-05 1.75509467226221e-05 
0.000282097869785503 -0.000734939356334509  0.683540225028991 -0.707794964313506  0.000157922768266872 -0.000621007755398752 
-5.83107394049876e-05 1.60724212037167e-05  0.000159737362992019 -0.000598012353293599  0.68286120891571 -0.709417223930358 
893.1625  0.473960548639297 0.83662313222885  0.000259950611507521 -0.000722593045793475  -0.000111427609226667 -1.16780620373902e-05 
0.000248845259193332 -0.000711694709025325  0.683085620403289 -0.708238005638122  0.000148839026223868 -0.000455026602139698 
-0.000118458236102015 1.73015178006608e-05  0.000139731477247551 -0.000490787206217648  0.682068824768066 -0.709598004817962 
894.175  0.466465264558792 0.840245902538298  0.000275500118732453 -0.000745376164559276  -8.09536577435212e-05 5.98798505961896e-05 
0.000268261617748067 -0.000738870818167926  0.682265639305114 -0.708563446998595  4.56095131085022e-06 -0.000641771475784482 
-8.14646482467653e-05 4.01559009333142e-05  -8.79586366409054e-07 -0.000649311114102603  0.681249499320983 -0.71007603406906 
895.1875  0.459104031324386 0.844228625297545  0.000223342896788382 -0.000719458039384337  -5.17321459483356e-05 5.53201643924696e-05 
0.000251807097811252 -0.000722451135516168  0.681592881679534 -0.70858198404312  -0.000354294024873526 -0.000652629765681924 
-7.86016535130331e-05 4.4582091504708e-05  -0.000332848576363177 -0.000649397261440755  0.681078732013702 -0.710373580455779 
896.2  0.452441245317458 0.848195791244506  0.000261552602751181 -0.000744999095331879  -7.78110406827183e-05 4.57099376944826e-05 
0.000218606015550904 -0.000779095746111126  0.680480360984801 -0.709706008434295  -0.000496563268825413 -0.00071124703390524 
-7.8998025855981e-05 4.3852491216967e-05  -0.000511022342834623 -0.000716761336661877  0.680176258087157 -0.711157202720641 
897.2125  0.44572827219963 0.852060854434966  0.000216480562812649 -0.000756467576138677  -0.000129663952975534 3.75811105186586e-05 
0.000222485788981431 -0.000712026783730836  0.679702103137969 -0.710468411445617  -0.00073003093712032 -0.000435394904343412 
-0.00012080686428817 7.71458580857144e-05  -0.000715331698302181 -0.000448613980552183  0.679290056228637 -0.712154448032378 
898.225  0.438244640827178 0.855398952960967  0.000207593780942262 -0.000690824468620123  -5.0149581511505e-05 7.82936040195638e-05 
0.000213386156246998 -0.000716037407983096  0.679067313671111 -0.711035966873168  -0.000735716021154078 -0.000504729279782624 
-4.82459254271817e-05 0.000100398923677858  -0.000766386569011958 -0.000502360169775785  0.679088950157165 -0.713162660598754 
899.2375  0.430804401636123 0.858724176883696  0.000200030452106148 -0.00072534993523732  -5.5214906751644e-05 0.000182817952008918 
0.000222047732677311 -0.000714550609700383  0.678276300430297 -0.711285233497619  -0.00104264356195926 -0.000220380345126614 
-6.69269211357461e-05 0.000154393361299299  -0.00102263910230249 -0.000248841708526016  0.678491175174712 -0.712372243404388 
900.25  0.423734158277511 0.863038539886473  0.000187447149073706 -0.000698839081451298  -3.25806940963958e-05 0.0001222573191626 
0.000170151455677115 -0.000723067612852903  0.677197694778442 -0.711612582206725  -0.00128326355479657 -0.000100904639111832 
-3.16985897370615e-05 0.000116835115477443  -0.00132615875918418 -0.000105857972812373  0.677627563476562 -0.71261954307556 
901.2625  0.416533261537551 0.866344273090361  0.000195186963537708 -0.000708065868820997  -3.26194058288821e-05 0.000138285977300257 
0.000213770734262653 -0.000700201082509012  0.676681220531463 -0.712511301040648  -0.0014520816039294 0.000131835957290605 
-2.14718347706367e-05 0.000148005696246401  -0.0014519109390676 0.000119440010166727  0.677067399024962 -0.713143110275268 
902.275  0.409299135208129 0.869320511817931  0.000161510528414511 -0.000675411720294507  1.29429672597326e-05 0.000127595063531772 
0.000152123539010063 -0.000678397424053402  0.676634669303893 -0.713237345218658  -0.00122053490485996 0.000626894587185235 
-8.06007119535935e-06 9.37759541557172e-05  -0.00120802479796111 0.00064366450533271  0.676729321479796 -0.713917434215545 
903.2875  0.402049630880355 0.872367084026336  0.000170459301443771 -0.000671458314172925  8.51565982884496e-06 0.000101308716693893 
0.000194445194210858 -0.000675978837534787  0.675802648067473 -0.714254140853881  -0.000864158791955562 0.000713207642547788 
1.48417284435709e-05 0.000149557061376982  -0.000853965873830022 0.000736578076612206  0.676758110523223 -0.714645028114318 
904.3  0.394288301467895 0.875443637371062  0.000164576704264619 -0.000672297494020314  -2.95830668619602e-05 0.000116189024993219 
0.000157876391313039 -0.000676592986565085  0.674625992774962 -0.715458989143371  -0.0014508853200823 0.000906107423361393 
-1.9163424440194e-05 0.000114219750685152  -0.00147476966958493 0.000887322472408416  0.674901545047759 -0.715363979339599 
905.3125  0.386748850345611 0.879173457622527  0.000194147723959759 -0.000621048500761391  2.25817402679241e-05 0.000144636826007627 
0.000232293008593843 -0.000623006199020894  0.67367649078369 -0.714963436126708  -0.00109049747698009 0.000998591654933991 
1.73464777617483e-05 0.000128031271742657  -0.00110259116627276 0.000999364652670922  0.673953294754027 -0.715273678302764 
906.325  0.378454506397247 0.88170039653778  0.000183020514668897 -0.000668230641167612  1.19816122605698e-05 0.000105534287285991 
0.000151878557517194 -0.000654406496323646  0.673746943473815 -0.715787112712859  -0.00076338922372088 0.00140961294528097 
4.07633160648403e-05 0.000139932904858142  -0.000766015611588957 0.00139595684595406  0.673339545726775 -0.715801894664763 
907.3375  0.370670914649963 0.885129630565642  0.000155656438437291 -0.000626045220997186  4.81644237879665e-05 0.000131208536913619 
0.000159057162818499 -0.000637386518064888  0.672940254211425 -0.716030538082122  -0.000677278556395324 0.00167893769685179 
1.92865973076551e-05 0.000115827882837039  -0.000694517861120404 0.00169338949490338  0.671968817710876 -0.715598762035369 
908.35  0.362670838832855 0.888967514038085  0.000154416789882817 -0.000584022025577725  6.24199601588772e-05 0.000141133670695126 
0.000150190695421771 -0.000568304792977871  0.672171115875243 -0.715678811073302  -0.000212874481803738 0.00229831389151513 
9.19446119951318e-06 0.000127902283566073  -0.000207068427698687 0.00234582275152206  0.671738147735595 -0.715045332908629 
909.3625  0.355051755905151 0.892310321331023  0.000157345188199543 -0.000587075483053924  -1.38792174766422e-05 0.000118336647574324 
0.000169802849995904 -0.000617799756582828  0.671948671340942 -0.71730625629425  0.000324573426041753 0.00165291549637913 
2.3724147467874e-05 0.00011083199933637  0.000315076002152637 0.0016416716389358  0.671651899814605 -0.716338276863097 
910.375  0.347814798355102 0.8956161737442  0.000176618297700771 -0.000571334036067129  1.8370656107436e-05 0.000177250098204241 
0.000171743871760555 -0.00057482795091346  0.671487569808959 -0.71810483932495  0.000654486299026759 0.00162767176516354 
6.79028598824517e-05 0.000148023915244267  0.000647304579615594 0.00164052459876984  0.671331822872161 -0.716999411582946 
911.3875  0.34067216515541 0.898422896862029  0.000165613892022521 -0.000616447359789164  2.15672716876725e-05 0.000158184469910339 
0.000176422181539238 -0.000583499437198044  0.670703649520873 -0.71821904182434  0.00072739733150229 0.00136396544985473 
5.11028301843909e-05 0.000145675177918747  0.000735680630896242 0.00134336890187114  0.670353770256042 -0.717744350433349 
912.4  0.333430975675582 0.901318371295928  0.000221911075641402 -0.000561758992262186  5.47497729712633e-05 0.000109364809759427 
0.000199052286916413 -0.000577944621909411  0.670837700366973 -0.719044864177703  0.000873668584972622 0.000928803056012841 
5.19228615303292e-06 9.85037986538375e-05  0.000886706169694664 0.000954569899477067  0.669464051723479 -0.718743979930877 
913.4125  0.326395809650421 0.903920114040374  0.000164443932590075 -0.000539678556378932  2.572315861471e-05 0.000115541173727252 
0.000156444861204364 -0.000565593538340182  0.670661568641662 -0.719382762908934  0.000579147366806866 0.00107159116305411 
2.88330375042279e-05 0.000114550843136385  0.000599437160417439 0.00108359474688768  0.668120503425597 -0.719128847122191 
914.425  0.319071561098098 0.906945705413817  0.000172390209627338 -0.000498565728776158  4.36729205830489e-05 0.000135522146592848 
0.000168981146998704 -0.000516196305397899  0.669938683509826 -0.720646440982818  0.0010209382744506 0.00117898301687091 
3.25257715303451e-05 0.000145025667734444  0.00100787333212793 0.0011947836028412  0.668225288391112 -0.719271004199981 
915.4375  0.311930567026138 0.909746289253234  0.000188393576536328 -0.000563499459531159  5.53681966266596e-05 0.00013748521450907 
0.000204029071028345 -0.000573338591493667  0.668968498706817 -0.721263647079467  0.00148804730270058 0.000800192705355586 
5.59310356038624e-05 0.000145152836921625  0.00147965864744037 0.000822142756078394  0.667555272579192 -0.72003024816513 
916.45  0.304012238979339 0.911608040332793  0.000169148901477456 -0.000537018175236882  5.80106097913814e-05 0.000106241619505454 
0.000186477307579481 -0.00054169906070456  0.66764485836029 -0.721518754959106  0.00172389589715749 6.13642769167201e-05 
4.0467504732078e-05 0.000124208352644928  0.00172834855038672 7.66280572861434e-05  0.666970491409301 -0.720252215862273 
917.4625  0.296064376831054 0.913445830345152  0.000226693155127578 -0.000502594630233945  4.93093575641979e-05 8.8012922788039e-05 
0.000215060805203394 -0.000494032807182522  0.667103111743926 -0.722085833549498  0.00161001295782625 -3.08739217871335e-05 
2.89373801933835e-05 8.69363648234868e-05  0.00156680168583989 -4.80306589452085e-05  0.666274905204772 -0.721278011798858 
918.475  0.288158804178238 0.915401577949523  0.000205844276933931 -0.000501871982123704  7.5907082646154e-05 0.000116153823910281 
0.000214487765333616 -0.000504876661580057  0.666635811328887 -0.722263991832732  0.00113546184729784 -0.000558341387659312 
7.39497627364473e-05 0.000107316976937  0.00111774739343673 -0.000559278356377037  0.666053235530852 -0.72193682193756 
919.4875  0.279958099126815 0.917940497398375  0.000222912800381892 -0.000490038306452335  7.6861630077474e-05 7.62887721066364e-05 
0.000204429801669904 -0.000501603994052858  0.666449725627898 -0.722583770751952  0.000858496816363188 -0.000733440916519614 
5.87448266742286e-05 7.66629673307763e-05  0.000860574829857798 -0.000743810553103687  0.665659308433532 -0.722272932529448 
920.5  0.272348374128341 0.920782506465911  0.000269275333266706 -0.000471614039270208  3.21300431096461e-05 7.29639432393016e-05 
0.000242524474742823 -0.000472333311336116  0.666057348251342 -0.723664224147796  0.000710261345375331 -0.000467359204776586 
3.64540101145395e-05 6.37482226011344e-05  0.000703141326084734 -0.000480868242448197  0.66503882408142 -0.723353564739226 
921.5125  0.264600723981857 0.922990262508391  0.000251811259659008 -0.000461187068140135  4.56156594736968e-05 8.56550395837986e-05 
0.000257653708104045 -0.000484287913423033  0.665618538856505 -0.724448561668395  0.000834031263366343 -0.000699202530086042 
-8.22412744128084e-07 6.8563829699997e-05  0.0008824301767163 -0.000708185718394818  0.664112091064452 -0.723755419254302 
922.525  0.256575375795364 0.925333917140959  0.000274490332230926 -0.000485169060993941  1.53353739733575e-05 5.37048217665871e-05 
0.000296526734018699 -0.000464508600998671  0.664951682090758 -0.724742650985717  0.000322398525895552 -0.000757618516217919 
9.10105063667289e-06 7.13054250809365e-05  0.00032530602766201 -0.000762282754294576  0.663762867450713 -0.724369823932647 
923.5375  0.249071910977363 0.927656114101409  0.000280348584055901 -0.00048541050637141  -1.07606792880688e-05 5.01261274621357e-05 
0.000278501393040643 -0.000484913587570192  0.66403168439865 -0.725860178470611  0.000247757678152994 -0.00104048638604581 
-1.42654162118561e-05 8.14687373349445e-05  0.000253516918746755 -0.00104121945332736  0.662864327430724 -0.724356412887572 
924.55  0.24146781861782 0.929919600486754  0.000292726530460641 -0.000510883110109718  -1.95570428331849e-05 3.67624816135504e-05 
0.000275957252597437 -0.000496751163154842  0.663519263267516 -0.726495802402495  -8.80697189131753e-05 -0.000940306519623848 
-1.56525095462712e-06 4.18071394960862e-05  -0.000106230967503507 -0.000956305710133167  0.662144422531127 -0.724826097488402 
925.5625  0.233746737241745 0.9314147233963  0.000266423914581538 -0.000539993983693422  -9.18016667128542e-05 6.40927537460813e-05 
0.000292077893391252 -0.000542717461939902  0.662992000579833 -0.726810872554778  -0.000404822814743967 -0.000902031024452301 
-5.00501118949615e-05 6.56500851619059e-05  -0.000410713022574783 -0.000884476234205069  0.661502003669738 -0.725419461727141 
926.575  0.226495876908302 0.932819664478301  0.000298443163046614 -0.00050021754577756  -0.000105977953353431 7.18177907401697e-05 
0.000294550030957908 -0.000483776821056382  0.661764502525329 -0.727467298507689  -0.000347978057106958 -0.000763615185860546 
-9.36572687351147e-05 5.81535787205213e-05  -0.000337032484821976 -0.000795181666035207  0.660326123237609 -0.72560429573059 
927.5875  0.218405321240425 0.934541225433348  0.000242214169702493 -0.000552389305084945  -0.000123895486467518 0.00012372134369798 
0.00025527470279485 -0.000553973484784366  0.660877287387847 -0.727263450622558  -0.000789990590419622 -0.000737673195544632 
-0.000136642964207568 0.00012697366764769  -0.000799989968072625 -0.000770276354160162  0.660306394100188 -0.726415336132048 
928.6  0.209834679961204 0.935517132282256  0.000234735474805348 -0.00050907547120005  -0.000105901264760178 0.000111250446934719 
0.000260347645962611 -0.000500479131005706  0.660519540309905 -0.727994322776793  -0.000600991072133185 -0.000312293821480126 
-0.000127201710711234 0.000112350055132993  -0.000638900324702264 -0.000322195730404929  0.659326553344726 -0.72672027349472 
929.6125  0.201836988329887 0.936841785907744  0.000233209852012806 -0.000581418105866761  -0.000135272144689225 0.000139163210405968 
0.000226314601604827 -0.000553910271264614  0.660227715969085 -0.727615535259246  -0.000730990373995157 -0.000169274280779064 
-0.000140768039273098 0.000147529397509061  -0.000748450460378082 -0.000147083308547736  0.659176170825957 -0.72646403312683 
930.625  0.193761110305786 0.9382866024971  0.000247208517976106 -0.00050661514978856  -0.000169869439559989 0.000191177154192701 
0.000240073015447706 -0.00050372479017824  0.660512208938598 -0.728688001632689  -0.000677908654324712 -0.000183873344212771 
-0.000153643239173107 0.000186845762073063  -0.000672033173032106 -0.000224238930968568  0.659209966659545 -0.727352499961852 
