! Matrix data file written by TouchstoneData, EPCOS AG
! FILENAME: "AA53A_2_05_NB.snp"
! COMMENT: "(TS/AA53A_2_05_NB.s3p) Epcos AG 2/1/2013 3:4"
! INFO: nport=3, nfreq=1601
! DATE: "Wed Mar  6 16:55:05 2013"
! USER: "Wee Chuan Tay"
!
! port | pin | signal
! -----|-----|--------
!   1  |  1  |  Input
!   2  |  3  |  Output
!   3  |  4  |  Output
! --------------------
! 
# MHZ S RI R 50
! freq  reS11 imS11  reS12 imS12  reS13 imS13  ...
740  0.0545859672129153 -0.980748593807219  -0.000758906971896069 -0.00015525318303844  -0.000623855623416604 -0.00011808811541414 
-0.000758906971896069 -0.00015525318303844  0.350382357835769 -0.9127779006958  -0.00457308464683591 0.00223095284309238 
-0.000623855623416604 -0.00011808811541414  -0.00457308464683591 0.00223095284309238  0.353386580944061 -0.91154772043228 
740.253125  0.0539889037609099 -0.98084783554077  -0.000763576623285191 -0.000233578852203209  -0.000648271932732315 -0.000171003492141609 
-0.000763576623285191 -0.000233578852203209  0.349650472402572 -0.912216186523436  -0.00440584775060414 0.00311316014267504 
-0.000648271932732315 -0.000171003492141609  -0.00440584775060414 0.00311316014267504  0.353400409221649 -0.911573410034178 
740.50625  0.0532089658081531 -0.980546474456786  -0.000860805710544811 -0.000223935319809243  -0.000715917412890123 -0.000184553733561189 
-0.000860805710544811 -0.000223935319809243  0.350486189126968 -0.912487506866454  -0.00326035835314542 0.00284569093491881 
-0.000715917412890123 -0.000184553733561189  -0.00326035835314542 0.00284569093491881  0.353378921747207 -0.912559747695922 
740.759375  0.0525520145893096 -0.979997754096984  -0.000845706905238333 -0.000187008459761273  -0.000719865289283918 -0.0001406238443451 
-0.000845706905238333 -0.000187008459761273  0.349692076444625 -0.913550257682799  -0.00347245391458273 0.00228495011106133 
-0.000719865289283918 -0.0001406238443451  -0.00347245391458273 0.00228495011106133  0.35213303565979 -0.913440942764281 
741.0125  0.0520697981119155 -0.98022550344467  -0.00083521817578003 -0.000190164493687917  -0.00073546954081394 -0.000169924474903383 
-0.00083521817578003 -0.000190164493687917  0.348517268896102 -0.913721859455107  -0.00373982451856136 0.00258500874042511 
-0.00073546954081394 -0.000169924474903383  -0.00373982451856136 0.00258500874042511  0.350776612758636 -0.913634181022643 
741.265625  0.0513706915080546 -0.979983925819396  -0.000825137889478357 -0.000237876825849526  -0.000722047552699225 -0.000191043080121745 
-0.000825137889478357 -0.000237876825849526  0.347359269857406 -0.913394033908843  -0.00413869228214024 0.00350144738331437 
-0.000722047552699225 -0.000191043080121745  -0.00413869228214024 0.00350144738331437  0.349687725305557 -0.912973105907439 
741.51875  0.0505665503442287 -0.980012714862822  -0.000935918040340768 -0.000252332247328014  -0.000757516216253864 -0.000162561351316981 
-0.000935918040340768 -0.000252332247328014  0.348325967788696 -0.912320256233214  -0.00248352705966681 0.00461421580985187 
-0.000757516216253864 -0.000162561351316981  -0.00248352705966681 0.00461421580985187  0.350209325551986 -0.912339448928832 
741.771875  0.0494141392409801 -0.979873299598692  -0.000903575535630809 -0.000206182419788093  -0.000737177557311954 -0.000168603102792986 
-0.000903575535630809 -0.000206182419788093  0.348034769296646 -0.913716375827788  -0.00170814362354577 0.00384362798649816 
-0.000737177557311954 -0.000168603102792986  -0.00170814362354577 0.00384362798649816  0.349930673837661 -0.912879168987273 
742.025  0.0483191981911658 -0.979279339313506  -0.000918699399335312 -0.000216620297578629  -0.000774577492848041 -0.000205298696528189 
-0.000918699399335312 -0.000216620297578629  0.347556352615356 -0.914012014865874  -0.00140167225617915 0.00355424266308545 
-0.000774577492848041 -0.000205298696528189  -0.00140167225617915 0.00355424266308545  0.349746495485305 -0.912840962409972 
742.278125  0.0474086068570613 -0.978493750095366  -0.00101965718204155 -0.000242427369812504  -0.000864609086420389 -0.000210769139812328 
-0.00101965718204155 -0.000242427369812504  0.346947431564331 -0.914081275463103  -0.000892648531589659 0.00356796372216194 
-0.000864609086420389 -0.000210769139812328  -0.000892648531589659 0.00356796372216194  0.349084675312042 -0.91310828924179 
742.53125  0.0471102558076381 -0.977476179599761  -0.00101279630325734 -0.000149732579302508  -0.000883002532646062 -0.000145651763887145 
-0.00101279630325734 -0.000149732579302508  0.346390485763549 -0.915475845336913  -0.000528847740497441 0.00272340222727507 
-0.000883002532646062 -0.000145651763887145  -0.000528847740497441 0.00272340222727507  0.348948210477828 -0.913566827774047 
742.784375  0.0467964224517345 -0.976993560791014  -0.000962736929068344 -9.69576431089082e-05  -0.000835208949865775 -0.000101072717370699 
-0.000962736929068344 -9.69576431089082e-05  0.345220118761062 -0.915630280971526  -0.000620318547589705 0.00274666864424943 
-0.000835208949865775 -0.000101072717370699  -0.000620318547589705 0.00274666864424943  0.348271638154983 -0.913398802280425 
743.0375  0.0467699244618415 -0.976219236850737  -0.000918007513973864 -0.000118621988804079  -0.000773390871472658 -0.000129240652313457 
-0.000918007513973864 -0.000118621988804079  0.344335943460464 -0.915410339832305  -0.000427338149165736 0.00252156297210603 
-0.000773390871472658 -0.000129240652313457  -0.000427338149165736 0.00252156297210603  0.348028630018234 -0.913987159729003 
743.290625  0.046189572662115 -0.975908577442168  -0.000984829850494864 -0.000180390845343937  -0.000804356357548388 -0.000153614608279895 
-0.000984829850494864 -0.000180390845343937  0.344732552766799 -0.915255248546599  -0.000178546353708953 0.00256456411443651 
-0.000804356357548388 -0.000153614608279895  -0.000178546353708953 0.00256456411443651  0.347483068704605 -0.914341509342192 
743.54375  0.0468671917915343 -0.975466310977934  -0.000961313431616875 -0.000128823121485766  -0.000834784295875581 -0.000137962888402399 
-0.000961313431616875 -0.000128823121485766  0.343908190727233 -0.915849089622496  0.000137479852128308 0.00246425298973917 
-0.000834784295875581 -0.000137962888402399  0.000137479852128308 0.00246425298973917  0.3467398583889 -0.914841175079344 
743.796875  0.0463378727436065 -0.975975692272185  -0.000933029426960277 -0.000167818492627703  -0.000851794349728154 -0.000153232584125363 
-0.000933029426960277 -0.000167818492627703  0.342871785163879 -0.91612535715103  0.000488121557282285 0.00190722045954317 
-0.000851794349728154 -0.000153232584125363  0.000488121557282285 0.00190722045954317  0.346065461635589 -0.915217757225035 
744.05  0.0452372469007968 -0.97576069831848  -0.000955854542553427 -0.000202442359295674  -0.000865681329742076 -0.000183845826541074 
-0.000955854542553427 -0.000202442359295674  0.342565059661865 -0.915271520614623  0.00059417891316116 0.00158790487330407 
-0.000865681329742076 -0.000183845826541074  0.00059417891316116 0.00158790487330407  0.345607846975326 -0.914999425411223 
744.303125  0.0449890755116939 -0.974727869033812  -0.000969575019553306 -0.000188444959349  -0.000855261081596839 -0.000171838051755913 
-0.000969575019553306 -0.000188444959349  0.342936336994171 -0.91539031267166  0.000159134360728786 0.00118654599646106 
-0.000855261081596839 -0.000171838051755913  0.000159134360728786 0.00118654599646106  0.345591336488723 -0.915606260299681 
744.55625  0.0455696731805801 -0.974557995796202  -0.000990545086096974 -0.000184481563337613  -0.00081564227002673 -0.000164277334988583 
-0.000990545086096974 -0.000184481563337613  0.342133849859237 -0.916285157203673  0.000158733186253812 0.0015023318119347 
-0.00081564227002673 -0.000164277334988583  0.000158733186253812 0.0015023318119347  0.344336718320846 -0.916025400161742 
744.809375  0.0456402078270911 -0.974371552467345  -0.000995485403109344 -0.000217074426473119  -0.000880035717273133 -0.000297961480100639 
-0.000995485403109344 -0.000217074426473119  0.341387629508972 -0.91665208339691  0.000376631433027798 0.00170435104519128 
-0.000880035717273133 -0.000297961480100639  0.000376631433027798 0.00170435104519128  0.344235956668853 -0.914585769176482 
745.0625  0.0468265041708945 -0.974380254745482  -0.00102863763459027 -0.000243675414822065  -0.00100509903859347 -0.000297427090117708 
-0.00102863763459027 -0.000243675414822065  0.340916991233825 -0.91644525527954  0.000996547983959319 0.0015865332679823 
-0.00100509903859347 -0.000297427090117708  0.000996547983959319 0.0015865332679823  0.345369607210159 -0.915529131889342 
745.315625  0.047518029808998 -0.97527378797531  -0.00105641596019268 -0.000227726806770079  -0.00103733711875975 -0.00022168406576384 
-0.00105641596019268 -0.000227726806770079  0.340780138969421 -0.916716337203978  0.0013301718281582 0.0011666459031403 
-0.00103733711875975 -0.00022168406576384  0.0013301718281582 0.0011666459031403  0.345267832279205 -0.917302191257476 
745.56875  0.0477514117956161 -0.976664066314696  -0.00107098201988265 -0.000243511596636381  -0.00104546034708619 -0.000201812072191388 
-0.00107098201988265 -0.000243511596636381  0.339566051959991 -0.917081177234648  0.00150406651664525 0.000659581797663124 
-0.00104546034708619 -0.000201812072191388  0.00150406651664525 0.000659581797663124  0.343651741743087 -0.917877852916716 
745.821875  0.0465775355696677 -0.977565884590148  -0.0011319140321575 -0.000267144801910036  -0.00111970194848254 -0.00021617571474053 
-0.0011319140321575 -0.000267144801910036  0.33898988366127 -0.917062938213347  0.00168856681557372 0.000392516973079183 
-0.00111970194848254 -0.00021617571474053  0.00168856681557372 0.000392516973079183  0.343293964862823 -0.917412161827086 
746.075  0.0457509160041808 -0.978143036365508  -0.00118262291653081 -0.000214075997064356  -0.0011862416868098 -0.000108547643321799 
-0.00118262291653081 -0.000214075997064356  0.339150547981262 -0.917104184627532  0.00169185741106048 -0.000380239638616331 
-0.0011862416868098 -0.000108547643321799  0.00169185741106048 -0.000380239638616331  0.34330803155899 -0.917704641818999 
746.328125  0.044886291027069 -0.978963553905486  -0.00119203294161707 -0.000182528310688213  -0.00113530835369601 -6.37705270492007e-05 
-0.00119203294161707 -0.000182528310688213  0.338542759418487 -0.917079389095305  0.00129202683456241 -0.000608123198617251 
-0.00113530835369601 -6.37705270492007e-05  0.00129202683456241 -0.000608123198617251  0.342789441347122 -0.918167173862456 
746.58125  0.0433968529105186 -0.979324460029601  -0.00122625939548016 -0.000168874918017537  -0.00109143339795991 -4.69854803668569e-05 
-0.00122625939548016 -0.000168874918017537  0.338059902191162 -0.917757630348204  0.0015124959172681 -0.000684879894834014 
-0.00109143339795991 -4.69854803668569e-05  0.0015124959172681 -0.000684879894834014  0.341883540153503 -0.918247878551482 
746.834375  0.042302519083023 -0.978867769241332  -0.00122543424367904 -0.000149498533573933  -0.00109956110827624 -3.37186484102859e-05 
-0.00122543424367904 -0.000149498533573933  0.33753216266632 -0.917582511901854  0.00134531338699161 -0.00143747532274573 
-0.00109956110827624 -3.37186484102859e-05  0.00134531338699161 -0.00143747532274573  0.341429233551025 -0.918134093284606 
747.0875  0.0415577627718448 -0.978153705596922  -0.00126568839186802 -0.000142325909109786  -0.00110940623562782 -2.44444481722895e-05 
-0.00126568839186802 -0.000142325909109786  0.337306380271911 -0.917486488819121  0.00106036232318729 -0.0014863075921312 
-0.00110940623562782 -2.44444481722895e-05  0.00106036232318729 -0.0014863075921312  0.340999245643615 -0.918511748313902 
747.340625  0.0409200116991996 -0.978489995002745  -0.00126891926629468 -6.98928924975918e-05  -0.00115208141505718 -1.75823270183173e-05 
-0.00126891926629468 -6.98928924975918e-05  0.336712211370468 -0.91831737756729  0.00125967868370935 -0.00184501172043382 
-0.00115208141505718 -1.75823270183173e-05  0.00125967868370935 -0.00184501172043382  0.33982640504837 -0.918211460113524 
747.59375  0.0399868600070476 -0.978359639644622  -0.00133290863595902 -0.000108339088910725  -0.00110751227475703 7.47649028198795e-05 
-0.00133290863595902 -0.000108339088910725  0.33668115735054 -0.917876422405242  0.000815457518910991 -0.00267331069335341 
-0.00110751227475703 7.47649028198795e-05  0.000815457518910991 -0.00267331069335341  0.339757353067398 -0.918001830577849 
747.846875  0.0393819771707057 -0.977390348911284  -0.00135229813167825 -6.96574176117795e-06  -0.00102903472725302 4.08130490541226e-05 
-0.00135229813167825 -6.96574176117795e-06  0.33682245016098 -0.917999982833861  5.88121274631704e-05 -0.00286270934157073 
-0.00102903472725302 4.08130490541226e-05  5.88121274631704e-05 -0.00286270934157073  0.339604765176773 -0.917839169502257 
748.1  0.0398007109761237 -0.977247238159178  -0.00134256883757188 4.60531209682813e-05  -0.00105644960422069 -4.27506784035359e-05 
-0.00134256883757188 4.60531209682813e-05  0.336572736501693 -0.919206976890563  -0.000373228278476746 -0.00247192266397177 
-0.00105644960422069 -4.27506784035359e-05  -0.000373228278476746 -0.00247192266397177  0.339416295289993 -0.918263494968413 
748.353125  0.0392745733261108 -0.97779071331024  -0.00127130519831553 5.59292802790879e-05  -0.00116273429011926 -5.83849596296205e-05 
-0.00127130519831553 5.59292802790879e-05  0.335048377513885 -0.919159054756163  -0.000148699262354058 -0.00255412620026617 
-0.00116273429011926 -5.83849596296205e-05  -0.000148699262354058 -0.00255412620026617  0.338723629713058 -0.91818457841873 
748.60625  0.0390648916363715 -0.977917075157164  -0.00129591504810378 7.40012583264617e-05  -0.00117140816291794 6.05822206125596e-05 
-0.00129591504810378 7.40012583264617e-05  0.334632515907287 -0.91802030801773  -0.000707144703483211 -0.0033705981913954 
-0.00117140816291794 6.05822206125596e-05  -0.000707144703483211 -0.0033705981913954  0.338565319776535 -0.918071746826171 
748.859375  0.0384880453348159 -0.978315830230712  -0.00128062686417252 0.000118256688438123  -0.00117190065793693 9.23765546758661e-05 
-0.00128062686417252 0.000118256688438123  0.335323840379714 -0.918816566467284  -0.00165916542755439 -0.00266525242477655 
-0.00117190065793693 9.23765546758661e-05  -0.00165916542755439 -0.00266525242477655  0.338594645261764 -0.9185152053833 
749.1125  0.0375418029725551 -0.978379070758818  -0.00125443784054368 0.000152503474964761  -0.00114353897515684 5.73899087612519e-05 
-0.00125443784054368 0.000152503474964761  0.333918362855911 -0.919468283653258  -0.00136096240021288 -0.00223906873725354 
-0.00114353897515684 5.73899087612519e-05  -0.00136096240021288 -0.00223906873725354  0.337362915277481 -0.919035971164702 
749.365625  0.0366853177547454 -0.978455245494841  -0.00119133933912962 0.000165742319950368  -0.00119593163253739 8.4466544649331e-05 
-0.00119133933912962 0.000165742319950368  0.333282470703125 -0.919263660907744  -0.00124103360576555 -0.00246301933657377 
-0.00119593163253739 8.4466544649331e-05  -0.00124103360576555 -0.00246301933657377  0.336466908454895 -0.918815433979033 
749.61875  0.0361988954246044 -0.977866411209105  -0.00120343646267429 0.000121783286886057  -0.00122190604452044 0.000140249110700098 
-0.00120343646267429 0.000121783286886057  0.332781583070755 -0.91933625936508  -0.00133071275195106 -0.00271444802638143 
-0.00122190604452044 0.000140249110700098  -0.00133071275195106 -0.00271444802638143  0.335806101560592 -0.91856950521469 
749.871875  0.0359543673694133 -0.977222740650176  -0.00119927199557423 0.000152958324179053  -0.00119228241965174 0.00020130036136834 
-0.00119927199557423 0.000152958324179053  0.332544445991516 -0.919394075870513  -0.00208804488647728 -0.00311236653942614 
-0.00119228241965174 0.00020130036136834  -0.00208804488647728 -0.00311236653942614  0.335518926382064 -0.917984127998351 
750.125  0.0360134243965148 -0.976181864738463  -0.00125274050515144 0.000168757112987805  -0.00116387859452515 0.000263833193457686 
-0.00125274050515144 0.000168757112987805  0.332660317420959 -0.919901251792906  -0.0027053685626015 -0.0025411961833015 
-0.00116387859452515 0.000263833193457686  -0.0027053685626015 -0.0025411961833015  0.335708290338516 -0.918157041072844 
750.378125  0.0374817959964275 -0.976212084293364  -0.00115208147326484 0.000242418958805502  -0.00115001946687698 0.000257071689702571 
-0.00115208147326484 0.000242418958805502  0.332011699676513 -0.920229494571684  -0.00286540552042424 -0.00223772402387112 
-0.00115001946687698 0.000257071689702571  -0.00286540552042424 -0.00223772402387112  0.334998220205307 -0.918247461318968 
750.63125  0.0382823757827281 -0.977164268493651  -0.00111924909288064 0.00016254403453786  -0.00111821893369779 0.000307808091747575 
-0.00111924909288064 0.00016254403453786  0.331147849559784 -0.92070561647415  -0.00290698173921555 -0.00184950063703581 
-0.00111821893369779 0.000307808091747575  -0.00290698173921555 -0.00184950063703581  0.334724724292755 -0.91857749223709 
750.884375  0.0379686206579208 -0.978167712688445  -0.00117398874135688 0.000144010453368537  -0.00108251109486446 0.000304192813928239 
-0.00117398874135688 0.000144010453368537  0.330402970314025 -0.920759975910186  -0.00294728076551109 -0.00154321250738576 
-0.00108251109486446 0.000304192813928239  -0.00294728076551109 -0.00154321250738576  0.334101378917694 -0.918880164623259 
751.1375  0.0373391769826412 -0.978791177272795  -0.00119883444858715 0.000163571734447032  -0.00103099353145808 0.000305859313812107 
-0.00119883444858715 0.000163571734447032  0.329593896865844 -0.920999705791472  -0.00286708737257868 -0.00139473675517365 
-0.00103099353145808 0.000305859313812107  -0.00286708737257868 -0.00139473675517365  0.332991302013397 -0.918936431407927 
751.390625  0.0362389273941516 -0.979256987571715  -0.0011805499671027 0.000261965673416853  -0.000972179783275353 0.000358538731234149 
-0.0011805499671027 0.000261965673416853  0.328849852085113 -0.920921564102172  -0.00275434262584894 -0.0011924029677175 
-0.000972179783275353 0.000358538731234149  -0.00275434262584894 -0.0011924029677175  0.332371890544891 -0.918811738491057 
751.64375  0.0357245877385139 -0.979691624641417  -0.00110707525163889 0.00021273007587297  -0.000924595107790085 0.000227139724302107 
-0.00110707525163889 0.00021273007587297  0.328453242778778 -0.920883297920226  -0.00281026354059577 -0.00129770784405992 
-0.000924595107790085 0.000227139724302107  -0.00281026354059577 -0.00129770784405992  0.332260221242904 -0.918749749660491 
751.896875  0.0344089493155479 -0.97986614704132  -0.0011177352280356 0.000211579259485006  -0.00100876507349312 0.00023147305182647 
-0.0011177352280356 0.000211579259485006  0.327719718217849 -0.921048879623412  -0.00298782892059534 -0.000957962707616391 
-0.00100876507349312 0.00023147305182647  -0.00298782892059534 -0.000957962707616391  0.331731617450714 -0.91929394006729 
752.15  0.034104824066162 -0.979857563972472  -0.00112189719220624 0.000201535985979718  -0.000995538372080776 0.000317773388815113 
-0.00112189719220624 0.000201535985979718  0.326988160610198 -0.920715391635894  -0.00269562855828553 -0.000720793526852505 
-0.000995538372080776 0.000317773388815113  -0.00269562855828553 -0.000720793526852505  0.330946624279022 -0.919789254665374 
752.403125  0.0332295261323451 -0.98017257452011  -0.00113721715752035 0.000226156313146931  -0.000953848735662179 0.00034591268922668 
-0.00113721715752035 0.000226156313146931  0.326893806457519 -0.919872760772704  -0.0025855911662802 -0.000882535445271062 
-0.000953848735662179 0.00034591268922668  -0.0025855911662802 -0.000882535445271062  0.330525666475296 -0.9199041724205 
752.65625  0.0324137024581432 -0.980420172214507  -0.00105955899925902 0.000232204482017551  -0.000844255671836438 0.000338496756739915 
-0.00105955899925902 0.000232204482017551  0.326951473951339 -0.920299232006072  -0.00258674204815179 -0.000722533935913818 
