! Matrix data file written by TouchstoneData, EPCOS AG
! FILENAME: "B4325_NB.s2p"
! COMMENT: "(B4325_X10Y11_NB.s2p) Epcos AG 2/1/2013 3:53"
! INFO: nport=2, nfreq=1601
! DATE: "Wed Mar 27 10:36:29 2013"
! USER: "Rosemary Xue"
!
! port | pin | signal
! -----|-----|--------
!   1  |  1  |  IN
!   2  |  4  |  OUT
! --------------------
! 
# MHZ S RI R 50
! freq  reS11 imS11  reS21 imS21  reS12 imS12  reS22 imS22
1272  -0.43293496966362 -0.858124256134033  0.0119947465136647 -0.003509167348966  0.0119791831821203 -0.00351547263562679  -0.230209589004517 -0.933697819709778 
1272.25  -0.43292424082756 -0.858061790466309  0.0118583701550961 -0.00352061702869833  0.011850206181407 -0.00353312911465764  -0.230905711650848 -0.933875262737274 
1272.5  -0.433640599250793 -0.858779788017273  0.0117639824748039 -0.00372810754925013  0.0117613030597568 -0.0037358661647886  -0.231684356927872 -0.933804094791412 
1272.75  -0.434818714857101 -0.8584965467453  0.0115002132952213 -0.00373034877702594  0.0114787919446826 -0.00374101754277945  -0.232351705431938 -0.933689177036285 
1273  -0.43549183011055 -0.858237504959106  0.011373370885849 -0.00353923509828746  0.0113817723467946 -0.00356861809268594  -0.233040615916252 -0.933451175689697 
1273.25  -0.436075329780579 -0.858143866062164  0.0115241650491953 -0.00346261053346097  0.0114980479702353 -0.00348738231696188  -0.233315795660019 -0.932942092418671 
1273.5  -0.436892509460449 -0.857756674289703  0.0115765277296305 -0.00363656622357666  0.0115731209516525 -0.00367518258281052  -0.23384901881218 -0.933181345462799 
1273.75  -0.437201738357544 -0.857241630554199  0.011491478420794 -0.00372692220844328  0.0114872865378857 -0.00373483239673078  -0.234259366989136 -0.933041393756866 
1274  -0.437892585992813 -0.857373476028442  0.0114656137302518 -0.00381894363090396  0.0114350542426109 -0.00385081069543958  -0.234818950295448 -0.932832539081573 
1274.25  -0.438415348529816 -0.857070863246918  0.0113549781963229 -0.00386126968078315  0.0113466335460544 -0.00390020804479718  -0.235300630331039 -0.932865798473358 
1274.5  -0.439202070236206 -0.856957018375397  0.0112197455018759 -0.00388632970862091  0.0111997686326504 -0.00391376065090299  -0.236221760511398 -0.933236002922058 
1274.75  -0.440002471208572 -0.856532216072083  0.0111966263502836 -0.00384092004969716  0.0111748101189733 -0.00389366876333952  -0.236882954835892 -0.932907044887543 
1275  -0.440702795982361 -0.856261193752289  0.0111479312181473 -0.00391528801992536  0.0111458711326122 -0.00392033066600561  -0.237640187144279 -0.933071613311768 
1275.25  -0.441393047571182 -0.855916738510132  0.0110536068677902 -0.00392908370122313  0.0110420472919941 -0.00393686955794692  -0.238470271229744 -0.932887554168701 
1275.5  -0.441675841808319 -0.855440855026245  0.0109350802376866 -0.00388056668452919  0.0109564298763871 -0.00388145516626537  -0.238785728812218 -0.932531177997589 
1275.75  -0.442385107278824 -0.855046033859253  0.010943996720016 -0.00376377371139824  0.0109611796215177 -0.0037671416066587  -0.239267557859421 -0.931961476802826 
1276  -0.442635416984558 -0.854544401168823  0.0110584637150168 -0.00374978710897267  0.011064731515944 -0.00374314887449145  -0.239268973469734 -0.931971490383148 
1276.25  -0.442867010831833 -0.853880941867828  0.0111075295135379 -0.00384362530894578  0.0111222956329584 -0.00382284843362868  -0.239654794335365 -0.932056725025177 
1276.5  -0.443269193172455 -0.853849470615387  0.0110854608938098 -0.00389339844696224  0.0110732112079859 -0.00391690246760845  -0.240076079964638 -0.931766748428345 
1276.75  -0.443658620119095 -0.85327410697937  0.0110367955639958 -0.00399319920688868  0.0110568003728986 -0.00399843975901604  -0.240561738610268 -0.93214350938797 
1277  -0.443850457668304 -0.853106617927551  0.0109992753714323 -0.00404095510020852  0.0110141225159168 -0.004051698371768  -0.241164311766624 -0.931877911090851 
1277.25  -0.44402602314949 -0.853025257587433  0.0109071182087064 -0.00410463288426399  0.0109370462596416 -0.00407861173152924  -0.241886705160141 -0.931793808937073 
1277.5  -0.444804042577744 -0.852723002433777  0.0108131766319275 -0.00413970230147243  0.0108441114425659 -0.0041255634278059  -0.242062345147133 -0.931566774845123 
1277.75  -0.444976627826691 -0.852260291576385  0.0107124513015151 -0.00409344304352999  0.0107494369149208 -0.00408742437139153  -0.242576345801353 -0.93146139383316 
1278  -0.445290774106979 -0.852023124694824  0.0106756463646889 -0.00405974825844169  0.0106972493231297 -0.00405153771862388  -0.243216499686241 -0.931402146816254 
1278.25  -0.445690780878067 -0.851942181587219  0.0106702735647559 -0.00401755608618259  0.0106860250234604 -0.00403829105198383  -0.243681311607361 -0.93118143081665 
1278.5  -0.4461649954319 -0.851928234100342  0.0106779327616096 -0.00404410436749458  0.0107117546722293 -0.00405870750546455  -0.244121536612511 -0.930694222450256 
1278.75  -0.446828126907349 -0.851578772068024  0.0106082167476416 -0.00408918503671885  0.0106636425480247 -0.00405659945681691  -0.244362965226173 -0.930871605873108 
1279  -0.447164177894592 -0.850984990596771  0.0105587625876069 -0.00409497879445553  0.0105929505079985 -0.00409472873434424  -0.244931325316429 -0.930715382099152 
1279.25  -0.447451561689377 -0.851022481918335  0.0105072045698762 -0.00405474938452244  0.0105162616819143 -0.00405400805175304  -0.24572879076004 -0.930556774139404 
1279.5  -0.448119401931763 -0.85054075717926  0.0104648787528276 -0.0040525603108108  0.010474513284862 -0.00403939979150891  -0.246279135346413 -0.930439889431 
1279.75  -0.448330283164978 -0.85058605670929  0.0104286130517721 -0.00400920305401087  0.0104443095624447 -0.00400609197095037  -0.24692377448082 -0.930372297763824 
1280  -0.448933929204941 -0.85008293390274  0.010388221591711 -0.00399213284254074  0.0104155801236629 -0.00397816393524408  -0.247722089290619 -0.929962933063507 
1280.25  -0.449647068977356 -0.849536180496216  0.010330967605114 -0.00391450431197882  0.0103793535381556 -0.00390656245872378  -0.247876405715942 -0.929371118545532 
1280.5  -0.450078219175339 -0.848998486995697  0.0103835891932249 -0.00383737357333302  0.0104035818949342 -0.00385600980371237  -0.248374283313751 -0.929148852825165 
1280.75  -0.450455665588379 -0.848811507225037  0.0104275327175856 -0.00384053401648998  0.0104624666273594 -0.00382423796691  -0.24905851483345 -0.928742647171021 
1281  -0.451130956411362 -0.848479211330414  0.0104336170479655 -0.00383370113559067  0.0104770250618458 -0.00383772072382271  -0.249319776892662 -0.928812026977539 
1281.25  -0.451630592346191 -0.848123013973236  0.0104773361235857 -0.00389053556136787  0.0104950256645679 -0.00388701283372939  -0.249838575720787 -0.92856228351593 
1281.5  -0.452346563339233 -0.847787976264954  0.010490863583982 -0.00388523796573281  0.0105249285697937 -0.00389102636836469  -0.25036957859993 -0.928469240665436 
1281.75  -0.453112632036209 -0.847042381763458  0.0105352532118559 -0.00391189754009247  0.0105347502976656 -0.00389544968493283  -0.250880211591721 -0.928358852863312 
1282  -0.453516185283661 -0.846436202526093  0.0104523887857795 -0.00399176590144634  0.0104924729093909 -0.00398513162508607  -0.251589834690094 -0.92808735370636 
1282.25  -0.453789442777634 -0.845699071884155  0.0104094045236707 -0.00389149226248264  0.010446809232235 -0.00388958980329335  -0.252151757478714 -0.927876055240631 
1282.5  -0.453612446784973 -0.845629572868347  0.0104890307411551 -0.00391581049188972  0.010536702349782 -0.00390763115137815  -0.252934813499451 -0.928034543991089 
1282.75  -0.454359620809555 -0.845721125602722  0.0105359870940447 -0.00389739498496056  0.0105484612286091 -0.00388996256515384  -0.253415316343307 -0.928152799606323 
1283  -0.45489290356636 -0.845471203327179  0.0105766439810395 -0.00399934453889728  0.0105845555663109 -0.00399941159412265  -0.253890961408615 -0.927807867527008 
1283.25  -0.455446511507034 -0.844693541526794  0.0105301216244698 -0.00410317117348313  0.0105755925178528 -0.00407831277698278  -0.254768699407578 -0.927537858486176 
1283.5  -0.455532073974609 -0.844085276126862  0.0104373656213284 -0.00412497390061617  0.0104550803080201 -0.00411374913528562  -0.255347460508347 -0.927641451358795 
1283.75  -0.455520838499069 -0.843489527702332  0.0103947483003139 -0.00402347790077329  0.0104339700192213 -0.00401995657011867  -0.255792737007141 -0.927023470401764 
1284  -0.45520892739296 -0.844070196151733  0.0105142798274755 -0.00406870432198048  0.0105321845039725 -0.00400346191599965  -0.256379127502441 -0.92699670791626 
1284.25  -0.456169545650482 -0.844096541404724  0.0105233881622553 -0.00414174655452371  0.0105314143002033 -0.00411372678354383  -0.256871908903122 -0.926826894283295 
1284.5  -0.456495761871338 -0.843767940998077  0.0104908794164658 -0.00420820107683539  0.0105215879157186 -0.00415835482999682  -0.257414132356644 -0.926749289035797 
1284.75  -0.45686599612236 -0.843486130237579  0.010452464222908 -0.00424352753907442  0.0104814851656556 -0.00419880356639624  -0.25786429643631 -0.926417648792267 
1285  -0.457520455121994 -0.843141734600067  0.0104270493611693 -0.00424916623160243  0.0104358932003379 -0.00423492211848497  -0.258497536182404 -0.926021099090576 
1285.25  -0.45781683921814 -0.84283185005188  0.010440562851727 -0.00427351426333189  0.0104618547484279 -0.00427538296207786  -0.258949011564255 -0.926116049289703 
1285.5  -0.458525061607361 -0.84260892868042  0.0103822126984596 -0.00435751210898161  0.0103978179395199 -0.00433437479659915  -0.259687215089798 -0.925908446311951 
1285.75  -0.459080278873444 -0.841755747795105  0.0104184802621603 -0.00436788098886609  0.0104089416563511 -0.00434953486546874  -0.260103553533554 -0.926171243190765 
1286  -0.459040403366089 -0.841387093067169  0.0103438263759017 -0.00440480280667543  0.0103730177506804 -0.00440238323062658  -0.260587692260742 -0.92607182264328 
1286.25  -0.45906537771225 -0.840860784053802  0.0103242881596088 -0.00447164056822658  0.0103463362902403 -0.00444860057905316  -0.261038213968277 -0.92591255903244 
1286.5  -0.459261626005173 -0.84062659740448  0.0103423418477178 -0.00446956790983677  0.0103501388803124 -0.00443568639457226  -0.261596262454987 -0.925842583179474 
1286.75  -0.459227412939072 -0.84016889333725  0.0103191984817386 -0.00457596685737371  0.0103564886376262 -0.00453749531880021  -0.262217462062836 -0.925994575023651 
1287  -0.459332376718521 -0.840946555137634  0.0102617926895618 -0.00459188595414162  0.0102996714413166 -0.00460414076223969  -0.262899369001389 -0.926168024539948 
1287.25  -0.460429161787033 -0.840593934059143  0.0102537572383881 -0.00467560533434153  0.0102727105841041 -0.00464653316885233  -0.26373279094696 -0.926031768321991 
1287.5  -0.461159229278564 -0.839962422847748  0.0101307956501842 -0.00480654649436474  0.010183971375227 -0.0047925803810358  -0.263974547386169 -0.925741016864777 
1287.75  -0.46125328540802 -0.839359164237976  0.00999377854168415 -0.00479324348270893  0.00999102741479874 -0.00477308640256524  -0.26480358839035 -0.925625443458557 
1288  -0.461025685071945 -0.83914178609848  0.00989353749901056 -0.00475150067359209  0.0098726162686944 -0.00474390294402838  -0.265438586473465 -0.925221681594849 
1288.25  -0.461361736059189 -0.839224874973297  0.00989226251840591 -0.00465399352833629  0.00990558974444866 -0.00464011542499065  -0.266390323638916 -0.924863636493683 
1288.5  -0.461665093898773 -0.839041590690613  0.0099254809319973 -0.00465456582605839  0.00992124062031507 -0.00466507812961936  -0.266852647066116 -0.924856603145599 
1288.75  -0.461723476648331 -0.839189767837524  0.0099140452221036 -0.00478633074089885  0.00993716903030872 -0.00478098448365927  -0.267316669225693 -0.924453496932983 
1289  -0.462667614221573 -0.839282214641571  0.00984154734760523 -0.00486287288367748  0.00983127765357494 -0.00485172448679805  -0.268070906400681 -0.924108862876892 
1289.25  -0.462955921888351 -0.838881075382233  0.00969282910227776 -0.00482530286535621  0.0097004072740674 -0.00483431480824947  -0.26883128285408 -0.92373263835907 
1289.5  -0.462962329387665 -0.838565528392792  0.00968310795724392 -0.00494199991226196  0.00970213208347559 -0.00497942883521318  -0.269291371107101 -0.923409461975098 
1289.75  -0.462918072938919 -0.839103281497955  0.00942249689251184 -0.00488456292077899  0.00942402798682451 -0.00489370105788112  -0.269425928592682 -0.92281585931778 
1290  -0.463696122169495 -0.839311718940735  0.00943279825150967 -0.00483386917039752  0.0094315018504858 -0.00482678646221757  -0.270157873630524 -0.922715961933136 
1290.25  -0.464542329311371 -0.83853942155838  0.00931823160499334 -0.00482500065118074  0.00932949408888817 -0.00483707245439291  -0.270470291376114 -0.922424018383026 
1290.5  -0.464390993118286 -0.837816476821899  0.00925967190414667 -0.00473262509331107  0.0092934537678957 -0.00472705345600843  -0.271218776702881 -0.922187626361847 
1290.75  -0.464080542325974 -0.838007867336273  0.00930261146277189 -0.00471106078475714  0.0093380194157362 -0.0047238296829164  -0.271891623735428 -0.921917200088501 
1291  -0.464334756135941 -0.838136315345764  0.00922451354563236 -0.00480437790974975  0.00924242287874222 -0.00480323284864426  -0.272156894207001 -0.921707928180695 
1291.25  -0.464557886123657 -0.838479578495026  0.00917620863765478 -0.0047527733258903  0.00920246727764606 -0.00476823514327407  -0.273175865411758 -0.921754658222198 
1291.5  -0.465342193841934 -0.838664472103119  0.0091530391946435 -0.00477733230218291  0.00919885654002428 -0.00480997236445546  -0.274035632610321 -0.92119562625885 
1291.75  -0.465899467468262 -0.838621020317078  0.00888891518115997 -0.00486404821276665  0.00893440283834934 -0.00486838025972247  -0.274157226085663 -0.920720636844635 
1292  -0.466233789920807 -0.838553905487061  0.00876190606504679 -0.00475584855303168  0.00878148805350065 -0.0047523332759738  -0.274588853120804 -0.920490086078644 
1292.25  -0.467132598161697 -0.838322997093201  0.00872114021331072 -0.00453072320669889  0.00876432470977306 -0.00452674925327301  -0.27534493803978 -0.920380234718323 
1292.5  -0.467665553092957 -0.837931096553802  0.00879969634115696 -0.00461633130908012  0.00883031636476517 -0.00462122354656458  -0.276053547859192 -0.919634640216827 
1292.75  -0.467845439910889 -0.837740898132324  0.00855329446494579 -0.00454089464619756  0.00859595183283091 -0.00453942734748125  -0.276338785886765 -0.919145226478577 
1293  -0.468938440084457 -0.837743043899536  0.00867531355470419 -0.00444679707288742  0.00867894664406776 -0.00443459488451481  -0.276852309703827 -0.918834865093231 
1293.25  -0.469819188117981 -0.83711838722229  0.00860890466719866 -0.00456146709620953  0.00863932073116302 -0.00456747785210609  -0.277184754610062 -0.918087422847748 
1293.5  -0.470424979925156 -0.836273968219757  0.00837275013327599 -0.00449125282466412  0.00839182920753956 -0.004484121222049  -0.277587592601776 -0.91779637336731 
1293.75  -0.470297783613205 -0.835906505584717  0.00825800746679306 -0.00443531107157469  0.00829958636313677 -0.00443727942183614  -0.27755606174469 -0.916965067386627 
1294  -0.47084841132164 -0.836142241954803  0.00806088466197252 -0.00423540407791734  0.00806028768420219 -0.0042643048800528  -0.277513802051544 -0.917154133319855 
1294.25  -0.471477955579758 -0.835846602916718  0.00802993308752775 -0.00398847134783864  0.00806979648768902 -0.00397843774408102  -0.278420180082321 -0.917205512523651 
1294.5  -0.472215235233307 -0.83572381734848  0.00806629005819559 -0.00383426761254668  0.00811251159757376 -0.0038452094886452  -0.279084712266922 -0.916554808616638 
1294.75  -0.472675710916519 -0.835273742675781  0.00806547049432993 -0.00368890492245555  0.00809012539684772 -0.00371410488151014  -0.279057919979095 -0.915633380413055 
1295  -0.472999721765518 -0.835037589073181  0.00810536462813616 -0.0035026092082262  0.0081312321126461 -0.00349859637208283  -0.279306888580322 -0.915583729743958 
1295.25  -0.473251402378082 -0.835400462150574  0.00823706947267056 -0.00334300589747727  0.00824247486889362 -0.0033800108358264  -0.279455453157425 -0.914560317993164 
1295.5  -0.473832070827484 -0.83550226688385  0.00831057317554951 -0.00331006734631956  0.00833325367420912 -0.00331367924809456  -0.278829634189606 -0.91511344909668 
1295.75  -0.474525332450867 -0.835597395896912  0.00831575877964497 -0.00320467981509864  0.00834437925368547 -0.00317031517624855  -0.279792070388794 -0.915017187595367 
1296  -0.475516468286514 -0.835498452186584  0.00847162678837776 -0.00310198077932  0.00848774425685406 -0.00308963633142412  -0.279989987611771 -0.914668262004852 
1296.25  -0.476122736930847 -0.835195779800415  0.0085718734189868 -0.00310622970573604  0.00860347598791122 -0.00310751679353416  -0.280197411775589 -0.914499402046204 
1296.5  -0.476792216300964 -0.835097551345825  0.00856083165854216 -0.00298787280917168  0.00857437960803509 -0.00302958977408707  -0.280663728713989 -0.914318919181824 
1296.75  -0.477345645427704 -0.83510410785675  0.0087309954687953 -0.0029772873967886  0.00876143760979176 -0.00298646604642272  -0.280994027853012 -0.91455739736557 
1297  -0.477748543024063 -0.835036635398865  0.00874914508312941 -0.00300127011723816  0.0087654534727335 -0.00299728801473975  -0.281636267900467 -0.914346218109131 
1297.25  -0.478524178266525 -0.834791362285614  0.00872420147061348 -0.00283025181852281  0.00875064078718424 -0.00282388203777373  -0.282377362251282 -0.913673758506775 
1297.5  -0.479114413261414 -0.83402407169342  0.00903044547885656 -0.00274857063777745  0.00904327910393476 -0.00276523316279054  -0.28156852722168 -0.913630127906799 
1297.75  -0.479328274726868 -0.833663284778595  0.00921464804559946 -0.00290966592729092  0.00922048557549715 -0.00293133594095707  -0.282136023044586 -0.913627564907074 
1298  -0.479505866765976 -0.833394646644592  0.00914323795586824 -0.00309661403298378  0.00916743092238903 -0.00309975980781019  -0.282495349645615 -0.914005517959595 
1298.25  -0.479797184467316 -0.833523035049438  0.0090077193453908 -0.00295043434016407  0.00901819579303265 -0.00295911706052721  -0.283164143562317 -0.913258910179138 
1298.5  -0.480271756649017 -0.833509027957916  0.00916952453553677 -0.00298411981202662  0.00918430928140879 -0.00300553417764604  -0.283274501562119 -0.913905441761017 
1298.75  -0.481281816959381 -0.83330237865448  0.00896231364458799 -0.00290601886808872  0.00900278147310019 -0.00292788352817297  -0.284811109304428 -0.913951277732849 
1299  -0.481881707906723 -0.832761883735657  0.00910754222422838 -0.00256353663280606  0.00913074146956205 -0.00257850298658013  -0.285712569952011 -0.913027584552765 
1299.25  -0.482423484325409 -0.83247321844101  0.00950219854712486 -0.00250229309312999  0.00950986426323652 -0.0024969179648906  -0.286202251911163 -0.912752330303192 
1299.5  -0.482998967170715 -0.831964194774628  0.00984969083219767 -0.00269440189003944  0.0098853325471282 -0.00269964057952166  -0.286069124937057 -0.912131249904633 
1299.75  -0.483551561832428 -0.832214951515198  0.00987398531287909 -0.00300927995704114  0.00989851728081703 -0.00303857540711761  -0.286226958036423 -0.913175821304321 
1300  -0.484349846839905 -0.831648647785187  0.00984497647732496 -0.00303935632109642  0.00987952016294003 -0.0030672219581902  -0.287791579961777 -0.913112163543701 
1300.25  -0.484924674034119 -0.831522643566132  0.00985210761427879 -0.00311556505039334  0.00985306780785322 -0.00311569171026349  -0.288991838693619 -0.911790430545807 
1300.5  -0.485715001821518 -0.83112108707428  0.00985357910394669 -0.00321970391087234  0.00985735468566418 -0.00320946588180959  -0.288376986980438 -0.910978376865387 
1300.75  -0.486259967088699 -0.830805480480194  0.00985447689890862 -0.00324154668487608  0.00987852457910776 -0.00323899881914258  -0.289112657308578 -0.911259949207306 
