! Matrix data file written by TouchstoneData, EPCOS AG
! FILENAME: "ansys_B4328_NB.s3p"
! COMMENT: "(B4328_NB.s3p) Epcos AG 7/1/2013 1:54:30 PM"
! INFO: nport=3, nfreq=1601
! DATE: "Mon Jul  8 13:10:38 2013"
! USER: "Daniel Harbusch"
!
! port | pin | signal
! -----|-----|--------
!   1  |  1  |  Input
!   2  |  3  |  Output balanced
!   3  |  4  |  Output balanced
! --------------------
! 
# MHZ S MA R 50
! freq  magS11 angS11  magS12 angS12  magS13 angS13  ...
1.600000000E+03  9.657807E-01 -9.640163E+01  2.899980E-03 1.770697E+02  2.293947E-03 -1.714535E+02 
 2.881369E-03 1.768055E+02  9.695098E-01 -6.203549E+01  4.379446E-03 -6.375935E+01 
 2.290197E-03 -1.716319E+02  4.396045E-03 -6.392803E+01  9.684555E-01 -6.272818E+01 
1.600312500E+03  9.656815E-01 -9.644425E+01  2.856518E-03 1.761249E+02  2.351929E-03 -1.716583E+02 
 2.809293E-03 1.760719E+02  9.689194E-01 -6.203523E+01  5.319165E-03 -7.097462E+01 
 2.372282E-03 -1.715162E+02  5.332731E-03 -7.113201E+01  9.674756E-01 -6.271159E+01 
1.600625000E+03  9.656727E-01 -9.644896E+01  2.789833E-03 1.767617E+02  2.410998E-03 -1.721055E+02 
 2.750193E-03 1.770611E+02  9.686908E-01 -6.201321E+01  5.905001E-03 -8.151559E+01 
 2.369780E-03 -1.718974E+02  5.896183E-03 -8.123277E+01  9.672146E-01 -6.266135E+01 
1.600937500E+03  9.658735E-01 -9.645342E+01  2.759130E-03 1.767956E+02  2.386289E-03 -1.719061E+02 
 2.757844E-03 1.768705E+02  9.685174E-01 -6.199078E+01  6.235501E-03 -8.993905E+01 
 2.393741E-03 -1.723030E+02  6.240931E-03 -8.986419E+01  9.674327E-01 -6.264658E+01 
1.601250000E+03  9.658188E-01 -9.647123E+01  2.737907E-03 1.766051E+02  2.435579E-03 -1.716377E+02 
 2.725706E-03 1.763531E+02  9.685188E-01 -6.194488E+01  6.598687E-03 -9.795245E+01 
 2.390596E-03 -1.715121E+02  6.569805E-03 -9.782847E+01  9.676209E-01 -6.262719E+01 
1.601562500E+03  9.659817E-01 -9.648848E+01  2.672392E-03 1.769498E+02  2.455142E-03 -1.718266E+02 
 2.673183E-03 1.770682E+02  9.692021E-01 -6.192505E+01  6.538223E-03 -1.077081E+02 
 2.450190E-03 -1.723114E+02  6.546189E-03 -1.075824E+02  9.683707E-01 -6.261285E+01 
1.601875000E+03  9.658173E-01 -9.651366E+01  2.668637E-03 1.777025E+02  2.461202E-03 -1.721919E+02 
 2.668355E-03 1.774471E+02  9.700514E-01 -6.194624E+01  6.102631E-03 -1.142189E+02 
 2.475204E-03 -1.725080E+02  6.100502E-03 -1.141184E+02  9.689395E-01 -6.263177E+01 
1.602187500E+03  9.659108E-01 -9.653832E+01  2.628733E-03 1.777784E+02  2.511339E-03 -1.721793E+02 
 2.630201E-03 1.781442E+02  9.703188E-01 -6.197483E+01  5.861223E-03 -1.168991E+02 
 2.522971E-03 -1.718863E+02  5.884846E-03 -1.166948E+02  9.689472E-01 -6.265361E+01 
1.602500000E+03  9.660054E-01 -9.655861E+01  2.580889E-03 1.789154E+02  2.593085E-03 -1.725059E+02 
 2.584061E-03 1.789619E+02  9.704015E-01 -6.199363E+01  5.881646E-03 -1.205637E+02 
 2.579930E-03 -1.726218E+02  5.882337E-03 -1.203307E+02  9.688974E-01 -6.267987E+01 
1.602812500E+03  9.661282E-01 -9.658970E+01  2.584268E-03 1.796855E+02  2.596648E-03 -1.736135E+02 
 2.538709E-03 1.799540E+02  9.707739E-01 -6.201490E+01  5.716997E-03 -1.253789E+02 
 2.586049E-03 -1.739444E+02  5.720527E-03 -1.253493E+02  9.693101E-01 -6.270852E+01 
1.603125000E+03  9.659463E-01 -9.663399E+01  2.580670E-03 -1.788875E+02  2.592251E-03 -1.741848E+02 
 2.586464E-03 -1.795177E+02  9.707765E-01 -6.204074E+01  5.358399E-03 -1.285519E+02 
 2.586471E-03 -1.741373E+02  5.370978E-03 -1.285452E+02  9.697526E-01 -6.272655E+01 
1.603437500E+03  9.659837E-01 -9.666389E+01  2.623647E-03 -1.788296E+02  2.611337E-03 -1.737960E+02 
 2.587360E-03 -1.789478E+02  9.713677E-01 -6.207005E+01  5.107122E-03 -1.296195E+02 
 2.584541E-03 -1.735304E+02  5.096458E-03 -1.295709E+02  9.699716E-01 -6.276709E+01 
1.603750000E+03  9.659176E-01 -9.668226E+01  2.592588E-03 -1.789422E+02  2.653942E-03 -1.736203E+02 
 2.598218E-03 -1.789034E+02  9.714193E-01 -6.207981E+01  4.964249E-03 -1.302466E+02 
 2.658414E-03 -1.734758E+02  4.952534E-03 -1.299431E+02  9.699662E-01 -6.280106E+01 
1.604062500E+03  9.661709E-01 -9.671414E+01  2.569341E-03 -1.788766E+02  2.709439E-03 -1.754272E+02 
 2.553934E-03 -1.792819E+02  9.715166E-01 -6.209040E+01  4.833136E-03 -1.301639E+02 
 2.718850E-03 -1.746853E+02  4.879369E-03 -1.303026E+02  9.702212E-01 -6.281729E+01 
1.604375000E+03  9.663599E-01 -9.675342E+01  2.518548E-03 -1.773054E+02  2.760800E-03 -1.763341E+02 
 2.506303E-03 -1.779115E+02  9.716871E-01 -6.212948E+01  4.708275E-03 -1.297081E+02 
 2.770538E-03 -1.761761E+02  4.729585E-03 -1.294566E+02  9.703579E-01 -6.285953E+01 
1.604687500E+03  9.665117E-01 -9.677403E+01  2.540361E-03 -1.763543E+02  2.719026E-03 -1.781934E+02 
 2.532175E-03 -1.762144E+02  9.718968E-01 -6.215852E+01  4.858201E-03 -1.278792E+02 
 2.715678E-03 -1.782487E+02  4.860576E-03 -1.280035E+02  9.703349E-01 -6.287528E+01 
1.605000000E+03  9.662620E-01 -9.682048E+01  2.633599E-03 -1.752736E+02  2.643281E-03 -1.790759E+02 
 2.622277E-03 -1.752391E+02  9.716155E-01 -6.217173E+01  5.074230E-03 -1.301939E+02 
 2.638020E-03 -1.788404E+02  5.042419E-03 -1.301436E+02  9.703800E-01 -6.289486E+01 
1.605312500E+03  9.662025E-01 -9.685264E+01  2.687781E-03 -1.760323E+02  2.578359E-03 -1.790646E+02 
 2.659638E-03 -1.758569E+02  9.717835E-01 -6.219359E+01  5.019382E-03 -1.328730E+02 
 2.586161E-03 -1.783132E+02  5.009987E-03 -1.330855E+02  9.705185E-01 -6.293323E+01 
1.605625000E+03  9.661463E-01 -9.688645E+01  2.675744E-03 -1.766015E+02  2.570319E-03 -1.779983E+02 
 2.675589E-03 -1.769439E+02  9.719965E-01 -6.221246E+01  4.951162E-03 -1.335305E+02 
 2.545163E-03 -1.779935E+02  4.938205E-03 -1.338076E+02  9.703877E-01 -6.296007E+01 
1.605937500E+03  9.663375E-01 -9.692519E+01  2.668021E-03 -1.771608E+02  2.582003E-03 -1.767464E+02 
 2.657839E-03 -1.770185E+02  9.721255E-01 -6.224340E+01  4.947109E-03 -1.347881E+02 
 2.576394E-03 -1.768865E+02  4.913753E-03 -1.348247E+02  9.704790E-01 -6.298362E+01 
1.606250000E+03  9.662584E-01 -9.694006E+01  2.636624E-03 -1.772968E+02  2.593229E-03 -1.763407E+02 
 2.655344E-03 -1.777907E+02  9.720120E-01 -6.227947E+01  4.864035E-03 -1.351528E+02 
 2.604495E-03 -1.761369E+02  4.874316E-03 -1.350848E+02  9.703849E-01 -6.303071E+01 
1.606562500E+03  9.662951E-01 -9.696625E+01  2.575852E-03 -1.787259E+02  2.625417E-03 -1.762502E+02 
 2.593086E-03 -1.783381E+02  9.717383E-01 -6.230056E+01  4.933724E-03 -1.350687E+02 
 2.629130E-03 -1.762488E+02  4.931019E-03 -1.349731E+02  9.704747E-01 -6.304904E+01 
1.606875000E+03  9.665838E-01 -9.700419E+01  2.562528E-03 -1.778508E+02  2.660721E-03 -1.761181E+02 
 2.566072E-03 -1.779401E+02  9.717543E-01 -6.233176E+01  4.990914E-03 -1.372502E+02 
 2.664570E-03 -1.759752E+02  4.987181E-03 -1.373887E+02  9.702032E-01 -6.306869E+01 
1.607187500E+03  9.665728E-01 -9.703801E+01  2.554812E-03 -1.769936E+02  2.689852E-03 -1.754437E+02 
 2.547644E-03 -1.777069E+02  9.718940E-01 -6.235821E+01  4.872766E-03 -1.384575E+02 
 2.694168E-03 -1.759814E+02  4.845984E-03 -1.385051E+02  9.704679E-01 -6.310774E+01 
1.607500000E+03  9.663876E-01 -9.707455E+01  2.527109E-03 -1.770226E+02  2.745152E-03 -1.760617E+02 
 2.511053E-03 -1.777919E+02  9.714670E-01 -6.238798E+01  4.708954E-03 -1.383003E+02 
 2.747069E-03 -1.763539E+02  4.715978E-03 -1.381114E+02  9.703351E-01 -6.313146E+01 
1.607812500E+03  9.662347E-01 -9.711119E+01  2.496201E-03 -1.764897E+02  2.763069E-03 -1.767738E+02 
 2.486932E-03 -1.766388E+02  9.712867E-01 -6.240516E+01  4.768792E-03 -1.367127E+02 
 2.753908E-03 -1.766690E+02  4.782453E-03 -1.367446E+02  9.698148E-01 -6.316270E+01 
1.608125000E+03  9.662322E-01 -9.713375E+01  2.491619E-03 -1.759803E+02  2.793354E-03 -1.765591E+02 
 2.473829E-03 -1.764991E+02  9.709329E-01 -6.244336E+01  4.883660E-03 -1.360687E+02 
 2.753970E-03 -1.764745E+02  4.869754E-03 -1.364996E+02  9.693758E-01 -6.318117E+01 
1.608437500E+03  9.666609E-01 -9.717330E+01  2.432348E-03 -1.756128E+02  2.853641E-03 -1.769457E+02 
 2.384706E-03 -1.758421E+02  9.707816E-01 -6.242728E+01  5.042937E-03 -1.372233E+02 
 2.836864E-03 -1.769040E+02  5.038408E-03 -1.374433E+02  9.693991E-01 -6.319429E+01 
1.608750000E+03  9.664767E-01 -9.722117E+01  2.407695E-03 -1.746594E+02  2.882018E-03 -1.784222E+02 
 2.406133E-03 -1.750451E+02  9.710046E-01 -6.244054E+01  5.055125E-03 -1.388946E+02 
 2.851006E-03 -1.782068E+02  5.069849E-03 -1.389778E+02  9.693280E-01 -6.322426E+01 
1.609062500E+03  9.663311E-01 -9.725088E+01  2.400567E-03 -1.736215E+02  2.854662E-03 -1.794234E+02 
 2.391292E-03 -1.733720E+02  9.710676E-01 -6.247298E+01  5.092915E-03 -1.388414E+02 
 2.849414E-03 -1.792815E+02  5.064298E-03 -1.387963E+02  9.689945E-01 -6.323698E+01 
1.609375000E+03  9.663368E-01 -9.728685E+01  2.376915E-03 -1.726367E+02  2.852785E-03 -1.799659E+02 
 2.413670E-03 -1.728245E+02  9.711144E-01 -6.248821E+01  5.134508E-03 -1.397578E+02 
 2.831928E-03 -1.797834E+02  5.148424E-03 -1.401421E+02  9.689037E-01 -6.325972E+01 
1.609687500E+03  9.663313E-01 -9.732206E+01  2.362871E-03 -1.710440E+02  2.851436E-03 1.796477E+02 
 2.396634E-03 -1.719092E+02  9.710390E-01 -6.251955E+01  5.149675E-03 -1.404237E+02 
 2.859085E-03 1.796381E+02  5.159978E-03 -1.401723E+02  9.690785E-01 -6.328672E+01 
1.610000000E+03  9.661186E-01 -9.735497E+01  2.386952E-03 -1.707406E+02  2.845521E-03 1.796610E+02 
 2.405140E-03 -1.700554E+02  9.708034E-01 -6.254116E+01  5.208623E-03 -1.404386E+02 
 2.833488E-03 1.795220E+02  5.241799E-03 -1.404623E+02  9.690333E-01 -6.330940E+01 
1.610312500E+03  9.660735E-01 -9.737994E+01  2.402596E-03 -1.691854E+02  2.854487E-03 1.795928E+02 
 2.400995E-03 -1.694813E+02  9.706340E-01 -6.255091E+01  5.313572E-03 -1.412461E+02 
 2.832869E-03 1.791021E+02  5.335830E-03 -1.416454E+02  9.687468E-01 -6.333826E+01 
1.610625000E+03  9.657848E-01 -9.741279E+01  2.386951E-03 -1.686651E+02  2.872491E-03 1.795635E+02 
 2.414664E-03 -1.686310E+02  9.702899E-01 -6.256615E+01  5.315460E-03 -1.420326E+02 
 2.836833E-03 1.798124E+02  5.332565E-03 -1.420110E+02  9.687171E-01 -6.335003E+01 
1.610937500E+03  9.658299E-01 -9.746254E+01  2.404374E-03 -1.679437E+02  2.938097E-03 1.782967E+02 
 2.375714E-03 -1.673348E+02  9.703656E-01 -6.259038E+01  5.297485E-03 -1.425947E+02 
 2.936957E-03 1.792888E+02  5.305401E-03 -1.427247E+02  9.688047E-01 -6.337975E+01 
1.611250000E+03  9.653746E-01 -9.749277E+01  2.415987E-03 -1.657926E+02  2.940585E-03 1.772429E+02 
 2.399006E-03 -1.656634E+02  9.698966E-01 -6.258558E+01  5.346114E-03 -1.415137E+02 
 2.927727E-03 1.779324E+02  5.367815E-03 -1.413954E+02  9.688521E-01 -6.339963E+01 
1.611562500E+03  9.651882E-01 -9.752411E+01  2.487364E-03 -1.639275E+02  2.923007E-03 1.763223E+02 
 2.493996E-03 -1.645963E+02  9.699800E-01 -6.255990E+01  5.630825E-03 -1.408263E+02 
 2.926090E-03 1.766992E+02  5.653163E-03 -1.406767E+02  9.684585E-01 -6.339863E+01 
1.611875000E+03  9.648361E-01 -9.755694E+01  2.563140E-03 -1.640554E+02  2.913636E-03 1.754410E+02 
 2.546300E-03 -1.633496E+02  9.701331E-01 -6.256703E+01  5.855317E-03 -1.430492E+02 
 2.901412E-03 1.757417E+02  5.858676E-03 -1.429146E+02  9.688248E-01 -6.340823E+01 
1.612187500E+03  9.646833E-01 -9.758037E+01  2.597711E-03 -1.637376E+02  2.887361E-03 1.748099E+02 
 2.585953E-03 -1.638718E+02  9.704918E-01 -6.257487E+01  5.969415E-03 -1.441510E+02 
 2.881045E-03 1.751010E+02  5.996143E-03 -1.438820E+02  9.687818E-01 -6.344757E+01 
1.612500000E+03  9.645915E-01 -9.759734E+01  2.663748E-03 -1.635563E+02  2.864185E-03 1.744042E+02 
 2.636102E-03 -1.639580E+02  9.710026E-01 -6.258577E+01  6.135299E-03 -1.455301E+02 
 2.842704E-03 1.747832E+02  6.165929E-03 -1.456127E+02  9.686069E-01 -6.346361E+01 
1.612812500E+03  9.645538E-01 -9.763605E+01  2.664973E-03 -1.646936E+02  2.858384E-03 1.741547E+02 
 2.648439E-03 -1.641812E+02  9.709763E-01 -6.260138E+01  6.259915E-03 -1.475453E+02 
 2.865932E-03 1.745510E+02  6.290190E-03 -1.477490E+02  9.685555E-01 -6.348016E+01 
1.613125000E+03  9.644963E-01 -9.765992E+01  2.645635E-03 -1.640289E+02  2.872406E-03 1.729453E+02 
 2.637968E-03 -1.639098E+02  9.709822E-01 -6.263869E+01  6.318781E-03 -1.495964E+02 
 2.865292E-03 1.730756E+02  6.349117E-03 -1.495236E+02  9.685757E-01 -6.349754E+01 
1.613437500E+03  9.642780E-01 -9.767132E+01  2.661359E-03 -1.630098E+02  2.809374E-03 1.720477E+02 
 2.663088E-03 -1.628261E+02  9.709761E-01 -6.268101E+01  6.474077E-03 -1.512169E+02 
 2.808237E-03 1.720951E+02  6.467402E-03 -1.512940E+02  9.684423E-01 -6.351460E+01 
1.613750000E+03  9.644820E-01 -9.770099E+01  2.735163E-03 -1.627638E+02  2.751632E-03 1.719894E+02 
 2.701234E-03 -1.631713E+02  9.706751E-01 -6.269754E+01  6.587628E-03 -1.540275E+02 
 2.742004E-03 1.713276E+02  6.595731E-03 -1.541078E+02  9.685045E-01 -6.352424E+01 
1.614062500E+03  9.647812E-01 -9.773463E+01  2.719856E-03 -1.635067E+02  2.689143E-03 1.712218E+02 
 2.717295E-03 -1.633597E+02  9.709189E-01 -6.273619E+01  6.519843E-03 -1.569900E+02 
 2.709291E-03 1.719769E+02  6.531371E-03 -1.572182E+02  9.682590E-01 -6.352559E+01 
1.614375000E+03  9.645191E-01 -9.776323E+01  2.684710E-03 -1.625571E+02  2.658949E-03 1.717955E+02 
 2.689304E-03 -1.624613E+02  9.709636E-01 -6.278742E+01  6.379160E-03 -1.590327E+02 
 2.660975E-03 1.719625E+02  6.381546E-03 -1.590259E+02  9.682865E-01 -6.352579E+01 
1.614687500E+03  9.643802E-01 -9.777737E+01  2.704877E-03 -1.615332E+02  2.648507E-03 1.715826E+02 
 2.693825E-03 -1.610812E+02  9.702593E-01 -6.281347E+01  6.263759E-03 -1.593029E+02 
 2.636749E-03 1.713483E+02  6.267587E-03 -1.593581E+02  9.682725E-01 -6.353407E+01 
1.615000000E+03  9.645904E-01 -9.780777E+01  2.740046E-03 -1.603435E+02  2.576772E-03 1.714572E+02 
 2.729577E-03 -1.600672E+02  9.700148E-01 -6.282947E+01  6.364858E-03 -1.602542E+02 
 2.589831E-03 1.708844E+02  6.355244E-03 -1.605136E+02  9.684333E-01 -6.354819E+01 
1.615312500E+03  9.644336E-01 -9.783834E+01  2.772798E-03 -1.587636E+02  2.516313E-03 1.721757E+02 
 2.782513E-03 -1.587319E+02  9.697932E-01 -6.285964E+01  6.354751E-03 -1.621190E+02 
 2.530209E-03 1.724504E+02  6.344602E-03 -1.621983E+02  9.691068E-01 -6.356846E+01 
1.615625000E+03  9.640759E-01 -9.788029E+01  2.885963E-03 -1.581905E+02  2.533545E-03 1.729928E+02 
 2.875652E-03 -1.587100E+02  9.697294E-01 -6.284689E+01  6.258940E-03 -1.635913E+02 
 2.520462E-03 1.728799E+02  6.279443E-03 -1.635981E+02  9.692596E-01 -6.359080E+01 
1.615937500E+03  9.638569E-01 -9.789042E+01  2.916777E-03 -1.593683E+02  2.514450E-03 1.728084E+02 
 2.910623E-03 -1.587464E+02  9.701534E-01 -6.288031E+01  6.271958E-03 -1.641751E+02 
 2.485653E-03 1.732504E+02  6.251415E-03 -1.640463E+02  9.691515E-01 -6.362519E+01 
1.616250000E+03  9.636885E-01 -9.792571E+01  2.949313E-03 -1.578764E+02  2.463470E-03 1.732394E+02 
 2.931379E-03 -1.581505E+02  9.700036E-01 -6.291457E+01  6.282450E-03 -1.654860E+02 
 2.454815E-03 1.736532E+02  6.264047E-03 -1.655225E+02  9.696527E-01 -6.364588E+01 
1.616562500E+03  9.631954E-01 -9.795403E+01  3.036988E-03 -1.564305E+02  2.454277E-03 1.739739E+02 
 3.049365E-03 -1.562607E+02  9.700093E-01 -6.290432E+01  6.205842E-03 -1.665689E+02 
 2.439650E-03 1.739376E+02  6.190364E-03 -1.664936E+02  9.697446E-01 -6.367341E+01 
1.616875000E+03  9.627731E-01 -9.798772E+01  3.238161E-03 -1.570889E+02  2.442521E-03 1.743877E+02 
 3.237115E-03 -1.568664E+02  9.702377E-01 -6.291558E+01  6.261412E-03 -1.664811E+02 
 2.445888E-03 1.743621E+02  6.255502E-03 -1.664055E+02  9.701471E-01 -6.371114E+01 
1.617187500E+03  9.627098E-01 -9.800365E+01  3.311898E-03 -1.588105E+02  2.434074E-03 1.748541E+02 
 3.294194E-03 -1.589852E+02  9.705450E-01 -6.292387E+01  6.438624E-03 -1.674168E+02 
 2.421625E-03 1.748727E+02  6.436464E-03 -1.672072E+02  9.698552E-01 -6.375727E+01 
1.617500000E+03  9.622112E-01 -9.800894E+01  3.330587E-03 -1.595086E+02  2.421669E-03 1.763038E+02 
 3.372726E-03 -1.600376E+02  9.707683E-01 -6.295457E+01  6.578117E-03 -1.700820E+02 
 2.384416E-03 1.760608E+02  6.600354E-03 -1.700078E+02  9.697239E-01 -6.379984E+01 
1.617812500E+03  9.619358E-01 -9.801407E+01  3.411882E-03 -1.610757E+02  2.396758E-03 1.765247E+02 
 3.413741E-03 -1.608051E+02  9.706430E-01 -6.298608E+01  6.595051E-03 -1.723001E+02 
 2.403525E-03 1.763599E+02  6.594883E-03 -1.723618E+02  9.694440E-01 -6.382041E+01 
1.618125000E+03  9.621798E-01 -9.799626E+01  3.397606E-03 -1.616196E+02  2.362673E-03 1.769363E+02 
 3.436341E-03 -1.618888E+02  9.706798E-01 -6.301880E+01  6.640434E-03 -1.747443E+02 
 2.369147E-03 1.771426E+02  6.663751E-03 -1.748369E+02  9.691249E-01 -6.384861E+01 
1.618437500E+03  9.628418E-01 -9.802952E+01  3.373810E-03 -1.631144E+02  2.305335E-03 1.779697E+02 
 3.383640E-03 -1.628477E+02  9.703702E-01 -6.302967E+01  6.658505E-03 -1.781375E+02 
 2.323622E-03 1.783486E+02  6.659287E-03 -1.779502E+02  9.687894E-01 -6.385233E+01 
1.618750000E+03  9.630075E-01 -9.805378E+01  3.377994E-03 -1.625763E+02  2.367817E-03 -1.795207E+02 
 3.379750E-03 -1.624199E+02  9.702785E-01 -6.304612E+01  6.574955E-03 1.787353E+02 
 2.365835E-03 -1.794208E+02  6.579638E-03 1.786495E+02  9.686129E-01 -6.387285E+01 
1.619062500E+03  9.635294E-01 -9.807414E+01  3.414118E-03 -1.622016E+02  2.364559E-03 -1.789978E+02 
 3.394148E-03 -1.626518E+02  9.699435E-01 -6.306048E+01  6.460983E-03 1.754776E+02 
 2.376953E-03 -1.788692E+02  6.478901E-03 1.758065E+02  9.683430E-01 -6.388691E+01 
1.619375000E+03  9.637810E-01 -9.813508E+01  3.455973E-03 -1.628778E+02  2.404321E-03 -1.780241E+02 
 3.478422E-03 -1.628499E+02  9.696935E-01 -6.305533E+01  6.291300E-03 1.710367E+02 
 2.397636E-03 -1.781472E+02  6.295891E-03 1.710113E+02  9.683795E-01 -6.389692E+01 
1.619687500E+03  9.637678E-01 -9.817002E+01  3.459844E-03 -1.627566E+02  2.421478E-03 -1.770119E+02 
 3.472855E-03 -1.630639E+02  9.696108E-01 -6.305697E+01  5.849059E-03 1.673157E+02 
 2.420990E-03 -1.772909E+02  5.875386E-03 1.672250E+02  9.684046E-01 -6.387370E+01 
1.620000000E+03  9.637762E-01 -9.820962E+01  3.492247E-03 -1.635338E+02  2.508929E-03 -1.763641E+02 
 3.501977E-03 -1.632157E+02  9.696204E-01 -6.305283E+01  5.317279E-03 1.651405E+02 
 2.496146E-03 -1.762585E+02  5.325871E-03 1.654425E+02  9.685768E-01 -6.389402E+01 
1.620312500E+03  9.638571E-01 -9.824672E+01  3.511281E-03 -1.635477E+02  2.538792E-03 -1.771594E+02 
 3.512785E-03 -1.638462E+02  9.703322E-01 -6.307109E+01  4.901293E-03 1.669062E+02 
 2.539446E-03 -1.767587E+02  4.886753E-03 1.668704E+02  9.688015E-01 -6.390464E+01 
1.620625000E+03  9.636960E-01 -9.826708E+01  3.537849E-03 -1.633420E+02  2.532802E-03 -1.766147E+02 
 3.522195E-03 -1.634375E+02  9.707544E-01 -6.308177E+01  4.706895E-03 1.674348E+02 
 2.534651E-03 -1.759442E+02  4.721102E-03 1.675883E+02  9.691130E-01 -6.391870E+01 
1.620937500E+03  9.639135E-01 -9.828527E+01  3.611610E-03 -1.629869E+02  2.595763E-03 -1.758527E+02 
 3.583483E-03 -1.631851E+02  9.708248E-01 -6.309618E+01  4.453726E-03 1.686750E+02 
 2.587071E-03 -1.757768E+02  4.450224E-03 1.685044E+02  9.696060E-01 -6.393995E+01 
1.621250000E+03  9.637324E-01 -9.831785E+01  3.684804E-03 -1.641427E+02  2.627554E-03 -1.766869E+02 
 3.692776E-03 -1.643683E+02  9.712234E-01 -6.311286E+01  4.295892E-03 1.710535E+02 
 2.643277E-03 -1.762195E+02  4.304035E-03 1.710905E+02  9.698045E-01 -6.397230E+01 
1.621562500E+03  9.639508E-01 -9.833072E+01  3.704723E-03 -1.658760E+02  2.635890E-03 -1.764621E+02 
 3.700008E-03 -1.656795E+02  9.713301E-01 -6.315007E+01  4.339792E-03 1.720233E+02 
 2.643195E-03 -1.771207E+02  4.325550E-03 1.719435E+02  9.697919E-01 -6.401126E+01 
1.621875000E+03  9.638483E-01 -9.837073E+01  3.685033E-03 -1.660198E+02  2.616698E-03 -1.772093E+02 
 3.689875E-03 -1.657718E+02  9.716333E-01 -6.317369E+01  4.223011E-03 1.722132E+02 
 2.622832E-03 -1.766947E+02  4.240630E-03 1.723705E+02  9.700421E-01 -6.403889E+01 
1.622187500E+03  9.637573E-01 -9.838571E+01  3.698207E-03 -1.659723E+02  2.614762E-03 -1.769532E+02 
 3.689560E-03 -1.657963E+02  9.717998E-01 -6.320453E+01  4.132927E-03 1.735857E+02 
 2.623139E-03 -1.765408E+02  4.133172E-03 1.734736E+02  9.700288E-01 -6.407773E+01 
1.622500000E+03  9.636305E-01 -9.840728E+01  3.802969E-03 -1.657424E+02  2.650509E-03 -1.755776E+02 
