! Matrix data file written by TouchstoneData, EPCOS AG
! FILENAME: "newformat_AA61A_X6Y7_WB.s3p"
! COMMENT: "(AA61A_X6Y7_WB.s3p) Epcos AG 9/27/2012 1:33:"
! INFO: nport=3, nfreq=1601
! DATE: "Wed Oct 24 16:56:26 2012"
! USER: "Michael Schemies"
!
! port | pin | signal
! -----|-----|--------
!   1  |  1  |  in
!   2  |  3  |  out
!   3  |  4  |  out
! --------------------
!
# MHZ S MA R 50
! freq  magS11 angS11  magS12 angS12  magS13 angS13  ...
5.000000E+01  9.956391E-01 -6.544390E+00  3.494763E-04 7.863505E+01  4.253525E-04 9.106066E+01
3.610264E-04 8.826919E+01  9.986552E-01 -5.568541E+00  3.865884E-04 8.303291E+01
4.376529E-04 9.142503E+01  4.727213E-04 7.811549E+01  9.980642E-01 -5.592542E+00
5.371875E+01  9.959830E-01 -7.074667E+00  4.734204E-04 8.619288E+01  4.202377E-04 8.079516E+01
4.574050E-04 8.029144E+01  9.985000E-01 -5.927067E+00  3.274956E-04 8.158009E+01
4.055146E-04 8.348802E+01  3.603440E-04 8.439299E+01  9.986383E-01 -5.982039E+00
5.743750E+01  9.953360E-01 -7.593308E+00  4.620262E-04 8.702980E+01  5.229255E-04 8.276734E+01
4.595998E-04 8.455495E+01  9.987511E-01 -6.379427E+00  3.945238E-04 7.091458E+01
5.181966E-04 8.267307E+01  3.649067E-04 7.854274E+01  9.982298E-01 -6.485699E+00
6.115625E+01  9.955597E-01 -8.037511E+00  4.478128E-04 6.548995E+01  4.401995E-04 6.497252E+01
4.746274E-04 6.154233E+01  9.982060E-01 -6.766835E+00  5.620024E-04 1.081182E+02
4.719040E-04 6.375165E+01  5.406044E-04 1.036324E+02  9.983023E-01 -6.808743E+00
6.487500E+01  9.964301E-01 -8.544310E+00  5.399449E-04 7.889323E+01  5.369630E-04 7.901887E+01
5.202491E-04 8.014371E+01  9.982519E-01 -7.239654E+00  4.414237E-04 8.758211E+01
5.256629E-04 8.185241E+01  4.513089E-04 8.342871E+01  9.993595E-01 -7.254927E+00
6.859375E+01  9.969364E-01 -9.043692E+00  5.472352E-04 8.021002E+01  5.321856E-04 7.964960E+01
5.813395E-04 8.081456E+01  9.985162E-01 -7.674872E+00  7.102550E-04 7.168428E+01
5.407162E-04 7.735914E+01  7.102974E-04 7.378682E+01  9.983685E-01 -7.701996E+00
7.231250E+01  9.961018E-01 -9.433614E+00  5.759448E-04 6.050921E+01  5.273060E-04 7.456108E+01
5.755593E-04 5.938192E+01  9.987699E-01 -8.016808E+00  4.127878E-04 8.709390E+01
5.340103E-04 7.616682E+01  4.287087E-04 8.415239E+01  9.991471E-01 -8.063479E+00
7.603125E+01  9.968811E-01 -9.870398E+00  6.180022E-04 7.695360E+01  6.013574E-04 7.794409E+01
6.192533E-04 7.580118E+01  9.985706E-01 -8.382438E+00  2.850352E-04 8.279856E+01
6.150634E-04 7.958550E+01  3.039194E-04 8.295376E+01  9.985633E-01 -8.394866E+00
7.975000E+01  9.972054E-01 -1.032284E+01  6.151297E-04 7.769535E+01  5.792665E-04 7.892604E+01
5.975331E-04 7.616684E+01  9.987188E-01 -8.787893E+00  6.584119E-04 8.022607E+01
5.760576E-04 7.717989E+01  6.417605E-04 8.101203E+01  9.983729E-01 -8.791114E+00
8.346875E+01  9.967082E-01 -1.083117E+01  6.751437E-04 8.307130E+01  5.103111E-04 7.463318E+01
6.669660E-04 8.270680E+01  9.983893E-01 -9.144692E+00  5.109787E-04 7.089826E+01
5.257632E-04 7.463142E+01  4.840666E-04 6.523686E+01  9.990141E-01 -9.191184E+00
8.718750E+01  9.965053E-01 -1.133374E+01  6.487499E-04 7.577314E+01  7.040212E-04 7.315862E+01
6.400530E-04 7.538654E+01  9.986209E-01 -9.603824E+00  5.435089E-04 7.878742E+01
6.818976E-04 7.402892E+01  5.058279E-04 7.765397E+01  9.985773E-01 -9.659123E+00
9.090625E+01  9.963845E-01 -1.181229E+01  6.901049E-04 7.626239E+01  7.213104E-04 7.597007E+01
6.776390E-04 7.717692E+01  9.986029E-01 -9.995441E+00  5.222866E-04 8.099826E+01
6.818685E-04 7.461590E+01  5.107227E-04 8.366851E+01  9.986171E-01 -1.002683E+01
9.462500E+01  9.965027E-01 -1.234894E+01  7.238264E-04 7.955101E+01  7.581670E-04 7.991053E+01
7.239728E-04 7.986414E+01  9.984377E-01 -1.043906E+01  6.032876E-04 7.917705E+01
7.181728E-04 7.898759E+01  6.258640E-04 8.089155E+01  9.991181E-01 -1.045977E+01
9.834375E+01  9.967052E-01 -1.276275E+01  8.776074E-04 7.599735E+01  8.335966E-04 7.391398E+01
8.546534E-04 7.548091E+01  9.979491E-01 -1.081661E+01  4.885572E-04 8.014282E+01
8.402294E-04 7.532294E+01  5.091179E-04 7.835122E+01  9.983635E-01 -1.088828E+01
1.020625E+02  9.962986E-01 -1.325543E+01  7.762042E-04 7.748769E+01  8.783085E-04 7.548039E+01
7.537683E-04 7.705154E+01  9.976146E-01 -1.125267E+01  5.241724E-04 7.820878E+01
8.460816E-04 7.658068E+01  5.102758E-04 8.034763E+01  9.985801E-01 -1.124260E+01
1.057812E+02  9.967515E-01 -1.372452E+01  7.081054E-04 6.830229E+01  7.848839E-04 7.326119E+01
6.915900E-04 7.010765E+01  9.971296E-01 -1.164461E+01  6.588955E-04 7.347494E+01
8.234816E-04 7.167838E+01  6.419935E-04 7.421088E+01  9.984123E-01 -1.167158E+01
1.095000E+02  9.961658E-01 -1.423918E+01  8.422681E-04 7.411572E+01  8.390886E-04 7.346165E+01
8.032796E-04 7.311014E+01  9.973246E-01 -1.207674E+01  6.939525E-04 8.278589E+01
8.673802E-04 7.230665E+01  6.808525E-04 8.486299E+01  9.985978E-01 -1.209999E+01
1.132188E+02  9.965016E-01 -1.467677E+01  8.862730E-04 7.268501E+01  8.263092E-04 7.633498E+01
8.602865E-04 7.115560E+01  9.974002E-01 -1.255569E+01  1.095654E-03 6.689726E+01
8.393730E-04 7.746134E+01  1.113250E-03 6.671804E+01  9.990237E-01 -1.251343E+01
1.169375E+02  9.961098E-01 -1.519020E+01  9.329281E-04 7.679113E+01  9.848598E-04 7.491717E+01
8.783587E-04 7.520025E+01  9.973602E-01 -1.290889E+01  3.831443E-04 4.576098E+01
9.657874E-04 7.347999E+01  3.880993E-04 4.755825E+01  9.990966E-01 -1.293003E+01
1.206562E+02  9.959716E-01 -1.571140E+01  9.845903E-04 7.410045E+01  9.655925E-04 7.223222E+01
9.915408E-04 7.315340E+01  9.976537E-01 -1.331770E+01  4.986169E-04 7.832907E+01
9.559590E-04 7.378212E+01  5.149283E-04 8.097058E+01  9.988893E-01 -1.331610E+01
1.243750E+02  9.952275E-01 -1.607468E+01  1.077722E-03 6.576724E+01  1.048262E-03 6.786562E+01
1.070419E-03 6.390214E+01  9.963431E-01 -1.371387E+01  4.725508E-04 9.208172E+01
1.068154E-03 6.756037E+01  4.604662E-04 9.577986E+01  9.981530E-01 -1.375405E+01
1.280938E+02  9.960254E-01 -1.649406E+01  8.070393E-04 7.445571E+01  6.827130E-04 6.342844E+01
7.906636E-04 7.195887E+01  9.976747E-01 -1.409193E+01  8.496401E-04 6.929740E+01
6.773126E-04 6.635085E+01  8.614624E-04 7.037424E+01  9.990285E-01 -1.413551E+01
1.318125E+02  9.959183E-01 -1.703756E+01  9.033227E-04 7.256100E+01  1.010780E-03 7.366609E+01
8.875248E-04 7.292983E+01  9.975057E-01 -1.450847E+01  7.891330E-04 6.969555E+01
1.005049E-03 7.289886E+01  7.605191E-04 7.202273E+01  9.994306E-01 -1.455411E+01
1.355312E+02  9.954967E-01 -1.748458E+01  9.479177E-04 7.289600E+01  8.847402E-04 7.560108E+01
9.369762E-04 7.377390E+01  9.972993E-01 -1.484128E+01  7.506327E-04 7.993999E+01
8.752983E-04 7.612752E+01  7.539772E-04 7.829962E+01  9.989241E-01 -1.491298E+01
1.392500E+02  9.961987E-01 -1.796279E+01  9.935159E-04 7.316869E+01  1.066284E-03 7.251958E+01
1.031267E-03 7.460154E+01  9.976485E-01 -1.529433E+01  8.533078E-04 7.168843E+01
1.058234E-03 7.291436E+01  8.685862E-04 7.269714E+01  9.996548E-01 -1.533134E+01
1.429688E+02  9.957544E-01 -1.844378E+01  1.068655E-03 7.150354E+01  1.103675E-03 7.195543E+01
1.029522E-03 7.269512E+01  9.978624E-01 -1.572654E+01  8.384855E-04 7.251518E+01
1.118663E-03 7.260605E+01  7.985230E-04 7.041414E+01  1.000040E+00 -1.571488E+01
1.466875E+02  9.953778E-01 -1.889986E+01  1.097402E-03 7.214523E+01  1.152022E-03 7.199166E+01
1.091526E-03 6.998681E+01  9.968701E-01 -1.617355E+01  8.574630E-04 7.360220E+01
1.132573E-03 7.236014E+01  9.027375E-04 7.491289E+01  9.998234E-01 -1.614924E+01
1.504062E+02  9.955813E-01 -1.936728E+01  1.135879E-03 6.987425E+01  1.220356E-03 6.861543E+01
1.097367E-03 6.739268E+01  9.974301E-01 -1.651250E+01  7.187375E-04 7.580206E+01
1.233449E-03 7.158655E+01  7.205312E-04 7.102717E+01  9.995324E-01 -1.649865E+01
1.541250E+02  9.952650E-01 -1.977153E+01  1.133102E-03 7.412258E+01  1.145265E-03 7.134464E+01
1.130833E-03 7.316475E+01  9.973192E-01 -1.691589E+01  8.661573E-04 7.552597E+01
1.118542E-03 7.134111E+01  9.061313E-04 7.369136E+01  9.999732E-01 -1.694217E+01
1.578438E+02  9.958893E-01 -2.028044E+01  1.423133E-03 6.228528E+01  1.243225E-03 6.738489E+01
1.426752E-03 6.185153E+01  9.966912E-01 -1.736784E+01  7.016444E-04 8.711609E+01
1.265442E-03 6.574923E+01  7.342314E-04 8.922534E+01  9.998309E-01 -1.734360E+01
1.615625E+02  9.963231E-01 -2.072926E+01  1.147225E-03 7.053113E+01  1.171515E-03 6.924503E+01
1.134998E-03 6.961987E+01  9.976398E-01 -1.766624E+01  6.401089E-04 5.420221E+01
1.147436E-03 6.975581E+01  6.251610E-04 5.590055E+01  9.999890E-01 -1.762272E+01
1.652812E+02  9.957167E-01 -2.128704E+01  1.277057E-03 6.784297E+01  1.249195E-03 6.613382E+01
1.308158E-03 6.807870E+01  9.973853E-01 -1.813588E+01  1.014453E-03 6.916036E+01
1.260259E-03 6.611289E+01  1.008286E-03 6.757974E+01  9.990782E-01 -1.808714E+01
1.690000E+02  9.954437E-01 -2.177063E+01  1.456273E-03 4.137662E+01  1.585200E-03 3.249627E+01
1.468278E-03 4.237450E+01  9.960497E-01 -1.851719E+01  2.077670E-03 1.435641E+02
1.640139E-03 3.337212E+01  2.120629E-03 1.439518E+02  9.962205E-01 -1.856680E+01
1.727188E+02  9.953937E-01 -2.211127E+01  1.219803E-03 6.355170E+01  1.183535E-03 6.317392E+01
1.216753E-03 6.353515E+01  9.963104E-01 -1.886351E+01  1.000274E-03 6.970241E+01
1.166834E-03 6.274110E+01  9.867087E-04 6.953271E+01  9.987272E-01 -1.891201E+01
1.764375E+02  9.954728E-01 -2.258111E+01  1.116078E-03 6.814832E+01  1.259595E-03 6.695824E+01
1.085880E-03 6.793304E+01  9.969269E-01 -1.926609E+01  1.402007E-03 6.747134E+01
1.254338E-03 6.705800E+01  1.441666E-03 6.641938E+01  9.990642E-01 -1.930973E+01
1.801562E+02  9.963377E-01 -2.298088E+01  1.256936E-03 7.327898E+01  1.365858E-03 8.740678E+01
1.255363E-03 7.302672E+01  9.972969E-01 -1.967735E+01  7.015527E-04 9.139068E+01
1.343112E-03 8.718145E+01  6.865571E-04 9.285144E+01  9.987188E-01 -1.968722E+01
1.838750E+02  9.960633E-01 -2.345350E+01  1.205842E-03 6.610128E+01  1.223001E-03 6.475583E+01
1.181486E-03 6.578215E+01  9.970353E-01 -2.001455E+01  8.928365E-04 6.799717E+01
1.242106E-03 6.528635E+01  9.014756E-04 6.884375E+01  9.997159E-01 -2.010307E+01
1.875938E+02  9.964917E-01 -2.393886E+01  1.242469E-03 6.681642E+01  1.246053E-03 6.735579E+01
1.252831E-03 6.583901E+01  9.975509E-01 -2.041779E+01  1.096777E-03 6.692726E+01
1.257616E-03 6.640810E+01  1.101993E-03 6.668231E+01  9.998647E-01 -2.051019E+01
1.913125E+02  9.965217E-01 -2.442131E+01  1.323102E-03 6.369103E+01  1.335307E-03 6.742280E+01
1.302437E-03 6.373720E+01  9.982314E-01 -2.084269E+01  1.027023E-03 7.104400E+01
1.314588E-03 6.702274E+01  1.062164E-03 7.101687E+01  9.994908E-01 -2.091929E+01
1.950312E+02  9.955182E-01 -2.482843E+01  1.390805E-03 6.457921E+01  1.426899E-03 6.597104E+01
1.382363E-03 6.489156E+01  9.961936E-01 -2.125085E+01  1.078238E-03 6.901989E+01
1.420076E-03 6.453740E+01  1.089187E-03 6.754437E+01  9.987284E-01 -2.131641E+01
1.987500E+02  9.955854E-01 -2.528498E+01  1.382088E-03 6.515392E+01  1.360487E-03 6.263628E+01
1.364533E-03 6.540193E+01  9.970599E-01 -2.157064E+01  1.029699E-03 6.747026E+01
1.382049E-03 6.308142E+01  1.033051E-03 6.674998E+01  9.986580E-01 -2.167447E+01
2.024688E+02  9.964092E-01 -2.575900E+01  1.262914E-03 5.445961E+01  1.285340E-03 5.611006E+01
1.250637E-03 5.477336E+01  9.963609E-01 -2.193851E+01  1.528426E-03 8.862340E+01
1.309505E-03 5.525229E+01  1.521579E-03 8.886688E+01  9.986041E-01 -2.207803E+01
2.061875E+02  9.962955E-01 -2.623962E+01  1.449699E-03 6.548002E+01  1.447640E-03 6.678740E+01
1.458948E-03 6.634991E+01  9.970471E-01 -2.234731E+01  9.146344E-04 5.912294E+01
1.456764E-03 6.562821E+01  9.278647E-04 5.830325E+01  9.987806E-01 -2.247368E+01
2.099062E+02  9.969806E-01 -2.669477E+01  1.536728E-03 6.201816E+01  1.543428E-03 6.161411E+01
1.533532E-03 6.202743E+01  9.976275E-01 -2.274909E+01  1.673432E-03 5.743817E+01
1.546698E-03 6.298010E+01  1.664727E-03 5.759226E+01  9.996591E-01 -2.291953E+01
2.136250E+02  9.961229E-01 -2.715383E+01  1.281278E-03 5.542945E+01  1.239042E-03 5.411676E+01
1.282523E-03 5.613167E+01  9.971709E-01 -2.308926E+01  1.633915E-03 8.613532E+01
1.254754E-03 5.437986E+01  1.631471E-03 8.515029E+01  9.985363E-01 -2.326315E+01
2.173438E+02  9.959738E-01 -2.766273E+01  1.489449E-03 6.283435E+01  1.550230E-03 6.073377E+01
1.491971E-03 6.273246E+01  9.969689E-01 -2.351851E+01  1.018269E-03 6.478975E+01
1.533585E-03 6.087959E+01  1.027478E-03 6.409223E+01  9.990944E-01 -2.373480E+01
2.210625E+02  9.943785E-01 -2.807594E+01  1.305430E-03 5.951265E+01  1.427743E-03 5.669045E+01
1.310772E-03 5.985567E+01  9.951909E-01 -2.391957E+01  2.277866E-03 5.448321E+01
1.443912E-03 5.750607E+01  2.305801E-03 5.558914E+01  9.979234E-01 -2.410182E+01
2.247812E+02  9.958145E-01 -2.847312E+01  1.397285E-03 6.426235E+01  1.481526E-03 6.387149E+01
1.404206E-03 6.504002E+01  9.967688E-01 -2.420177E+01  1.085353E-03 6.407163E+01
1.508458E-03 6.508791E+01  1.090809E-03 6.194232E+01  9.984917E-01 -2.442117E+01
2.285000E+02  9.959293E-01 -2.892785E+01  1.500540E-03 6.232251E+01  1.494939E-03 6.218181E+01
1.482839E-03 6.196207E+01  9.963491E-01 -2.467445E+01  6.504987E-04 5.984935E+01
1.501594E-03 6.179793E+01  6.379806E-04 5.962410E+01  9.990699E-01 -2.482493E+01
2.322188E+02  9.937874E-01 -2.948053E+01  1.558880E-03 5.489515E+01  1.582476E-03 5.471580E+01
1.560247E-03 5.483460E+01  9.963041E-01 -2.500609E+01  1.352905E-03 7.195437E+01
1.603341E-03 5.463790E+01  1.362386E-03 7.053481E+01  9.985205E-01 -2.523661E+01
2.359375E+02  9.960294E-01 -2.982903E+01  1.483772E-03 6.066442E+01  1.469390E-03 5.923717E+01
1.485791E-03 6.000387E+01  9.964460E-01 -2.538797E+01  1.169050E-03 6.442774E+01
1.496545E-03 5.843790E+01  1.206589E-03 6.449721E+01  9.988017E-01 -2.555426E+01
2.396562E+02  9.962737E-01 -3.035882E+01  1.507013E-03 6.197356E+01  1.510471E-03 6.172604E+01
1.531577E-03 6.234342E+01  9.968744E-01 -2.583902E+01  1.171858E-03 5.690365E+01
1.532515E-03 6.170971E+01  1.158851E-03 5.683406E+01  9.993009E-01 -2.600579E+01
2.433750E+02  9.948189E-01 -3.080911E+01  1.621674E-03 5.936028E+01  1.684866E-03 5.989611E+01
1.610311E-03 5.883099E+01  9.971530E-01 -2.626687E+01  1.309108E-03 6.555421E+01
1.672916E-03 5.948873E+01  1.309601E-03 6.681886E+01  9.986223E-01 -2.642694E+01
2.470938E+02  9.955018E-01 -3.119712E+01  1.405902E-03 5.634338E+01  1.437008E-03 5.587493E+01
1.402046E-03 5.722491E+01  9.957537E-01 -2.657602E+01  1.188445E-03 7.054987E+01
1.427715E-03 5.632166E+01  1.190881E-03 7.006472E+01  9.978069E-01 -2.676069E+01
2.508125E+02  9.962348E-01 -3.165618E+01  1.577579E-03 5.955574E+01  1.610906E-03 5.964846E+01
1.581917E-03 5.885294E+01  9.969541E-01 -2.698891E+01  1.215053E-03 6.085460E+01
1.610675E-03 5.985426E+01  1.214298E-03 6.096035E+01  9.989328E-01 -2.717597E+01
2.545312E+02  9.956836E-01 -3.213420E+01  1.620756E-03 5.912054E+01  1.597554E-03 5.847494E+01
1.620548E-03 5.952664E+01  9.948476E-01 -2.742636E+01  2.391924E-03 8.393018E+00
1.624972E-03 5.818295E+01  2.408538E-03 8.222720E+00  9.971670E-01 -2.758190E+01
2.582500E+02  9.957910E-01 -3.256927E+01  1.587976E-03 5.697293E+01  1.663140E-03 5.783161E+01
1.567944E-03 5.716663E+01  9.962058E-01 -2.777128E+01  1.189078E-03 6.162721E+01
1.668180E-03 5.732356E+01  1.185040E-03 6.162062E+01  9.987609E-01 -2.798289E+01
2.619688E+02  9.960595E-01 -3.304065E+01  1.918187E-03 5.675717E+01  1.907400E-03 5.634794E+01
1.885293E-03 5.609104E+01  9.970009E-01 -2.820118E+01  5.497401E-04 8.232588E+01
1.933255E-03 5.626199E+01  5.633704E-04 8.445727E+01  9.986773E-01 -2.835964E+01
2.656875E+02  9.942478E-01 -3.352627E+01  1.575875E-03 4.956204E+01  1.513219E-03 5.618797E+01
1.553113E-03 4.954406E+01  9.955399E-01 -2.856225E+01  2.110435E-03 3.776262E+01
1.530050E-03 5.541229E+01  2.143582E-03 3.691026E+01  9.980450E-01 -2.872890E+01
2.694062E+02  9.951305E-01 -3.392398E+01  1.616089E-03 5.349215E+01  1.541192E-03 5.091344E+01
1.598474E-03 5.325957E+01  9.958428E-01 -2.891453E+01  1.664832E-03 5.337653E+01
1.540168E-03 5.090262E+01  1.671734E-03 5.290402E+01  9.966669E-01 -2.911419E+01
2.731250E+02  9.952749E-01 -3.430728E+01  1.472999E-03 5.900709E+01  1.557096E-03 5.819566E+01
1.495139E-03 5.905946E+01  9.965281E-01 -2.928188E+01  2.816856E-04 6.282650E+01
1.562179E-03 5.857387E+01  2.819675E-04 6.262227E+01  9.982499E-01 -2.949434E+01
2.768438E+02  9.954176E-01 -3.482885E+01  1.643212E-03 5.453802E+01  1.686616E-03 5.490380E+01
1.638369E-03 5.521632E+01  9.967944E-01 -2.966798E+01  1.266372E-03 6.194409E+01
1.682048E-03 5.514999E+01  1.278544E-03 6.281134E+01  9.974167E-01 -2.991568E+01
2.805625E+02  9.960006E-01 -3.525762E+01  1.529277E-03 5.596500E+01  1.565892E-03 5.517743E+01
1.540437E-03 5.519223E+01  9.962739E-01 -3.005591E+01  1.607151E-03 5.685931E+01
1.574876E-03 5.492154E+01  1.586983E-03 5.658356E+01  9.976157E-01 -3.027914E+01
2.842812E+02  9.952832E-01 -3.577322E+01  1.567454E-03 5.529548E+01  1.711328E-03 5.528391E+01
1.569143E-03 5.543395E+01  9.966019E-01 -3.046314E+01  1.371058E-03 5.770139E+01
1.695596E-03 5.470001E+01  1.377419E-03 5.824337E+01  9.982610E-01 -3.067950E+01
2.880000E+02  9.947008E-01 -3.616316E+01  1.753035E-03 5.428477E+01  1.726963E-03 5.515583E+01
1.743948E-03 5.347257E+01  9.968577E-01 -3.087901E+01  1.316135E-03 6.081354E+01
1.753688E-03 5.467141E+01  1.348364E-03 6.102973E+01  9.979080E-01 -3.106992E+01
2.917188E+02  9.944746E-01 -3.663746E+01  1.834212E-03 5.284564E+01  1.844307E-03 5.444929E+01
1.816258E-03 5.256168E+01  9.964164E-01 -3.125814E+01  1.275265E-03 5.961324E+01
1.864253E-03 5.310221E+01  1.281354E-03 5.906033E+01  9.980013E-01 -3.156952E+01
2.954375E+02  9.937093E-01 -3.710257E+01  1.822566E-03 5.108983E+01  1.862534E-03 5.048646E+01
1.859873E-03 5.195832E+01  9.956202E-01 -3.161636E+01  1.262455E-03 6.068996E+01
1.864439E-03 5.024075E+01  1.242836E-03 6.078054E+01  9.969521E-01 -3.189335E+01
2.991562E+02  9.950240E-01 -3.746784E+01  1.719562E-03 5.332634E+01  1.690289E-03 5.205395E+01
1.700839E-03 5.353789E+01  9.957242E-01 -3.202097E+01  1.507898E-03 3.368323E+01
1.722154E-03 5.291833E+01  1.534827E-03 3.459558E+01  9.964792E-01 -3.230512E+01
3.028750E+02  9.945644E-01 -3.795668E+01  1.760612E-03 5.422287E+01  1.880390E-03 5.301906E+01
1.723861E-03 5.380239E+01  9.963952E-01 -3.238334E+01  1.120145E-03 5.539023E+01
1.929185E-03 5.354571E+01  1.112167E-03 5.616305E+01  9.964580E-01 -3.268987E+01
3.065938E+02  9.933315E-01 -3.842626E+01  2.083771E-03 5.194944E+01  1.974777E-03 5.289502E+01
2.060591E-03 5.163492E+01  9.960012E-01 -3.287941E+01  3.645175E-04 1.167120E+02
1.934322E-03 5.360494E+01  3.651390E-04 1.194593E+02  9.968636E-01 -3.308191E+01
3.103125E+02  9.947158E-01 -3.883822E+01  1.610630E-03 4.645345E+01  1.745788E-03 5.071341E+01
1.618606E-03 4.693956E+01  9.967052E-01 -3.315049E+01  1.737556E-03 6.545070E+01
1.711545E-03 5.054640E+01  1.783774E-03 6.476137E+01  9.971364E-01 -3.348213E+01
3.140312E+02  9.949868E-01 -3.933097E+01  1.711038E-03 5.248564E+01  1.423686E-03 5.178015E+01
1.682009E-03 5.275318E+01  9.965187E-01 -3.363178E+01  2.086148E-03 5.195678E+01
1.437374E-03 5.180507E+01  2.112393E-03 5.095067E+01  9.971657E-01 -3.386572E+01
3.177500E+02  9.939756E-01 -3.975093E+01  1.609268E-03 5.586330E+01  1.874836E-03 5.012422E+01
1.604805E-03 5.578663E+01  9.942484E-01 -3.397707E+01  1.052491E-03 4.044367E+01
1.841006E-03 5.118637E+01  1.081988E-03 3.886986E+01  9.951985E-01 -3.426186E+01
3.214688E+02  9.934745E-01 -4.008693E+01  1.707981E-03 5.151537E+01  1.760933E-03 5.052897E+01
1.660359E-03 5.052428E+01  9.965767E-01 -3.425352E+01  8.138984E-04 5.259151E+01
1.714534E-03 5.220025E+01  7.726493E-04 5.382427E+01  9.945546E-01 -3.452732E+01
3.251875E+02  9.929002E-01 -4.057244E+01  1.825773E-03 4.850572E+01  1.880836E-03 5.017434E+01
1.855828E-03 4.853941E+01  9.959446E-01 -3.465804E+01  1.588585E-03 5.757995E+01
1.880951E-03 5.010526E+01  1.611365E-03 5.693202E+01  9.956176E-01 -3.495100E+01
3.289062E+02  9.933611E-01 -4.098591E+01  1.692902E-03 5.284034E+01  1.938590E-03 4.375305E+01
1.671675E-03 5.134073E+01  9.959227E-01 -3.506234E+01  1.436322E-03 5.170336E+01
1.935675E-03 4.454948E+01  1.448658E-03 5.139233E+01  9.953300E-01 -3.541412E+01
