! Matrix data file written by TouchstoneData, EPCOS AG
! FILENAME: "newformat_AA61A_X6Y7_NB.s3p"
! COMMENT: "(AA61A_X6Y7_NB.s3p) Epcos AG 9/27/2012 1:33:"
! INFO: nport=3, nfreq=1601
! DATE: "Wed Oct 24 16:52:42 2012"
! USER: "Michael Schemies"
!
! port | pin | signal
! -----|-----|--------
!   1  |  1  |  in
!   2  |  3  |  out
!   3  |  4  |  out
! --------------------
!
# MHZ S MA R 50
! freq  magS11 angS11  magS12 angS12  magS13 angS13  ...
8.000000E+02  9.701443E-01 -1.064735E+02  3.230625E-03 1.578154E+02  3.187789E-03 1.596225E+02
3.192971E-03 1.575517E+02  9.718784E-01 -9.579581E+01  6.155852E-03 1.672768E+02
3.233742E-03 1.595500E+02  6.212443E-03 1.672143E+02  9.726955E-01 -9.558916E+01
8.001250E+02  9.696637E-01 -1.065107E+02  3.191659E-03 1.574144E+02  3.178636E-03 1.598899E+02
3.193065E-03 1.573462E+02  9.719736E-01 -9.585708E+01  6.105355E-03 1.671203E+02
3.200401E-03 1.601579E+02  6.123254E-03 1.671634E+02  9.727460E-01 -9.565014E+01
8.002500E+02  9.694169E-01 -1.065739E+02  3.151964E-03 1.573457E+02  3.191796E-03 1.598479E+02
3.141330E-03 1.577272E+02  9.717977E-01 -9.593385E+01  6.083663E-03 1.673514E+02
3.215535E-03 1.594689E+02  6.107141E-03 1.672430E+02  9.725991E-01 -9.572206E+01
8.003750E+02  9.689545E-01 -1.066108E+02  3.162814E-03 1.572174E+02  3.193437E-03 1.600960E+02
3.130779E-03 1.579097E+02  9.715655E-01 -9.599330E+01  6.077740E-03 1.672294E+02
3.199948E-03 1.597784E+02  6.090300E-03 1.671630E+02  9.728600E-01 -9.578669E+01
8.005000E+02  9.690123E-01 -1.066784E+02  3.144875E-03 1.582448E+02  3.176347E-03 1.601885E+02
3.110239E-03 1.574559E+02  9.712315E-01 -9.607157E+01  6.060410E-03 1.672165E+02
3.221144E-03 1.601976E+02  6.106082E-03 1.673284E+02  9.727490E-01 -9.585813E+01
8.006250E+02  9.690015E-01 -1.067431E+02  3.119162E-03 1.579967E+02  3.197880E-03 1.596761E+02
3.132050E-03 1.577570E+02  9.709779E-01 -9.614895E+01  6.082186E-03 1.670605E+02
3.196048E-03 1.599421E+02  6.090149E-03 1.670916E+02  9.727880E-01 -9.593490E+01
8.007500E+02  9.687019E-01 -1.068201E+02  3.109337E-03 1.579728E+02  3.174303E-03 1.599738E+02
3.140559E-03 1.580023E+02  9.704657E-01 -9.620327E+01  6.042183E-03 1.665069E+02
3.194937E-03 1.597249E+02  6.076042E-03 1.664701E+02  9.725113E-01 -9.600937E+01
8.008750E+02  9.686406E-01 -1.068848E+02  3.128249E-03 1.582630E+02  3.184238E-03 1.600572E+02
3.084206E-03 1.580114E+02  9.703447E-01 -9.626804E+01  5.939249E-03 1.660522E+02
3.214862E-03 1.596672E+02  5.959291E-03 1.660814E+02  9.720464E-01 -9.606419E+01
8.010000E+02  9.681579E-01 -1.069693E+02  3.112130E-03 1.582003E+02  3.217207E-03 1.596925E+02
3.104166E-03 1.583733E+02  9.701217E-01 -9.630953E+01  5.798926E-03 1.667466E+02
3.196838E-03 1.601506E+02  5.822192E-03 1.666462E+02  9.720168E-01 -9.614041E+01
8.011250E+02  9.680871E-01 -1.070517E+02  3.115225E-03 1.583510E+02  3.189477E-03 1.595937E+02
3.089001E-03 1.586489E+02  9.697315E-01 -9.636493E+01  5.681301E-03 1.686407E+02
3.199161E-03 1.598193E+02  5.708733E-03 1.685502E+02  9.719678E-01 -9.619672E+01
8.012500E+02  9.676369E-01 -1.071307E+02  3.109278E-03 1.584023E+02  3.233810E-03 1.596108E+02
3.106433E-03 1.581469E+02  9.697696E-01 -9.642059E+01  5.737256E-03 1.708156E+02
3.206311E-03 1.598098E+02  5.780789E-03 1.709730E+02  9.716130E-01 -9.624798E+01
8.013750E+02  9.668215E-01 -1.072099E+02  3.082292E-03 1.583145E+02  3.208969E-03 1.594337E+02
3.073818E-03 1.583699E+02  9.696851E-01 -9.647121E+01  5.912372E-03 1.720065E+02
3.180139E-03 1.593119E+02  5.963797E-03 1.717770E+02  9.715518E-01 -9.630951E+01
8.015000E+02  9.665740E-01 -1.072833E+02  3.085927E-03 1.575449E+02  3.212949E-03 1.588893E+02
3.073626E-03 1.575875E+02  9.697101E-01 -9.654171E+01  6.079933E-03 1.720646E+02
3.174874E-03 1.592560E+02  6.103228E-03 1.717459E+02  9.710734E-01 -9.636286E+01
8.016250E+02  9.659624E-01 -1.073451E+02  3.039249E-03 1.575732E+02  3.183560E-03 1.588148E+02
3.034495E-03 1.575224E+02  9.693911E-01 -9.660993E+01  6.149599E-03 1.714546E+02
3.177781E-03 1.589538E+02  6.201066E-03 1.711777E+02  9.711244E-01 -9.641082E+01
8.017500E+02  9.657557E-01 -1.074272E+02  3.001685E-03 1.575265E+02  3.164681E-03 1.589573E+02
2.978124E-03 1.575200E+02  9.692915E-01 -9.667192E+01  6.156826E-03 1.708686E+02
3.146846E-03 1.590853E+02  6.168139E-03 1.708423E+02  9.712543E-01 -9.646337E+01
8.018750E+02  9.651640E-01 -1.075148E+02  2.959292E-03 1.578239E+02  3.151029E-03 1.593147E+02
2.946528E-03 1.580088E+02  9.689905E-01 -9.673289E+01  6.070337E-03 1.711404E+02
3.141252E-03 1.589426E+02  6.124752E-03 1.708411E+02  9.714564E-01 -9.653065E+01
8.020000E+02  9.643381E-01 -1.076089E+02  2.952962E-03 1.586163E+02  3.139571E-03 1.593360E+02
2.940108E-03 1.588845E+02  9.687803E-01 -9.679062E+01  5.998955E-03 1.724164E+02
3.141788E-03 1.594110E+02  6.042860E-03 1.722253E+02  9.714379E-01 -9.659650E+01
8.021250E+02  9.634308E-01 -1.076748E+02  2.932958E-03 1.592490E+02  3.125818E-03 1.597257E+02
2.918678E-03 1.593038E+02  9.684569E-01 -9.684846E+01  6.004974E-03 1.740828E+02
3.115555E-03 1.591593E+02  6.052369E-03 1.738935E+02  9.716476E-01 -9.669148E+01
8.022500E+02  9.626551E-01 -1.077360E+02  2.912413E-03 1.598536E+02  3.081416E-03 1.593682E+02
2.893454E-03 1.597284E+02  9.686388E-01 -9.691981E+01  6.104699E-03 1.759032E+02
3.101429E-03 1.591056E+02  6.130492E-03 1.757793E+02  9.713395E-01 -9.676187E+01
8.023750E+02  9.619267E-01 -1.078078E+02  2.936651E-03 1.601923E+02  3.057323E-03 1.595585E+02
2.916345E-03 1.600027E+02  9.686263E-01 -9.696570E+01  6.224849E-03 1.774443E+02
3.065550E-03 1.588425E+02  6.274642E-03 1.775479E+02  9.712790E-01 -9.684641E+01
8.025000E+02  9.608715E-01 -1.078793E+02  2.912626E-03 1.599894E+02  3.066963E-03 1.602385E+02
2.886721E-03 1.598898E+02  9.686375E-01 -9.705756E+01  6.418430E-03 1.792149E+02
3.075105E-03 1.592922E+02  6.473790E-03 1.793066E+02  9.707104E-01 -9.692516E+01
8.026250E+02  9.596836E-01 -1.079320E+02  2.831080E-03 1.603607E+02  3.064935E-03 1.601093E+02
2.847474E-03 1.603230E+02  9.681585E-01 -9.711055E+01  6.747764E-03 -1.789538E+02
3.063825E-03 1.603024E+02  6.775577E-03 -1.792069E+02  9.708029E-01 -9.700064E+01
8.027500E+02  9.582052E-01 -1.079202E+02  2.823172E-03 1.607020E+02  3.091063E-03 1.603674E+02
2.788716E-03 1.616646E+02  9.679245E-01 -9.716941E+01  7.147239E-03 -1.781488E+02
3.083029E-03 1.598583E+02  7.185233E-03 -1.784138E+02  9.706614E-01 -9.705544E+01
8.028750E+02  9.580766E-01 -1.078979E+02  2.816485E-03 1.624724E+02  3.068123E-03 1.605984E+02
2.796911E-03 1.625222E+02  9.681064E-01 -9.722713E+01  7.559998E-03 -1.784165E+02
3.067066E-03 1.599024E+02  7.620084E-03 -1.786469E+02  9.700582E-01 -9.712810E+01
8.030000E+02  9.588615E-01 -1.079065E+02  2.809531E-03 1.635458E+02  3.070984E-03 1.601532E+02
2.791182E-03 1.634870E+02  9.679963E-01 -9.728421E+01  8.050502E-03 -1.797555E+02
3.059388E-03 1.602454E+02  8.088222E-03 -1.796744E+02  9.697979E-01 -9.717641E+01
8.031250E+02  9.596065E-01 -1.079396E+02  2.842813E-03 1.645352E+02  3.040762E-03 1.604511E+02
2.778234E-03 1.641150E+02  9.681753E-01 -9.733201E+01  8.447387E-03 1.784579E+02
3.071614E-03 1.602050E+02  8.489326E-03 1.784651E+02  9.697191E-01 -9.724185E+01
8.032500E+02  9.606365E-01 -1.080415E+02  2.828999E-03 1.650547E+02  3.025829E-03 1.603633E+02
2.828555E-03 1.655636E+02  9.680750E-01 -9.741158E+01  8.785938E-03 1.763956E+02
3.040634E-03 1.603253E+02  8.818312E-03 1.760380E+02  9.695133E-01 -9.729039E+01
8.033750E+02  9.608757E-01 -1.081576E+02  2.816040E-03 1.658452E+02  2.972899E-03 1.610070E+02
2.798171E-03 1.656829E+02  9.680739E-01 -9.749305E+01  9.040248E-03 1.738621E+02
2.966236E-03 1.602639E+02  9.086627E-03 1.738583E+02  9.693147E-01 -9.736877E+01
8.035000E+02  9.609466E-01 -1.082878E+02  2.802904E-03 1.667276E+02  2.934333E-03 1.616808E+02
2.795989E-03 1.673525E+02  9.679080E-01 -9.754363E+01  9.192758E-03 1.712450E+02
2.966245E-03 1.617931E+02  9.234470E-03 1.711892E+02  9.691429E-01 -9.739164E+01
8.036250E+02  9.604516E-01 -1.084462E+02  2.839358E-03 1.686285E+02  2.963281E-03 1.631247E+02
2.838497E-03 1.685982E+02  9.676016E-01 -9.762415E+01  9.148720E-03 1.689238E+02
2.945408E-03 1.626404E+02  9.206230E-03 1.688328E+02  9.688851E-01 -9.746947E+01
8.037500E+02  9.597117E-01 -1.085910E+02  2.924558E-03 1.695757E+02  2.994813E-03 1.640835E+02
2.893421E-03 1.694882E+02  9.674921E-01 -9.768305E+01  9.042039E-03 1.679632E+02
3.002509E-03 1.635984E+02  9.121208E-03 1.679668E+02  9.689812E-01 -9.752372E+01
8.038750E+02  9.583927E-01 -1.087031E+02  2.997115E-03 1.695708E+02  3.059405E-03 1.646298E+02
2.972384E-03 1.695948E+02  9.673306E-01 -9.772636E+01  9.108686E-03 1.681568E+02
3.026733E-03 1.637502E+02  9.171314E-03 1.680429E+02  9.688404E-01 -9.757339E+01
8.040000E+02  9.571271E-01 -1.087952E+02  3.058299E-03 1.678837E+02  3.072142E-03 1.648611E+02
3.032728E-03 1.687507E+02  9.676467E-01 -9.778049E+01  9.392215E-03 1.673934E+02
3.050892E-03 1.643646E+02  9.427301E-03 1.676244E+02  9.690982E-01 -9.760882E+01
8.041250E+02  9.561485E-01 -1.088827E+02  3.037711E-03 1.675456E+02  3.092052E-03 1.644452E+02
2.993868E-03 1.672270E+02  9.681527E-01 -9.787361E+01  9.612755E-03 1.661129E+02
3.094837E-03 1.637496E+02  9.673792E-03 1.661828E+02  9.695060E-01 -9.769891E+01
8.042500E+02  9.551594E-01 -1.089622E+02  2.975504E-03 1.676668E+02  3.119716E-03 1.643905E+02
2.972166E-03 1.674347E+02  9.681890E-01 -9.797644E+01  9.816313E-03 1.649652E+02
3.125766E-03 1.635876E+02  9.858904E-03 1.647557E+02  9.696432E-01 -9.777190E+01
8.043750E+02  9.537533E-01 -1.090827E+02  2.931749E-03 1.685586E+02  3.113464E-03 1.641603E+02
2.922576E-03 1.684775E+02  9.678723E-01 -9.807245E+01  1.000403E-02 1.633523E+02
3.108567E-03 1.639481E+02  1.006315E-02 1.632028E+02  9.698495E-01 -9.786580E+01
8.045000E+02  9.524556E-01 -1.091887E+02  2.934999E-03 1.695528E+02  3.070736E-03 1.642876E+02
2.879377E-03 1.699713E+02  9.674530E-01 -9.814036E+01  1.012495E-02 1.616481E+02
3.108984E-03 1.640285E+02  1.020492E-02 1.616299E+02  9.695666E-01 -9.793988E+01
8.046250E+02  9.509446E-01 -1.093050E+02  2.940337E-03 1.711767E+02  3.091145E-03 1.637929E+02
2.939606E-03 1.705789E+02  9.669782E-01 -9.822959E+01  1.024970E-02 1.598160E+02
3.082454E-03 1.641855E+02  1.030512E-02 1.596684E+02  9.695100E-01 -9.803265E+01
8.047500E+02  9.486633E-01 -1.094441E+02  2.981152E-03 1.713091E+02  3.108482E-03 1.641521E+02
2.956359E-03 1.711245E+02  9.667265E-01 -9.830049E+01  1.025494E-02 1.581964E+02
3.098568E-03 1.638045E+02  1.034514E-02 1.581222E+02  9.687787E-01 -9.810635E+01
8.048750E+02  9.455390E-01 -1.095570E+02  3.013703E-03 1.719664E+02  3.064923E-03 1.640316E+02
3.012775E-03 1.719282E+02  9.662810E-01 -9.837249E+01  1.030603E-02 1.575364E+02
3.054492E-03 1.642946E+02  1.039490E-02 1.574254E+02  9.686447E-01 -9.819080E+01
8.050000E+02  9.418816E-01 -1.095600E+02  3.033747E-03 1.722482E+02  3.050051E-03 1.648214E+02
3.009600E-03 1.718123E+02  9.662681E-01 -9.842869E+01  1.048672E-02 1.571716E+02
3.021896E-03 1.646343E+02  1.054345E-02 1.570246E+02  9.681442E-01 -9.825454E+01
8.051250E+02  9.388646E-01 -1.094850E+02  3.025994E-03 1.723838E+02  3.027161E-03 1.650147E+02
3.003975E-03 1.719879E+02  9.658840E-01 -9.851772E+01  1.075059E-02 1.561938E+02
3.044973E-03 1.646483E+02  1.081136E-02 1.561900E+02  9.681986E-01 -9.835179E+01
8.052500E+02  9.372535E-01 -1.093659E+02  3.010501E-03 1.720279E+02  3.034726E-03 1.657031E+02
2.989348E-03 1.715225E+02  9.655638E-01 -9.859604E+01  1.111816E-02 1.553105E+02
3.027676E-03 1.651496E+02  1.118680E-02 1.551887E+02  9.677061E-01 -9.841700E+01
8.053750E+02  9.366288E-01 -1.092975E+02  2.949034E-03 1.724122E+02  3.015441E-03 1.659048E+02
2.939841E-03 1.721334E+02  9.653004E-01 -9.868349E+01  1.158277E-02 1.536654E+02
3.016147E-03 1.661156E+02  1.166893E-02 1.535836E+02  9.674272E-01 -9.850578E+01
8.055000E+02  9.368624E-01 -1.092356E+02  2.887151E-03 1.739576E+02  2.991656E-03 1.669617E+02
2.873988E-03 1.739822E+02  9.648044E-01 -9.878059E+01  1.206620E-02 1.512738E+02
2.959590E-03 1.668365E+02  1.215775E-02 1.512924E+02  9.672919E-01 -9.857983E+01
8.056250E+02  9.381540E-01 -1.092392E+02  2.866948E-03 1.762883E+02  2.925173E-03 1.683910E+02
2.832980E-03 1.764325E+02  9.643201E-01 -9.885865E+01  1.254624E-02 1.485738E+02
2.952599E-03 1.683268E+02  1.261581E-02 1.483892E+02  9.665484E-01 -9.867688E+01
8.057500E+02  9.388962E-01 -1.093490E+02  2.844470E-03 1.790218E+02  2.930101E-03 1.697923E+02
2.869925E-03 1.791626E+02  9.634824E-01 -9.895503E+01  1.302996E-02 1.450555E+02
2.924304E-03 1.699516E+02  1.312615E-02 1.449416E+02  9.655023E-01 -9.875924E+01
8.058750E+02  9.384674E-01 -1.094767E+02  2.923417E-03 -1.779567E+02  2.937888E-03 1.720352E+02
2.919146E-03 -1.777526E+02  9.622948E-01 -9.905602E+01  1.342720E-02 1.407719E+02
2.963139E-03 1.719321E+02  1.352449E-02 1.406263E+02  9.647513E-01 -9.883897E+01
8.060000E+02  9.373544E-01 -1.095781E+02  3.044781E-03 -1.753637E+02  3.018176E-03 1.748070E+02
3.011910E-03 -1.757060E+02  9.613527E-01 -9.912632E+01  1.371130E-02 1.363467E+02
3.009052E-03 1.742294E+02  1.380233E-02 1.362611E+02  9.637059E-01 -9.890962E+01
8.061250E+02  9.362111E-01 -1.096699E+02  3.199675E-03 -1.730952E+02  3.094811E-03 1.771276E+02
3.158797E-03 -1.730490E+02  9.600766E-01 -9.918520E+01  1.402236E-02 1.313227E+02
3.103001E-03 1.765162E+02  1.409429E-02 1.311815E+02  9.627881E-01 -9.896767E+01
8.062500E+02  9.342652E-01 -1.097979E+02  3.384950E-03 -1.714880E+02  3.302580E-03 1.785164E+02
3.368733E-03 -1.713888E+02  9.586806E-01 -9.922034E+01  1.402315E-02 1.250344E+02
3.274064E-03 1.788812E+02  1.411202E-02 1.248127E+02  9.617728E-01 -9.898829E+01
8.063750E+02  9.317650E-01 -1.099265E+02  3.650851E-03 -1.722165E+02  3.546695E-03 1.781612E+02
3.611141E-03 -1.719267E+02  9.579752E-01 -9.921362E+01  1.345033E-02 1.187021E+02
3.556222E-03 1.781402E+02  1.353459E-02 1.185389E+02  9.613361E-01 -9.898809E+01
8.065000E+02  9.281175E-01 -1.100064E+02  3.810296E-03 -1.740345E+02  3.723010E-03 1.762574E+02
3.780029E-03 -1.739830E+02  9.581461E-01 -9.922027E+01  1.263287E-02 1.146994E+02
3.738561E-03 1.766232E+02  1.269555E-02 1.145658E+02  9.613405E-01 -9.899197E+01
8.066250E+02  9.240811E-01 -1.100211E+02  3.906850E-03 -1.751779E+02  3.806913E-03 1.750323E+02
3.864977E-03 -1.749002E+02  9.578948E-01 -9.928700E+01  1.210518E-02 1.119117E+02
3.811131E-03 1.747519E+02  1.217091E-02 1.119460E+02  9.614324E-01 -9.904093E+01
8.067500E+02  9.205383E-01 -1.099453E+02  4.016396E-03 -1.754816E+02  3.929931E-03 1.730189E+02
3.984844E-03 -1.760029E+02  9.575633E-01 -9.932186E+01  1.161064E-02 1.085306E+02
3.900596E-03 1.729963E+02  1.169182E-02 1.086013E+02  9.616133E-01 -9.909977E+01
8.068750E+02  9.176102E-01 -1.098612E+02  4.077853E-03 -1.769747E+02  3.956375E-03 1.707700E+02
4.076336E-03 -1.772975E+02  9.577918E-01 -9.935644E+01  1.093423E-02 1.064154E+02
4.002144E-03 1.705503E+02  1.101846E-02 1.062830E+02  9.619939E-01 -9.917242E+01
8.070000E+02  9.156875E-01 -1.097554E+02  4.100059E-03 -1.780718E+02  3.956637E-03 1.684481E+02
4.058720E-03 -1.782243E+02  9.580854E-01 -9.941527E+01  1.056466E-02 1.059999E+02
3.928871E-03 1.685136E+02  1.063504E-02 1.058365E+02  9.617714E-01 -9.925394E+01
8.071250E+02  9.130965E-01 -1.097338E+02  4.119073E-03 -1.782983E+02  3.900096E-03 1.676748E+02
4.074957E-03 -1.785320E+02  9.579159E-01 -9.952177E+01  1.052371E-02 1.047093E+02
3.912832E-03 1.678207E+02  1.058591E-02 1.046108E+02  9.612329E-01 -9.934003E+01
8.072500E+02  9.088451E-01 -1.096235E+02  4.125816E-03 -1.779059E+02  3.876078E-03 1.669261E+02
4.131236E-03 -1.774878E+02  9.573876E-01 -9.961556E+01  1.052634E-02 1.023506E+02
3.901694E-03 1.668874E+02  1.059545E-02 1.022159E+02  9.610602E-01 -9.940962E+01
8.073750E+02  9.056124E-01 -1.093102E+02  4.211760E-03 -1.769345E+02  3.848675E-03 1.665115E+02
4.203354E-03 -1.768798E+02  9.565754E-01 -9.970211E+01  1.047201E-02 9.964810E+01
3.851393E-03 1.665011E+02  1.051871E-02 9.962602E+01  9.606940E-01 -9.947174E+01
8.075000E+02  9.055293E-01 -1.089472E+02  4.356847E-03 -1.764878E+02  3.815522E-03 1.665501E+02
4.338521E-03 -1.766314E+02  9.558942E-01 -9.976134E+01  1.045891E-02 9.666587E+01
3.803677E-03 1.668485E+02  1.049522E-02 9.665964E+01  9.602528E-01 -9.953379E+01
8.076250E+02  9.072032E-01 -1.087239E+02  4.517187E-03 -1.766187E+02  3.797892E-03 1.663440E+02
4.507480E-03 -1.767199E+02  9.546973E-01 -9.980524E+01  1.046361E-02 9.356935E+01
3.844643E-03 1.663612E+02  1.056453E-02 9.351184E+01  9.596908E-01 -9.959488E+01
8.077500E+02  9.090184E-01 -1.085691E+02  4.667950E-03 -1.776265E+02  3.819426E-03 1.659015E+02
4.680001E-03 -1.772607E+02  9.542297E-01 -9.982043E+01  1.049464E-02 8.911933E+01
3.841164E-03 1.659582E+02  1.053190E-02 8.906717E+01  9.592795E-01 -9.965194E+01
8.078750E+02  9.109881E-01 -1.083943E+02  4.775419E-03 -1.784100E+02  3.829156E-03 1.659345E+02
4.791680E-03 -1.784676E+02  9.540625E-01 -9.987076E+01  1.028905E-02 8.519560E+01
3.817564E-03 1.655484E+02  1.034666E-02 8.510480E+01  9.593925E-01 -9.970800E+01
8.080000E+02  9.143573E-01 -1.083532E+02  4.885972E-03 -1.794860E+02  3.824062E-03 1.660214E+02
4.877859E-03 -1.792797E+02  9.537514E-01 -9.993654E+01  1.034103E-02 8.169759E+01
3.816329E-03 1.660787E+02  1.040479E-02 8.156395E+01  9.593128E-01 -9.977104E+01
8.081250E+02  9.159049E-01 -1.084392E+02  5.031803E-03 -1.796072E+02  3.895682E-03 1.659165E+02
5.027956E-03 -1.794827E+02  9.532138E-01 -9.999028E+01  1.049291E-02 7.585426E+01
3.899479E-03 1.658768E+02  1.056127E-02 7.570059E+01  9.589810E-01 -9.982085E+01
8.082500E+02  9.147797E-01 -1.084636E+02  5.262405E-03 1.792459E+02  3.925128E-03 1.650577E+02
5.203450E-03 1.792645E+02  9.528169E-01 -1.000306E+02  1.023925E-02 6.834629E+01
3.935746E-03 1.649071E+02  1.032002E-02 6.836964E+01  9.590293E-01 -9.988034E+01
8.083750E+02  9.134855E-01 -1.083273E+02  5.423157E-03 1.771345E+02  3.849929E-03 1.633552E+02
5.380917E-03 1.774732E+02  9.528081E-01 -1.000733E+02  9.567260E-03 6.313942E+01
3.888871E-03 1.634228E+02  9.609179E-03 6.306752E+01  9.591155E-01 -9.997170E+01
8.085000E+02  9.151110E-01 -1.081039E+02  5.505329E-03 1.751129E+02  3.831003E-03 1.627808E+02
5.502982E-03 1.750100E+02  9.524539E-01 -1.001283E+02  9.183537E-03 6.070491E+01
3.824132E-03 1.631086E+02  9.244941E-03 6.066354E+01  9.588835E-01 -1.000766E+02
8.086250E+02  9.182066E-01 -1.080018E+02  5.528685E-03 1.726417E+02  3.767705E-03 1.633765E+02
5.533415E-03 1.727155E+02  9.519996E-01 -1.001999E+02  9.413045E-03 5.767970E+01
3.774568E-03 1.635451E+02  9.486609E-03 5.748810E+01  9.581738E-01 -1.001717E+02
8.087500E+02  9.214086E-01 -1.080101E+02  5.538119E-03 1.713305E+02  3.746058E-03 1.642062E+02
5.527759E-03 1.714823E+02  9.516403E-01 -1.002666E+02  9.760960E-03 5.071161E+01
3.743160E-03 1.641103E+02  9.839907E-03 5.059350E+01  9.570620E-01 -1.002413E+02
8.088750E+02  9.242860E-01 -1.080237E+02  5.587799E-03 1.696906E+02  3.728588E-03 1.642162E+02
5.540967E-03 1.698691E+02  9.510509E-01 -1.002981E+02  9.740851E-03 4.211644E+01
3.744162E-03 1.643404E+02  9.779616E-03 4.211015E+01  9.565535E-01 -1.002919E+02
8.090000E+02  9.268813E-01 -1.081467E+02  5.594432E-03 1.685362E+02  3.738271E-03 1.647159E+02
5.555855E-03 1.684250E+02  9.508997E-01 -1.003144E+02  9.509148E-03 3.452916E+01
3.760746E-03 1.649843E+02  9.563159E-03 3.423569E+01  9.559951E-01 -1.003421E+02
8.091250E+02  9.279945E-01 -1.083149E+02  5.594658E-03 1.672012E+02  3.835425E-03 1.651701E+02
5.542489E-03 1.671779E+02  9.509845E-01 -1.003469E+02  9.312907E-03 2.627999E+01
3.815387E-03 1.650760E+02  9.379572E-03 2.617844E+01  9.554172E-01 -1.003705E+02
8.092500E+02  9.272958E-01 -1.085053E+02  5.588870E-03 1.660973E+02  3.887306E-03 1.642995E+02
5.567955E-03 1.664565E+02  9.511378E-01 -1.003813E+02  9.000395E-03 1.773036E+01
3.880419E-03 1.645545E+02  9.020739E-03 1.776737E+01  9.555334E-01 -1.003966E+02
8.093750E+02  9.240194E-01 -1.086053E+02  5.660069E-03 1.646606E+02  3.905733E-03 1.631442E+02
5.629212E-03 1.650570E+02  9.512025E-01 -1.004301E+02  8.654750E-03 1.005106E+01
