! Matrix data file written by TouchstoneData, EPCOS AG
! FILENAME: "AA74A_NB.s3p"
! COMMENT: "(AA74A_X10Y9_NB.s3p) Epcos AG 11/14/2012 1:5"
! INFO: nport=3, nfreq=1601
! DATE: "Thu Dec  6 15:33:11 2012"
! USER: "Adrian Ma"
!
! port | pin | signal
! -----|-----|--------
!   1  |  1  |  IN
!   2  |  3  |  OUT_BAL
!   3  |  4  |  OUT_BAL
! --------------------
! 
# MHZ S RI R 50
! freq  reS11 imS11  reS12 imS12  reS13 imS13  ...
1272  -0.513730764389037 -0.764269828796386  -0.00235564308241009 0.00069929927121848  -0.00289211515337228 0.000529281736817212 
-0.0023699440062046 0.000683405960444362  0.323893725872039 -0.910779893398284  -0.00600463477894662 0.000987019273452463 
-0.00291101750917732 0.000496328400913627  -0.00599245820194482 0.0010142974788323  0.329642444849014 -0.910416901111602 
1272.25  -0.512290477752685 -0.764549791812896  -0.00237092352472245 0.000664384511765094  -0.00284415180794894 0.000519930559676142 
-0.00237684790045022 0.000703860714565964  0.323709279298782 -0.910381197929381  -0.00613302411511539 0.00103410321753472 
-0.00283814687281846 0.000505751522723586  -0.00611487217247485 0.00104390340857208  0.329220712184906 -0.910323739051818 
1272.5  -0.509939968585967 -0.765352606773375  -0.0023754546418786 0.000676978030242027  -0.00280671729706227 0.000471695326268674 
-0.00237440434284508 0.000685315171722324  0.323704212903976 -0.910988450050353  -0.00603566411882638 0.00111142173409462 
-0.00280935619957744 0.000465703371446581  -0.00603269040584563 0.00111698778346181  0.328882545232772 -0.910758078098296 
1272.75  -0.508625388145446 -0.766764879226684  -0.00238254037685692 0.000647683104034515  -0.00281561817973852 0.000403891142923386 
-0.00238606496714055 0.000633170129731299  0.323224395513534 -0.91133815050125  -0.00595162669196724 0.00126310507766902 
-0.00282576726749539 0.00036058426485397  -0.00594997778534888 0.00124803523067385  0.328187227249145 -0.910654187202452 
1273  -0.507417261600494 -0.768133401870726  -0.0024399512913078 0.000613365613389762  -0.00286509306170046 0.000354093266651035 
-0.00245883408933877 0.000628112058620901  0.32261711359024 -0.91143751144409  -0.00593449128791688 0.00124725187197327 
-0.00285268086008727 0.000404648802941666  -0.00592934992164372 0.0012444470776245  0.327993780374526 -0.910711228847502 
1273.25  -0.506598949432372 -0.768846631050109  -0.00247783842496573 0.000649273511953653  -0.00291069410741329 0.000416820577811451 
-0.00244264164939522 0.00064886803738773  0.321525663137436 -0.911332666873931  -0.0058424538001418 0.00154935964383185 
-0.00289815152063965 0.000418545561842621  -0.0058053615503013 0.00156336149666458  0.327515929937362 -0.910775899887084 
1273.5  -0.505763888359069 -0.76940369606018  -0.00247351173311471 0.000610252318438144  -0.00288354908116161 0.000449946761364118 
-0.00247049587778747 0.000615502241998912  0.32124638557434 -0.911402583122252  -0.00563029525801538 0.00157930888235569 
-0.00285224406979977 0.000459414877695964  -0.00562573922798036 0.0016023414209485  0.32692864537239 -0.911196827888488 
1273.75  -0.504341900348663 -0.769554376602172  -0.00252699665725231 0.000589626957662405  -0.00288260099478065 0.000473838619654999 
-0.00250318343751132 0.000582804146688433  0.320659965276718 -0.910754740238188  -0.00538530340418218 0.00176216743420809 
-0.00285619194619357 0.000454578519565986  -0.00538787711411713 0.00178229843731969  0.326234191656112 -0.911112189292906 
1274  -0.502518713474273 -0.770419478416442  -0.00262662954628467 0.000638047815300526  -0.00287329079583287 0.000462071329820902 
-0.00260361679829656 0.000616856326814742  0.320609897375106 -0.911310672760008  -0.00495493272319435 0.00180386763531714 
-0.00285894377157091 0.000480661401525141  -0.00497201085090636 0.00180961017031222  0.326009631156921 -0.910895824432372 
1274.25  -0.501141488552093 -0.77085769176483  -0.00264374283142387 0.000641841499600561  -0.00287347985431551 0.000521993322763593 
-0.00262815644964575 0.000647506618406625  0.320371210575103 -0.911589205265044  -0.00469663646072148 0.00169851235114038 
-0.00285909231752157 0.000522562302649022  -0.00469089718535541 0.00173440854996442  0.325812220573425 -0.91117626428604 
1274.5  -0.49954867362976 -0.771525025367736  -0.00265105138532817 0.000668000138830395  -0.00284510385245084 0.000525715993717314 
-0.00262911710888147 0.000677801785059275  0.320129096508026 -0.911776959896086  -0.00420603761449455 0.00160363665781915 
-0.00283481553196906 0.000506706652231516  -0.00420387368649243 0.00159621960483491  0.325868666172027 -0.911040544509886 
1274.75  -0.497978508472442 -0.772323071956634  -0.0026677984278649 0.000696452043484898  -0.00285196327604353 0.000546826689969749 
-0.00266108126379549 0.000680086726788433  0.319726377725601 -0.91240233182907  -0.00391328008845448 0.00103809218853712 
-0.00283672264777123 0.000532785197719933  -0.00393621670082211 0.00107342796400189  0.325779408216476 -0.912016749382018 
1275  -0.496535301208495 -0.772636234760283  -0.00265555176883935 0.000707009981852026  -0.00279988488182425 0.000579189858399333 
-0.00265843281522393 0.000712565961293878  0.319023430347442 -0.912652373313902  -0.0041034985333681 0.000749170430935921 
-0.00278553692623972 0.000583622022531928  -0.0040947776287794 0.000768751779105516  0.324844658374786 -0.912346959114074 
1275.25  -0.494273543357848 -0.7729874253273  -0.00266578933224081 0.000709826475940646  -0.0027824817225337 0.000561357068363578 
-0.00264659337699413 0.000694740738254042  0.318378895521164 -0.912986278533934  -0.00409422442317008 0.000763561227358879 
-0.00277325161732733 0.000560054264497013  -0.0041063050739467 0.00078184681478888  0.324366331100463 -0.912223398685454 
1275.5  -0.491994619369506 -0.774191975593566  -0.00267220102250575 0.000746808538679035  -0.00279207970015704 0.000565999827813358 
-0.00266369991004466 0.000727411184925588  0.317897409200668 -0.913231313228606  -0.00385592714883386 0.000582268927246333 
-0.00275467475876212 0.000576930004172028  -0.00386625458486377 0.000585955567657949  0.323730170726776 -0.9121715426445 
1275.75  -0.490329205989837 -0.77549397945404  -0.00271368585526943 0.000704274163581432  -0.00273871072567999 0.000571124313864858 
-0.00271348399110138 0.000730353232938798  0.317004144191742 -0.913472294807433  -0.00385100161656736 0.000324699532939122 
-0.00275050825439393 0.000586107023991646  -0.00382438977248966 0.000302785367239267  0.323647946119308 -0.912519216537474 
1276  -0.48858967423439 -0.776500821113585  -0.00273244292475283 0.00074103439692408  -0.0027156276628375 0.000595651217736305 
-0.002736481372267 0.000718619907274844  0.316600441932678 -0.913504421710967  -0.00390120293013751 -6.61045123706573e-05 
-0.00271483534015714 0.000615337921772154  -0.00390023412182926 -3.35605909640436e-05  0.32319551706314 -0.9125799536705 
1276.25  -0.487019836902618 -0.777422189712523  -0.00275708944536745 0.0007572477334179  -0.00267155468463897 0.000599504215642811 
-0.00274707982316613 0.000741723284590991  0.316107183694839 -0.913980841636656  -0.00412055011838674 -0.000131077584228479 
-0.00267843063920736 0.00059066724497825  -0.00412963656708597 -0.000149593033711426  0.322818100452423 -0.912782430648802 
1276.5  -0.48567858338356 -0.77807581424713  -0.00275922124274074 0.000779097084887328  -0.00262663443572819 0.000563910230994226 
-0.00277289771474897 0.000754983338993044  0.315509051084518 -0.913833677768706  -0.00425394997000693 -0.000201625152840279 
-0.0026249149814248 0.000541380955837668  -0.00425410410389303 -0.000213025166885928  0.321963727474212 -0.913309276103972 
1276.75  -0.483603656291961 -0.77845275402069  -0.00277391937561333 0.000779660826083274  -0.00262228655628859 0.000546861614566298 
-0.00279892259277403 0.000787149881944062  0.315124243497848 -0.913679003715514  -0.00437282444909214 -0.000176779358298518 
-0.00260223564691841 0.000555104459635915  -0.00439510727301239 -0.00014535830996465  0.321683943271636 -0.913467824459075 
1277  -0.481610745191573 -0.780092298984526  -0.00280149397440254 0.000813938037026675  -0.00262210750952362 0.000524040136951954 
-0.00278863473795354 0.000834633654449137  0.314952224493026 -0.913656949996947  -0.00436376919969915 -0.000196102962945588 
-0.00259492569603025 0.000523487280588598  -0.0043763918802142 -0.000171006176969968  0.321330785751342 -0.913788318634032 
1277.25  -0.480294227600097 -0.781575083732604  -0.00280438526533543 0.000824487768113615  -0.00262410216964781 0.000509521691128613 
-0.0028159599751234 0.000821819121483715  0.314588218927383 -0.913780629634856  -0.00441695237532257 -0.000163362812600099 
-0.00258196494542062 0.000502098060678692  -0.00442381436005234 -0.000148676146636717  0.320857316255569 -0.914177298545836 
1277.5  -0.479186981916427 -0.782842397689818  -0.00283650215715169 0.000836549210362138  -0.00259888800792396 0.000511365302372725 
-0.00282776309177279 0.000844720751047136  0.31441530585289 -0.914384365081786  -0.00438903411850332 -0.00020335681620054 
-0.00258002150803804 0.000485227676108481  -0.00439444603398441 -0.000200045702513308  0.320700466632843 -0.914469301700591 
1277.75  -0.478425383567809 -0.783084988594054  -0.00281796348281204 0.000906591885723176  -0.00259405910037457 0.000516188913024963 
-0.00283637340180575 0.0009002773440443  0.313500493764877 -0.914622962474822  -0.00445004925131797 -0.000205315169296228 
-0.00257343566045164 0.000502431124914439  -0.00445093493908643 -0.000215468680835329  0.319847226142883 -0.914761424064635 
1278  -0.476679861545562 -0.783273518085479  -0.00282917683944105 0.000916982127819212  -0.00255902623757719 0.000479135575005786 
-0.00282216537743806 0.00091642566258088  0.313046038150787 -0.914319336414336  -0.00444213580340146 -0.000219968846067787 
-0.00254505313932895 0.000462418131064625  -0.00444885343313216 -0.00020495493663475  0.318902611732482 -0.914852797985076 
1278.25  -0.474755227565765 -0.783901512622832  -0.00282948045060038 0.000937274307943883  -0.00255905860103666 0.000482037576148288 
-0.00282767019234597 0.000919395417440685  0.312947988510131 -0.914538145065306  -0.00453026872128247 -0.000267431139945984 
-0.00254707457497715 0.000469155289465562  -0.00453927228227257 -0.000286575988866389  0.318300783634185 -0.914529502391814 
1278.5  -0.472589880228042 -0.784546852111815  -0.00283409189432859 0.000965999905020001  -0.00253970106132328 0.000476488523418085 
-0.0028521679341793 0.0009604356600903  0.31241163611412 -0.914777755737303  -0.00468926923349499 -0.000107518673758023 
-0.00252303341403603 0.00046307989396155  -0.00467317085713147 -9.1126741608605e-05  0.318018108606338 -0.914304554462432 
1278.75  -0.470537155866622 -0.785856544971465  -0.00283593754284083 0.000986436498351397  -0.00251280167140066 0.000445412559201942 
-0.00281957257539033 0.00101586862001568  0.311685562133789 -0.914957880973815  -0.00464852200821041 0.000180856193765067 
-0.00251084240153431 0.000462615251308308  -0.00465726759284734 0.000243787420913578  0.31756368279457 -0.914348900318144 
1279  -0.469532370567321 -0.787134110927581  -0.00284127215854823 0.00100302789360285  -0.00247717089951038 0.000428632803959773 
-0.00282863131724297 0.000996295246295633  0.311501860618591 -0.914909541606902  -0.00424475641921162 0.000384175713406877 
-0.0024870631750673 0.000420047814259306  -0.0042350529693067 0.000401661352952943  0.316938817501068 -0.913804411888121 
1279.25  -0.468308240175247 -0.788106620311736  -0.00283306743949651 0.0010314624523744  -0.00248226500116288 0.000387819338357077 
-0.00283323670737445 0.00102591374889016  0.310768544673919 -0.915286183357238  -0.003999182023108 0.000357371638529003 
-0.00246736896224319 0.000410089822253213  -0.00400886731222271 0.000352517061401159  0.317009180784225 -0.914067566394805 
1279.5  -0.466773092746734 -0.788805484771727  -0.00279772793874144 0.00108032417483628  -0.00241442839615046 0.000383716978831218 
-0.00281711877323686 0.00106130645144731  0.310234874486923 -0.914950489997862  -0.00361763522960245 0.000323590589687229 
-0.00244180182926356 0.000398182048229502  -0.00361587270162999 0.000333125033648685  0.316455423831939 -0.913620531558989 
1279.75  -0.46544736623764 -0.790012896060942  -0.0027734653558582 0.00105197867378592  -0.00242456584237515 0.000309666036628187 
-0.00276004197075962 0.00106552918441593  0.309728235006332 -0.915368378162383  -0.00326188234612345 -7.86099044489676e-05 
-0.00241658277809619 0.000302206899505109  -0.00325548299588262 -4.5007749577053e-05  0.316675633192062 -0.913893818855284 
1280  -0.46445009112358 -0.790892004966735  -0.00278366566635668 0.00106135301757604  -0.00244183209724724 0.000289446790702642 
-0.00274578644894063 0.00104796688538044  0.309347718954086 -0.915285825729369  -0.00317415827885269 -0.000428134546382354 
-0.00245707994326949 0.000291888252831996  -0.003191425697878 -0.000420118187321351  0.316585332155227 -0.914064168930052 
1280.25  -0.463130623102188 -0.791287541389464  -0.00281854532659053 0.00105533411260694  -0.00241925287991762 0.00028073467547074 
-0.0028229160234332 0.00104670086875558  0.309020370244979 -0.915233492851256  -0.00326123181730508 -0.000777652370743455 
-0.00241037993691861 0.000281516986433417  -0.00324163120239972 -0.000767310266382994  0.316712588071823 -0.91412854194641 
1280.5  -0.460985571146011 -0.791340708732604  -0.00287358765490352 0.00113662879448384  -0.00238037481904029 0.000257475971011446 
-0.00284294737502932 0.00111539952922612  0.308838576078414 -0.915320932865142  -0.00339086540043353 -0.000974192458670588 
-0.0023721361067146 0.00023246547789313  -0.00335838948376476 -0.000967691361438485  0.316328406333923 -0.914629518985747 
1280.75  -0.458553344011306 -0.792734384536742  -0.0028117187321186 0.00120896648149937  -0.00238483119755983 0.000170898521901109 
-0.0027836482040584 0.00121286150533706  0.308703660964965 -0.915574371814726  -0.00334810116328298 -0.00106237863656133 
-0.00237880484201014 0.000175316352397204  -0.0033824942074716 -0.00104336440563202  0.316417276859283 -0.915043771266936 
1281  -0.457297712564468 -0.794616520404815  -0.00275943125598132 0.00124171481002122  -0.00242106639780104 8.67624403326774e-05 
-0.00274745910428464 0.00122148625086993  0.308543711900711 -0.915851294994353  -0.00326120853424072 -0.00138220377266407 
-0.00241638580337166 9.21322789508851e-05  -0.00326480926014482 -0.00137206201907247  0.315790921449661 -0.915313243865966 
1281.25  -0.456216722726821 -0.795819878578185  -0.00271343812346458 0.00123408355284482  -0.00247714645229279 4.45460827904754e-05 
-0.00269001396372914 0.00122940901201218  0.307880133390426 -0.916507780551909  -0.00355433928780257 -0.00173937180079519 
-0.00247557717375457 4.43989811174107e-05  -0.00354945100843906 -0.00175727077294141  0.31527441740036 -0.915602684020995 
1281.5  -0.455612510442733 -0.796482384204863  -0.00266272877342998 0.00124537106603384  -0.00251314253546297 3.29743234033231e-05 
-0.00267135817557573 0.0012166618835181  0.307298809289932 -0.917026996612548  -0.00382960936985909 -0.00180777779314667 
-0.00251887086778879 4.30844593211078e-05  -0.00383700407110154 -0.00179366511292755  0.315122097730636 -0.915931999683379 
1281.75  -0.454196602106094 -0.797188758850096  -0.00264598778448998 0.00120969174895435  -0.00252985092811286 2.94224100798602e-05 
-0.00263019721023738 0.00118237000424415  0.307078123092651 -0.91710865497589  -0.00401135953143238 -0.001790810842067 
-0.0025209302548319 2.53005164267961e-05  -0.00400315271690487 -0.00181301636621356  0.314301550388336 -0.916197597980498 
1282  -0.452512741088867 -0.797670543193816  -0.00265338737517595 0.0012365662259981  -0.0025374183896929 -4.58232098026202e-05 
-0.00265133706852793 0.00119632936548441  0.306134521961212 -0.917588889598845  -0.0040586576797068 -0.00188089360017329 
-0.00252855801954865 -4.75576125609224e-05  -0.00407140655443071 -0.00183881854172796  0.313404411077499 -0.916230738162993 
1282.25  -0.450744301080703 -0.79831963777542  -0.00259511149488389 0.00125145469792187  -0.00260407896712422 -7.95859741629103e-05 
-0.00259609054774045 0.00124328071251511  0.305652618408203 -0.917575776576995  -0.00425700051710009 -0.00193677749484777 
-0.00261538568884134 -7.53608037484811e-05  -0.00423481222242116 -0.00191860878840088  0.312600374221801 -0.916460692882537 
1282.5  -0.448828190565109 -0.799403011798858  -0.00257025938481092 0.00123541580978781  -0.00264599989168345 -3.44265827152413e-05 
-0.00259358040057122 0.00120061857160181  0.304932713508606 -0.917367994785308  -0.00433149561285972 -0.00188799330499023 
-0.00265230541117489 -4.12873014283833e-05  -0.00431153085082768 -0.0018624197691679  0.311945647001266 -0.916248023509978 
1282.75  -0.447091966867446 -0.800474941730498  -0.00257140817120671 0.00123169308062643  -0.00265164044685661 -5.24126080563293e-05 
-0.00257535744458436 0.0012414293596521  0.304394751787185 -0.917164862155913  -0.00434094108641147 -0.00199178187176585 
-0.00264938082545995 -4.3373369408073e-05  -0.00437705637887119 -0.00195787590928375  0.311501443386077 -0.916175246238707 
1283  -0.445515066385269 -0.801588356494902  -0.00250332476571202 0.00124734011478722  -0.00267301592975854 -0.00011348780390108 
-0.00250859325751662 0.00125478464178741  0.304280132055282 -0.917210280895232  -0.00453760987147688 -0.00199476443231105 
-0.00268986402079462 -9.6009702247102e-05  -0.00454551633447408 -0.00196442729793489  0.31100594997406 -0.916316211223601 
1283.25  -0.444235265254974 -0.802332937717437  -0.00249007367528974 0.00126487226225435  -0.00266688177362084 -0.000137892624479719 
-0.00249877455644309 0.00123854726552963  0.30401000380516 -0.917108774185179  -0.00446396274492144 -0.00195786845870316 
-0.00266378256492316 -0.000123264195281081  -0.00450121331959962 -0.00196841382421553  0.310527563095092 -0.916756391525267 
1283.5  -0.442210584878921 -0.803052604198455  -0.00237129908055067 0.00127309490926563  -0.00274357455782592 -0.000242483351030388 
-0.00238094432279467 0.00125760864466428  0.303714841604232 -0.917379200458525  -0.00460311211645602 -0.00221189041621983 
-0.00275375018827617 -0.000228600765694865  -0.00461908569559454 -0.00217667710967361  0.310097992420196 -0.91680198907852 
1283.75  -0.440542459487914 -0.804604053497313  -0.00233013741672038 0.00118432461749762  -0.00289699831046163 -0.000204501280677505 
-0.00229847454465925 0.0011624553008005  0.303399264812469 -0.917561948299407  -0.00485185161232947 -0.00218465970829129 
-0.00290369917638599 -0.000183939526323229  -0.00486209895461797 -0.00219274777919054  0.309869349002838 -0.916765213012694 
1284  -0.439573258161544 -0.805613636970519  -0.00233122403733432 0.00111795018892735  -0.00292000547051429 -0.000135347188916058 
-0.00235280161723494 0.00107769935857504  0.303052335977554 -0.917590737342833  -0.00491888215765356 -0.00211763568222522 
-0.00290396064519882 -0.000161519637913444  -0.00493739312514662 -0.002105776919052  0.309402555227279 -0.917027294635772 
1284.25  -0.438628107309341 -0.806301653385161  -0.0023167070467025 0.00110316381324082  -0.00298179709352552 -0.000196863460587338 
-0.00230292463675141 0.00107231072615832  0.302591353654861 -0.917960226535796  -0.00502528809010981 -0.00217903056181967 
-0.00300154672004282 -0.000171225852682256  -0.00503128999844192 -0.00221330090425908  0.30877748131752 -0.917143642902373 
1284.5  -0.437227845191955 -0.806597709655761  -0.00226434203796088 0.00097797950729728  -0.00310888979583978 -9.63599741226064e-05 
-0.00228210911154746 0.000976280949544164  0.301955312490463 -0.918027043342589  -0.00522995460778474 -0.00220129312947392 
-0.00312357046641409 -8.77843631315047e-05  -0.00526222400367259 -0.00220263726077973  0.308281987905502 -0.91714572906494 
1284.75  -0.43543517589569 -0.806906759738921  -0.00236164685338735 0.000910553848370912  -0.00306267570704221 1.76872235897463e-05 
-0.00236899871379136 0.000879303726833316  0.301557004451751 -0.918149054050444  -0.00545379193499683 -0.00202570063993334 
