! Matrix data file written by TouchstoneData, EPCOS AG
! FILENAME: "B4327_01_WB.snp"
! COMMENT: "(B4327_01_WB.s2p) Epcos AG 5/16/2013 2:20:46"
! INFO: nport=2, nfreq=2001
! DATE: "Thu May 23 14:30:28 2013"
! USER: "Rosemary Xue"
!
! port | pin | signal
! -----|-----|--------
!   1  |  1  |  IN
!   2  |  4  |  OUT
! --------------------
! 
# MHZ S RI R 50
! freq  reS11 imS11  reS21 imS21  reS12 imS12  reS22 imS22
50  0.995532751083373 -0.0630326271057128  -5.84638692089358e-05 0.00045256008161232  3.77312608179637e-05 0.000509938050527127  0.996829748153685 -0.0653996765613555 
51.475  0.995814085006712 -0.0649536699056624  2.66586630459643e-05 0.000601509993430228  3.02357402688359e-05 0.000563928391784431  0.997023701667784 -0.0673518702387808 
52.95  0.995503187179564 -0.0668212547898291  3.66722197213676e-05 0.000540004577487708  4.38778806710617e-05 0.000570593285374345  0.99702751636505 -0.0686914399266242 
54.425  0.995213270187376 -0.0683288574218749  4.06753542847583e-06 0.000606983026955278  -7.30245483282489e-06 0.000625821994617583  0.996774375438689 -0.0706157907843588 
55.9  0.995033502578734 -0.0702260956168174  8.13786173239352e-05 0.000598811253439636  7.86438904469834e-05 0.000619927479419859  0.997163772583006 -0.0720257833600043 
57.375  0.995205223560332 -0.0723830237984656  2.96753241855186e-05 0.000625879212748261  3.88138432754204e-05 0.000603758613578976  0.997296392917632 -0.0737463533878325 
58.85  0.994474172592162 -0.0741709247231482  6.79664517519997e-05 0.000614483898971231  4.22892626374961e-05 0.000645748281385751  0.996901035308836 -0.0761044025421141 
60.325  0.994074046611784 -0.075340688228607  8.54835307109171e-05 0.000646595668513329  5.81928943574895e-05 0.000633190211374314  0.996594309806822 -0.0781876370310782 
61.8  0.994271218776702 -0.077346734702587  6.60719233565034e-05 0.000654704053886236  4.90669917780907e-05 0.000672639755066486  0.996221780776976 -0.0798822715878485 
63.275  0.994536459445952 -0.0791540443897246  4.35107031080407e-05 0.000696450413670392  3.24878274113872e-05 0.000710577587597074  0.996233165264128 -0.0815954133868216 
64.75  0.994454085826872 -0.0811874866485594  7.60700422688389e-05 0.000706204271409662  4.71777238999494e-05 0.00070720899384469  0.996300041675566 -0.0839335545897482 
66.225  0.99503046274185 -0.0826509967446326  5.60280641366263e-05 0.000711696746293457  2.7562711693463e-05 0.000719011761248113  0.996586978435515 -0.0853959545493124 
67.7  0.994487166404723 -0.0845862701535223  5.13750383106527e-05 0.00075453572208062  7.48814563849011e-05 0.000752202817238869  0.995647013187407 -0.0876651033759116 
69.175  0.994545757770537 -0.0874303802847861  8.36852996144445e-05 0.000720515788998456  8.47587871248835e-05 0.000720791169442238  0.995020389556883 -0.0896691828966139 
70.65  0.99392133951187 -0.0902239531278609  8.34544407553041e-05 0.000839587766677143  7.99701520008968e-05 0.00082855863729492  0.994485855102538 -0.0919480398297308 
72.125  0.993323922157286 -0.0893951058387755  0.000103141857834999 0.000737993395887317  0.000110971661342774 0.000750870909541847  0.994344413280486 -0.0926522612571715 
73.6  0.993530392646788 -0.0920128598809241  5.79446095798631e-05 0.000761304458137603  6.41413134871983e-05 0.000756603782065214  0.993925094604491 -0.0943834260106085 
75.075  0.993266761302947 -0.094498574733734  6.94509144523182e-05 0.000804563926067205  5.95976780459752e-05 0.000812504789792003  0.993867754936217 -0.0961756929755209 
76.55  0.993391454219817 -0.095699183642864  9.75273142103108e-05 0.0008318581385538  9.33704941417092e-05 0.000803767237812282  0.994063973426818 -0.0981611311435698 
78.025  0.993402659893034 -0.0972647443413733  7.43364871595988e-05 0.000826460716780277  7.13985718903133e-05 0.000851934368256481  0.994264423847197 -0.100169524550438 
79.5  0.99275231361389 -0.0991964861750601  9.81313569354826e-05 0.000896130572073164  9.99947806121783e-05 0.000885955349076541  0.994471192359923 -0.102097541093826 
80.975  0.992469787597655 -0.101025886833668  8.18799671833405e-05 0.000919766025617721  9.98164687189275e-05 0.000909795286133887  0.994242072105406 -0.104010932147503 
82.45  0.992185831069945 -0.102681294083595  0.000102264682936948 0.000932132068555804  7.65111253713259e-05 0.000913208175916227  0.993633329868315 -0.106089621782303 
83.925  0.991776823997496 -0.104571938514709  0.000148568040458486 0.000782824063207956  0.000142719465657138 0.000815373787190767  0.99354314804077 -0.107771813869476 
85.4  0.991329789161681 -0.106960035860538  8.50566430017354e-05 0.00091353716561571  8.00049456302078e-05 0.000882969645317646  0.993139207363127 -0.109988294541836 
86.875  0.990834176540373 -0.108618102967739  0.00013864524953533 0.000991636654362085  0.000122524434118532 0.00100974179804325  0.992640614509581 -0.112076722085476 
88.35  0.991020083427428 -0.110923416912556  0.000134952992084436 0.000993218622170391  0.000142731878440827 0.00102353922557086  0.992400050163268 -0.114004075527191 
89.825  0.991858422756194 -0.111857108771801  0.000162333686603234 0.000877922691870483  0.000139612762723118 0.000858640065416696  0.992388010025023 -0.115594185888767 
91.3  0.991557180881499 -0.114000894129276  0.000148093298776076 0.000948604836594316  0.000145143698318862 0.000948909320868554  0.992434144020079 -0.117116317152977 
92.775  0.990763247013091 -0.116341687738895  8.04873052402401e-05 0.000986492494121196  8.92081152414905e-05 0.00101484882179647  0.992400228977202 -0.119284868240356 
94.25  0.989906847476958 -0.11853127926588  0.000260955945122988 0.00103858846705407  0.000240322347963229 0.00104487175121903  0.991664648056029 -0.121112495660782 
95.725  0.990113019943236 -0.119193747639656  0.00019093748414889 0.000960295728873464  0.000205836549866945 0.000952944101300093  0.991573750972746 -0.123302385210991 
97.2  0.989535629749297 -0.121151186525822  0.000223667506361381 0.000983137288130822  0.000200316106202081 0.000963185855653139  0.990713357925414 -0.125008881092071 
98.675  0.989413857460021 -0.122712291777134  6.76180934533478e-05 0.00104028068017214  9.4753719167784e-05 0.00104858120903373  0.990536034107207 -0.126602053642273 
100.15  0.988654434680937 -0.124777778983116  0.000216030690353364 0.00108047865796834  0.00020500531536527 0.00107836769893765  0.990422904491423 -0.128698170185089 
101.625  0.988948583602904 -0.126589342951774  0.000165351113537327 0.00109301297925412  0.000143522032885813 0.00106520019471645  0.990512669086455 -0.130456119775772 
103.1  0.988794863224028 -0.128472819924354  0.00013859526370652 0.0010749592911452  0.000148825478390791 0.00109264487400651  0.990284740924834 -0.132562711834907 
104.575  0.988859713077544 -0.13079908490181  0.000189977959962562 0.00111296400427818  0.000157615970238112 0.00111235468648374  0.989610254764556 -0.134107694029808 
106.05  0.988597214221953 -0.13203339278698  0.000146931502968073 0.00112175440881401  0.000145711019285955 0.00113998202141374  0.989754676818846 -0.135864153504371 
107.525  0.988297522068022 -0.133937463164329  0.000182071758899838 0.00111520488280803  0.000164348792168312 0.00108673376962542  0.988797664642333 -0.138047441840172 
109  0.987887024879454 -0.135523781180382  0.000168970989761874 0.00113003002479672  0.000166329802596011 0.00115281413309276  0.989111781120299 -0.139813542366028 
110.475  0.987531304359435 -0.137076616287231  0.000179038994247094 0.00119874801021069  0.000165424877195619 0.00118928123265505  0.98910355567932 -0.141228690743446 
111.95  0.987365424633025 -0.139550372958183  0.000170822604559362 0.0011830423027277  0.000186853823834099 0.00118161295540631  0.988460838794707 -0.142841309309006 
113.425  0.987197220325469 -0.14162303507328  0.000188650737982244 0.00119499373249709  0.000162884913152084 0.00116487883497029  0.987780094146727 -0.145282626152038 
114.9  0.9869327545166 -0.143640264868736  0.000191786995856092 0.00118667469359934  0.000204644136829302 0.00116577581502497  0.987106084823607 -0.147831484675407 
116.375  0.986667156219481 -0.144676551222801  0.000211934355320409 0.00124404311645776  0.000172076586750336 0.00126755307428539  0.986949622631072 -0.150125712156296 
117.85  0.985793948173522 -0.146248042583465  0.000188261910807342 0.00118656596168875  0.000200281676370651 0.00119744916446507  0.986736595630644 -0.151568204164505 
119.325  0.984737873077391 -0.148042172193527  0.000185030570719392 0.00124572974164039  0.000196166030946188 0.00121635838877409  0.987118065357207 -0.152414828538894 
120.8  0.984831571578978 -0.149768680334091  0.000224498624447734 0.0012778618838638  0.000224587885895744 0.00126510893460363  0.986976921558379 -0.154085993766784 
122.275  0.984245121479033 -0.151666477322578  0.000275303405942396 0.00131389196030795  0.000274415622698144 0.00129108002875  0.986199319362639 -0.156097635626793 
123.75  0.984839975833892 -0.153212830424309  0.000220580914174207 0.00128040090203285  0.000242116759181954 0.00127469236031174  0.986154913902281 -0.158527731895447 
125.225  0.98465472459793 -0.155146539211273  0.000215840496821329 0.00132106686942279  0.00022596720373258 0.00131321290973574  0.986196041107176 -0.160774677991867 
126.7  0.984042763710021 -0.156932756304741  0.000251462479354814 0.00130702799651771  0.000248022552113981 0.00131531560327857  0.985378444194792 -0.162896260619163 
128.175  0.98327988386154 -0.158452257514  0.000200229304027744 0.00134644738864153  0.000224233372136951 0.00130117882508784  0.985273897647856 -0.16375307738781 
129.65  0.98302513360977 -0.161029949784279  0.000234529885347002 0.00138727680314332  0.00026899651857093 0.00138347293250262  0.984987974166869 -0.165239050984382 
131.125  0.98273056745529 -0.162567630410194  0.000203885792871006 0.00135828484781086  0.000202182156499476 0.00137238122988492  0.984642565250395 -0.16738574206829 
132.6  0.982658624649046 -0.1642726957798  0.000248867727350444 0.0013838984305039  0.00024469240452163 0.00140387378633022  0.983845531940459 -0.169448494911194 
134.075  0.982677578926085 -0.166498318314552  0.00024465416208841 0.00137272186111658  0.000244042064878159 0.00136769306845963  0.983604133129118 -0.171325922012329 
135.55  0.982050418853758 -0.168334662914276  0.000258014362771065 0.0014190113870427  0.000240742199821398 0.00143733923323452  0.983345866203307 -0.173006489872932 
137.025  0.98157501220703 -0.17015016078949  0.000224832328967751 0.00147186126559972  0.0002210966340499 0.00145817350130528  0.983140945434569 -0.174743518233299 
138.5  0.981064379215239 -0.171671062707901  0.000282868626527489 0.00147256511263549  0.000284767651464791 0.00148346927016973  0.982644081115721 -0.176837235689163 
139.975  0.98100447654724 -0.173065558075905  0.00029022662783973 0.0014662267640233  0.000286395399598405 0.00147094530984759  0.982221722602843 -0.178814888000488 
141.45  0.98115050792694 -0.175979524850845  0.000283232104266063 0.00141724024433642  0.000268567207967863 0.00141984212677926  0.981519043445586 -0.18071299791336 
142.925  0.979880034923552 -0.176981598138809  0.000211394944926724 0.00146604911424219  0.000217644846998156 0.00148889259435236  0.98149663209915 -0.181719362735748 
144.4  0.97892528772354 -0.178484097123146  0.000244413269683719 0.00149006105493754  0.000258187938015909 0.00146604375913739  0.981107175350188 -0.183818534016609 
145.875  0.978822946548461 -0.179940655827522  0.000344116531778128 0.00155199726577848  0.000307921582134441 0.00153102097101509  0.980763316154479 -0.185284629464149 
147.35  0.979101598262786 -0.182367011904716  0.000310993142193184 0.0015305527485907  0.000300277664791793 0.00154921680223196  0.979821920394896 -0.187582373619079 
148.825  0.97880983352661 -0.184624999761581  0.000327253597788513 0.00154340208973735  0.000301893305731938 0.00156980264000594  0.979865550994872 -0.188896536827087 
150.3  0.978476226329802 -0.185273498296737  0.00033829695894383 0.00154113606549799  0.000310622708639131 0.00153299572411924  0.980181574821471 -0.191039845347404 
151.775  0.979099094867705 -0.187263742089271  0.000294380064588041 0.00159710203297436  0.00027619642787613 0.00157343933824449  0.979543745517729 -0.193601116538048 
153.25  0.977996587753294 -0.189444497227668  0.000322046515066177 0.00163346051704138  0.000309081398881972 0.00162024644669145  0.979400515556334 -0.195628061890602 
154.725  0.977131128311156 -0.191843464970588  0.000305672874674202 0.00169284862931817  0.000300724350381643 0.00171687873080372  0.979273557662962 -0.197355076670646 
156.2  0.976944386959075 -0.193315252661705  0.000355928845237941 0.00151347857899964  0.00036232831189409 0.0015149381943047  0.97860151529312 -0.198689758777618 
157.675  0.976433277130126 -0.194747000932693  0.000325072236591951 0.0016193815972656  0.000350566668203101 0.00160320627037435  0.977792501449584 -0.200571745634079 
159.15  0.976239144802092 -0.196817487478256  0.000346432469086722 0.00168640143238008  0.00033683457877487 0.00163633655756712  0.976993143558501 -0.202592268586158 
160.625  0.975403904914855 -0.198349103331566  0.000392937334254385 0.00175614841282367  0.000381798221496866 0.00174803868867457  0.976185679435729 -0.204717561602592 
162.1  0.975982129573821 -0.200322240591049  0.000382393249310554 0.00163580116350203  0.000399926502723248 0.00163057679310441  0.976229727268218 -0.206538289785385 
163.575  0.975087463855742 -0.203218311071396  0.000356352247763426 0.0016668759053573  0.000363265076885001 0.00168375764042139  0.975292742252348 -0.207986488938331 
165.05  0.973855853080748 -0.204399347305298  0.000386332452762873 0.00166111881844699  0.000383486010832713 0.00167323148343712  0.97501629590988 -0.21001735329628 
166.525  0.973475337028502 -0.205269381403923  0.000371449743397535 0.00172925449442118  0.000318755424814299 0.00171693880110979  0.975617110729216 -0.211454570293426 
168  0.973062932491301 -0.206280171871185  0.000393048074329273 0.00173408770933747  0.000391119450796396 0.00175132951699197  0.975067853927611 -0.213118851184845 
169.475  0.973489463329314 -0.207814663648605  0.000414066424127669 0.00175452802795916  0.000379308097762988 0.00170138932298868  0.974599480628966 -0.214761197566986 
170.95  0.973455071449278 -0.209353819489479  0.000403199635911734 0.00176331587135791  0.000388512475183234 0.00175776286050677  0.974221289157866 -0.216453894972801 
172.425  0.97325426340103 -0.210899993777275  0.000485918048070745 0.00169125583488494  0.000441232084995137 0.00173470051959157  0.974050045013426 -0.21819306910038 
173.9  0.972818911075591 -0.213296428322792  0.000380705721909181 0.00176311540417373  0.000388609536457808 0.00180193048436194  0.973442554473876 -0.219602882862091 
175.375  0.972355008125304 -0.215552553534507  0.000419669377151878 0.00187425676267594  0.000406460167141632 0.00187376060057431  0.972582459449767 -0.221980944275856 
176.85  0.971429049968718 -0.218005657196045  0.000447186379460619 0.00197298498824238  0.000447042169980706 0.00198735250160098  0.97234410047531 -0.223959639668464 
178.325  0.970321893692015 -0.219413429498672  0.000522803922649474 0.00156391703058034  0.000508115394040943 0.00158642535097897  0.970944464206694 -0.226544454693794 
179.8  0.971409261226653 -0.220438778400421  0.000399208947783337 0.00181845249608159  0.000409242697060109 0.0018080020090565  0.971778213977812 -0.227473974227905 
181.275  0.970880031585692 -0.222223237156868  0.000427821738412605 0.00185103144031018  0.000401754252379761 0.00186936825048178  0.97161966562271 -0.228847697377205 
182.75  0.970701754093169 -0.22427861392498  0.000530213932506741 0.00197375961579382  0.000535175262484701 0.00198370753787458  0.971359968185424 -0.230730921030044 
184.225  0.970530450344084 -0.22586341202259  0.000445974786998705 0.0017515291692689  0.000453116750577466 0.00175834726542234  0.970641434192656 -0.23269160091877 
185.7  0.970334768295287 -0.227694168686866  0.000478054105769844 0.00184082379564642  0.000469585967948661 0.0018559640739113  0.970707714557646 -0.234639197587967 
187.175  0.969640970230101 -0.230081707239151  0.000475939625175671 0.00188791519030928  0.00045150230289437 0.00186937116086483  0.970093607902526 -0.236899048089981 
188.65  0.969279348850249 -0.232019752264022  0.000442236632807181 0.00189700524788349  0.000460818147985266 0.00187024753540754  0.969162523746489 -0.238902390003204 
190.125  0.96771728992462 -0.233012095093727  0.000476681598229335 0.0018333198968321  0.000476629822514952 0.0018711892189458  0.969475507736205 -0.240327417850494 
191.6  0.967517375946044 -0.234288960695266  0.000449519779067488 0.00194494007155299  0.000444503326434643 0.0019121712539345  0.969641983509062 -0.241775617003441 
193.075  0.96747463941574 -0.235489621758461  0.000499620742630215 0.00198110798373818  0.000478955596918241 0.00197852170094847  0.968393445014952 -0.243532240390777 
194.55  0.967512667179106 -0.237245813012123  0.000494697422254832 0.00197215238586068  0.000491409387905152 0.001980094704777  0.967471122741698 -0.245231509208679 
196.025  0.967074096202849 -0.239660277962684  0.000519912573508919 0.00195120612625032  0.000516530184540899 0.00196449947543442  0.967359900474547 -0.247174501419067 
197.5  0.966317415237425 -0.242176368832588  0.000495664076879622 0.00199687294661998  0.000498400011565537 0.00198019715026021  0.966973721981047 -0.248793810606002 
198.975  0.965798795223235 -0.243957445025444  0.00048605987103656 0.00198357831686735  0.000500305148307235 0.00198899954557418  0.966745257377623 -0.250637412071228 
200.45  0.965680956840514 -0.245472475886345  0.000521935638971628 0.00199925084598362  0.00051087816245854 0.00202842871658504  0.965717077255248 -0.252410411834716 
201.925  0.965260744094847 -0.24676313996315  0.000500855327118189 0.00204174360260367  0.000505510950461031 0.00208008871413767  0.96519762277603 -0.253707885742187 
203.4  0.964388072490691 -0.248453080654144  0.000570480944588782 0.00208576046861708  0.000571911863517017 0.0020981510169804  0.96508628129959 -0.255735278129577 
204.875  0.96382963657379 -0.24978919327259  0.000547311152331532 0.00210060458630323  0.00055856426479295 0.00207743700593709  0.965000450611113 -0.257435768842697 
206.35  0.963497579097746 -0.251483917236328  0.00057578249834478 0.00203756149858236  0.000586737820412965 0.00207042833790183  0.964452266693114 -0.259201020002365 
207.825  0.963723957538603 -0.253312796354293  0.000521098787430675 0.00206954614259302  0.000530685996636749 0.00209226761944592  0.963587760925292 -0.260828524827957 
209.3  0.96336406469345 -0.255232393741607  0.000560911081265659 0.00217208708636462  0.00056942115770653 0.00218152930028736  0.963002622127532 -0.262774735689163 
210.775  0.962506890296935 -0.257780700922012  0.000716291950084271 0.00225660344585776  0.000721342395991088 0.00225651101209223  0.962439000606536 -0.264348626136779 
212.25  0.960227727890013 -0.259973466396331  0.000619799888227136 0.00204323837533593  0.000612991861999036 0.0020536680240184  0.96128338575363 -0.265315592288971 
213.725  0.960148096084593 -0.259398758411407  0.00064891966758296 0.0021087487693876  0.000651969574391843 0.00211192108690738  0.961642444133757 -0.26719918847084 
215.2  0.960171997547148 -0.261411547660827  0.000609758717473598 0.00209934543818235  0.000598781160078944 0.00211391155607998  0.961511969566344 -0.268950700759887 
216.675  0.960141420364379 -0.262397229671478  0.000704953621607275 0.00201693875715136  0.00071345630567521 0.00197735149413347  0.960984468460082 -0.270451575517654 
218.15  0.960396587848662 -0.264422625303268  0.000602814950980247 0.00213423161767423  0.000593272852711381 0.00213062041439116  0.960658252239226 -0.272278785705566 
219.625  0.959972977638243 -0.26588699221611  0.000600195140577854 0.00218459218740463  0.000591321964748205 0.0021964821498841  0.960043370723723 -0.273989617824554 
