! Matrix data file written by TouchstoneData, EPCOS AG
! FILENAME: "B4321_X10Y10_WB.snp"
! COMMENT: "(TS/B4321_X10Y10_WB.s3p) Epcos AG 2/4/2013 2"
! INFO: nport=3, nfreq=1601
! DATE: "Fri Mar  1 16:16:13 2013"
! USER: "Dan Wang"
!
! port | pin | signal
! -----|-----|--------
!   1  |  1  |  Input
!   2  |  3  |  Output
!   3  |  4  |  Output
! --------------------
! 
# MHZ S RI R 50
! freq  reS11 imS11  reS12 imS12  reS13 imS13  ...
50  0.979101300239562 -0.184218391776085  -3.81622285203776e-05 6.99376851116542e-05  5.62697205168662e-05 1.17358840725501e-05 
-3.81622285203776e-05 6.99376851116542e-05  0.995288610458373 -0.0518433786928653  0.00111833971459418 0.0244699120521545 
5.62697205168662e-05 1.17358840725501e-05  0.00111833971459418 0.0244699120521545  0.993937075138091 -0.0536472685635089 
53.71875  0.976461350917815 -0.19701237976551  3.27828583976953e-05 9.96756989479763e-06  6.22034931438977e-05 3.18677541599755e-06 
3.27828583976953e-05 9.96756989479763e-06  0.995919346809386 -0.0560942776501178  0.00133087066933513 0.0264203175902366 
6.22034931438977e-05 3.18677541599755e-06  0.00133087066933513 0.0264203175902366  0.99418795108795 -0.0582074038684367 
57.4375  0.973220705986022 -0.212709814310074  2.95025447485387e-05 9.87284111033662e-05  2.06372533284594e-05 8.98407015483828e-05 
2.95025447485387e-05 9.87284111033662e-05  0.99646234512329 -0.0613464899361132  0.00164762779604643 0.0282429838553071 
2.06372533284594e-05 8.98407015483828e-05  0.00164762779604643 0.0282429838553071  0.994681298732756 -0.0640284791588782 
61.15625  0.968739330768584 -0.225252270698547  2.79315818261239e-05 2.01706911866495e-05  2.43265149038052e-05 -6.30039150451014e-06 
2.79315818261239e-05 2.01706911866495e-05  0.996836841106413 -0.0645452812314032  0.00177541002631187 0.0300019411370158 
2.43265149038052e-05 -6.30039150451014e-06  0.00177541002631187 0.0300019411370158  0.994930088520049 -0.0672298371791838 
64.875  0.966904878616332 -0.238364621996879  -3.09318852487195e-06 6.50831625534921e-05  -2.20745396291023e-05 4.26774113293505e-05 
-3.09318852487195e-06 6.50831625534921e-05  0.99557316303253 -0.069031849503517  0.00205128174275159 0.0314341746270656 
-2.20745396291023e-05 4.26774113293505e-05  0.00205128174275159 0.0314341746270656  0.994603276252745 -0.0700882524251937 
68.59375  0.963836967945098 -0.250878930091858  -1.07764262793353e-05 1.47390560414351e-05  -3.35950371663785e-05 1.95432248801808e-05 
-1.07764262793353e-05 1.47390560414351e-05  0.99616903066635 -0.0714710280299185  0.00234875956084578 0.0337276998907327 
-3.35950371663785e-05 1.95432248801808e-05  0.00234875956084578 0.0337276998907327  0.994391620159148 -0.0730236247181891 
72.3125  0.959717512130736 -0.263365566730499  -0.000117076218884905 -0.00024915389076341  -0.000117032879643375 -0.000278520863503219 
-0.000117076218884905 -0.00024915389076341  0.993836760520934 -0.0751510858535765  0.00158922909758985 0.0356393940746784 
-0.000117032879643375 -0.000278520863503219  0.00158922909758985 0.0356393940746784  0.992737054824828 -0.0776148289442061 
76.03125  0.95735728740692 -0.27730506658554  8.42923254822382e-05 0.000125691076391377  7.0552316174144e-05 0.000111521479993826 
8.42923254822382e-05 0.000125691076391377  0.994336545467375 -0.0780991837382315  0.00277027068659663 0.0372239369899034 
7.0552316174144e-05 0.000111521479993826  0.00277027068659663 0.0372239369899034  0.993362367153166 -0.0813836827874182 
79.75  0.95362079143524 -0.287919998168945  3.73897401004798e-05 9.07849826035093e-05  5.52784549654463e-05 6.51179998385488e-05 
3.73897401004798e-05 9.07849826035093e-05  0.99472951889038 -0.0816927924752234  0.00330870505422353 0.0391151886433362 
5.52784549654463e-05 6.51179998385488e-05  0.00330870505422353 0.0391151886433362  0.993215084075926 -0.0854019820690154 
83.46875  0.949757874011992 -0.300978451967239  0.000107940602902091 -0.000103118603874464  0.000103623842733214 -0.000151976411871147 
0.000107940602902091 -0.000103118603874464  0.992903113365172 -0.0826242193579672  0.00258994533214717 0.0420500338077544 
0.000103623842733214 -0.000151976411871147  0.00258994533214717 0.0420500338077544  0.99294465780258 -0.085293911397457 
87.1875  0.945358514785765 -0.314682960510254  7.97566026449205e-05 6.92523426550908e-05  7.80972241045676e-05 5.80880132474705e-05 
7.97566026449205e-05 6.92523426550908e-05  0.993362903594969 -0.0898688882589339  0.00352402008138596 0.0429173130542039 
7.80972241045676e-05 5.80880132474705e-05  0.00352402008138596 0.0429173130542039  0.993600666522978 -0.0924998074769972 
90.90625  0.939281702041625 -0.327664047479629  1.02951457847667e-05 0.000122810030006804  7.85955933224613e-06 0.00013678092363989 
1.02951457847667e-05 0.000122810030006804  0.991439402103423 -0.0928655564785002  0.00430300412699579 0.0449139159172773 
7.85955933224613e-06 0.00013678092363989  0.00430300412699579 0.0449139159172773  0.9912993311882 -0.097727097570896 
94.625  0.936004102230071 -0.338866204023361  -4.46324411313981e-05 -1.40977330147507e-05  -4.53077864221997e-05 -1.26982349684113e-05 
-4.46324411313981e-05 -1.40977330147507e-05  0.991660654544829 -0.0971227735280989  0.0046054699923843 0.0462568625807761 
-4.53077864221997e-05 -1.26982349684113e-05  0.0046054699923843 0.0462568625807761  0.990831434726714 -0.0996679142117498 
98.34375  0.931580126285552 -0.351247459650039  2.99387402264984e-05 0.000113739795779111  4.2100829887204e-05 0.000114975551696262 
2.99387402264984e-05 0.000113739795779111  0.99182492494583 -0.0996713265776632  0.0052124592475593 0.0486079640686512 
4.2100829887204e-05 0.000114975551696262  0.0052124592475593 0.0486079640686512  0.992677390575408 -0.103582821786404 
102.0625  0.926124930381774 -0.364439696073532  1.65261726579047e-05 0.000198782166989986  2.81908869510517e-05 0.00016046068049036 
1.65261726579047e-05 0.000198782166989986  0.991202414035796 -0.105180405080318  0.00518907839432358 0.0499082095921038 
2.81908869510517e-05 0.00016046068049036  0.00518907839432358 0.0499082095921038  0.991240143775939 -0.108145177364349 
105.78125  0.921132028102874 -0.374638766050338  -8.7351314732587e-06 0.000118070256576175  -1.1433535291872e-06 0.000133292203827296 
-8.7351314732587e-06 0.000118070256576175  0.990480124950408 -0.109751120209694  0.00583545654080807 0.0519082620739936 
-1.1433535291872e-06 0.000133292203827296  0.00583545654080807 0.0519082620739936  0.989526867866515 -0.111828446388244 
109.5  0.915423035621642 -0.38926476240158  -6.01251012994909e-05 0.000177581772732083  -3.48024605045794e-05 0.000170701372553595 
-6.01251012994909e-05 0.000177581772732083  0.989800453186034 -0.113551393151283  0.006236236076802 0.0534851886332034 
-3.48024605045794e-05 0.000170701372553595  0.006236236076802 0.0534851886332034  0.988106012344359 -0.11585895717144 
113.21875  0.910203933715819 -0.401390522718429  2.61806017078925e-05 0.000151167419971899  1.9344126485521e-05 0.000141310141771101 
2.61806017078925e-05 0.000151167419971899  0.988019466400145 -0.117102228105068  0.00704422034323214 0.055102927610278 
1.9344126485521e-05 0.000141310141771101  0.00704422034323214 0.055102927610278  0.988069295883177 -0.12006601691246 
116.9375  0.904646217823027 -0.412898868322372  1.4667982213723e-05 0.000139362462505233  1.13992587102985e-05 0.000148383100167848 
1.4667982213723e-05 0.000139362462505233  0.987637996673583 -0.12100351601839  0.00663505727425217 0.0574740841984748 
1.13992587102985e-05 0.000148383100167848  0.00663505727425217 0.0574740841984748  0.987233698368071 -0.123265877366066 
120.65625  0.898501515388488 -0.42458301782608  0.000112524950964143 0.000145604062709026  9.37616969167724e-05 0.000147785154695158 
0.000112524950964143 0.000145604062709026  0.987039744853972 -0.125207275152206  0.00719552626833318 0.057987881824374 
9.37616969167724e-05 0.000147785154695158  0.00719552626833318 0.057987881824374  0.986658930778502 -0.127904072403908 
124.375  0.894460320472716 -0.436699450016021  3.84710601792904e-05 8.39290842122866e-05  4.68372290924891e-05 8.27693984319923e-05 
3.84710601792904e-05 8.39290842122866e-05  0.986467480659484 -0.12721537053585  0.00831117061898111 0.0612937193363903 
4.68372290924891e-05 8.27693984319923e-05  0.00831117061898111 0.0612937193363903  0.987156569957732 -0.131186500191688 
128.09375  0.887745976448058 -0.448830783367156  7.41276489861777e-05 9.06975074030926e-05  6.3451905589318e-05 4.8606761993142e-05 
7.41276489861777e-05 9.06975074030926e-05  0.986505746841429 -0.132329255342483  0.00869145244359968 0.0627934895455836 
6.3451905589318e-05 4.8606761993142e-05  0.00869145244359968 0.0627934895455836  0.9870827794075 -0.136735200881958 
131.8125  0.881100833415984 -0.461217045783996  4.6311847654579e-06 0.000247068863245659  1.66285653904197e-05 0.00022070005798014 
4.6311847654579e-06 0.000247068863245659  0.98634624481201 -0.136811479926109  0.00842851959168909 0.0634383261203765 
1.66285653904197e-05 0.00022070005798014  0.00842851959168909 0.0634383261203765  0.986037492752074 -0.141208052635193 
135.53125  0.875414788722991 -0.472125172615051  1.19234002795565e-05 0.000171943727764301  1.5207803244266e-05 0.000153615939780138 
1.19234002795565e-05 0.000171943727764301  0.985630273818968 -0.138679221272468  0.00987502606585619 0.065840721130371 
1.5207803244266e-05 0.000153615939780138  0.00987502606585619 0.065840721130371  0.984337329864501 -0.144268795847893 
139.25  0.868178725242614 -0.482443749904632  5.61234337510543e-05 0.000177706555405166  5.69979893043638e-05 0.000176965360878967 
5.61234337510543e-05 0.000177706555405166  0.984477281570433 -0.141048431396484  0.00996305467560885 0.0688271708786486 
5.69979893043638e-05 0.000176965360878967  0.00996305467560885 0.0688271708786486  0.983878910541533 -0.146209612488746 
142.96875  0.860461175441741 -0.494888544082641  0.00012935924314661 0.000146244587085676  0.000152501990669407 0.000154581051901915 
0.00012935924314661 0.000146244587085676  0.98276388645172 -0.146128103137016  0.0102182207629085 0.0692269504070281 
0.000152501990669407 0.000154581051901915  0.0102182207629085 0.0692269504070281  0.98376703262329 -0.149419054389 
146.6875  0.856335937976836 -0.504051268100738  5.10473018948688e-05 0.000225839205086232  4.14709575125017e-05 0.000169280501722824 
5.10473018948688e-05 0.000225839205086232  0.982310116291045 -0.149458214640617  0.0110477423295379 0.070974752306938 
4.14709575125017e-05 0.000169280501722824  0.0110477423295379 0.070974752306938  0.983726263046263 -0.153823092579841 
150.40625  0.850229084491729 -0.514543235301971  7.6013388024876e-05 0.000212658887903672  6.54079540254316e-05 0.000175921639311128 
7.6013388024876e-05 0.000212658887903672  0.982318937778472 -0.15235210955143  0.0115644186735153 0.0731046609580515 
6.54079540254316e-05 0.000175921639311128  0.0115644186735153 0.0731046609580515  0.984052598476408 -0.156684219837188 
154.125  0.843772411346434 -0.525625944137572  3.13212403852959e-05 0.000154297216795385  3.45440930686892e-05 0.000101742440165254 
3.13212403852959e-05 0.000154297216795385  0.982204020023345 -0.15854611992836  0.0127011919394135 0.0746053531765936 
3.45440930686892e-05 0.000101742440165254  0.0127011919394135 0.0746053531765936  0.982155501842497 -0.162267968058586 
157.84375  0.836786150932311 -0.536169171333312  7.99007939349396e-05 0.000174737193447072  3.25164683090407e-05 0.000167481586686336 
7.99007939349396e-05 0.000174737193447072  0.98115712404251 -0.162226155400276  0.0132049839012325 0.0763404890894888 
3.25164683090407e-05 0.000167481586686336  0.0132049839012325 0.0763404890894888  0.980716109275816 -0.165110364556312 
161.5625  0.831960856914519 -0.5454283952713  1.93619453057181e-05 0.000165275327162818  -1.0984964688987e-05 0.000167113350471482 
1.93619453057181e-05 0.000165275327162818  0.98134011030197 -0.165342137217521  0.0133349508978426 0.0782198160886764 
-1.0984964688987e-05 0.000167113350471482  0.0133349508978426 0.0782198160886764  0.981523633003234 -0.167898178100586 
165.28125  0.821939468383788 -0.55803894996643  6.06212197453716e-05 0.000206867545784917  6.79191052768147e-05 0.000181337403773796 
6.06212197453716e-05 0.000206867545784917  0.978688895702361 -0.170403689146042  0.013806932605803 0.0788033306598662 
6.79191052768147e-05 0.000181337403773796  0.013806932605803 0.0788033306598662  0.978858828544615 -0.173355266451835 
169  0.816102266311644 -0.565827548503875  7.48407965147636e-05 0.000181307543243747  3.31547844325542e-05 0.000124144869914745 
7.48407965147636e-05 0.000181307543243747  0.97703182697296 -0.171611905097961  0.0143836988136172 0.0808283276855944 
3.31547844325542e-05 0.000124144869914745  0.0143836988136172 0.0808283276855944  0.978871524333952 -0.176365092396736 
172.71875  0.809305548667907 -0.575561106204986  0.00010763118552859 0.000199968919332606  8.27579533506652e-05 0.000176338689925615 
0.00010763118552859 0.000199968919332606  0.977216362953185 -0.173951268196106  0.01516575505957 0.0853551588952539 
8.27579533506652e-05 0.000176338689925615  0.01516575505957 0.0853551588952539  0.97792088985443 -0.176512539386749 
176.4375  0.800904810428618 -0.587788999080657  9.8423832241679e-05 0.000192538282135502  6.77956577419538e-05 0.00015909198555164 
9.8423832241679e-05 0.000192538282135502  0.976918876171111 -0.18020099401474  0.0156854707747697 0.0850218571722506 
6.77956577419538e-05 0.00015909198555164  0.0156854707747697 0.0850218571722506  0.977359175682066 -0.182310178875923 
180.15625  0.79496932029724 -0.597850918769836  9.34048512135632e-05 0.000216490509046708  4.9242822569795e-05 0.00018940752488561 
9.34048512135632e-05 0.000216490509046708  0.975924909114836 -0.180201515555382  0.0173250939697027 0.0851990170776842 
4.9242822569795e-05 0.00018940752488561  0.0173250939697027 0.0851990170776842  0.976420521736144 -0.183213859796524 
183.875  0.78673893213272 -0.606090188026427  9.48257547861432e-05 0.000175622102688067  5.50834265595769e-05 0.000176827546965797 
9.48257547861432e-05 0.000175622102688067  0.976342141628264 -0.185770481824875  0.0170118249952793 0.0889639742672442 
5.50834265595769e-05 0.000176827546965797  0.0170118249952793 0.0889639742672442  0.975247263908385 -0.189398035407066 
187.59375  0.780349552631377 -0.617243111133575  0.000110432905785274 0.000190209240827244  9.3227758043213e-05 0.000169253420608584 
0.000110432905785274 0.000190209240827244  0.975857079029082 -0.191252782940864  0.0169469304382801 0.0888243764638899 
9.3227758043213e-05 0.000169253420608584  0.0169469304382801 0.0888243764638899  0.975051879882811 -0.19592721760273 
191.3125  0.770978689193724 -0.626107871532439  0.000108323929453036 0.000151015061419457  0.000144054138218053 0.000158004026161507 
0.000108323929453036 0.000151015061419457  0.975067496299742 -0.192887395620346  0.018458591774106 0.0926583521068094 
0.000144054138218053 0.000158004026161507  0.018458591774106 0.0926583521068094  0.974456012248992 -0.197195068001747 
195.03125  0.763748466968535 -0.635559082031249  5.40640030521901e-06 0.000174670407432131  8.62441811477766e-06 0.000163363154570107 
5.40640030521901e-06 0.000174670407432131  0.973830342292784 -0.196974903345108  0.0193944470956922 0.0943019948899744 
8.62441811477766e-06 0.000163363154570107  0.0193944470956922 0.0943019948899744  0.972818255424498 -0.200451806187629 
198.75  0.753388762474059 -0.646073222160338  6.96459828759544e-05 0.000201672242837958  7.79805013735315e-05 0.000161121395649388 
6.96459828759544e-05 0.000201672242837958  0.971948504447936 -0.200652286410331  0.0201446367427707 0.0956201478838919 
7.79805013735315e-05 0.000161121395649388  0.0201446367427707 0.0956201478838919  0.972465932369231 -0.204667255282402 
202.46875  0.748803377151488 -0.65306806564331  6.05558379902506e-05 0.000206869757676031  4.8250276449835e-05 0.000177133049874101 
6.05558379902506e-05 0.000206869757676031  0.971274912357329 -0.204841092228889  0.0210287924855947 0.0969341844320296 
4.8250276449835e-05 0.000177133049874101  0.0210287924855947 0.0969341844320296  0.97165685892105 -0.209257140755653 
206.1875  0.743119239807128 -0.661449491977691  5.19326367793839e-05 0.000145217927638441  3.54889625668876e-05 0.000106383133243071 
5.19326367793839e-05 0.000145217927638441  0.970304250717162 -0.207688510417938  0.0216300208121538 0.09884250536561 
3.54889625668876e-05 0.000106383133243071  0.0216300208121538 0.09884250536561  0.971062421798705 -0.211610794067383 
209.90625  0.73348695039749 -0.672971665859222  6.18466729065404e-05 0.000224746443564073  6.99571173754522e-05 0.000194120286323596 
6.18466729065404e-05 0.000224746443564073  0.969342827796935 -0.212363213300705  0.0221195314079522 0.100013136863708 
6.99571173754522e-05 0.000194120286323596  0.0221195314079522 0.100013136863708  0.970267236232756 -0.21631833910942 
213.625  0.72263753414154 -0.680226147174834  6.74442271701993e-05 0.000251154429861345  6.4226571339532e-05 0.000230736179219093 
6.74442271701993e-05 0.000251154429861345  0.96604937314987 -0.213591337203979  0.0223147477954626 0.101060580462217 
6.4226571339532e-05 0.000230736179219093  0.0223147477954626 0.101060580462217  0.966207802295684 -0.218878790736198 
217.34375  0.71609741449356 -0.68805158138275  2.96820944640786e-05 0.00023977355886018  7.23945890968028e-06 0.000188115613127593 
2.96820944640786e-05 0.00023977355886018  0.965878307819365 -0.218824297189712  0.0241459039971232 0.103619132190943 
7.23945890968028e-06 0.000188115613127593  0.0241459039971232 0.103619132190943  0.966709673404692 -0.22236393392086 
221.0625  0.702330708503722 -0.694810450077056  0.000193811683857348 9.90433836705054e-05  0.000164895369380247 0.000101484947663266 
0.000193811683857348 9.90433836705054e-05  0.959174633026122 -0.225042223930359  0.018076024018228 0.101009532809258 
0.000164895369380247 0.000101484947663266  0.018076024018228 0.101009532809258  0.958826363086699 -0.229603320360183 
224.78125  0.702098071575164 -0.704971313476562  8.13223450677471e-05 0.000200901136850007  4.97957025800134e-05 0.000179257840500214 
8.13223450677471e-05 0.000200901136850007  0.965798020362853 -0.225134044885635  0.0254617854952812 0.107376109808684 
4.97957025800134e-05 0.000179257840500214  0.0254617854952812 0.107376109808684  0.965552031993865 -0.229121699929237 
228.5  0.692561626434325 -0.713849127292632  0.000105011844425462 0.000229477642278653  7.38681956136135e-05 0.000189917140232865 
0.000105011844425462 0.000229477642278653  0.964878082275389 -0.227117896080017  0.0266003217548131 0.110258329659701 
7.38681956136135e-05 0.000189917140232865  0.0266003217548131 0.110258329659701  0.964163601398467 -0.232595607638359 
232.21875  0.681329548358916 -0.72476315498352  9.90510961855764e-05 0.000196108485397418  0.000101818819530308 0.000199165944650304 
9.90510961855764e-05 0.000196108485397418  0.963205695152281 -0.230920910835266  0.0265244739130139 0.110044449567794 
0.000101818819530308 0.000199165944650304  0.0265244739130139 0.110044449567794  0.96138423681259 -0.237788721919059 
235.9375  0.674220919609069 -0.729747712612151  9.07558242033703e-05 0.000220757385250182  7.22399418009446e-05 0.000186716773896478 
9.07558242033703e-05 0.000220757385250182  0.962747991085051 -0.233912795782089  0.0275730974972248 0.111200399696827 
7.22399418009446e-05 0.000186716773896478  0.0275730974972248 0.111200399696827  0.962384819984435 -0.239315643906593 
239.65625  0.664860785007476 -0.736436009407042  8.10345991340002e-05 0.000160723546287045  5.78844355914044e-05 0.000122339435620234 
8.10345991340002e-05 0.000160723546287045  0.960687041282652 -0.236330777406692  0.0284022493287921 0.115265969187021 
5.78844355914044e-05 0.000122339435620234  0.0284022493287921 0.115265969187021  0.960550427436827 -0.241314515471458 
243.375  0.655642688274383 -0.742820382118224  0.000125054455565988 0.000186733050213662  0.000131243621581234 0.000141878212161828 
