! Matrix data file written by TouchstoneData, EPCOS AG
! FILENAME: "AA30A_7_R01C20_WB.snp"
! COMMENT: "(TS/AA30A_7_R01C20_WB.s2p) Epcos AG 7/22/201"
! INFO: nport=2, nfreq=1601
! DATE: "Mon Aug 12 13:21:16 2013"
! USER: "Wee Chuan Tay"
!
! port | pin | signal
! -----|-----|--------
!   1  |  1  |  Input
!   2  |  4  |  Output
! --------------------
! 
# MHZ S RI R 50
! freq  reS11 imS11  reS21 imS21  reS12 imS12  reS22 imS22
50  0.985222935676573 -0.145607054233551  0.000166757847182453 0.001035378605593  0.000166757847182453 0.001035378605593  0.987236380577086 -0.141788154840469 
53.71875  0.9841451048851 -0.156825318932533  0.000145720034197439 0.00103039055829868  0.000145720034197439 0.00103039055829868  0.986680328845976 -0.151179492473602 
57.4375  0.98194521665573 -0.168189704418182  0.000317497848300264 0.00104391115019098  0.000317497848300264 0.00104391115019098  0.985693991184233 -0.161043033003807 
61.15625  0.980028390884398 -0.178906619548797  0.000233206279517618 0.00124547345330938  0.000233206279517618 0.00124547345330938  0.982944607734679 -0.172176674008369 
64.875  0.978394985198973 -0.188438698649406  0.000228286218771245 0.00128480885177851  0.000228286218771245 0.00128480885177851  0.981802105903624 -0.182862848043442 
68.59375  0.975361526012419 -0.200119480490684  0.00124771118862554 0.000875991041539239  0.00124771118862554 0.000875991041539239  0.976051747798918 -0.19259662926197 
72.3125  0.974309682846068 -0.209965541958809  0.000403821584768595 0.00139110285090282  0.000403821584768595 0.00139110285090282  0.976493597030638 -0.202601566910743 
76.03125  0.971212565898894 -0.220904618501663  0.000320816761814058 0.00129339634440839  0.000320816761814058 0.00129339634440839  0.974932849407195 -0.213576450943947 
79.75  0.969495892524718 -0.232533201575279  0.000321685467497446 0.00136466091498733  0.000321685467497446 0.00136466091498733  0.973190546035765 -0.223793596029281 
83.46875  0.966141343116759 -0.242617636919021  0.000360960460966453 0.00142419268377125  0.000360960460966453 0.00142419268377125  0.970610857009886 -0.233050063252449 
87.1875  0.963714241981505 -0.25324746966362  0.000448214937932791 0.00151445687515661  0.000448214937932791 0.00151445687515661  0.967134296894072 -0.244364872574806 
90.90625  0.960852026939391 -0.263581901788711  0.00047947712300811 0.00169812643434852  0.00047947712300811 0.00169812643434852  0.964286327362059 -0.254709213972091 
94.625  0.957283616065978 -0.273553401231765  0.000850680022267626 0.00185190193587914  0.000850680022267626 0.00185190193587914  0.961290776729582 -0.265816986560821 
98.34375  0.95530331134796 -0.283314943313598  0.000562174362130464 0.00177187944063916  0.000562174362130464 0.00177187944063916  0.959717988967894 -0.274660974740982 
102.0625  0.95190531015396 -0.294610619544982  0.000604182976530866 0.00188840017654001  0.000604182976530866 0.00188840017654001  0.956060051918028 -0.286275893449783 
105.78125  0.948300182819365 -0.30399414896965  0.000604724307777361 0.00193612190196291  0.000604724307777361 0.00193612190196291  0.953305065631865 -0.294741004705429 
109.5  0.945540189743041 -0.314750909805297  0.000601403677137569 0.00167206960031762  0.000601403677137569 0.00167206960031762  0.950430095195769 -0.303995788097381 
113.21875  0.941826999187468 -0.324946135282516  0.000801228015916424 0.0020444329129532  0.000801228015916424 0.0020444329129532  0.946733891963958 -0.315076768398284 
116.9375  0.93704980611801 -0.334591120481491  0.000814012455521153 0.00207364070229231  0.000814012455521153 0.00207364070229231  0.942145407199858 -0.324585318565368 
120.65625  0.934080362319945 -0.34383687376976  0.000868406641529875 0.00182289496297017  0.000868406641529875 0.00182289496297017  0.939922034740447 -0.33338388800621 
124.375  0.931254625320433 -0.354790806770324  0.000902539672097193 0.00209578080102801  0.000902539672097193 0.00209578080102801  0.936507821083068 -0.343797028064727 
128.09375  0.927206993103026 -0.36453765630722  0.000790310034062716 0.00207188073545694  0.000790310034062716 0.00207188073545694  0.933220267295836 -0.353022634983062 
131.8125  0.921548664569854 -0.375383645296096  0.000923223735298963 0.00222736108116805  0.000923223735298963 0.00222736108116805  0.929059803485869 -0.363586723804473 
135.53125  0.918443977832793 -0.384554535150527  0.00101680681109428 0.00226047076284885  0.00101680681109428 0.00226047076284885  0.925026834011077 -0.3733791410923 
139.25  0.9140647649765 -0.394079148769378  0.00107192696304991 0.00241783098317682  0.00107192696304991 0.00241783098317682  0.919821500778197 -0.383636057376861 
142.96875  0.909621655941008 -0.402755290269851  0.000959525816142562 0.00193293014308437  0.000959525816142562 0.00193293014308437  0.916478395462035 -0.389268547296524 
146.6875  0.905550062656401 -0.412547409534454  0.00111434899736195 0.00244760082568973  0.00111434899736195 0.00244760082568973  0.913020849227904 -0.400827348232269 
150.40625  0.90094220638275 -0.422087550163268  0.00114421878242865 0.00230383151210844  0.00114421878242865 0.00230383151210844  0.908127844333647 -0.409688740968704 
154.125  0.895819187164305 -0.431919604539871  0.00117239757673815 0.00261739315465092  0.00117239757673815 0.00261739315465092  0.903942525386809 -0.418574899435043 
157.84375  0.891724169254302 -0.440703213214874  0.00141582783544435 0.00276189611759036  0.00141582783544435 0.00276189611759036  0.899102270603179 -0.429201543331146 
161.5625  0.886994779109954 -0.450232803821563  0.00132035749265924 0.00238609372172504  0.00132035749265924 0.00238609372172504  0.894513010978698 -0.437911331653594 
165.28125  0.882164537906646 -0.458344966173171  0.00192938861437142 0.00238081521820276  0.00192938861437142 0.00238081521820276  0.888555109500884 -0.44510194659233 
169  0.878595709800719 -0.466899245977401  0.00136706919874996 0.00249750586226581  0.00136706919874996 0.00249750586226581  0.886245250701903 -0.453761845827102 
172.71875  0.872773885726928 -0.475693136453628  0.00131300109205767 0.0025330422213301  0.00131300109205767 0.0025330422213301  0.882103264331816 -0.462566792964935 
176.4375  0.867896735668181 -0.484752774238586  0.00147787522291764 0.00269242259673774  0.00147787522291764 0.00269242259673774  0.877645194530486 -0.471481800079345 
180.15625  0.864294707775115 -0.493783503770828  0.0015708155115135 0.00269602437037974  0.0015708155115135 0.00269602437037974  0.872149229049681 -0.480989813804626 
183.875  0.858997285366057 -0.502105176448821  0.00169401097809895 0.00267993099987506  0.00169401097809895 0.00267993099987506  0.86706894636154 -0.489956766366958 
187.59375  0.852457642555236 -0.511920690536498  0.00187131093116477 0.00281525030732154  0.00187131093116477 0.00281525030732154  0.861392140388488 -0.498080670833587 
191.3125  0.847968757152556 -0.519635796546935  0.00182094506453722 0.00276789919007569  0.00182094506453722 0.00276789919007569  0.857031941413878 -0.506801486015319 
195.03125  0.842679440975188 -0.527572870254516  0.00169579032808542 0.0028240664396435  0.00169579032808542 0.0028240664396435  0.852567493915557 -0.514431357383727 
198.75  0.837915360927581 -0.536961138248443  0.00219070632010698 0.00311416818294674  0.00219070632010698 0.00311416818294674  0.845291972160338 -0.524224579334258 
202.46875  0.832291722297667 -0.545118987560271  0.00198574271053075 0.0026574315270409  0.00198574271053075 0.0026574315270409  0.841957569122313 -0.531454622745513 
206.1875  0.826602101325988 -0.554013788700103  0.00191608455497771 0.00286775070708245  0.00191608455497771 0.00286775070708245  0.836113810539244 -0.54046219587326 
209.90625  0.819952309131621 -0.56091296672821  0.0023816687753424 0.00300429668277501  0.0023816687753424 0.00300429668277501  0.828685700893401 -0.546652495861053 
213.625  0.815905809402465 -0.568207323551177  0.00225122575648129 0.00262714212294668  0.00225122575648129 0.00262714212294668  0.824991405010222 -0.553283870220184 
217.34375  0.81010740995407 -0.575891077518462  0.00215141812805086 0.0029583346331492  0.00215141812805086 0.0029583346331492  0.820096313953398 -0.562938392162322 
221.0625  0.804550707340239 -0.58566802740097  0.00217931903898716 0.00300659018103033  0.00217931903898716 0.00300659018103033  0.815385818481444 -0.571157455444335 
224.78125  0.798900485038756 -0.59333974123001  0.00229298486374318 0.00305969093460589  0.00229298486374318 0.00305969093460589  0.809054613113402 -0.579078018665313 
228.5  0.792882800102233 -0.600954771041869  0.00235957466065883 0.00275504228193312  0.00235957466065883 0.00275504228193312  0.803572714328765 -0.58687150478363 
232.21875  0.784188449382781 -0.611834585666656  0.00256151135545224 0.00313831772655248  0.00256151135545224 0.00313831772655248  0.79387480020523 -0.598454594612121 
235.9375  0.78054392337799 -0.617156982421874  0.00245025299955159 0.00289041874930262  0.00245025299955159 0.00289041874930262  0.791283726692199 -0.601853966712951 
239.65625  0.775228798389434 -0.625195741653442  0.0024334832560271 0.00305120425764471  0.0024334832560271 0.00305120425764471  0.786963641643523 -0.6086887717247 
243.375  0.769367933273314 -0.632611870765685  0.00259181903675198 0.00312274531461298  0.00259181903675198 0.00312274531461298  0.780144274234771 -0.61727875471115 
247.09375  0.763125419616698 -0.640188395977019  0.00288829149212688 0.00321930379141121  0.00288829149212688 0.00321930379141121  0.774175584316253 -0.624826550483703 
250.8125  0.757170021533965 -0.647457301616668  0.00402444647625087 0.00281293457373976  0.00402444647625087 0.00281293457373976  0.765232324600219 -0.631585538387298 
254.53125  0.750623762607573 -0.655760943889617  0.00269096065312624 0.00292385404463857  0.00269096065312624 0.00292385404463857  0.761380910873412 -0.64014983177185 
258.25  0.744138479232787 -0.662214457988738  0.00265156861860305 0.00286173075437545  0.00265156861860305 0.00286173075437545  0.756404519081115 -0.645818650722503 
261.96875  0.737979412078856 -0.669096946716308  0.00284121942240744 0.00303058302961289  0.00284121942240744 0.00303058302961289  0.749824404716491 -0.654067873954772 
265.6875  0.731899380683898 -0.677127301692962  0.00292986375279724 0.00312061910517513  0.00292986375279724 0.00312061910517513  0.742829859256743 -0.661688566207885 
269.40625  0.725086212158202 -0.683634221553802  0.00311475107446312 0.00305761455092579  0.00311475107446312 0.00305761455092579  0.736796855926513 -0.669467031955718 
273.125  0.718469321727752 -0.691148579120635  0.00329846469685435 0.00293428485747426  0.00329846469685435 0.00293428485747426  0.729195535182952 -0.67602527141571 
276.84375  0.710479199886321 -0.698726594448089  0.00316459592431783 0.0031850473023951  0.00316459592431783 0.0031850473023951  0.722933530807494 -0.683485686779021 
280.5625  0.703677296638488 -0.704665005207061  0.00329238863196223 0.00292532227467745  0.00329238863196223 0.00292532227467745  0.715335011482238 -0.689437329769134 
284.28125  0.697294652462005 -0.71077537536621  0.00365022546611726 0.00316085806116461  0.00365022546611726 0.00316085806116461  0.706962287425994 -0.697742998600005 
288  0.689982533454894 -0.717629313468932  0.0032513013575226 0.00251294090412557  0.0032513013575226 0.00251294090412557  0.703563332557677 -0.698950648307799 
291.71875  0.683833956718444 -0.724237084388732  0.00307590980082749 0.00283782021142542  0.00307590980082749 0.00283782021142542  0.697926700115203 -0.708172082901 
295.4375  0.676207482814788 -0.731284856796264  0.00329695141408592 0.00302475946955382  0.00329695141408592 0.00302475946955382  0.689980447292327 -0.716072559356688 
299.15625  0.669063091278075 -0.737007617950438  0.00351845158729702 0.00300692580640315  0.00351845158729702 0.00300692580640315  0.681656718254088 -0.722084164619445 
302.875  0.660315513610839 -0.743851602077483  0.00357433839235454 0.00286348164081572  0.00357433839235454 0.00286348164081572  0.673235356807708 -0.725737929344176 
306.59375  0.65348994731903 -0.748790800571441  0.00345754611771553 0.00299020134843885  0.00345754611771553 0.00299020134843885  0.667769789695739 -0.7342871427536 
310.3125  0.646500885486602 -0.755136191844939  0.0036325737601146 0.00308420625515282  0.0036325737601146 0.00308420625515282  0.661528468132018 -0.740119814872741 
314.03125  0.63968002796173 -0.761145889759063  0.00370436278171836 0.00303502345923333  0.00370436278171836 0.00303502345923333  0.653713166713714 -0.746563851833342 
317.75  0.631705582141875 -0.767706930637359  0.00419642543420195 0.00323469564318656  0.00419642543420195 0.00323469564318656  0.645228147506713 -0.753365039825438 
321.46875  0.62331336736679 -0.772305369377135  0.00484372512437402 0.00276887090876697  0.00484372512437402 0.00276887090876697  0.63646364212036 -0.75767809152603 
325.1875  0.616152226924895 -0.777696132659911  0.00348643166944384 0.00246995198540389  0.00348643166944384 0.00246995198540389  0.631108582019805 -0.761908888816832 
328.90625  0.609166741371154 -0.78160810470581  0.0038041123189032 0.00290798803325742  0.0038041123189032 0.00290798803325742  0.625436067581176 -0.76723825931549 
332.625  0.602074742317199 -0.787177085876464  0.00397314433939754 0.00290928280446678  0.00397314433939754 0.00290928280446678  0.617301166057586 -0.773856997489928 
336.34375  0.594757020473479 -0.793131113052367  0.00393499503843485 0.00282497459556907  0.00393499503843485 0.00282497459556907  0.610701322555541 -0.777734696865081 
340.0625  0.587017059326171 -0.798236370086669  0.00411089695990085 0.00279556377790868  0.00411089695990085 0.00279556377790868  0.603531539440154 -0.784298717975615 
343.78125  0.578429996967315 -0.80403435230255  0.00405029626563191 0.0026735202409327  0.00405029626563191 0.0026735202409327  0.596140027046203 -0.790548980236052 
347.5  0.570717334747314 -0.809770762920378  0.00404463452287017 0.00276168202981353  0.00404463452287017 0.00276168202981353  0.587449967861175 -0.796455264091491 
351.21875  0.56311422586441 -0.81357443332672  0.00408427393995224 0.00278975034598261  0.00408427393995224 0.00278975034598261  0.581459462642669 -0.799541354179381 
354.9375  0.556306898593902 -0.819445192813872  0.00433615618385374 0.00289692217484116  0.00433615618385374 0.00289692217484116  0.57414561510086 -0.805907070636748 
358.65625  0.547993600368499 -0.824900150299071  0.00449606729671358 0.00242660508956759  0.00449606729671358 0.00242660508956759  0.567199230194091 -0.810099005699157 
362.375  0.540115594863891 -0.830123245716094  0.00419438793323933 0.00265103077981621  0.00419438793323933 0.00265103077981621  0.560684323310851 -0.816525042057036 
366.09375  0.532814562320708 -0.834881663322448  0.00441564386710524 0.00280876271426677  0.00441564386710524 0.00280876271426677  0.551954805850982 -0.82236075401306 
369.8125  0.524647891521453 -0.839940726757048  0.0052985269576311 0.0025422612670809  0.0052985269576311 0.0025422612670809  0.542627036571502 -0.827095866203307 
373.53125  0.516775608062743 -0.843472778797148  0.00430594291537999 0.00172046531224623  0.00430594291537999 0.00172046531224623  0.536402106285094 -0.827531158924102 
377.25  0.509599268436431 -0.848444581031798  0.00433923676609992 0.00233415281400083  0.00433923676609992 0.00233415281400083  0.530758678913116 -0.833462893962859 
380.96875  0.502378106117248 -0.85340243577957  0.00441140867769717 0.00236285477876663  0.00441140867769717 0.00236285477876663  0.524879097938537 -0.837965786457061 
384.6875  0.495240986347198 -0.857371687889098  0.00438066665083169 0.00259115744847803  0.00438066665083169 0.00259115744847803  0.517372727394103 -0.844093978404998 
388.40625  0.487684220075607 -0.861703276634215  0.00470528495498001 0.00263506779447197  0.00470528495498001 0.00263506779447197  0.50935423374176 -0.848984420299529 
392.125  0.479370385408401 -0.866993904113768  0.00473922095261513 0.00242285034619271  0.00473922095261513 0.00242285034619271  0.501896262168884 -0.853261232376098 
395.84375  0.470486283302306 -0.870924234390258  0.00478665716946124 0.00248352868948131  0.00478665716946124 0.00248352868948131  0.493323564529418 -0.855039238929747 
399.5625  0.46448591351509 -0.873821973800658  0.00480280257761477 0.00248260458465665  0.00480280257761477 0.00248260458465665  0.488095521926879 -0.861235797405242 
403.28125  0.455812156200408 -0.878036201000212  0.00500208605080841 0.00255197472870349  0.00500208605080841 0.00255197472870349  0.479014128446578 -0.865929305553435 
407  0.447876662015914 -0.882338166236876  0.00548220053315161 0.00190304149873554  0.00548220053315161 0.00190304149873554  0.471079140901565 -0.867863118648528 
410.71875  0.441487967967986 -0.886072695255278  0.00507205794565378 0.0020891010062769  0.00507205794565378 0.0020891010062769  0.464801728725433 -0.874049484729766 
414.4375  0.433320224285125 -0.889994263648986  0.00464811595156788 0.00176009628921747  0.00464811595156788 0.00176009628921747  0.457360833883285 -0.876759409904479 
418.15625  0.425112098455428 -0.89430660009384  0.00472081848420202 0.00222091656178235  0.00472081848420202 0.00222091656178235  0.448347866535186 -0.881056189537047 
421.875  0.418107151985168 -0.896502196788787  0.00489081162959337 0.00214375637006014  0.00489081162959337 0.00214375637006014  0.442367553710937 -0.884428620338439 
425.59375  0.410974651575088 -0.900473833084105  0.00493154139257966 0.00207493384368717  0.00493154139257966 0.00207493384368717  0.435276299715042 -0.887449383735656 
429.3125  0.40235024690628 -0.904887974262236  0.00501111312769353 0.00193919648882001  0.00501111312769353 0.00193919648882001  0.428513765335082 -0.890082418918608 
433.03125  0.394186794757842 -0.908064663410186  0.00499410298652946 0.00212232070043682  0.00499410298652946 0.00212232070043682  0.421902954578399 -0.89552342891693 
436.75  0.387058436870574 -0.910406708717345  0.00497511937282978 0.00209724379237741  0.00497511937282978 0.00209724379237741  0.412937194108962 -0.899228394031523 
440.46875  0.377637237310409 -0.913928568363188  0.00510458042845129 0.00205235800240188  0.00510458042845129 0.00205235800240188  0.402700841426849 -0.90212833881378 
444.1875  0.369461685419082 -0.915653407573699  0.00520618329755961 0.00211097043938934  0.00520618329755961 0.00211097043938934  0.396436035633087 -0.904578149318694 
447.90625  0.361940085887908 -0.91918259859085  0.0054747697431594 0.00195040740072727  0.0054747697431594 0.00195040740072727  0.389655292034149 -0.907561659812926 
451.625  0.353693902492523 -0.922114312648772  0.00558693916536866 0.00153000775026157  0.00558693916536866 0.00153000775026157  0.381083071231842 -0.910934329032897 
455.34375  0.345644652843475 -0.924995124340056  0.00551101751625536 0.00199710368178785  0.00551101751625536 0.00199710368178785  0.372972100973129 -0.915233552455901 
459.0625  0.338170230388641 -0.927078783512114  0.00585182895883916 0.00166315550450235  0.00585182895883916 0.00166315550450235  0.364549070596694 -0.917066156864165 
462.78125  0.330183178186416 -0.929860711097716  0.00630367081612347 0.000473558422527277  0.00630367081612347 0.000473558422527277  0.354499608278274 -0.916985511779784 
466.5  0.322071760892868 -0.932932913303374  0.00470150494948028 0.00138096057344228  0.00470150494948028 0.00138096057344228  0.350949347019195 -0.920536518096922 
470.21875  0.314877897500991 -0.934815168380736  0.00490490882657467 0.00168692541774362  0.00490490882657467 0.00168692541774362  0.34537136554718 -0.925036132335662 
473.9375  0.307780802249908 -0.937687814235686  0.00508382357656955 0.00169426976935938  0.00508382357656955 0.00169426976935938  0.336479634046554 -0.928491890430449 
477.65625  0.299643099308014 -0.939766705036162  0.00529662915505467 0.00171417283127084  0.00529662915505467 0.00171417283127084  0.327758908271789 -0.930785417556761 
