! Matrix data file written by TouchstoneData, EPCOS AG
! FILENAME: "B4325_WB.s2p"
! COMMENT: "(B4325_X10Y11_WB.s2p) Epcos AG 2/1/2013 3:53"
! INFO: nport=2, nfreq=1601
! DATE: "Wed Mar 27 10:36:41 2013"
! USER: "Rosemary Xue"
!
! port | pin | signal
! -----|-----|--------
!   1  |  1  |  IN
!   2  |  4  |  OUT
! --------------------
! 
# MHZ S RI R 50
! freq  reS11 imS11  reS21 imS21  reS12 imS12  reS22 imS22
50  0.993497252464293 -0.102463021874428  0.000144055098644458 0.00131605821661651  0.000328873749822379 0.00130486139096319  0.995442390441893 -0.0830323770642279 
52.34375  0.991698145866393 -0.106711745262146  0.000132178160129115 0.00141120958141982  0.000157777656568215 0.0013756911503151  0.995012640953063 -0.0875107571482657 
54.6875  0.992333114147185 -0.110377423465252  0.000159491173690185 0.00141153670847416  0.000148091421579011 0.00143106223549694  0.995053291320799 -0.0915687903761862 
57.03125  0.990396380424498 -0.114643432199955  0.00024013250367716 0.00144585384987294  0.000256099505349994 0.00145976815838366  0.993681728839873 -0.0951285213232039 
59.375  0.990288853645323 -0.120144553482532  0.000203979609068484 0.00160685542505234  0.000212572747841478 0.00160751387011259  0.99451446533203 -0.0985123142600058 
61.71875  0.989787876605986 -0.124789550900459  0.000218416622374207 0.001569872838445  0.000274135527433828 0.00158371625002473  0.992355883121489 -0.101791940629482 
64.0625  0.989085793495177 -0.129972457885742  0.00023086421424523 0.00165624532382935  0.000218727334868163 0.00165687012486159  0.992398619651793 -0.106692731380462 
66.40625  0.988873422145842 -0.133754342794418  0.000226490577915684 0.00176895875483751  0.000194517400814221 0.00180154643021524  0.992454528808592 -0.110286675393581 
68.75  0.988577604293822 -0.139577493071556  0.000275655824225397 0.00181998591870069  0.00028881456819363 0.00186388392467051  0.991549432277678 -0.114454612135887 
71.09375  0.986492633819579 -0.144827380776405  0.00032019623904489 0.00182690168730914  0.000316841469611973 0.00183953298255801  0.991342484951018 -0.117633402347565 
73.4375  0.986491918563841 -0.147375851869583  0.000214182015042752 0.00199094018898904  0.000231146332225763 0.00197956757619977  0.99076747894287 -0.119982406497001 
75.78125  0.986055493354796 -0.152220621705055  0.000339047663146631 0.00199816329404711  0.000332623982103542 0.00198257272131741  0.990018904209136 -0.125203624367714 
78.125  0.985342621803282 -0.157205075025558  0.000307025184156374 0.00210807519033551  0.000297062477329747 0.00210812292061746  0.989361703395842 -0.129495233297348 
80.46875  0.984373867511748 -0.162125051021576  0.000349044974427671 0.002111183013767  0.000367636006558315 0.00211461493745446  0.988748252391814 -0.133416563272476 
82.8125  0.984155356884001 -0.166128501296043  0.000356598204234616 0.00227913772687315  0.000335780816385523 0.00229588593356311  0.988763451576232 -0.137828975915909 
85.15625  0.983708798885344 -0.171253263950348  0.000307446025544778 0.00218173488974571  0.00031725288135931 0.00218970398418605  0.989361882209776 -0.140628591179848 
87.5  0.982308030128478 -0.175736024975776  0.000396914576413111 0.00232826964929699  0.000413791916798801 0.00237924908287823  0.987804830074309 -0.143167346715927 
89.84375  0.981073260307311 -0.180899053812027  0.00036828694283031 0.00239189784042537  0.000340486178174616 0.00241633248515427  0.987659335136412 -0.1474239975214 
92.1875  0.980882346630095 -0.184860572218895  0.000445778685389088 0.00249531841836869  0.000457443529739977 0.00247048982419073  0.986951410770415 -0.151751816272735 
94.53125  0.98031187057495 -0.190608978271484  0.000418420822825284 0.00255748839117586  0.000428412662586198 0.00258124968968331  0.985991120338439 -0.156135886907577 
96.875  0.979171872138976 -0.194555252790451  0.000676631985697897 0.00265664584003388  0.000649064546450974 0.00266404263675212  0.984023988246916 -0.159307718276977 
99.21875  0.978095412254332 -0.199854463338852  0.000471592647954823 0.00274768960662186  0.000455881498055534 0.00276076653972268  0.984773457050322 -0.163600727915764 
101.5625  0.976813316345214 -0.204000800848007  0.000538546009920539 0.00286682927981018  0.000545608752872796 0.00287712598219513  0.983362734317778 -0.167317867279052 
103.90625  0.975546896457671 -0.207638025283813  0.000581732951104642 0.00282295676879584  0.000596994301304222 0.00281811296008527  0.983660757541655 -0.171104729175567 
106.25  0.975627362728118 -0.212921261787414  0.000585214234888555 0.00297939521260559  0.000619498488958926 0.0029796699527651  0.981969714164732 -0.17560712993145 
108.59375  0.974021375179289 -0.216854110360145  0.00100812781602144 0.00264016492292284  0.000997425056993964 0.00266267452389001  0.98060756921768 -0.178732514381408 
110.9375  0.972082018852232 -0.221135899424553  0.000637548859231175 0.00305772176943719  0.0006540619651787 0.0030913318041712  0.980889797210692 -0.18298353254795 
113.28125  0.971091806888579 -0.225748717784881  0.00117861828766763 0.00321145053021609  0.00117569183930754 0.00319732120260596  0.979322314262389 -0.186935648322105 
115.625  0.970263123512267 -0.23109669983387  0.000637339660897852 0.00293339393101632  0.000630689319223167 0.00292501389048993  0.97931283712387 -0.18981659412384 
117.96875  0.968147218227385 -0.235754281282425  0.000841413042508068 0.00323621742427348  0.000834106409456583 0.00326207117177545  0.977347850799559 -0.194104328751564 
120.3125  0.967373192310332 -0.239004552364349  0.000804149894975128 0.00283882394433021  0.000771061866544189 0.00282848323695361  0.976554512977599 -0.196145176887512 
122.65625  0.966394424438475 -0.243971735239029  0.000802042661234738 0.00324374437332153  0.000796000414993616 0.00324147287756204  0.976747393608092 -0.199948653578758 
125  0.965549111366271 -0.248934894800186  0.000918375211767854 0.0031298769172281  0.000908790854737165 0.00314820231869816  0.975579798221587 -0.203691095113754 
127.34375  0.965674757957457 -0.254138380289077  0.000816021987702699 0.00322716264054178  0.000831122917588802 0.00323949032463133  0.975099444389342 -0.20751941204071 
129.6875  0.963549971580504 -0.257187366485595  0.000952937232796105 0.00321762613020837  0.000976196839474144 0.00320017966441809  0.974354088306426 -0.211743906140327 
132.03125  0.961547851562499 -0.261527627706527  0.000927749730180951 0.00332865491509437  0.000945328967645766 0.00332431332208215  0.973801732063292 -0.215866386890411 
134.375  0.959546864032744 -0.26630562543869  0.000954283575993033 0.00355350202880799  0.000936976226512345 0.00351681536994874  0.972348511219023 -0.219463124871254 
136.71875  0.957972466945647 -0.270609349012374  0.00114779348950833 0.00329159898683428  0.00114098994527012 0.00327167497016489  0.971715986728667 -0.224246367812156 
139.0625  0.956827282905577 -0.27442318201065  0.000929576926864686 0.00349121121689676  0.00090812979033217 0.00354582327418028  0.971269667148589 -0.228036984801292 
141.40625  0.956468284130095 -0.281038105487823  0.0011685126228258 0.00366296153515576  0.00116428267210722 0.00370549713261425  0.968612134456633 -0.231393456459045 
143.75  0.955359816551207 -0.283372223377227  0.000985419610515239 0.00359633332118391  0.00101137964520603 0.00359938293695449  0.967040896415709 -0.233368515968322 
146.09375  0.953453302383422 -0.288618922233581  0.00120668904855847 0.00357145583257078  0.0011928288731724 0.00360502558760344  0.966569364070891 -0.237719997763633 
148.4375  0.952381372451781 -0.292322069406509  0.00106413592584431 0.00368879013694822  0.00107695197220891 0.00370042072609066  0.966571629047392 -0.241277426481247 
150.78125  0.95104146003723 -0.296996861696243  0.00118959648534655 0.00369457644410431  0.0011782186338678 0.00369669659994542  0.965991556644438 -0.244971871376037 
153.125  0.949341893196105 -0.301976948976516  0.00106966216117143 0.00380858406424522  0.0010637667728588 0.00381708634085952  0.964494228363036 -0.249678581953048 
155.46875  0.947277903556822 -0.305935978889465  0.00127964839339256 0.00383392442017793  0.00121690903324634 0.00384126813150941  0.964281976222991 -0.253335803747177 
157.8125  0.945354878902434 -0.310741305351257  0.00122020777780562 0.00396504346281289  0.00121019943617284 0.003999182023108  0.964229285717009 -0.256414115428924 
160.15625  0.94473111629486 -0.315185576677322  0.00127835024613887 0.00405944883823394  0.0013155925553292 0.00402911892160772  0.961976408958434 -0.260187059640884 
162.5  0.943620026111602 -0.319487243890762  0.00128925393801182 0.00407870486378669  0.00131961249280721 0.00414189416915177  0.960321605205535 -0.263456910848617 
164.84375  0.942120194435118 -0.323925107717514  0.00132535106968134 0.00422382541000842  0.00131630338728428 0.00421471102163195  0.959215164184569 -0.267835527658462 
167.1875  0.939604461193083 -0.327137529850006  0.00145148066803813 0.00425358908250927  0.00143218960147351 0.00434033339843153  0.956647694110869 -0.270510613918304 
169.53125  0.938353657722472 -0.33177849650383  0.00163201824761927 0.00435492862015962  0.00161314220167696 0.00433715060353278  0.956129491329192 -0.27422559261322 
171.875  0.93690401315689 -0.33660027384758  0.0015085635241121 0.00420572794973849  0.00150608795229345 0.004255932290107  0.956328451633452 -0.278016239404678 
174.21875  0.936360478401183 -0.340205699205398  0.00148157798685133 0.00443993508815764  0.00149772875010967 0.0044162762351334  0.955636978149413 -0.281948268413543 
176.5625  0.934292197227477 -0.343734562397003  0.00163017027080059 0.0041490183211863  0.00165353820193559 0.00414532469585537  0.953659713268279 -0.285119175910949 
178.90625  0.931959390640258 -0.348244994878768  0.00154378695879131 0.00448128953576087  0.00157811411190778 0.00449808593839406  0.953074455261229 -0.290425062179565 
181.25  0.931634426116942 -0.351851135492324  0.00196193880401551 0.00440778722986578  0.00190782628487795 0.00444972654804586  0.951678335666655 -0.292112231254577 
183.59375  0.929718494415282 -0.356997281312942  0.00162626081146299 0.00449480488896369  0.00161018315702676 0.00449025956913828  0.952127695083617 -0.296653658151626 
185.9375  0.928562164306639 -0.362175822257995  0.00182692031376063 0.00484572909772395  0.00183856044895947 0.00484919454902409  0.949475944042204 -0.30084803700447 
188.28125  0.926268398761748 -0.365980207920074  0.00187364185694605 0.00433678831905126  0.00184209970757365 0.00429486483335494  0.948114693164824 -0.30308711528778 
190.625  0.924240887165068 -0.369686961174011  0.0017202392918989 0.00474506383761762  0.00176211912184953 0.00478861993178724  0.946364879608153 -0.307255089282989 
192.96875  0.922133743762969 -0.37417709827423  0.00236680335365235 0.00453685596585273  0.00239445944316685 0.00454034004360436  0.944640517234801 -0.309759229421615 
195.3125  0.920603334903716 -0.378611296415328  0.00186995440162718 0.00453265197575091  0.00192018516827374 0.00459788087755441  0.945947051048278 -0.312948524951934 
197.65625  0.918972671031951 -0.382633328437805  0.00186970352660864 0.0046173664741218  0.00188380433246493 0.00465542310848831  0.945565581321715 -0.315975695848465 
200  0.916844189167022 -0.386012107133865  0.00185636081732809 0.00468621170148252  0.00190352532081306 0.00470584584400057  0.944199621677397 -0.32003116607666 
202.34375  0.915462195873259 -0.390805721282958  0.00191782787442207 0.00486426567658781  0.00191035436000675 0.00486112618818878  0.941939651966094 -0.32460743188858 
204.6875  0.914209783077239 -0.395131349563598  0.00200195983052253 0.00489594787359237  0.00205093622207641 0.00491026649251579  0.940515816211699 -0.328126460313797 
207.03125  0.912596642971038 -0.398842424154281  0.00209716777317225 0.00497323693707584  0.00213739299215376 0.00502450810745357  0.94008183479309 -0.331572026014328 
209.375  0.910706222057341 -0.403021901845931  0.00241854297928512 0.00538261095061897  0.0024350844323635 0.00536660803481935  0.937851428985594 -0.335157722234726 
211.71875  0.908290207386016 -0.407548576593398  0.00222472473978996 0.00509119406342505  0.00221338518895208 0.005105163436383  0.936494231224059 -0.339997202157974 
214.0625  0.905303895473479 -0.410854458808898  0.00224452512338757 0.00529521936550735  0.00226943986490368 0.00529007613658904  0.932717442512511 -0.341512769460678 
216.40625  0.905728876590728 -0.414272189140319  0.00234105018898844 0.00469499127939342  0.00232388800941407 0.00471726525574922  0.934127032756804 -0.343138396739959 
218.75  0.903293073177336 -0.418460130691528  0.00230084476061165 0.00497440621256827  0.00229090708307921 0.00491889240220188  0.933339655399321 -0.346357733011245 
221.09375  0.901691496372222 -0.422889202833175  0.0026375085581094 0.00496926624327897  0.0026208902709186 0.00500641157850622  0.932867527008055 -0.351075738668441 
223.4375  0.9001447558403 -0.426612049341201  0.00230064103379845 0.00511986250057815  0.0023094592615962 0.00515447510406374  0.93066108226776 -0.35592034459114 
225.78125  0.897406458854674 -0.431738913059234  0.00227551348507404 0.00521101336926221  0.00231807748787105 0.00523445615544914  0.929429531097411 -0.358839690685272 
228.125  0.895485997200011 -0.435271590948104  0.0024083568714559 0.00531309423968195  0.00240266742184758 0.00534434337168931  0.928094804286956 -0.362129837274551 
230.46875  0.89336049556732 -0.43904572725296  0.00242527481168508 0.00531506910920142  0.00246172794140875 0.00532172294333576  0.926375746726988 -0.365485042333602 
232.8125  0.893245935440062 -0.440903335809707  0.00247148820199072 0.00550453132018446  0.00247327657416462 0.00549093354493378  0.926088511943816 -0.366581112146377 
235.15625  0.888915240764617 -0.446894109249114  0.00257500703446566 0.00552434101700782  0.00257967296056449 0.00550376158207654  0.923650085926055 -0.373008996248245 
237.5  0.885476887226104 -0.450787395238876  0.00277006882242858 0.00558143900707363  0.00274045579135417 0.00556242885068058  0.920918285846709 -0.376268804073333 
239.84375  0.884967327117919 -0.454211235046386  0.00276791094802319 0.00556339416652917  0.00275889644399285 0.00557949580252169  0.919708967208861 -0.378595232963562 
242.1875  0.883671581745146 -0.458115696907043  0.00280791544355451 0.00569343240931629  0.0028025007341057 0.00571702746674417  0.919093132019042 -0.38183119893074 
244.53125  0.88194715976715 -0.461892217397689  0.0027444465085864 0.00550729501992463  0.00275951577350497 0.00553850363939999  0.918512880802153 -0.385220438241958 
246.875  0.8793226480484 -0.466693073511123  0.00285626458935439 0.00578601984307169  0.00286558736115693 0.005762149579823  0.917181432247161 -0.389934748411178 
249.21875  0.876875638961791 -0.470600098371505  0.00326027837581932 0.00541719375178217  0.00329167139716446 0.00544165587052702  0.915034770965575 -0.392170161008834 
251.5625  0.875334441661834 -0.475015610456466  0.0029088370501995 0.00563668971881269  0.0029471858870238 0.00564690539613365  0.913234770298003 -0.395920038223266 
253.90625  0.872907996177672 -0.478008806705474  0.0032933484762907 0.00581041444092988  0.00329134706407785 0.0058458363637328  0.911826968193053 -0.39996662735939 
256.25  0.871458947658538 -0.482071936130523  0.00301824277266859 0.00544178299605845  0.00302147585898637 0.00542115606367587  0.911173939704894 -0.401257872581481 
258.59375  0.86865323781967 -0.486934095621108  0.00308728031814098 0.00577258924022316  0.00311399227939545 0.00575426220893859  0.908296525478362 -0.406527042388915 
260.9375  0.865538001060485 -0.489623636007308  0.00334027362987398 0.00547157321125268  0.00337511277757584 0.00547145586460828  0.904343962669371 -0.408135116100311 
263.28125  0.8638157248497 -0.492530465126037  0.00326435663737356 0.00563747854903339  0.00328782480210065 0.00562472268939017  0.904721200466155 -0.410694777965545 
265.625  0.862955033779143 -0.496352344751357  0.00315014412626623 0.00577142415568231  0.00315546616911887 0.00577123556286095  0.903936326503752 -0.414659410715103 
267.96875  0.860882878303527 -0.50078409910202  0.00312706874683499 0.00584291014820336  0.00317543186247348 0.00585224200040101  0.904430747032164 -0.418153792619705 
270.3125  0.858058512210845 -0.504524648189544  0.00314791151322424 0.00588384317234157  0.00317806773819029 0.00587239395827054  0.902821540832518 -0.420811265707015 
272.65625  0.855235934257506 -0.508451461791992  0.00322832958772778 0.00596175342798232  0.00321158068254589 0.00595622090622781  0.900552392005919 -0.424262851476669 
275  0.852504074573516 -0.511794686317443  0.0033461139537394 0.00597921106964348  0.00331365782767534 0.00600507715716957  0.898784577846526 -0.428218990564346 
277.34375  0.850912988185881 -0.515589773654937  0.00333301001228391 0.0061644511297345  0.00333886733278631 0.00620155222713946  0.896727025508879 -0.431560963392257 
279.6875  0.849064052104949 -0.519565761089324  0.00347814592532813 0.00619803043082355  0.00347474100999533 0.00622286926954983  0.89419537782669 -0.43587502837181 
282.03125  0.846260964870452 -0.52342790365219  0.0035944040864706 0.00619752286002038  0.00359899434261023 0.00625191908329724  0.891726672649382 -0.439851522445678 
284.375  0.842705905437468 -0.527423381805419  0.00364759727381169 0.00625569699332117  0.00363136199302971 0.00626606540754436  0.889134109020232 -0.441236734390258 
286.71875  0.842142939567565 -0.53025460243225  0.00392282893881201 0.00617172056809066  0.0039291251450777 0.00617735506966709  0.888615608215331 -0.443858355283737 
289.0625  0.840051651000975 -0.533592164516448  0.00420757755637168 0.00580311706289648  0.00420128647238015 0.0058455979451537  0.887630820274352 -0.446477621793746 
291.40625  0.836642682552336 -0.536491036415099  0.00381115521304308 0.00612895051017402  0.00381439109332859 0.00612682104110716  0.886518418788909 -0.44995230436325 
293.75  0.833556711673735 -0.540823817253112  0.00423820223659276 0.00612963782623409  0.00426979921758174 0.00617983518168329  0.884846627712248 -0.453121185302734 
296.09375  0.831923127174376 -0.544141590595245  0.00382994581013917 0.00616213213652371  0.00381737202405929 0.006144558545202  0.883655011653899 -0.457206547260284 
298.4375  0.828673005104064 -0.54757922887802  0.00378688471391796 0.00622312119230627  0.00379675463773309 0.00624037347733973  0.881951570510863 -0.460670560598373 
300.78125  0.827050924301146 -0.550994753837585  0.00383960944600402 0.00623891595751046  0.00387451099231838 0.00620033591985701  0.880565226078032 -0.463674962520599 
303.125  0.824173629283904 -0.555377602577209  0.00390694895759224 0.00634905183687805  0.0038941150996834 0.00635617505758999  0.878550231456755 -0.468033879995345 
305.46875  0.823035657405852 -0.559457719326018  0.00401953421533107 0.00646896427497266  0.0040193791501224 0.00645253900438546  0.876108527183532 -0.471247255802154 
307.8125  0.819011270999907 -0.563060104846954  0.00409950269386171 0.00646027410402893  0.00414204876869916 0.00648150453343986  0.872393429279326 -0.473828941583633 
310.15625  0.818081498146056 -0.565092206001281  0.00426591280847787 0.0063816769979894  0.00424595875665544 0.00642275437712668  0.871929228305816 -0.474844545125961 
312.5  0.815200388431548 -0.567961812019347  0.00412821816280483 0.00639073690399526  0.00410223705694078 0.00641463510692118  0.870914936065673 -0.47881269454956 
314.84375  0.812804162502288 -0.572007715702056  0.00416420307010411 0.00647321715950964  0.00419712625443934 0.00645620934665202  0.869587898254393 -0.482411503791808 
317.1875  0.810252010822295 -0.576131999492644  0.00423895847052335 0.00656463764607905  0.00426882877945899 0.00656289281323551  0.868141531944274 -0.485800117254257 
319.53125  0.807067751884459 -0.579639136791228  0.00440767919644712 0.00674095330759881  0.00444323895499109 0.00676931953057645  0.866608202457427 -0.48925244808197 
