! Matrix data file written by TouchstoneData, EPCOS AG
! FILENAME: "B4321_X10Y10_NB.snp"
! COMMENT: "(TS/B4321_X10Y10_NB.s3p) Epcos AG 2/4/2013 2"
! INFO: nport=3, nfreq=1601
! DATE: "Fri Mar  1 16:14:49 2013"
! USER: "Dan Wang"
!
! port | pin | signal
! -----|-----|--------
!   1  |  1  |  Input
!   2  |  3  |  Output
!   3  |  4  |  Output
! --------------------
! 
# MHZ S RI R 50
! freq  reS11 imS11  reS12 imS12  reS13 imS13  ...
730  -0.573994696140288 -0.772551298141478  -0.00102351215900853 -8.77942802617328e-05  -0.000639925303403289 -0.000116329483716982 
-0.00102351215900853 -8.77942802617328e-05  0.604546785354613 -0.64637529850006  0.316980883479118 0.282323360443115 
-0.000639925303403289 -0.000116329483716982  0.316980883479118 0.282323360443115  0.598544418811797 -0.65225452184677 
730.09375  -0.575861394405364 -0.772134840488433  -0.00102283956948668 -8.07957076176537e-05  -0.000665364204905928 -0.000113078353024321 
-0.00102283956948668 -8.07957076176537e-05  0.604203522205352 -0.646361887454986  0.317145451903343 0.282366245985031 
-0.000665364204905928 -0.000113078353024321  0.317145451903343 0.282366245985031  0.598179876804351 -0.652431368827819 
730.1875  -0.577406644821166 -0.771339893341063  -0.00102782837348058 -6.33858799119482e-05  -0.000678140349918978 -0.000107050014776178 
-0.00102782837348058 -6.33858799119482e-05  0.60363072156906 -0.646412253379821  0.317303657531738 0.282294079661369 
-0.000678140349918978 -0.000107050014776178  0.317303657531738 0.282294079661369  0.597752034664153 -0.652635931968688 
730.28125  -0.578961372375488 -0.770563423633574  -0.00101346633164212 -3.45876087521902e-05  -0.000685357139445843 -0.000107746767753269 
-0.00101346633164212 -3.45876087521902e-05  0.603467643260955 -0.646343171596526  0.317471399903297 0.282476022839546 
-0.000685357139445843 -0.000107746767753269  0.317471399903297 0.282476022839546  0.597344934940337 -0.652531921863555 
730.375  -0.580239355564117 -0.769805371761321  -0.000997984665445983 -2.7846419470734e-05  -0.000675189890898765 -0.000106790677818936 
-0.000997984665445983 -2.7846419470734e-05  0.603341162204742 -0.646286129951476  0.317868947982788 0.282549411058425 
-0.000675189890898765 -0.000106790677818936  0.317868947982788 0.282549411058425  0.597030043601989 -0.652847290039062 
730.46875  -0.581389665603637 -0.768855452537536  -0.000991988461464645 -2.55807981375255e-06  -0.000679290358675646 -0.000104524064227008 
-0.000991988461464645 -2.55807981375255e-06  0.603073239326476 -0.646400570869445  0.318138271570205 0.282586455345153 
-0.000679290358675646 -0.000104524064227008  0.318138271570205 0.282586455345153  0.596721827983855 -0.652720153331756 
730.5625  -0.582691848278045 -0.768110990524291  -0.000974080670857804 -2.28085555136204e-05  -0.000667204236378895 -0.000108187905425439 
-0.000974080670857804 -2.28085555136204e-05  0.60275250673294 -0.646613121032714  0.318558380007744 0.282705187797546 
-0.000667204236378895 -0.000108187905425439  0.318558380007744 0.282705187797546  0.596449732780456 -0.652691960334777 
730.65625  -0.583463311195373 -0.767321586608886  -0.000958843826083468 -1.76242970155727e-05  -0.000661291764117779 -0.000101442157756537 
-0.000958843826083468 -1.76242970155727e-05  0.602556824684142 -0.64659947156906  0.318885922431945 0.282609432935714 
-0.000661291764117779 -0.000101442157756537  0.318885922431945 0.282609432935714  0.596040189266204 -0.652840971946715 
730.75  -0.584678649902343 -0.766435265541076  -0.000960273348027842 -3.17545964207966e-05  -0.000661464873701335 -0.000129414111142979 
-0.000960273348027842 -3.17545964207966e-05  0.602370560169219 -0.646788656711578  0.319258838891982 0.282513424754142 
-0.000661464873701335 -0.000129414111142979  0.319258838891982 0.282513424754142  0.595868468284606 -0.652822375297546 
730.84375  -0.585657835006713 -0.765497803688048  -0.000984292011708023 -1.02190816733128e-05  -0.000675937510095538 -0.000122346853459022 
-0.000984292011708023 -1.02190816733128e-05  0.602089881896972 -0.646925449371337  0.319594338536262 0.282438695430756 
-0.000675937510095538 -0.000122346853459022  0.319594338536262 0.282438695430756  0.595723628997802 -0.653010189533233 
730.9375  -0.586886048316955 -0.764849483966826  -0.000953860522713514 -1.02957345404775e-05  -0.000674830080242829 -0.000156637652253267 
-0.000953860522713514 -1.02957345404775e-05  0.601703524589538 -0.647080361843108  0.319966450333595 0.28226737678051 
-0.000674830080242829 -0.000156637652253267  0.319966450333595 0.28226737678051  0.595305860042571 -0.653240084648131 
731.03125  -0.587881088256835 -0.763986527919768  -0.000963467144174503 -1.58391180775652e-05  -0.000688270840328188 -0.000163853903359268 
-0.000963467144174503 -1.58391180775652e-05  0.601767003536224 -0.647221326828002  0.3202845454216 0.282179564237594 
-0.000688270840328188 -0.000163853903359268  0.3202845454216 0.282179564237594  0.595164716243743 -0.653430104255675 
731.125  -0.589055836200713 -0.763036489486693  -0.000953541108174251 -1.97670201487199e-05  -0.000692048110067846 -0.000168049613421318 
-0.000953541108174251 -1.97670201487199e-05  0.60115224123001 -0.64739429950714  0.320465937256812 0.281977400183678 
-0.000692048110067846 -0.000168049613421318  0.320465937256812 0.281977400183678  0.594889521598815 -0.653677999973296 
731.21875  -0.590318262577056 -0.761925160884856  -0.000947816588450225 -2.8052284505975e-05  -0.000704104983014988 -0.000182757452421356 
-0.000947816588450225 -2.8052284505975e-05  0.600890100002288 -0.647686421871184  0.320597246289253 0.28181217610836 
-0.000704104983014988 -0.000182757452421356  0.320597246289253 0.28181217610836  0.594395279884338 -0.653611719608306 
731.3125  -0.591255843639373 -0.760659933090209  -0.000952528847847136 -1.624728315619e-05  -0.00072774587897584 -0.000170544029970188 
-0.000952528847847136 -1.624728315619e-05  0.600566267967223 -0.647993147373199  0.320793643593787 0.281772434711456 
-0.00072774587897584 -0.000170544029970188  0.320793643593787 0.281772434711456  0.594272375106811 -0.653824150562286 
731.40625  -0.592317759990691 -0.759343326091765  -0.000957618583925071 -1.18819289127714e-05  -0.000732659769710155 -0.00016314433014486 
-0.000957618583925071 -1.18819289127714e-05  0.600072741508483 -0.647807300090789  0.320890992879867 0.281786099076271 
-0.000732659769710155 -0.00016314433014486  0.320890992879867 0.281786099076271  0.593992888927459 -0.654217422008514 
731.5  -0.59290337562561 -0.758009195327758  -0.000959236116614194 7.54856796447715e-06  -0.000747839425457643 -0.000150696796481498 
-0.000959236116614194 7.54856796447715e-06  0.59975230693817 -0.648103892803191  0.32114391028881 0.281765580177306 
-0.000747839425457643 -0.000150696796481498  0.32114391028881 0.281765580177306  0.593394577503204 -0.654283106327056 
731.59375  -0.593458592891692 -0.756347835063933  -0.000946755200857299 1.85602948477026e-05  -0.000732578773749994 -0.000145455749589019 
-0.000946755200857299 1.85602948477026e-05  0.599532365798949 -0.647958695888518  0.321314916014671 0.281738087534904 
-0.000732578773749994 -0.000145455749589019  0.321314916014671 0.281738087534904  0.593129217624664 -0.654447674751281 
731.6875  -0.593373656272887 -0.754928171634673  -0.000933837145566942 2.44330421992345e-05  -0.000732196727767588 -0.000151474625454285 
-0.000933837145566942 2.44330421992345e-05  0.599174320697784 -0.648031949996947  0.321450531482696 0.281787127256393 
-0.000732196727767588 -0.000151474625454285  0.321450531482696 0.281787127256393  0.592723727226256 -0.654454708099364 
731.78125  -0.59332513809204 -0.753816008567809  -0.000909725466044622 1.84157797775698e-05  -0.000743577635148541 -0.000160829506057781 
-0.000909725466044622 1.84157797775698e-05  0.599072575569152 -0.648122191429137  0.321690395474434 0.281855791807175 
-0.000743577635148541 -0.000160829506057781  0.321690395474434 0.281855791807175  0.5925555229187 -0.654648005962371 
731.875  -0.593120634555816 -0.753169298171996  -0.000921310187550264 2.58304626186146e-05  -0.000751704035792502 -0.000165254343301058 
-0.000921310187550264 2.58304626186146e-05  0.598961174488067 -0.648258864879607  0.321933016180992 0.281884163618087 
-0.000751704035792502 -0.000165254343301058  0.321933016180992 0.281884163618087  0.592266917228698 -0.65480476617813 
731.96875  -0.593030214309692 -0.75300896167755  -0.000901824387256058 5.5559053180332e-06  -0.000764582044212149 -0.000168047365150415 
-0.000901824387256058 5.5559053180332e-06  0.598766207695006 -0.648525416851043  0.322109535336494 0.281999558210372 
-0.000764582044212149 -0.000168047365150415  0.322109535336494 0.281999558210372  0.592053353786468 -0.654813170433044 
732.0625  -0.593809783458709 -0.752646505832671  -0.000893273274414243 6.84151405039302e-06  -0.000772486557252707 -0.000163188757142052 
-0.000893273274414243 6.84151405039302e-06  0.598378777503966 -0.648690402507781  0.32230506837368 0.28202286362648 
-0.000772486557252707 -0.000163188757142052  0.32230506837368 0.28202286362648  0.591681540012359 -0.654992818832396 
732.15625  -0.594697475433349 -0.752250313758849  -0.000889005139470103 -5.13730287821091e-06  -0.000771725957747551 -0.000142549208248966 
-0.000889005139470103 -5.13730287821091e-06  0.597928166389464 -0.64871597290039  0.322518274188042 0.282042428851127 
-0.000771725957747551 -0.000142549208248966  0.322518274188042 0.282042428851127  0.591291308403014 -0.655003428459167 
732.25  -0.595981955528258 -0.751430988311766  -0.000903292326256635 -1.85165181392222e-05  -0.000788129516877236 -0.000149950712511781 
-0.000903292326256635 -1.85165181392222e-05  0.597508072853088 -0.648814976215362  0.322656601667404 0.282089874148369 
-0.000788129516877236 -0.000149950712511781  0.322656601667404 0.282089874148369  0.59108543395996 -0.65502232313156 
732.34375  -0.59708136320114 -0.750204145908355  -0.000916072807740422 -1.9428239284025e-05  -0.000778321787947791 -0.000147027712955606 
-0.000916072807740422 -1.9428239284025e-05  0.597368776798248 -0.649199843406676  0.323028489947318 0.282234951853751 
-0.000778321787947791 -0.000147027712955606  0.323028489947318 0.282234951853751  0.590748727321624 -0.655175924301146 
732.4375  -0.597814083099364 -0.748705208301543  -0.000920369930099697 9.78997104539303e-06  -0.000781825423473494 -0.00013374808622757 
-0.000920369930099697 9.78997104539303e-06  0.597063243389129 -0.649354279041289  0.323242515325545 0.282247051596641 
-0.000781825423473494 -0.00013374808622757  0.323242515325545 0.282247051596641  0.59040755033493 -0.655455708503722 
732.53125  -0.598050773143768 -0.747113049030303  -0.000913829338969665 2.59707098848593e-06  -0.000796653650468217 -0.000134300193167292 
-0.000913829338969665 2.59707098848593e-06  0.596730768680572 -0.649540603160857  0.323530778288841 0.282379701733589 
-0.000796653650468217 -0.000134300193167292  0.323530778288841 0.282379701733589  0.590294361114501 -0.65570569038391 
732.625  -0.598086476325988 -0.745367527008056  -0.000922335311770441 3.04370598769311e-06  -0.000795760599430652 -0.000135226189740934 
-0.000922335311770441 3.04370598769311e-06  0.596382856369018 -0.649487257003783  0.323721051216125 0.282519280910491 
-0.000795760599430652 -0.000135226189740934  0.323721051216125 0.282519280910491  0.589823603630065 -0.655542075634002 
732.71875  -0.597671806812286 -0.743753075599669  -0.000903589621884751 1.26564746096847e-05  -0.000805541028967129 -0.000108135343907634 
-0.000903589621884751 1.26564746096847e-05  0.596107363700866 -0.649483799934386  0.324057176709175 0.282646179199219 
-0.000805541028967129 -0.000108135343907634  0.324057176709175 0.282646179199219  0.589461922645568 -0.655796587467193 
732.8125  -0.596915900707244 -0.742523074150084  -0.000914559495868163 2.22112257688423e-05  -0.000790883350418883 -0.000102190791949397 
-0.000914559495868163 2.22112257688423e-05  0.595567166805266 -0.649517595767974  0.324334397912025 0.282638773322105 
-0.000790883350418883 -0.000102190791949397  0.324334397912025 0.282638773322105  0.589197576045989 -0.655783295631408 
732.90625  -0.595633804798125 -0.742142736911773  -0.000905641325516628 3.96930354327197e-05  -0.000783388415584342 -6.60525329294616e-05 
-0.000905641325516628 3.96930354327197e-05  0.595575392246246 -0.649619877338408  0.324665069580078 0.282842501997947 
-0.000783388415584342 -6.60525329294616e-05  0.324665069580078 0.282842501997947  0.589098811149596 -0.655684292316436 
733  -0.59494537115097 -0.74248707294464  -0.00088922484428622 3.57473163603572e-05  -0.000774889165768401 -6.86345665599221e-05 
-0.00088922484428622 3.57473163603572e-05  0.595098614692687 -0.649840116500854  0.324968069791793 0.282793521881104 
-0.000774889165768401 -6.86345665599221e-05  0.324968069791793 0.282793521881104  0.588795959949493 -0.655757129192351 
733.09375  -0.594963192939758 -0.743076562881469  -0.000864412169903519 3.39963762598928e-05  -0.000755784771172332 -7.13311237632298e-05 
-0.000864412169903519 3.39963762598928e-05  0.594716012477874 -0.650028347969054  0.325389325618744 0.282746657729149 
-0.000755784771172332 -7.13311237632298e-05  0.325389325618744 0.282746657729149  0.588396787643432 -0.656118929386138 
733.1875  -0.595772683620452 -0.743332624435424  -0.000824743940029295 6.65179163661379e-06  -0.000726853526430206 -9.86073500826027e-05 
-0.000824743940029295 6.65179163661379e-06  0.594327151775359 -0.650278985500335  0.325610965490341 0.282701447606087 
-0.000726853526430206 -9.86073500826027e-05  0.325610965490341 0.282701447606087  0.588022887706756 -0.656187117099761 
733.28125  -0.596755027770995 -0.743188679218291  -0.000825629074824975 -2.57639976553037e-05  -0.000719423318514602 -0.00012563123164 
-0.000825629074824975 -2.57639976553037e-05  0.594127178192138 -0.650125563144683  0.325770199298858 0.282875046133995 
-0.000719423318514602 -0.00012563123164  0.325770199298858 0.282875046133995  0.588040769100188 -0.656411170959472 
733.375  -0.5977965593338 -0.742959320545196  -0.000851423799758779 -4.74359039799311e-05  -0.000723485136404635 -0.000147831829963252 
-0.000851423799758779 -4.74359039799311e-05  0.593668580055236 -0.650478303432464  0.326064318418502 0.282825425267219 
-0.000723485136404635 -0.000147831829963252  0.326064318418502 0.282825425267219  0.587452352046966 -0.65630942583084 
733.46875  -0.599180698394775 -0.742345571517943  -0.000874825345817955 -7.53544845792932e-05  -0.00073664521914907 -0.000168518490681891 
-0.000874825345817955 -7.53544845792932e-05  0.593163430690765 -0.650311470031737  0.326328665018081 0.282879382371902 
-0.00073664521914907 -0.000168518490681891  0.326328665018081 0.282879382371902  0.587035596370696 -0.656539320945739 
733.5625  -0.600453317165374 -0.74111109972  -0.000914333533728498 -5.25616942468333e-05  -0.000753190048271792 -0.000164170523930807 
-0.000914333533728498 -5.25616942468333e-05  0.592898249626159 -0.650527715682982  0.32664892077446 0.28297971189022 
-0.000753190048271792 -0.000164170523930807  0.32664892077446 0.28297971189022  0.586820662021636 -0.656611561775207 
733.65625  -0.60189527273178 -0.739366888999938  -0.000924722029594706 -4.11819655710133e-05  -0.000766036129789428 -0.000178917463927064 
-0.000924722029594706 -4.11819655710133e-05  0.592542648315429 -0.650500297546386  0.326954305171966 0.282973647117615 
-0.000766036129789428 -0.000178917463927064  0.326954305171966 0.282973647117615  0.586492836475372 -0.656867206096648 
733.75  -0.602276682853698 -0.736965239048003  -0.000920849153771999 -4.70449358545011e-05  -0.000788284494774418 -0.000162077929417137 
-0.000920849153771999 -4.70449358545011e-05  0.592180728912353 -0.650645494461059  0.327263534069061 0.282909587025642 
-0.000788284494774418 -0.000162077929417137  0.327263534069061 0.282909587025642  0.586151719093322 -0.656901538372039 
733.84375  -0.601983666419982 -0.734663724899291  -0.000904884596820923 -2.81674501820817e-05  -0.000801451824372636 -0.000151554093463346 
-0.000904884596820923 -2.81674501820817e-05  0.591753423213958 -0.650470674037932  0.327427521347999 0.282987743616103 
-0.000801451824372636 -0.000151554093463346  0.327427521347999 0.282987743616103  0.585759222507476 -0.65703511238098 
733.9375  -0.600996732711791 -0.732870280742644  -0.000922448467463257 -2.34280778386165e-05  -0.000811837613582613 -0.000142546210554429 
-0.000922448467463257 -2.34280778386165e-05  0.591476321220397 -0.650559365749358  0.327635839581489 0.28307269513607 
-0.000811837613582613 -0.000142546210554429  0.327635839581489 0.28307269513607  0.585339188575744 -0.65699416399002 
734.03125  -0.599772572517394 -0.731727182865142  -0.00091629568487406 -9.43521763474567e-06  -0.000786434917245062 -0.000147249767906033 
-0.00091629568487406 -9.43521763474567e-06  0.591085791587829 -0.650542259216308  0.327885091304778 0.283190131187439 
-0.000786434917245062 -0.000147249767906033  0.327885091304778 0.283190131187439  0.584980368614196 -0.656867563724517 
734.125  -0.598908782005309 -0.730992257595061  -0.00091177149442956 8.15435663525932e-06  -0.000790104037150742 -0.000126066563097993 
-0.00091177149442956 8.15435663525932e-06  0.5908665060997 -0.650294184684752  0.328131094574928 0.283353611826896 
-0.000790104037150742 -0.000126066563097993  0.328131094574928 0.283353611826896  0.584618210792541 -0.657027304172515 
734.21875  -0.598174929618835 -0.73044204711914  -0.000914282456506046 1.86232541636855e-05  -0.000801646470790731 -0.000128280342323706 
-0.000914282456506046 1.86232541636855e-05  0.590543627738952 -0.650451838970183  0.328360676765442 0.283419996500015 
-0.000801646470790731 -0.000128280342323706  0.328360676765442 0.283419996500015  0.584146440029144 -0.656889975070952 
734.3125  -0.597446560859679 -0.729678213596343  -0.00090653606457636 2.05469468710362e-05  -0.000809262099210175 -0.000142319804581349 
-0.00090653606457636 2.05469468710362e-05  0.590395629405974 -0.650503277778625  0.328709915280342 0.283532202243804 
-0.000809262099210175 -0.000142319804581349  0.328709915280342 0.283532202243804  0.583966314792632 -0.657093286514281 
734.40625  -0.596433401107787 -0.729184985160827  -0.000898744998266923 3.20924964398728e-05  -0.000797942600911485 -0.000127718409203226 
-0.000898744998266923 3.20924964398728e-05  0.59003710746765 -0.650547683238982  0.329027712345123 0.28358332812786 
-0.000797942600911485 -0.000127718409203226  0.329027712345123 0.28358332812786  0.583627521991729 -0.657090485095977 
734.5  -0.59526377916336 -0.729135274887084  -0.000855669699376451 2.31830035772873e-05  -0.000792824866948651 -0.000119129330414581 
-0.000855669699376451 2.31830035772873e-05  0.58971470594406 -0.650496184825896  0.329302296042442 0.283701464533806 
-0.000792824866948651 -0.000119129330414581  0.329302296042442 0.283701464533806  0.58327555656433 -0.656971395015716 
734.59375  -0.594366252422332 -0.729812741279601  -0.000842225301312284 1.89151278391365e-05  -0.000790233316365631 -0.000131400323880371 
-0.000842225301312284 1.89151278391365e-05  0.589452981948852 -0.650627195835113  0.32966536283493 0.283853814005852 
-0.000790233316365631 -0.000131400323880371  0.32966536283493 0.283853814005852  0.583080828189849 -0.65707916021347 
734.6875  -0.593818306922912 -0.73054265975952  -0.000849866162752735 -2.59510779869744e-05  -0.000803385511972012 -0.000131576911371667 
-0.000849866162752735 -2.59510779869744e-05  0.589092910289764 -0.65089201927185  0.330057024955749 0.283926054835319 
-0.000803385511972012 -0.000131576911371667  0.330057024955749 0.283926054835319  0.582870364189147 -0.657144784927367 
734.78125  -0.593657553195952 -0.73104429244995  -0.000859345920616763 -2.06277054530801e-05  -0.000795513595221566 -0.00012556160800159 
-0.000859345920616763 -2.06277054530801e-05  0.588934183120727 -0.650898456573485  0.330503642559051 0.28406012058258 
-0.000795513595221566 -0.00012556160800159  0.330503642559051 0.28406012058258  0.582384347915649 -0.65721833705902 
