! Matrix data file written by TouchstoneData, EPCOS AG
! FILENAME: "B4331_01_WB.snp"
! COMMENT: "xxxx"
! INFO: nport=2, nfreq=1601
! DATE: "Wed Dec 18 10:35:18 2013"
! USER: "Dan Wang"
!
! port | pin | signal
! -----|-----|--------
!   1  |  1  |  input
!   2  |  4  |  output
! --------------------
! 
# MHZ S RI R 50
! freq  reS11 imS11  reS21 imS21  reS12 imS12  reS22 imS22
50  0.995483624064053 -0.0761604182685411  0.000365573874719823 0.00480367724763838  0.000365573874719823 0.00480367724763838  0.99530046024795 -0.0846389368539647 
53.71875  0.994275832023015 -0.0817867407653349  0.000422198825198733 0.00514596314480131  0.000422198825198733 0.00514596314480131  0.994468063209447 -0.0899114599553465 
57.4375  0.994783552070837 -0.087457720880658  0.000481519677899963 0.00557553756971036  0.000481519677899963 0.00557553756971036  0.993606620543798 -0.0962213533208087 
61.15625  0.993108315685953 -0.0931506362174343  0.000593205397798147 0.00595362798104324  0.000593205397798147 0.00595362798104324  0.993076385813384 -0.101972385283932 
64.875  0.992364040558783 -0.0999224744469384  0.000639616716143307 0.0062530991920428  0.000639616716143307 0.0062530991920428  0.992959935052759 -0.108240569702826 
68.59375  0.991845089466114 -0.105250336433927  0.000722009244512698 0.00667687383181448  0.000722009244512698 0.00667687383181448  0.991570366509305 -0.115017396769343 
72.3125  0.990927972070392 -0.109404752889407  0.000774023601052439 0.00692542807839946  0.000774023601052439 0.00692542807839946  0.991159011408201 -0.120421560153581 
76.03125  0.991126226307003 -0.116058163512686  0.000911352902306919 0.00734027634025925  0.000911352902306919 0.00734027634025925  0.990085942749942 -0.127264268150437 
79.75  0.98933120888791 -0.121414749645844  0.00105006536038073 0.00762477540116027  0.00105006536038073 0.00762477540116027  0.989692813738252 -0.132898552330191 
83.46875  0.989798626982659 -0.1271906596033  0.0011101037774315 0.0080628519213711  0.0011101037774315 0.0080628519213711  0.98862518357468 -0.139349090311325 
87.1875  0.987467211935436 -0.13233694104121  0.00123875357136458 0.00834829044877166  0.00123875357136458 0.00834829044877166  0.986602225164745 -0.145440354357989 
90.90625  0.988149996012545 -0.138222847232155  0.0013325618940159 0.00874474684184731  0.0013325618940159 0.00874474684184731  0.986248647585644 -0.151443799412076 
94.625  0.986923848167466 -0.144108019106887  0.00126670176597867 0.00928316683152829  0.00126670176597867 0.00928316683152829  0.985001700489263 -0.156926406195348 
98.34375  0.985747711343641 -0.148876501012266  0.00127992583059315 0.00934022883623573  0.00127992583059315 0.00934022883623573  0.983872736026902 -0.16355264589961 
102.0625  0.984251116977968 -0.154083268261281  0.00158021581463526 0.00977679166523502  0.00158021581463526 0.00977679166523502  0.983844887872831 -0.16987614938825 
105.78125  0.983598212860876 -0.160408692247753  0.00168779866175027 0.0102604219704366  0.00168779866175027 0.0102604219704366  0.981830621963031 -0.176067867006964 
109.5  0.983390691766759 -0.16766952386357  0.00183700638982278 0.0104847434699695  0.00183700638982278 0.0104847434699695  0.98110949555749 -0.182704208304272 
113.21875  0.981864057748613 -0.172396111061189  0.00196180678229072 0.0108050843506531  0.00196180678229072 0.0108050843506531  0.979434350583917 -0.188772359183367 
116.9375  0.980782003294035 -0.178670121505107  0.00218095931912231 0.0111759031077163  0.00218095931912231 0.0111759031077163  0.978260151843952 -0.19543984122173 
120.65625  0.979630099859645 -0.182938338581632  0.00212107805404819 0.0113205580119576  0.00212107805404819 0.0113205580119576  0.976274567373069 -0.20056008175351 
124.375  0.979684573032068 -0.188725871966739  0.00240673233632649 0.0118543249017946  0.00240673233632649 0.0118543249017946  0.975333434132763 -0.206295746161986 
128.09375  0.977267826907665 -0.194170245058683  0.00249651235976875 0.012296664472337  0.00249651235976875 0.012296664472337  0.974481461929034 -0.212289725619307 
131.8125  0.976862035934112 -0.199358889625009  0.00265117216920189 0.0125676062993013  0.00265117216920189 0.0125676062993013  0.972399664550134 -0.218776273932078 
135.53125  0.975215937823137 -0.205503899634384  0.0028352999446351 0.012830976414792  0.0028352999446351 0.012830976414792  0.971298199348489 -0.22620217830531 
139.25  0.973516474881916 -0.211551185318122  0.00300166459024819 0.0131323831503254  0.00300166459024819 0.0131323831503254  0.969359195788566 -0.231470956110271 
142.96875  0.97153031452113 -0.215483017760225  0.00311011088541699 0.0135913397870585  0.00311011088541699 0.0135913397870585  0.968100161416659 -0.237257453373169 
146.6875  0.972124957924568 -0.220658741010719  0.00328543264961318 0.0139381904523511  0.00328543264961318 0.0139381904523511  0.967912163466518 -0.242168969618547 
150.40625  0.969325079934691 -0.226728726276561  0.00348121540533041 0.01407380973611  0.00348121540533041 0.01407380973611  0.965395864205094 -0.249070942728646 
154.125  0.967881056934314 -0.233620451869477  0.00355276034531078 0.0145556756327816  0.00355276034531078 0.0145556756327816  0.964647915407262 -0.254816382652893 
157.84375  0.967052387790611 -0.238711165990307  0.00385671815643651 0.0148547768690681  0.00385671815643651 0.0148547768690681  0.962975727758838 -0.262047037269007 
161.5625  0.965112338736211 -0.244425058356189  0.00405143622770838 0.0150872909824356  0.00405143622770838 0.0150872909824356  0.959945730733818 -0.26785386051746 
165.28125  0.961968388332127 -0.25010756796052  0.00419094443084655 0.0153067776694029  0.00419094443084655 0.0153067776694029  0.95735213620494 -0.273425763815603 
169  0.962247815477074 -0.255067954456363  0.00427551759772153 0.0157888410953824  0.00427551759772153 0.0157888410953824  0.956592776918738 -0.278727045560136 
172.71875  0.961333634263116 -0.259395387371067  0.00448400815789994 0.0161068159242486  0.00448400815789994 0.0161068159242486  0.954645971414153 -0.283901214159868 
176.4375  0.959613889894654 -0.265203304670824  0.00471274942762801 0.0163784267298737  0.00471274942762801 0.0163784267298737  0.953268627551054 -0.290315467139818 
180.15625  0.958495166430962 -0.271566101704922  0.00486423551508135 0.0167259721613496  0.00486423551508135 0.0167259721613496  0.952285682564063 -0.296820814691594 
183.875  0.956487876178612 -0.277976346958669  0.00513396326631201 0.0169793483719414  0.00513396326631201 0.0169793483719414  0.949985191429123 -0.302637983831721 
187.59375  0.955101510949383 -0.282672668190669  0.00534394663257475 0.0173701222780275  0.00534394663257475 0.0173701222780275  0.947950020820706 -0.309371781409471 
191.3125  0.953983568398423 -0.287058173528559  0.0052094698249057 0.0177806320887958  0.0052094698249057 0.0177806320887958  0.945988451087623 -0.313863904852057 
195.03125  0.951393732277407 -0.292755695592702  0.00566770095764669 0.0179813533176718  0.00566770095764669 0.0179813533176718  0.944117600163861 -0.31890829604374 
198.75  0.950489527302603 -0.29705039274925  0.00599197554523298 0.0183429917337875  0.00599197554523298 0.0183429917337875  0.943121233387718 -0.326072646705563 
202.46875  0.948161575332749 -0.303247060440779  0.006197418651186 0.0185255611526453  0.006197418651186 0.0185255611526453  0.939695583398551 -0.331907138338404 
206.1875  0.945849226771917 -0.308494633364713  0.00643127896497012 0.018791433730513  0.00643127896497012 0.018791433730513  0.937593881044218 -0.337827782284655 
209.90625  0.944648305912874 -0.314586389624412  0.00660241996700075 0.0191103754467171  0.00660241996700075 0.0191103754467171  0.936225040563492 -0.344036975492168 
213.625  0.94195808286234 -0.318060038962787  0.00655901650525802 0.0195018202043801  0.00655901650525802 0.0195018202043801  0.932791975231886 -0.347475342015806 
217.34375  0.939590442062006 -0.323836981908205  0.00708844439974839 0.0197169920858101  0.00708844439974839 0.0197169920858101  0.931347491852551 -0.354612216265458 
221.0625  0.939404499475143 -0.329542384771221  0.00728174826855521 0.0199883634053054  0.00728174826855521 0.0199883634053054  0.928677976075296 -0.360820691822997 
224.78125  0.936126423894552 -0.335983804952513  0.00754153463902878 0.0202813926373064  0.00754153463902878 0.0202813926373064  0.926256578368362 -0.365346390043282 
228.5  0.933924857802309 -0.341063241537029  0.00769148250504885 0.0204276095977426  0.00769148250504885 0.0204276095977426  0.924554587902613 -0.370412253826265 
232.21875  0.929670326853586 -0.349047510725185  0.00813873165614466 0.0208074116616617  0.00813873165614466 0.0208074116616617  0.920728609960991 -0.380246107312771 
235.9375  0.928801390414416 -0.351802200763136  0.00829910707148026 0.0208260045337338  0.00829910707148026 0.0208260045337338  0.917822405747037 -0.382054103029822 
239.65625  0.928642676046997 -0.356560288515778  0.00850854711296727 0.0215046207345865  0.00850854711296727 0.0215046207345865  0.917259881506084 -0.388079636302787 
243.375  0.926659115656698 -0.361381356115661  0.00879853860717462 0.0216270918517673  0.00879853860717462 0.0216270918517673  0.914904732551726 -0.394253657368586 
247.09375  0.925173098117249 -0.367271293286071  0.0091732777723604 0.0219076740717758  0.0091732777723604 0.0219076740717758  0.91228635578862 -0.399638499787763 
250.8125  0.92201367927981 -0.372484995225054  0.00935619231432148 0.0221812926914766  0.00935619231432148 0.0221812926914766  0.909711956572383 -0.404448759768951 
254.53125  0.920476042733561 -0.377963599367487  0.00957283633526429 0.0225761577400979  0.00957283633526429 0.0225761577400979  0.907059701709785 -0.410281647017918 
258.25  0.914751058722021 -0.382861677783582  0.00994987871023555 0.0226464357058579  0.00994987871023555 0.0226464357058579  0.904339168173397 -0.417353573381936 
261.96875  0.915496808587524 -0.38770194694668  0.0101143389364284 0.022951422066026  0.0101143389364284 0.022951422066026  0.90261905279138 -0.421076119980909 
265.6875  0.913843248578706 -0.392904254141783  0.0103830563008825 0.0233208594864774  0.0103830563008825 0.0233208594864774  0.899684985455114 -0.427867075396489 
269.40625  0.911588050213873 -0.399027653463013  0.0107220197439004 0.0234736185521945  0.0107220197439004 0.0234736185521945  0.897414334002326 -0.433842264798479 
273.125  0.909018148561911 -0.404032946676278  0.0109901652946891 0.0236761547676894  0.0109901652946891 0.0236761547676894  0.893781731859497 -0.439299256556481 
276.84375  0.906583873285339 -0.410110632245784  0.0113465430063389 0.0241342100571124  0.0113465430063389 0.0241342100571124  0.892463152461671 -0.444751989433303 
280.5625  0.903603833340712 -0.416061652202618  0.0116056498299721 0.0243289842221781  0.0116056498299721 0.0243289842221781  0.888475614559981 -0.449925175737025 
284.28125  0.902050169007115 -0.418949673014291  0.0117848156096648 0.0246847183921091  0.0117848156096648 0.0246847183921091  0.88598043514297 -0.455329748684118 
288  0.898988554529289 -0.42431538571297  0.0121822145277481 0.0248420514499117  0.0121822145277481 0.0248420514499117  0.883610238479833 -0.461696463154045 
291.71875  0.896711184215544 -0.429321558952251  0.0124903886212766 0.0250552532175266  0.0124903886212766 0.0250552532175266  0.880006141340747 -0.466939009586111 
295.4375  0.894029236444881 -0.434706446376466  0.0128970210122664 0.0252965401674447  0.0128970210122664 0.0252965401674447  0.877468798558559 -0.473607409566572 
299.15625  0.890737854122522 -0.43988258621084  0.012995729695386 0.0256031699446407  0.012995729695386 0.0256031699446407  0.873330928316882 -0.477887540205944 
302.875  0.888075240041993 -0.445433140800849  0.0134530588913813 0.0257029747521728  0.0134530588913813 0.0257029747521728  0.870810875109624 -0.484433314372691 
306.59375  0.884581032943197 -0.449256105250676  0.0136905880554111 0.02572173790035  0.0136905880554111 0.02572173790035  0.866230909702782 -0.488691784622223 
310.3125  0.88322272438013 -0.454577028223011  0.0141012027869204 0.0261309698091909  0.0141012027869204 0.0261309698091909  0.865258154018225 -0.495915820974016 
314.03125  0.880250768038843 -0.460229449308518  0.0144202091148178 0.0263673791664861  0.0144202091148178 0.0263673791664861  0.861051344716418 -0.500747632473319 
317.75  0.877567448414238 -0.465451456781832  0.0147578119210141 0.0266103591387057  0.0147578119210141 0.0266103591387057  0.857284597748929 -0.506076466982986 
321.46875  0.875186376700394 -0.469596191784804  0.0149459510485542 0.0269851539830101  0.0149459510485542 0.0269851539830101  0.855102311889799 -0.51175896678718 
325.1875  0.872553283371104 -0.475494751940884  0.0154766371195381 0.0270707425032801  0.0154766371195381 0.0270707425032801  0.851372083080325 -0.517530096286128 
328.90625  0.867886758249054 -0.479949702601007  0.0157950806811665 0.0271247390538582  0.0157950806811665 0.0271247390538582  0.847110232280829 -0.522816777417222 
332.625  0.866084038727001 -0.484009555608943  0.0160923219449055 0.0274934755752187  0.0160923219449055 0.0274934755752187  0.844227257694635 -0.527657420429135 
336.34375  0.862870052284403 -0.488709303227659  0.0163561137198737 0.0276003041434862  0.0163561137198737 0.0276003041434862  0.840527944592595 -0.533303680698616 
340.0625  0.860651129097267 -0.493863629244853  0.0166537837203622 0.0278072463110145  0.0166537837203622 0.0278072463110145  0.836317173070755 -0.538443039228832 
343.78125  0.857484690241296 -0.498916940733309  0.0170663431780528 0.0279473613026276  0.0170663431780528 0.0279473613026276  0.832184899831967 -0.543606257603516 
347.5  0.854355577391367 -0.503983614356955  0.0174143336128239 0.0282285201355578  0.0174143336128239 0.0282285201355578  0.829576157425975 -0.54988957820048 
351.21875  0.850328919382931 -0.510771296401879  0.0179476334100137 0.0284349273273583  0.0179476334100137 0.0284349273273583  0.825547486550972 -0.555770662409597 
354.9375  0.848875796956805 -0.513113704669088  0.0181179044013833 0.0286272990612958  0.0181179044013833 0.0286272990612958  0.822131845833499 -0.559331016530631 
358.65625  0.845287039130555 -0.518593967874191  0.0185738098695688 0.0287397003907284  0.0185738098695688 0.0287397003907284  0.81747790474474 -0.565003285220189 
362.375  0.841474412257309 -0.523929793085385  0.0188726560540601 0.0288024263509533  0.0188726560540601 0.0288024263509533  0.81338316163886 -0.570870688677086 
366.09375  0.839427141658292 -0.528577406464403  0.0193955277985831 0.0291836473718217  0.0193955277985831 0.0291836473718217  0.810502589536378 -0.576514383100968 
369.8125  0.836044259505565 -0.534544070796991  0.0197465370981969 0.0293270774439595  0.0197465370981969 0.0293270774439595  0.806019089654815 -0.582483783529064 
373.53125  0.8320937917333 -0.539830542949083  0.0200234169406796 0.0293240333355386  0.0200234169406796 0.0293240333355386  0.801844524991142 -0.586960245096822 
377.25  0.828876260362983 -0.543603532744676  0.0201633776947113 0.0294998071148521  0.0201633776947113 0.0294998071148521  0.797049426193924 -0.592007771241542 
380.96875  0.825627880095624 -0.548370379664911  0.0207158778875113 0.0298109437243528  0.0207158778875113 0.0298109437243528  0.793789513643665 -0.597612969739755 
384.6875  0.822114090423246 -0.553261874150434  0.0211879184513131 0.0297671147013808  0.0211879184513131 0.0297671147013808  0.789336187967366 -0.603314026823141 
388.40625  0.819405847426703 -0.558388687417362  0.0216153527124957 0.030178874564957  0.0216153527124957 0.030178874564957  0.785783296607474 -0.608193526212313 
392.125  0.816337639454746 -0.563732165426581  0.021906242847308 0.0301388592193383  0.021906242847308 0.0301388592193383  0.78044342129497 -0.613383730253454 
395.84375  0.812212276037802 -0.569105449339676  0.0224361223046105 0.0302823062846739  0.0224361223046105 0.0302823062846739  0.777292377489386 -0.618942247690873 
399.5625  0.806649180652867 -0.571801598540059  0.0227044343282087 0.0302596520492392  0.0227044343282087 0.0302596520492392  0.770969669421181 -0.624209332382902 
403.28125  0.805076601643496 -0.577626007627597  0.0231351160242188 0.0305558013542452  0.0231351160242188 0.0305558013542452  0.768749175774687 -0.628502374408496 
407  0.801937806386524 -0.582625229025574  0.0234961182445276 0.0306664040702825  0.0234961182445276 0.0306664040702825  0.762983568191928 -0.634120210756632 
410.71875  0.798565358157371 -0.586637094728199  0.0236029252013935 0.030928706028842  0.0236029252013935 0.030928706028842  0.760002532909398 -0.638206610618255 
414.4375  0.794937766946875 -0.592242036805634  0.0242713631904101 0.0309491275275615  0.0242713631904101 0.0309491275275615  0.756284869935311 -0.64405031860248 
418.15625  0.79129372546924 -0.597297584519636  0.0246600280372169 0.0310211926196721  0.0246600280372169 0.0310211926196721  0.751684881743366 -0.64919936584156 
421.875  0.785672609647279 -0.602753490934278  0.0251254817131317 0.0309797892680819  0.0251254817131317 0.0309797892680819  0.746411669181636 -0.654435877334411 
425.59375  0.783325945530628 -0.605508585616613  0.025555285079991 0.0312197220665694  0.025555285079991 0.0312197220665694  0.742876981067619 -0.659195444801181 
429.3125  0.779367358349916 -0.611302744628854  0.0258735683646765 0.0312059454546565  0.0258735683646765 0.0312059454546565  0.73760380317564 -0.663648720686003 
433.03125  0.775312604864465 -0.616049303365891  0.0261863830123327 0.0313667801987685  0.0261863830123327 0.0313667801987685  0.73341698462393 -0.667839009844955 
436.75  0.77157168987255 -0.620636944928426  0.0267733979433254 0.0314343583398183  0.0267733979433254 0.0314343583398183  0.728881860503159 -0.67402067265596 
440.46875  0.765616497234624 -0.626089545015177  0.0271886522279418 0.0314235964851519  0.0271886522279418 0.0314235964851519  0.723906946798466 -0.678760467568617 
444.1875  0.761555499620143 -0.632850639384178  0.0275869651190767 0.0313343081672696  0.0275869651190767 0.0313343081672696  0.717252015584671 -0.683913382630461 
447.90625  0.758583913748418 -0.633966895246391  0.0279384138022292 0.0314288755535519  0.0279384138022292 0.0314288755535519  0.712094639672556 -0.686564946196682 
451.625  0.754049068176062 -0.639063479804159  0.0283892809370951 0.0316427035603448  0.0283892809370951 0.0316427035603448  0.708480233526878 -0.691346452467972 
455.34375  0.749538448542317 -0.643101242464231  0.0287242037086528 0.0315689466988012  0.0287242037086528 0.0315689466988012  0.704261689338072 -0.696115429451012 
459.0625  0.745571896786714 -0.64902762471188  0.0293729760631392 0.0316515265467897  0.0293729760631392 0.0316515265467897  0.700031724347791 -0.702148720330001 
462.78125  0.742065693024584 -0.652642073741063  0.029601951018469 0.0317279889726544  0.029601951018469 0.0317279889726544  0.694835235554627 -0.706054069942151 
466.5  0.736816422052772 -0.658037427943849  0.0301267194356463 0.0317869681512138  0.0301267194356463 0.0317869681512138  0.690371730893976 -0.71205224201796 
470.21875  0.732869297756857 -0.661904139958529  0.0304922712817832 0.0315719602393194  0.0304922712817832 0.0315719602393194  0.68381357334152 -0.716836411937844 
473.9375  0.729630562094425 -0.666806185555896  0.0310153862091116 0.0319541670620766  0.0310153862091116 0.0319541670620766  0.680220603351274 -0.720150317418422 
477.65625  0.725312168869992 -0.669475909470661  0.0313547287264531 0.031930111504066  0.0313547287264531 0.031930111504066  0.67581003802071 -0.724825218743712 
481.375  0.720962778883018 -0.675324969559656  0.0318521930427727 0.0319714401194832  0.0318521930427727 0.0319714401194832  0.671265430545415 -0.728655029896767 
485.09375  0.716429969125994 -0.67932396669796  0.0322147930367426 0.0318435921936796  0.0322147930367426 0.0318435921936796  0.665699548612116 -0.733644429272332 
488.8125  0.712668764744143 -0.685063669527046  0.0327757132543483 0.0320247405965717  0.0327757132543483 0.0320247405965717  0.661966369499556 -0.739258452093023 
