! Matrix data file written by TouchstoneData, EPCOS AG
! FILENAME: "B4331_01_WB.snp"
! COMMENT: "(TS/B4331_01_WB.s2p) Epcos AG 11/12/2013 3:4"
! INFO: nport=2, nfreq=1601
! DATE: "Wed Dec 18 10:37:42 2013"
! USER: "Dan Wang"
!
! port | pin | signal
! -----|-----|--------
!   1  |  1  |  input
!   2  |  4  |  output
! --------------------
! 
# MHZ S RI R 50
! freq  reS11 imS11  reS21 imS21  reS12 imS12  reS22 imS22
50  0.995490133762358 -0.0761057659983634  0.000364604187780061 0.00479643722064792  0.000364604187780061 0.00479643722064792  0.995307981967925 -0.0845714658498762 
53.71875  0.994285345077513 -0.0817191302776335  0.000420880765886978 0.00513707613572478  0.000420880765886978 0.00513707613572478  0.994478166103362 -0.0898297205567358 
57.4375  0.994793474674224 -0.087374947965145  0.00047986480058171 0.0055645266547799  0.00047986480058171 0.0055645266547799  0.993619978427886 -0.0961213260889052 
61.15625  0.993123173713683 -0.0930508598685263  0.000590928364545108 0.00594035303220151  0.000590928364545108 0.00594035303220151  0.993092715740202 -0.101852804422378 
64.875  0.992382764816283 -0.0998007655143736  0.00063687367946841 0.00623732618987559  0.00063687367946841 0.00623732618987559  0.992978632450102 -0.108097620308399 
68.59375  0.99186736345291 -0.105107590556145  0.000718531722668559 0.00665805279277264  0.000718531722668559 0.00665805279277264  0.99159550666809 -0.11484695225954 
72.3125  0.990955114364623 -0.10924232006073  0.000769921491155402 0.00690397177822887  0.000769921491155402 0.00690397177822887  0.99118810892105 -0.120224639773369 
76.03125  0.991155862808226 -0.115865811705589  0.000906216999283062 0.00731499004177748  0.000906216999283062 0.00731499004177748  0.990122199058531 -0.127033218741417 
79.75  0.98937028646469 -0.121194399893284  0.00104367191670462 0.00759603828191755  0.00104367191670462 0.00759603828191755  0.989734113216399 -0.132634311914444 
83.46875  0.989839613437651 -0.12693727016449  0.00110274308826774 0.00802951958030461  0.00110274308826774 0.00802951958030461  0.988675177097319 -0.139045268297195 
87.1875  0.98752188682556 -0.132051199674606  0.00122958433348685 0.0083108330145478  0.00122958433348685 0.0083108330145478  0.986666381359099 -0.145095363259315 
90.90625  0.988206326961516 -0.137897357344627  0.00132216431666166 0.00870208209380506  0.00132216431666166 0.00870208209380506  0.986320137977599 -0.151053756475448 
94.625  0.986991226673125 -0.143740087747574  0.00125531631056219 0.00923414994031188  0.00125531631056219 0.00923414994031188  0.9850857257843 -0.156490877270698 
98.34375  0.985826492309569 -0.148468926548958  0.00126733037177473 0.00928708072751758  0.00126733037177473 0.00928708072751758  0.983970522880553 -0.163061484694481 
102.0625  0.984344661235808 -0.153630822896957  0.0015644677914679 0.00971710076555608  0.0015644677914679 0.00971710076555608  0.983950555324553 -0.169325977563858 
105.78125  0.983703315258025 -0.159900560975075  0.00166952941799536 0.0101930773817002  0.00166952941799536 0.0101930773817002  0.981958210468291 -0.175456404685974 
109.5  0.983505845069884 -0.167094722390175  0.00181619316572323 0.0104106571525336  0.00181619316572323 0.0104106571525336  0.981251955032347 -0.182022914290428 
113.21875  0.981997668743132 -0.171768724918365  0.00193795008817687 0.0107238772325217  0.00193795008817687 0.0107238772325217  0.979599952697752 -0.188021451234817 
116.9375  0.980933547019957 -0.177974656224251  0.0021531187230721 0.0110862501896918  0.0021531187230721 0.0110862501896918  0.978447318077086 -0.194609180092811 
120.65625  0.97979962825775 -0.182186901569366  0.00209149171132594 0.0112245548516512  0.00209149171132594 0.0112245548516512  0.9764906167984 -0.199659258127212 
124.375  0.979864478111266 -0.187900960445404  0.00237226742319762 0.0117477951571345  0.00237226742319762 0.0117477951571345  0.975571632385253 -0.205313757061958 
128.09375  0.977480947971343 -0.193273022770881  0.00245807215105742 0.0121797225438058  0.00245807215105742 0.0121797225438058  0.974742531776427 -0.211219161748886 
131.8125  0.977091193199156 -0.198385685682296  0.00260824139695614 0.0124413291923702  0.00260824139695614 0.0124413291923702  0.972698926925658 -0.217608422040939 
135.53125  0.975475966930388 -0.204442143440246  0.00278703880030661 0.0126944230869412  0.00278703880030661 0.0126944230869412  0.97162890434265 -0.224919259548187 
139.25  0.97381019592285 -0.210396856069565  0.00294770742766559 0.0129853989928961  0.00294770742766559 0.0129853989928961  0.96973019838333 -0.230093091726303 
142.96875  0.971860349178313 -0.21425575017929  0.00305079307872801 0.01343196304515  0.00305079307872801 0.01343196304515  0.968506455421446 -0.235772371292114 
146.6875  0.972464501857756 -0.219336733222007  0.00322111300192773 0.0137668373063206  0.00322111300192773 0.0137668373063206  0.968340098857878 -0.24058112502098 
150.40625  0.969718396663664 -0.225301623344421  0.00340919394511729 0.0138921486213803  0.00340919394511729 0.0138921486213803  0.965882182121276 -0.247352555394172 
154.125  0.968315601348876 -0.232069224119186  0.00347493810113519 0.0143580883741379  0.00347493810113519 0.0143580883741379  0.96516853570938 -0.252973705530166 
157.84375  0.967518806457518 -0.237053334712982  0.00376963918097316 0.0146437138319016  0.00376963918097316 0.0146437138319016  0.963549733161925 -0.260053604841232 
161.5625  0.965629637241362 -0.242649033665657  0.00395531090907751 0.0148636223748326  0.00395531090907751 0.0148636223748326  0.960594952106474 -0.265727996826172 
165.28125  0.962558150291442 -0.248211205005645  0.00408585160039364 0.015070351306349  0.00408585160039364 0.015070351306349  0.958073496818541 -0.271164894104004 
169  0.962858140468596 -0.253049254417419  0.00416391901671886 0.0155344512313604  0.00416391901671886 0.0155344512313604  0.957357704639434 -0.2763252556324 
172.71875  0.961983144283293 -0.257262974977493  0.00436280597932636 0.0158375184983015  0.00436280597932636 0.0158375184983015  0.955477535724639 -0.28135871887207 
176.4375  0.960322022438048 -0.262929499149322  0.0045806870330125 0.0160931618884205  0.0045806870330125 0.0160931618884205  0.954163193702696 -0.287601798772812 
180.15625  0.959255635738372 -0.269133031368255  0.00472242780961096 0.0164219615980983  0.00472242780961096 0.0164219615980983  0.953238666057585 -0.293925374746322 
183.875  0.957320272922514 -0.2753786444664  0.0049787436146289 0.0166587745770812  0.0049787436146289 0.0166587745770812  0.9510241150856 -0.29957166314125 
187.59375  0.955992221832274 -0.279934972524643  0.00517605105414985 0.017029725946486  0.00517605105414985 0.017029725946486  0.949076890945433 -0.306107342243194 
191.3125  0.954928219318389 -0.284180968999862  0.00503625208511948 0.0174195310100912  0.00503625208511948 0.0174195310100912  0.947197258472441 -0.310442805290222 
195.03125  0.95243066549301 -0.289712190628051  0.00547553063370286 0.0176046080887317  0.00547553063370286 0.0176046080887317  0.945412635803221 -0.315313249826431 
198.75  0.95158141851425 -0.29385894536972  0.00578384404070674 0.0179450344294309  0.00578384404070674 0.0179450344294309  0.944493949413298 -0.322243422269821 
202.46875  0.949349522590636 -0.299865454435348  0.00597333908081053 0.0181098794564605  0.00597333908081053 0.0181098794564605  0.941203474998473 -0.327877819538116 
206.1875  0.94713395833969 -0.304937899112701  0.00619064504280685 0.0183559451252222  0.00619064504280685 0.0183559451252222  0.939210236072539 -0.33358347415924 
209.90625  0.946010708808898 -0.31082335114479  0.00634693866595624 0.0186515813693404  0.00634693866595624 0.0186515813693404  0.937936365604399 -0.339558959007263 
213.625  0.943426847457884 -0.314155459403991  0.00629210262559353 0.0190209485590458  0.00629210262559353 0.0190209485590458  0.93464422225952 -0.342841923236846 
217.34375  0.941173255443572 -0.319727182388305  0.00679530925117432 0.0192157570272683  0.00679530925117432 0.0192157570272683  0.933310985565184 -0.349705755710601 
221.0625  0.941046893596648 -0.325211405754089  0.00697130989283322 0.0194634646177292  0.00697130989283322 0.0194634646177292  0.930787324905394 -0.355664819478988 
224.78125  0.937919616699218 -0.331419169902801  0.0072090341709554 0.0197334857657551  0.0072090341709554 0.0197334857657551  0.928500652313231 -0.359982669353485 
228.5  0.935837507247924 -0.336290687322616  0.00734195276163517 0.019859991967678  0.00734195276163517 0.019859991967678  0.926919043064116 -0.364814400672912 
232.21875  0.931785762310027 -0.343986243009567  0.00775486161001025 0.0202089613303542  0.00775486161001025 0.0202089613303542  0.923317849636077 -0.374267160892486 
235.9375  0.930993258953093 -0.346582353115081  0.00789917493239043 0.0202158484607935  0.00789917493239043 0.0202158484607935  0.920560896396636 -0.375940948724746 
239.65625  0.930903315544127 -0.351110428571701  0.00808674888685344 0.0208547106012702  0.00808674888685344 0.0208547106012702  0.920103013515471 -0.381669998168945 
243.375  0.929048895835875 -0.355705618858337  0.00835170876234767 0.0209563951939344  0.00835170876234767 0.0209563951939344  0.917918920516966 -0.387547314167022 
247.09375  0.927687287330626 -0.361324548721313  0.00869658635929224 0.0212106071412563  0.00869658635929224 0.0212106071412563  0.915481626987456 -0.392657101154327 
250.8125  0.9247088432312 -0.366293579339981  0.00885431421920655 0.021457971073687  0.00885431421920655 0.021457971073687  0.913088083267211 -0.397206127643585 
254.53125  0.923304080963134 -0.371499985456466  0.00904381833970544 0.0218198047950863  0.00904381833970544 0.0218198047950863  0.910634458065032 -0.40273305773735 
258.25  0.917863845825194 -0.376172125339508  0.00938462559133766 0.0218708887696265  0.00938462559133766 0.0218708887696265  0.908133149147032 -0.409443408250808 
261.96875  0.918664515018462 -0.380731999874114  0.00952741038054226 0.0221458869054913  0.00952741038054226 0.0221458869054913  0.906569182872771 -0.412919342517852 
265.6875  0.917160391807555 -0.385652035474777  0.0097636138089001 0.0224808529019355  0.0097636138089001 0.0224808529019355  0.903874576091765 -0.419343143701553 
269.40625  0.915090441703795 -0.391455203294754  0.010068076197058 0.0226075965911149  0.010068076197058 0.0226075965911149  0.901815652847289 -0.424969643354415 
273.125  0.912714898586272 -0.396179020404815  0.0103020267561078 0.0227836836129427  0.0103020267561078 0.0227836836129427  0.8984557390213 -0.430105179548263 
276.84375  0.910485982894896 -0.401922464370727  0.0106191653758287 0.023202121257782  0.0106191653758287 0.023202121257782  0.897315680980681 -0.435204684734344 
280.5625  0.907739758491515 -0.407541304826736  0.0108410278335213 0.0233691437169909  0.0108410278335213 0.0233691437169909  0.893630325794219 -0.440058290958404 
284.28125  0.906335473060607 -0.410207837820053  0.0109890084713697 0.0236903801560402  0.0109890084713697 0.0236903801560402  0.891379714012145 -0.445108711719512 
288  0.903519093990325 -0.415254563093185  0.0113426791504025 0.0238204794004559  0.0113426791504025 0.0238204794004559  0.889266729354857 -0.451065987348556 
291.71875  0.901455163955687 -0.419942408800125  0.0116097196005285 0.0240046307444572  0.0116097196005285 0.0240046307444572  0.885974824428557 -0.455959111452102 
295.4375  0.899016141891478 -0.424988657236099  0.0119686373509466 0.0242134248837828  0.0119686373509466 0.0242134248837828  0.883723556995391 -0.462185382843017 
299.15625  0.896001160144805 -0.429834842681884  0.0120314732193946 0.0244849286973476  0.0120314732193946 0.0244849286973476  0.87993150949478 -0.466156691312789 
302.875  0.893597900867461 -0.435023874044418  0.0124376900494098 0.0245588626712561  0.0124376900494098 0.0245588626712561  0.877713084220885 -0.47224798798561 
306.59375  0.890390455722808 -0.43857392668724  0.0126339709386229 0.0245605455711483  0.0126339709386229 0.0245605455711483  0.873522460460662 -0.476194232702255 
310.3125  0.889237701892852 -0.443513482809066  0.0129927690140903 0.0249238582327961  0.0129927690140903 0.0249238582327961  0.872794270515441 -0.482883810997009 
314.03125  0.886564314365386 -0.448779702186584  0.0132603659294545 0.025128006003797  0.0132603659294545 0.025128006003797  0.868985295295714 -0.487351715564727 
317.75  0.884167075157164 -0.45362627506256  0.0135450814850628 0.0253375209867953  0.0135450814850628 0.0253375209867953  0.865610003471373 -0.492275357246398 
321.46875  0.882048070430754 -0.457442015409469  0.0136889261193573 0.0256681926548481  0.0136889261193573 0.0256681926548481  0.86374145746231 -0.497498214244842 
325.1875  0.879723072052001 -0.46291297674179  0.0141544854268432 0.0257294587790965  0.0141544854268432 0.0257294587790965  0.860428452491759 -0.502821505069732 
328.90625  0.875467181205748 -0.467043340206146  0.0144168087281287 0.0257628737017512  0.0144168087281287 0.0257628737017512  0.856619417667388 -0.507690727710723 
332.625  0.873914480209349 -0.470752298831939  0.0146601926535368 0.0260892743244767  0.0146601926535368 0.0260892743244767  0.854107081890105 -0.512109875679015 
336.34375  0.871048927307128 -0.475080221891403  0.0148704689927399 0.0261682765558361  0.0148704689927399 0.0261682765558361  0.850853919982909 -0.517291069030761 
340.0625  0.869134783744811 -0.479812413454055  0.0151104172691702 0.0263410983607172  0.0151104172691702 0.0263410983607172  0.847125470638274 -0.521999716758727 
343.78125  0.866337358951567 -0.484457790851592  0.0154563565738499 0.0264540202915668  0.0154563565738499 0.0264540202915668  0.843483567237853 -0.526722967624664 
347.5  0.863584578037261 -0.489107191562652  0.015739282593131 0.0266939625144004  0.015739282593131 0.0266939625144004  0.841295897960662 -0.532451450824737 
351.21875  0.86003279685974 -0.495375871658324  0.0161895742639899 0.026867133565247  0.0161895742639899 0.026867133565247  0.837789714336394 -0.537824153900146 
354.9375  0.858816027641295 -0.497432619333266  0.0163124492391944 0.0270283874124288  0.0163124492391944 0.0270283874124288  0.834815502166747 -0.541018962860107 
358.65625  0.855669081211089 -0.502455949783324  0.0166903501376509 0.0271149249747395  0.0166903501376509 0.0271149249747395  0.830749034881591 -0.54619687795639 
362.375  0.852321386337279 -0.507340788841247  0.0169221302494406 0.0271516274660826  0.0169221302494406 0.0271516274660826  0.827219307422637 -0.551535010337829 
366.09375  0.850615978240966 -0.511541783809661  0.0173599477857351 0.0274868886917829  0.0173599477857351 0.0274868886917829  0.824822366237639 -0.556628346443176 
369.8125  0.847701907157897 -0.516988515853881  0.0176343601197004 0.0275976993143558  0.0176343601197004 0.0275976993143558  0.820962786674498 -0.562051177024841 
373.53125  0.844257950782775 -0.5218066573143  0.0178440250456333 0.0275755766779184  0.0178440250456333 0.0275755766779184  0.817365944385528 -0.566081941127776 
377.25  0.841472506523131 -0.525198280811309  0.0179232554510236 0.0277172178030013  0.0179232554510236 0.0277172178030013  0.813225030899047 -0.57064789533615 
380.96875  0.838691413402556 -0.529506266117095  0.0183796277269721 0.0279884114861488  0.0183796277269721 0.0279884114861488  0.81052654981613 -0.57568073272705 
384.6875  0.835676908493041 -0.533929765224456  0.0187653051689267 0.0279318122193217  0.0187653051689267 0.0279318122193217  0.806746423244475 -0.58082503080368 
388.40625  0.833423197269438 -0.538542568683624  0.0191008150577545 0.0282923616468906  0.0191008150577545 0.0282923616468906  0.803784906864165 -0.585181832313537 
392.125  0.830850601196288 -0.543356418609618  0.0193157019093632 0.0282356441020965  0.0193157019093632 0.0282356441020965  0.799208104610442 -0.58986747264862 
395.84375  0.827318489551543 -0.54821479320526  0.0197451971471309 0.0283514680340885  0.0197451971471309 0.0283514680340885  0.796659469604491 -0.594820082187652 
399.5625  0.822409749031066 -0.550643444061279  0.0199324954301119 0.028320787474513  0.0199324954301119 0.028320787474513  0.791221499443053 -0.599591732025146 
403.28125  0.821258425712584 -0.555837392807006  0.0202716663479805 0.0285704275593161  0.0202716663479805 0.0285704275593161  0.78950923681259 -0.603345990180968 
407  0.818657159805297 -0.560305953025817  0.0205392567440867 0.028654558584094  0.0205392567440867 0.028654558584094  0.784624099731444 -0.608408093452453 
410.71875  0.815825402736663 -0.563868701457976  0.0205783760175108 0.0288709532469511  0.0205783760175108 0.0288709532469511  0.782234966754912 -0.611983656883239 
414.4375  0.812817037105559 -0.568890690803527  0.0211273627355694 0.0288779214024543  0.0211273627355694 0.0288779214024543  0.779247701168059 -0.617171704769134 
418.15625  0.809789955615996 -0.573402106761932  0.0214182483032345 0.0289278365671634  0.0214182483032345 0.0289278365671634  0.775452733039855 -0.621750056743621 
421.875  0.804988086223601 -0.578329145908355  0.0217739874497056 0.0288807600736617  0.0217739874497056 0.0288807600736617  0.771069288253783 -0.626424551010131 
425.59375  0.803099215030669 -0.580696046352386  0.0221028281375765 0.0290867630392313  0.0221028281375765 0.0290867630392313  0.7682546377182 -0.63060051202774 
429.3125  0.799846231937407 -0.585867583751678  0.0223254226148128 0.0290589872747659  0.0223254226148128 0.0290589872747659  0.763876199722289 -0.63455718755722 
433.03125  0.796488344669341 -0.590083003044128  0.0225401790812612 0.0291902376338839  0.0225401790812612 0.0291902376338839  0.760481476783751 -0.638232946395873 
436.75  0.79342359304428 -0.594139635562896  0.0230002859607338 0.0292428443208336  0.0230002859607338 0.0292428443208336  0.756864607334136 -0.643703937530517 
440.46875  0.788400053977965 -0.599044144153594  0.0233012437820434 0.0292254891246557  0.0233012437820434 0.0292254891246557  0.752815425395964 -0.647891104221343 
444.1875  0.785148561000823 -0.605057895183562  0.0235854880884289 0.0291332937777041  0.0235854880884289 0.0291332937777041  0.747298777103423 -0.652509629726409 
447.90625  0.782697677612304 -0.605941832065582  0.0238403482362627 0.0292193675413727  0.0238403482362627 0.0292193675413727  0.743038952350615 -0.654832005500792 
451.625  0.778990387916564 -0.610459268093108  0.0241666492074728 0.0294017577543854  0.0241666492074728 0.0294017577543854  0.740257263183593 -0.658987700939178 
455.34375  0.775280535221099 -0.614020347595214  0.0243992963805795 0.0293263876810669  0.0243992963805795 0.0293263876810669  0.736949741840362 -0.663151383399962 
459.0625  0.77214479446411 -0.61924910545349  0.0248991698026656 0.0293949590995907  0.0248991698026656 0.0293949590995907  0.733704388141631 -0.668431222438811 
462.78125  0.769346177577971 -0.62238186597824  0.0250307172536849 0.0294532999396323  0.0250307172536849 0.0294532999396323  0.729524314403533 -0.671857178211211 
466.5  0.765073537826537 -0.627169013023376  0.0254141418263315 0.0295010907575488  0.0254141418263315 0.0295010907575488  0.726105391979216 -0.677099108695983 
470.21875  0.761917173862456 -0.630536675453185  0.0256695989519357 0.0293082082644104  0.0256695989519357 0.0293082082644104  0.720798969268798 -0.681357502937316 
473.9375  0.759448885917662 -0.634789943695068  0.0260472120717168 0.0296454597264528  0.0260472120717168 0.0296454597264528  0.718060791492461 -0.68417590856552 
477.65625  0.755939185619353 -0.637098610401153  0.0262751802802085 0.0296213757246732  0.0262751802802085 0.0296213757246732  0.714677989482879 -0.688228368759154 
481.375  0.752549350261687 -0.642227351665496  0.0266327178105712 0.0296571189537643  0.0266327178105712 0.0296571189537643  0.711153328418731 -0.69153994321823 
485.09375  0.748933374881743 -0.645717620849608  0.0268757361918687 0.0295427199453115  0.0268757361918687 0.0295427199453115  0.706805765628814 -0.695915758609771 
488.8125  0.746092915534972 -0.650707125663756  0.0272783823311329 0.0296981967985629  0.0272783823311329 0.0296981967985629  0.7041158080101 -0.700738370418548 
