! Matrix data file written by TouchstoneData, EPCOS AG
! FILENAME: "B4332_NB.s2p"
! COMMENT: "(B4332_X42Y43_NB.s2p) Epcos AG 11/21/2013 3:"
! INFO: nport=2, nfreq=1601
! DATE: "Tue Dec  3 14:35:08 2013"
! USER: "Rosemary Xue"
!
! port | pin | signal
! -----|-----|--------
!   1  |  1  |  IN
!   2  |  4  |  OUT
! --------------------
! 
# MHZ S RI R 50
! freq  reS11 imS11  reS21 imS21  reS12 imS12  reS22 imS22
2335  -0.683122515678405 -0.650718092918395  0.0130762914195657 -0.00939821172505615  0.0131464190781116 -0.00958536658436058  -0.621937334537505 -0.713728368282317 
2335.25  -0.683369100093841 -0.650260746479034  0.0130579750984907 -0.00945327617228029  0.013071802444756 -0.00957121700048444  -0.622653782367706 -0.71322065591812 
2335.5  -0.683490335941314 -0.649924159049987  0.0130408862605691 -0.00942462030798195  0.0130438935011625 -0.00955540686845777  -0.623019993305206 -0.71255201101303 
2335.75  -0.683534622192382 -0.649855434894561  0.0130147347226739 -0.00942157022655008  0.0130482204258442 -0.00954599771648643  -0.623328506946563 -0.711811244487762 
2336  -0.683976113796233 -0.649829268455504  0.0129959741607308 -0.00940683577209709  0.0130206383764744 -0.00955393631011246  -0.623194694519042 -0.711186170578002 
2336.25  -0.684536516666411 -0.649533510208129  0.0129592409357428 -0.00941598601639269  0.0129877496510744 -0.00952500477433202  -0.622969806194305 -0.710850596427916 
2336.5  -0.685021221637725 -0.648918151855468  0.0129238842055201 -0.00939798541367052  0.0129612181335687 -0.00953271333128212  -0.623198390007018 -0.71061486005783 
2336.75  -0.685421347618102 -0.648486256599425  0.0129107497632503 -0.0094106141477823  0.0129522960633039 -0.0095021780580282  -0.623263299465179 -0.710593283176421 
2337  -0.685920357704162 -0.648099124431609  0.0128698740154505 -0.00942093972116707  0.0129009811207652 -0.0095352930948138  -0.62381762266159 -0.710558593273162 
2337.25  -0.686427175998687 -0.647494912147521  0.0128104342147708 -0.00940467976033686  0.0128196561709046 -0.00951629411429165  -0.624225437641143 -0.710273504257201 
2337.5  -0.686835944652556 -0.646763443946838  0.012765952385962 -0.00939102284610269  0.0127987116575241 -0.00948677863925693  -0.624764740467071 -0.709889948368072 
2337.75  -0.687242507934569 -0.646158039569854  0.012728244997561 -0.00934038776904342  0.0127403493970632 -0.00943646673113106  -0.624911606311797 -0.709486663341521 
2338  -0.687215268611907 -0.645376682281493  0.0127028953284025 -0.00934586487710474  0.0127425622195005 -0.00942347478121517  -0.625195503234862 -0.709351360797881 
2338.25  -0.687323987483977 -0.645034134387969  0.012686756439507 -0.00930915679782627  0.0127167580649256 -0.00940642505884168  -0.625471770763396 -0.709161520004272 
2338.5  -0.687726080417632 -0.644617497920989  0.0126669080927968 -0.00932368915528057  0.0127072213217616 -0.00940156821161506  -0.62613421678543 -0.709064245223998 
2338.75  -0.688161075115203 -0.644419908523559  0.0126155745238066 -0.00928429514169691  0.0126558598130941 -0.00939230155199764  -0.626120328903197 -0.708924174308776 
2339  -0.688822865486144 -0.643902242183684  0.0125938113778829 -0.00926917791366575  0.0126352049410343 -0.00936482567340134  -0.626969337463378 -0.708655893802642 
2339.25  -0.688737988471984 -0.642953515052794  0.0125859649851918 -0.00925062783062456  0.01261967420578 -0.00934493169188497  -0.627336025238036 -0.708471596240996 
2339.5  -0.68859177827835 -0.642295479774474  0.0125553058460355 -0.00923611503094433  0.0125870276242494 -0.00931273959577082  -0.627764225006103 -0.708123981952666 
2339.75  -0.688874006271361 -0.642496764659881  0.012534917332232 -0.00923178717494009  0.01257283706218 -0.00931840948760507  -0.627836287021636 -0.707716941833495 
2340  -0.689625799655913 -0.642116248607635  0.0125104915350675 -0.00921475421637295  0.0125345382839441 -0.00930311065167186  -0.62818419933319 -0.707654953002929 
2340.25  -0.6900817155838 -0.641458094120025  0.0124891325831413 -0.00919369887560604  0.0125019624829292 -0.00928538478910921  -0.62874686717987 -0.707643270492553 
2340.5  -0.690453946590423 -0.640587866306304  0.0125048020854592 -0.0091594150289893  0.012499799951911 -0.00928557384759186  -0.629497289657592 -0.707588434219359 
2340.75  -0.690594434738158 -0.639779090881347  0.0124633349478245 -0.0091942213475704  0.0124630015343427 -0.00928373448550699  -0.630072236061095 -0.707064390182494 
2341  -0.690255105495452 -0.639051735401153  0.012421146966517 -0.0091842273250222  0.0124293612316251 -0.00927421264350412  -0.630685210227966 -0.706558108329772 
2341.25  -0.690005838871001 -0.639140903949737  0.0124111333861947 -0.00917467847466467  0.0124139990657568 -0.0092586353421211  -0.631174862384795 -0.706080794334411 
2341.5  -0.690474927425384 -0.639280796051024  0.0123979914933443 -0.00915998220443724  0.0123848645016551 -0.00923867430537937  -0.631348311901092 -0.705493211746215 
2341.75  -0.691109955310821 -0.638742804527282  0.0123733235523104 -0.00915606226772068  0.0123897083103657 -0.00924757495522497  -0.631933271884917 -0.705357670783996 
2342  -0.691419005393981 -0.63806515932083  0.0123336343094706 -0.00916208047419784  0.0123380636796355 -0.00925609096884725  -0.632429957389831 -0.705205678939818 
2342.25  -0.691454887390136 -0.637761712074279  0.0123428320512175 -0.00913854129612444  0.0123201962560415 -0.00925093796104191  -0.633074283599853 -0.704626321792602 
2342.5  -0.691680431365966 -0.637201011180877  0.0122880600392818 -0.00917593669146297  0.012288436293602 -0.0092699024826288  -0.633692741394042 -0.704300880432128 
2342.75  -0.691785991191863 -0.636791646480559  0.0122412322089076 -0.00917045027017591  0.0122352354228496 -0.0092734908685088  -0.634078860282897 -0.704009592533111 
2343  -0.691853940486907 -0.636868715286254  0.0121823856607079 -0.00916853453963993  0.0122001124545932 -0.00929706916213034  -0.634594738483428 -0.70366883277893 
2343.25  -0.692210912704467 -0.636772334575652  0.0121232448145747 -0.00916279572993515  0.0121533889323473 -0.0092637352645397  -0.63537573814392 -0.703446865081786 
2343.5  -0.692732393741607 -0.636566758155822  0.0121162869036197 -0.00912765599787233  0.0121088018640876 -0.00924093555659054  -0.636195957660674 -0.702850222587584 
2343.75  -0.692867994308471 -0.636183977127074  0.0120926117524504 -0.00914646778255699  0.0120938709005713 -0.0092318821698427  -0.636806666851043 -0.702451169490813 
2344  -0.692907869815826 -0.635769546031951  0.0120502691715956 -0.00914933066815136  0.0120382346212864 -0.00922170374542473  -0.637367546558379 -0.701850473880767 
2344.25  -0.692924618721007 -0.635720908641814  0.0120101599022746 -0.00913181900978086  0.0120152961462736 -0.00922343693673609  -0.637755393981933 -0.701518476009368 
2344.5  -0.693261444568633 -0.636078298091888  0.0119717260822654 -0.00918295606970785  0.0119606358930468 -0.0092357015237212  -0.63823240995407 -0.70127648115158 
2344.75  -0.694113492965697 -0.635650992393493  0.0118990801274776 -0.00915496423840521  0.0118990074843168 -0.00922132190316914  -0.638879776000976 -0.700883507728576 
2345  -0.694430828094482 -0.635156095027923  0.0118404636159539 -0.00913842022418974  0.0118748312816024 -0.00921984948217867  -0.639700829982757 -0.700661361217498 
2345.25  -0.694669485092162 -0.635255813598632  0.0117763131856918 -0.00914237834513185  0.011799675412476 -0.00921666808426378  -0.640381336212157 -0.700271666049956 
2345.5  -0.695344805717467 -0.635104656219482  0.0117353517562151 -0.00913214962929485  0.0117765618488192 -0.00920004304498432  -0.641352474689483 -0.699421942234038 
2345.75  -0.696062088012694 -0.63427835702896  0.0116671323776245 -0.00913618784397838  0.0116904964670539 -0.00921124964952467  -0.64168095588684 -0.698623836040496 
2346  -0.696140468120574 -0.633804261684417  0.0116277644410729 -0.00913551170378921  0.0116330543532967 -0.00919903349131344  -0.641910195350646 -0.698225677013396 
2346.25  -0.696412563323974 -0.633870840072631  0.0115636866539717 -0.00911431852728126  0.0115761468186974 -0.00918691419064997  -0.642358720302581 -0.697961211204528 
2346.5  -0.69667625427246 -0.633658051490783  0.0114730382338166 -0.00909469090402124  0.0115060936659574 -0.00917571876198051  -0.643078804016112 -0.697453022003173 
2346.75  -0.697252929210662 -0.633946955204009  0.0114162424579263 -0.00908187124878166  0.0114602139219641 -0.00914760679006574  -0.643634378910064 -0.696796655654906 
2347  -0.698242783546447 -0.633826732635497  0.0113908229395747 -0.00907640904188154  0.0114054558798671 -0.00914376415312288  -0.644106328487395 -0.696332991123198 
2347.25  -0.699166774749755 -0.633172094821929  0.0113208089023828 -0.00906396750360725  0.0113577088341117 -0.00911563355475662  -0.644657671451568 -0.696036040782928 
2347.5  -0.699714839458465 -0.632304310798644  0.0112588861957192 -0.00906565878540276  0.0112811606377363 -0.00911760609596966  -0.645215451717376 -0.695570826530456 
2347.75  -0.700049757957458 -0.632231295108794  0.0111818742007017 -0.00903405807912348  0.011207771487534 -0.00906475167721508  -0.645880043506621 -0.695016384124755 
2348  -0.70059561729431 -0.631805658340453  0.0111344922333956 -0.00897395517677067  0.0111487545073032 -0.00901061389595268  -0.646386384963988 -0.694383203983306 
2348.25  -0.701113760471343 -0.631638228893279  0.0110962083563208 -0.00895862095057962  0.0110987229272723 -0.00900174491107462  -0.647114932537078 -0.693874537944793 
2348.5  -0.70185625553131 -0.63160628080368  0.0110427206382155 -0.00893648620694874  0.0110302548855543 -0.00894916988909242  -0.647778987884521 -0.693213462829589 
2348.75  -0.702594518661498 -0.631360113620757  0.0109931910410523 -0.0089041870087385  0.0110275149345398 -0.00894329417496918  -0.648401498794555 -0.692760944366454 
2349  -0.703392803668975 -0.63101291656494  0.010930004529655 -0.00888087972998617  0.0109383706003427 -0.00894584041088818  -0.649060308933257 -0.692007839679717 
2349.25  -0.704192280769347 -0.630473315715789  0.0108651733025908 -0.00887083075940607  0.0108691640198231 -0.00890290364623068  -0.649453222751616 -0.69157701730728 
2349.5  -0.704721808433532 -0.629768729209899  0.0108001725748181 -0.00881862640380857  0.0108022047206759 -0.0088603952899575  -0.649959862232207 -0.691035509109496 
2349.75  -0.705230116844176 -0.629462122917174  0.0107565680518746 -0.00877410266548393  0.0107515109702945 -0.00882228277623651  -0.650677561759948 -0.69057935476303 
2350  -0.705730497837066 -0.629238307476043  0.010704799555242 -0.00870953779667614  0.0107064452022314 -0.00877716578543184  -0.651024878025054 -0.690429270267486 
2350.25  -0.70662224292755 -0.629001736640929  0.0106968777254224 -0.00868417881429194  0.0106770880520344 -0.00874640885740517  -0.652211904525756 -0.690126299858092 
2350.5  -0.707435131072997 -0.628348171710967  0.0106507875025272 -0.00866020191460846  0.0106511544436216 -0.00871476624161003  -0.653209745883941 -0.689474344253539 
2350.75  -0.708198130130767 -0.627702236175536  0.0105718811973929 -0.00863302778452633  0.010585424490273 -0.0086941411718726  -0.653720021247863 -0.688529074192046 
2351  -0.708943367004394 -0.626992046833038  0.010516638867557 -0.00859376229345797  0.0105175413191318 -0.00867714919149874  -0.653985381126403 -0.687993824481963 
2351.25  -0.709473013877868 -0.626224637031554  0.0104599017649889 -0.00854573864489792  0.0104378499090671 -0.00861139502376316  -0.654597461223601 -0.687486171722411 
2351.5  -0.709986567497252 -0.625593781471252  0.010434833355248 -0.0085027292370796  0.0104145109653473 -0.00857773423194883  -0.655142366886138 -0.686903655529021 
2351.75  -0.710585951805114 -0.624872624874114  0.0103705329820514 -0.00846964027732609  0.0103806806728244 -0.00851669721305368  -0.655907630920409 -0.68642497062683 
2352  -0.711277067661284 -0.624326407909392  0.0103181563317776 -0.00844059791415928  0.0103314574807882 -0.00848523527383802  -0.656545519828796 -0.685624361038207 
2352.25  -0.711790144443511 -0.623542487621306  0.0102858589962125 -0.00838850066065786  0.0103007378056645 -0.0084205102175474  -0.657079935073852 -0.684815287590026 
2352.5  -0.712473392486571 -0.622819900512694  0.0102450186386704 -0.00833568535745142  0.0102342450991273 -0.00839845556765793  -0.65709763765335 -0.683984577655791 
2352.75  -0.713142096996306 -0.622076451778411  0.010196590796113 -0.00829570461064575  0.0102184014394879 -0.00836015027016399  -0.657634258270263 -0.68364667892456 
2353  -0.713766932487487 -0.620994806289672  0.0101543767377734 -0.0082841459661722  0.010178348980844 -0.00834748987108467  -0.65797859430313 -0.683236122131347 
2353.25  -0.714208543300628 -0.62035983800888  0.010118355974555 -0.00824668817222116  0.0101081589236855 -0.00829810835421084  -0.658880650997161 -0.682724177837371 
2353.5  -0.714431583881377 -0.619744300842284  0.0100651271641254 -0.00820235442370174  0.0100667029619217 -0.0082628261297941  -0.659566164016723 -0.681956350803374 
2353.75  -0.714962184429168 -0.619313299655914  0.0100219333544373 -0.00816417019814251  0.0100231971591711 -0.00819237343966959  -0.660192072391509 -0.681413710117339 
2354  -0.715488374233245 -0.618758499622344  0.0099903307855129 -0.00810609664767979  0.00998789072036741 -0.00818147324025629  -0.660714924335479 -0.680674195289611 
2354.25  -0.716130375862121 -0.618241012096404  0.00993514060974119 -0.00807691086083649  0.00994490832090376 -0.00813685730099676  -0.661114931106566 -0.680171728134154 
2354.5  -0.716567933559417 -0.617330968379974  0.00989622995257375 -0.00800171773880718  0.00990626495331524 -0.00808723550289868  -0.662046492099761 -0.679412066936492 
2354.75  -0.716946721076964 -0.616437137126922  0.0098752900958061 -0.00796490348875521  0.00986449606716631 -0.00803549401462076  -0.662818014621734 -0.678584218025207 
2355  -0.717350244522094 -0.615904808044433  0.00984399020671842 -0.00791708845645188  0.0098470840603113 -0.00800491403788326  -0.663525938987731 -0.677677512168883 
2355.25  -0.717920303344726 -0.615152537822722  0.00980328116565941 -0.00789720751345156  0.00981798395514486 -0.00798955094069241  -0.663888037204742 -0.676746368408202 
2355.5  -0.718231201171874 -0.614335715770721  0.00977369491010902 -0.00786408130079506  0.00975095108151434 -0.00794805586338041  -0.66438603401184 -0.676248371601104 
2355.75  -0.718878090381621 -0.613724648952483  0.00969701074063776 -0.00782018899917601  0.00969282444566486 -0.00788625609129666  -0.66486233472824 -0.675479650497436 
2356  -0.719457447528838 -0.613109111785888  0.00967278890311716 -0.00779136596247552  0.00965818762779234 -0.007838848978281  -0.665571928024291 -0.674695789813994 
2356.25  -0.720025956630706 -0.612241685390472  0.00963364541530607 -0.00772375054657458  0.00961058586835859 -0.00780958682298658  -0.665972232818603 -0.673649013042449 
2356.5  -0.720616281032561 -0.611715495586394  0.00957343541085718 -0.00770275946706532  0.00956997461616991 -0.00776457367464898  -0.666434049606322 -0.672869980335235 
2356.75  -0.720998525619506 -0.611038029193877  0.00953925307840107 -0.00763450376689432  0.00953065417706964 -0.00769953057169912  -0.666755557060241 -0.671723723411559 
2357  -0.72165673971176 -0.610313236713409  0.00950960163027046 -0.00760503066703676  0.00949478335678575 -0.00763309327885507  -0.667212307453155 -0.670874655246734 
2357.25  -0.722253084182738 -0.609727799892425  0.00945332925766704 -0.0075645763427019  0.00946302246302364 -0.00759249180555342  -0.66787815093994 -0.670062661170958 
2357.5  -0.722817957401275 -0.608930945396422  0.00942692160606382 -0.00750308437272905  0.00940108206123112 -0.00753525970503686  -0.667916297912597 -0.669169783592223 
2357.75  -0.7236790060997 -0.608355402946471  0.00938006769865749 -0.00746161211282013  0.00939938239753244 -0.00746812112629412  -0.668507039546966 -0.668376147747039 
2358  -0.724230527877807 -0.607441425323486  0.00932983215898273 -0.00740997958928345  0.00932897999882696 -0.00741177331656216  -0.66925436258316 -0.667565405368804 
2358.25  -0.72470587491989 -0.60620480775833  0.00930933747440574 -0.0073518301360309  0.00931160524487493 -0.00735273072496055  -0.670033574104308 -0.666362404823302 
2358.5  -0.724883079528808 -0.605376541614532  0.00927287247031925 -0.00728260260075329  0.00926429498940704 -0.00731330411508678  -0.670407712459563 -0.665131449699401 
2358.75  -0.724852979183196 -0.604657590389251  0.00924261566251514 -0.00721220904961227  0.00923273991793392 -0.00724421441555022  -0.67052549123764 -0.663935244083404 
2359  -0.725211977958678 -0.603933930397033  0.00922393798828123 -0.00710678705945609  0.0092329643666744 -0.00715134106576441  -0.670680582523345 -0.662900745868682 
2359.25  -0.725462734699248 -0.603309392929076  0.00925032887607811 -0.00706045562401412  0.00926951039582489 -0.00710774725303052  -0.67105334997177 -0.662125945091247 
2359.5  -0.725809097290038 -0.602582275867461  0.00921162869781254 -0.00702808191999792  0.00918829441070555 -0.00708001712337135  -0.671064496040343 -0.661395668983459 
2359.75  -0.726092517375945 -0.601612627506255  0.00917587894946335 -0.00694245565682648  0.00918755680322645 -0.00698954286053775  -0.671501100063323 -0.660677015781402 
2360  -0.726476669311522 -0.600983202457427  0.00920892320573328 -0.00690396223217247  0.00921707879751919 -0.00697150174528359  -0.672042667865752 -0.65996217727661 
2360.25  -0.726595878601073 -0.600083470344543  0.00915786996483801 -0.0068856426514685  0.0091791311278939 -0.00696083856746553  -0.672487139701842 -0.658758223056792 
2360.5  -0.726819396018981 -0.599237918853759  0.00908875185996292 -0.00679656118154524  0.00908465310931204 -0.00686045363545416  -0.672587454318999 -0.657265841960906 
2360.75  -0.726873159408568 -0.598628401756286  0.00906795822083948 -0.00668923836201428  0.0090876594185829 -0.00675484910607336  -0.672244489192962 -0.656162798404693 
2361  -0.72732651233673 -0.597881972789764  0.00910666212439535 -0.00662495987489818  0.00913311727344988 -0.00668940832838415  -0.671617150306701 -0.655818104743957 
2361.25  -0.727817714214324 -0.596754133701324  0.00914343446493147 -0.00655455468222497  0.00913176033645866 -0.00662353727966546  -0.671976268291472 -0.655744493007659 
2361.5  -0.727812588214873 -0.595818996429442  0.00917800329625604 -0.00655134487897156  0.00917869806289671 -0.00661309668794273  -0.672528147697448 -0.655049860477447 
2361.75  -0.727999031543731 -0.595239043235778  0.00917464867234228 -0.00650515314191578  0.00918024033308027 -0.00661478424444793  -0.673039138317107 -0.654052555561065 
2362  -0.728043556213378 -0.594373643398284  0.00914102327078579 -0.00645398115739225  0.00915397237986324 -0.00653038918972014  -0.67317646741867 -0.652840912342071 
2362.25  -0.728185713291167 -0.593758285045623  0.00916183087974785 -0.00643174489960073  0.00916015170514582 -0.00648563820868729  -0.672692596912383 -0.651802480220794 
2362.5  -0.728422999382018 -0.593353807926177  0.00915562547743318 -0.00640822621062396  0.00916033983230589 -0.00648936210200189  -0.672612249851226 -0.651163518428802 
2362.75  -0.728786289691924 -0.592497408390044  0.0091761192306876 -0.00630680331960319  0.00916710682213304 -0.00638324022293089  -0.671889007091521 -0.650029778480529 
2363  -0.729140579700469 -0.591665089130401  0.00926735438406465 -0.00628664484247564  0.00927487667649982 -0.00637859851121901  -0.671060621738433 -0.650044620037078 
2363.25  -0.729598522186278 -0.591180264949798  0.00928342342376707 -0.00636419281363486  0.00931014027446506 -0.00645606173202394  -0.671070039272307 -0.650319635868072 
2363.5  -0.730227470397948 -0.590248405933379  0.00923599768429992 -0.0063854670152068  0.00924384221434591 -0.00643725367262958  -0.671486377716064 -0.650171279907226 
2363.75  -0.730698585510253 -0.589252769947051  0.00923440419137476 -0.00634745415300129  0.00923475529998539 -0.00643219472840427  -0.672077775001525 -0.649484694004058 
