! Matrix data file written by TouchstoneData, EPCOS AG
! FILENAME: "B4333_X43Y32_WB.snp"
! COMMENT: "(TS/AB84A_2_X43Y32_WB.s3p) Epcos AG 4/21/201"
! INFO: nport=3, nfreq=1601
! DATE: "Thu Aug  7 16:02:44 2014"
! USER: "Dan Wang"
!
! port | pin | signal
! -----|-----|--------
!   1  |  1  |  input
!   2  |  3  |  output
!   3  |  4  |  output
! --------------------
! 
# MHZ S RI R 50
! freq  reS11 imS11  reS12 imS12  reS13 imS13  ...
50  0.991466522216796 -0.0794123411178588  5.79210218347726e-05 2.05219275812851e-05  0.000101269890365075 -3.2100540238389e-05 
 5.79210218347726e-05 2.05219275812851e-05  0.994440019130705 -0.0439638830721378  0.000643199629848824 0.0211098501458764 
 0.000101269890365075 -3.2100540238389e-05  0.000643199629848824 0.0211098501458764  0.995858252048491 -0.0439097769558429 
53.71875  0.991581439971922 -0.0863866433501242  -1.12330408228445e-05 4.41685569967377e-05  -1.81687746589887e-05 4.1132049773296e-05 
 -1.12330408228445e-05 4.41685569967377e-05  0.995094180107115 -0.0472454130649566  0.00105718325357884 0.022888084873557 
 -1.81687746589887e-05 4.1132049773296e-05  0.00105718325357884 0.022888084873557  0.99673306941986 -0.047911200672388 
57.4375  0.991407155990599 -0.0918441563844679  8.52369021231428e-06 4.42797336290825e-05  -1.8002417164098e-05 4.45816203864525e-05 
 8.52369021231428e-06 4.42797336290825e-05  0.994294881820677 -0.0512939542531966  0.00127805583178996 0.0245045693591237 
 -1.8002417164098e-05 4.45816203864525e-05  0.00127805583178996 0.0245045693591237  0.996474921703337 -0.0513236299157142 
61.15625  0.99112433195114 -0.0979523211717604  -4.70702889288078e-05 5.40117416676368e-05  -7.924906185508e-06 6.65608276904096e-05 
 -4.70702889288078e-05 5.40117416676368e-05  0.995631098747252 -0.0547399818897246  0.0012925358605571 0.026017328724265 
 -7.924906185508e-06 6.65608276904096e-05  0.0012925358605571 0.026017328724265  0.996731162071227 -0.055630013346672 
64.875  0.990061342716216 -0.105304315686226  -2.80040200095755e-06 5.4480420658365e-05  3.1548507649859e-05 5.33385900780559e-05 
 -2.80040200095755e-06 5.4480420658365e-05  0.99498951435089 -0.0573238730430602  0.00152089435141533 0.0275399489328265 
 3.1548507649859e-05 5.33385900780559e-05  0.00152089435141533 0.0275399489328265  0.995859503746031 -0.0589778423309325 
68.59375  0.990577340126036 -0.110987946391106  1.9380188859941e-05 0.00011635053306236  -2.43733793467982e-05 0.000120938715554076 
 1.9380188859941e-05 0.00011635053306236  0.995195925235747 -0.0617993548512458  0.00181268423330039 0.0292068645358085 
 -2.43733793467982e-05 0.000120938715554076  0.00181268423330039 0.0292068645358085  0.99541389942169 -0.0629725530743598 
72.3125  0.989098787307738 -0.117062076926231  0.000117949788545957 0.000103724178188713  0.000109498592792079 8.063506174949e-05 
 0.000117949788545957 0.000103724178188713  0.995387971401213 -0.063182771205902  0.0015298529760912 0.0309531344100833 
 0.000109498592792079 8.063506174949e-05  0.0015298529760912 0.0309531344100833  0.995540916919707 -0.0651574954390525 
76.03125  0.989486396312712 -0.121570661664009  1.5233422345773e-07 8.03165712568444e-05  1.61588222908904e-05 6.74617294862402e-05 
 1.5233422345773e-07 8.03165712568444e-05  0.995046257972716 -0.0676464289426802  0.00212311232462525 0.0322595667093992 
 1.61588222908904e-05 6.74617294862402e-05  0.00212311232462525 0.0322595667093992  0.994844675064086 -0.0673719570040702 
79.75  0.989211738109587 -0.12771113216877  8.47033481932157e-06 8.05434065114243e-05  3.01821028187988e-05 8.67266244313216e-05 
 8.47033481932157e-06 8.05434065114243e-05  0.994165241718291 -0.0704021602869032  0.00259285850916057 0.0343263410031795 
 3.01821028187988e-05 8.67266244313216e-05  0.00259285850916057 0.0343263410031795  0.994558215141295 -0.0722808837890624 
83.46875  0.987485945224761 -0.13465803861618  -1.90690379895386e-05 9.94830297713637e-05  -4.52045230758813e-06 0.00012543242337415 
 -1.90690379895386e-05 9.94830297713637e-05  0.994894266128539 -0.0737205818295478  0.00246794137638062 0.035557523369789 
 -4.52045230758813e-06 0.00012543242337415  0.00246794137638062 0.035557523369789  0.994805872440337 -0.0741551294922827 
87.1875  0.987117648124694 -0.140945583581924  2.09082400033368e-05 6.91030163579854e-05  2.19768003262289e-05 8.57229497341906e-05 
 2.09082400033368e-05 6.91030163579854e-05  0.993477404117583 -0.076484367251396  0.00303994968999177 0.0365927889943122 
 2.19768003262289e-05 8.57229497341906e-05  0.00303994968999177 0.0365927889943122  0.994784116744994 -0.0786247923970221 
90.90625  0.985269308090209 -0.146586164832115  1.71262327057776e-05 7.21903816156556e-05  9.35083266995207e-06 0.000109879390947754 
 1.71262327057776e-05 7.21903816156556e-05  0.993651628494261 -0.0809466168284415  0.00325689278542994 0.0387690961360931 
 9.35083266995207e-06 0.000109879390947754  0.00325689278542994 0.0387690961360931  0.993888378143309 -0.0812724977731703 
94.625  0.98488277196884 -0.153488114476204  1.44131339538945e-05 3.60542753696792e-05  -4.82023096992649e-07 3.67796728824033e-05 
 1.44131339538945e-05 3.60542753696792e-05  0.991643130779265 -0.0848347097635268  0.0029322002083063 0.0396921560168265 
 -4.82023096992649e-07 3.67796728824033e-05  0.0029322002083063 0.0396921560168265  0.992454409599303 -0.0854503512382506 
98.34375  0.984474658966063 -0.159098073840141  -6.38511505712816e-06 0.00010807951548486  1.66975746651588e-06 8.89324401214255e-05 
 -6.38511505712816e-06 0.00010807951548486  0.993274390697478 -0.0880040898919104  0.00379542098380624 0.0415733419358729 
 1.66975746651588e-06 8.89324401214255e-05  0.00379542098380624 0.0415733419358729  0.993707299232482 -0.0877534374594687 
102.0625  0.983290672302245 -0.163855850696564  3.83079077437288e-05 9.84018697636202e-05  2.71295348284185e-05 9.51155052462129e-05 
 3.83079077437288e-05 9.84018697636202e-05  0.992261886596678 -0.091808959841728  0.00404462893493473 0.0434360764920711 
 2.71295348284185e-05 9.51155052462129e-05  0.00404462893493473 0.0434360764920711  0.993053972721098 -0.090508572757244 
105.78125  0.981468498706816 -0.170205578207969  5.82421016588343e-05 8.52546145324596e-05  3.24230131809601e-05 8.18806329334621e-05 
 5.82421016588343e-05 8.52546145324596e-05  0.991317331790923 -0.0941915661096571  0.00315000524278729 0.0447925068438053 
 3.24230131809601e-05 8.18806329334621e-05  0.00315000524278729 0.0447925068438053  0.9909610748291 -0.0948404818773268 
109.5  0.97993230819702 -0.177163153886795  4.00971866838518e-05 7.2333708885708e-05  4.77773319289555e-05 9.46074433159086e-05 
 4.00971866838518e-05 7.2333708885708e-05  0.990026652812956 -0.0983035564422606  0.00458958907984196 0.0464900489896535 
 4.77773319289555e-05 9.46074433159086e-05  0.00458958907984196 0.0464900489896535  0.991902589797972 -0.10007481276989 
113.21875  0.97959405183792 -0.183619379997253  1.95580857962341e-05 0.000120702843560139  1.19729543825997e-05 0.000123129848361714 
 1.95580857962341e-05 0.000120702843560139  0.990668237209319 -0.102163255214691  0.00510874507017432 0.0482169706374406 
 1.19729543825997e-05 0.000123129848361714  0.00510874507017432 0.0482169706374406  0.991915285587309 -0.101695381104946 
116.9375  0.975961625576018 -0.189580008387565  3.17417698170176e-05 0.00014198890858097  2.68152825810831e-05 0.00014005132834427 
 3.17417698170176e-05 0.00014198890858097  0.988311648368834 -0.10665363073349  0.00524891540408133 0.0495691746473312 
 2.68152825810831e-05 0.00014005132834427  0.00524891540408133 0.0495691746473312  0.990354180335997 -0.10435576736927 
120.65625  0.976025760173796 -0.194550171494484  3.27858069795184e-05 0.000108322346932255  3.91331195714884e-05 0.000107514748378889 
 3.27858069795184e-05 0.000108322346932255  0.989086866378783 -0.108179748058319  0.00607745489105581 0.0510783474892377 
 3.91331195714884e-05 0.000107514748378889  0.00607745489105581 0.0510783474892377  0.989273846149443 -0.10832031071186 
124.375  0.97435826063156 -0.200273871421814  9.20109323487851e-06 9.11171155166814e-05  2.45816188453319e-05 0.000111915636807681 
 9.20109323487851e-06 9.11171155166814e-05  0.987508475780486 -0.111822687089443  0.00621149130165576 0.0525318719446658 
 2.45816188453319e-05 0.000111915636807681  0.00621149130165576 0.0525318719446658  0.989929854869841 -0.111264787614345 
128.09375  0.972825527191161 -0.205892950296402  2.39630708165351e-05 4.09677104471484e-05  5.4231280955719e-05 8.53928504511716e-05 
 2.39630708165351e-05 4.09677104471484e-05  0.986081719398497 -0.115633569657802  0.00532864802516995 0.0538669489324092 
 5.4231280955719e-05 8.53928504511716e-05  0.00532864802516995 0.0538669489324092  0.988497316837309 -0.115213520824909 
131.8125  0.97025042772293 -0.213371723890304  3.12751753881458e-05 0.000122140685562044  5.37745982001071e-05 0.000149098661495373 
 3.12751753881458e-05 0.000122140685562044  0.986940443515776 -0.119943216443062  0.00698957173153756 0.0553067941218613 
 5.37745982001071e-05 0.000149098661495373  0.00698957173153756 0.0553067941218613  0.988527417182921 -0.11979541182518 
135.53125  0.969875216484068 -0.217234522104263  -1.68797855621961e-05 0.000118542029667878  -1.44949099194491e-05 0.000119225223897957 
 -1.68797855621961e-05 0.000118542029667878  0.986420869827269 -0.121848739683628  0.00748505047522484 0.0578679144382476 
 -1.44949099194491e-05 0.000119225223897957  0.00748505047522484 0.0578679144382476  0.987453520298003 -0.122096590697765 
139.25  0.96777057647705 -0.223169326782226  2.10890821108478e-05 0.000128211773699149  2.06698287001928e-05 0.000152069114847109 
 2.10890821108478e-05 0.000128211773699149  0.983583629131316 -0.126252725720405  0.00668541551567613 0.0590222049504518 
 2.06698287001928e-05 0.000152069114847109  0.00668541551567613 0.0590222049504518  0.985201060771941 -0.125410869717598 
142.96875  0.966341733932494 -0.226654857397079  -1.05182919014624e-05 0.000147694729093928  -1.13948735815939e-05 0.000132110799313523 
 -1.05182919014624e-05 0.000147694729093928  0.983884155750273 -0.125469207763672  0.00830250559374688 0.0600005723536013 
 -1.13948735815939e-05 0.000132110799313523  0.00830250559374688 0.0600005723536013  0.985081136226653 -0.125727072358131 
146.6875  0.964648187160491 -0.234416797757148  2.57164806498622e-05 9.87691128102597e-05  2.1260683752189e-05 0.00016810407396406 
 2.57164806498622e-05 9.87691128102597e-05  0.98359191417694 -0.131038665771484  0.00863132951781152 0.0618294905871152 
 2.1260683752189e-05 0.00016810407396406  0.00863132951781152 0.0618294905871152  0.984407126903533 -0.130332991480827 
150.40625  0.961922347545622 -0.238926276564598  8.41708060761449e-05 0.000121535962534836  6.15683657088086e-05 0.00011912024274352 
 8.41708060761449e-05 0.000121535962534836  0.982182204723357 -0.132792249321937  0.00899082748219368 0.0628741607069968 
 6.15683657088086e-05 0.00011912024274352  0.00899082748219368 0.0628741607069968  0.984966456890105 -0.133122116327286 
154.125  0.962318181991576 -0.244437828660011  4.08056184824092e-05 9.87047314993109e-05  7.32323023839855e-05 0.000144888996146619 
 4.08056184824092e-05 9.87047314993109e-05  0.981919348239897 -0.13533641397953  0.00939393090084193 0.0640324912965297 
 7.32323023839855e-05 0.000144888996146619  0.00939393090084193 0.0640324912965297  0.984232783317565 -0.13586576282978 
157.84375  0.961440205574034 -0.25076737999916  5.10637983097695e-05 0.000120559579954716  6.82052468619078e-05 0.000134604357299395 
 5.10637983097695e-05 0.000120559579954716  0.981959283351897 -0.140025898814201  0.00973044801503417 0.0661383382976054 
 6.82052468619078e-05 0.000134604357299395  0.00973044801503417 0.0661383382976054  0.982377231121062 -0.140188202261925 
161.5625  0.960539877414702 -0.254901498556137  4.70213935841458e-05 0.000109622815216426  1.35434131607326e-05 0.000156200207129586 
 4.70213935841458e-05 0.000109622815216426  0.978900671005248 -0.142581433057785  0.00861543556675313 0.0681060403585433 
 1.35434131607326e-05 0.000156200207129586  0.00861543556675313 0.0681060403585433  0.980097353458403 -0.14289727807045 
165.28125  0.95875436067581 -0.260633081197738  7.72387147662813e-06 0.00014978014951339  2.28837261602167e-05 0.000144850531796692 
 7.72387147662813e-06 0.00014978014951339  0.980283737182616 -0.144439026713371  0.0106256506405771 0.0689232498407363 
 2.28837261602167e-05 0.000144850531796692  0.0106256506405771 0.0689232498407363  0.981419265270232 -0.144762486219406 
169  0.957556188106536 -0.267349392175674  2.75397551376955e-05 0.000130000418721466  9.20325874176343e-06 0.000156949732627254 
 2.75397551376955e-05 0.000130000418721466  0.980560660362242 -0.146869108080864  0.0109568475745618 0.0709701813757418 
 9.20325874176343e-06 0.000156949732627254  0.0109568475745618 0.0709701813757418  0.981730699539183 -0.147812619805336 
172.71875  0.954423367977141 -0.271856635808944  5.52793080714765e-05 0.000134602210891899  6.29919522907586e-05 0.000140668205858674 
 5.52793080714765e-05 0.000134602210891899  0.979218125343321 -0.150034680962562  0.0109952623024582 0.0725482925772666 
 6.29919522907586e-05 0.000140668205858674  0.0109952623024582 0.0725482925772666  0.980539441108702 -0.150500670075416 
176.4375  0.953723311424254 -0.277444690465927  1.34257925310522e-06 0.000131446242448874  2.11459309866769e-05 0.00016185346612474 
 1.34257925310522e-06 0.000131446242448874  0.978766083717345 -0.153654187917709  0.0118080824613571 0.0735546797513961 
 2.11459309866769e-05 0.00016185346612474  0.0118080824613571 0.0735546797513961  0.980108320713042 -0.15453040599823 
180.15625  0.953642785549162 -0.282940834760666  4.73155650979607e-05 0.000115713941340801  2.30112118515535e-05 0.000174028849869501 
 4.73155650979607e-05 0.000115713941340801  0.978741347789763 -0.155866131186485  0.0122687346301973 0.0750912725925444 
 2.30112118515535e-05 0.000174028849869501  0.0122687346301973 0.0750912725925444  0.980155944824217 -0.157237902283668 
183.875  0.95203799009323 -0.288740873336792  2.89903919110657e-05 0.000164947356097401  5.66645521757892e-05 0.000193561412743293 
 2.89903919110657e-05 0.000164947356097401  0.977796614170073 -0.160351887345314  0.0123539487831294 0.0769251286983489 
 5.66645521757892e-05 0.000193561412743293  0.0123539487831294 0.0769251286983489  0.978551566600798 -0.160986706614494 
187.59375  0.949472546577452 -0.294394731521606  9.83551180979706e-05 0.000152468739543111  7.45536526665093e-05 0.000152672932017595 
 9.83551180979706e-05 0.000152468739543111  0.976741194725035 -0.163019880652427  0.0129335280507803 0.0781622938811777 
 7.45536526665093e-05 0.000152672932017595  0.0129335280507803 0.0781622938811777  0.977798581123351 -0.163947775959968 
191.3125  0.947964131832122 -0.299088954925537  3.58377183147241e-05 0.00013249735638965  1.09981083369349e-05 0.00017026394198183 
 3.58377183147241e-05 0.00013249735638965  0.97712481021881 -0.165351152420044  0.0143241100013256 0.0803187154233454 
 1.09981083369349e-05 0.00017026394198183  0.0143241100013256 0.0803187154233454  0.978723764419554 -0.167031019926071 
195.03125  0.946207404136656 -0.305544674396514  7.45979787097896e-06 0.000165740217198618  4.8220423195744e-05 0.000203228046302684 
 7.45979787097896e-06 0.000165740217198618  0.975753605365752 -0.169423699378967  0.0133319939486683 0.0817054770886896 
 4.8220423195744e-05 0.000203228046302684  0.0133319939486683 0.0817054770886896  0.977005064487456 -0.17038531601429 
198.75  0.945451736450194 -0.310441315174102  4.98713616252645e-05 0.000151667976751924  4.08576806876227e-05 0.00015943284961395 
 4.98713616252645e-05 0.000151667976751924  0.977585911750792 -0.17137262225151  0.0149997565895318 0.0826218537986277 
 4.08576806876227e-05 0.00015943284961395  0.0149997565895318 0.0826218537986277  0.976980388164519 -0.17241795361042 
202.46875  0.943950533866881 -0.317499935626983  6.07711044722238e-05 0.000157852104166523  3.86040082958062e-05 0.000162384392751847 
 6.07711044722238e-05 0.000157852104166523  0.976115703582762 -0.175085946917534  0.0161088686436415 0.0851076245307921 
 3.86040082958062e-05 0.000162384392751847  0.0161088686436415 0.0851076245307921  0.976041793823241 -0.177634656429291 
206.1875  0.941228330135344 -0.322219341993331  6.81076162436513e-05 0.00015577000885969  5.27868032804692e-05 0.000187878649740015 
 6.81076162436513e-05 0.00015577000885969  0.975068688392638 -0.178303837776184  0.0161342080682516 0.0859007909893988 
 5.27868032804692e-05 0.000187878649740015  0.0161342080682516 0.0859007909893988  0.975570201873778 -0.178998351097107 
209.90625  0.940754234790801 -0.32766380906105  6.48626082693228e-05 0.000154493885929696  5.22860955243232e-05 0.000144529847602826 
 6.48626082693228e-05 0.000154493885929696  0.973733723163603 -0.179058447480201  0.0158563535660505 0.0868987217545507 
 5.22860955243232e-05 0.000144529847602826  0.0158563535660505 0.0868987217545507  0.975007772445677 -0.1815195530653 
213.625  0.937638521194457 -0.333003252744674  5.17773187311833e-05 0.000192951833014377  5.92037031310611e-05 0.00018029165948974 
 5.17773187311833e-05 0.000192951833014377  0.972998559474944 -0.182941541075706  0.0170519789680839 0.0886369012296198 
 5.92037031310611e-05 0.00018029165948974  0.0170519789680839 0.0886369012296198  0.973876833915709 -0.184867441654205 
217.34375  0.935227096080779 -0.337860733270645  8.79485342011323e-05 0.000100641340395669  7.66349912737498e-05 0.000143153134558816 
 8.79485342011323e-05 0.000100641340395669  0.972379505634306 -0.184945449233055  0.0158848678693175 0.0904682278633116 
 7.66349912737498e-05 0.000143153134558816  0.0158848678693175 0.0904682278633116  0.972521781921385 -0.187663778662681 
221.0625  0.933378517627715 -0.344311267137527  7.08775951352437e-05 0.000159880881255959  7.63123935030309e-05 0.000177987152710557 
 7.08775951352437e-05 0.000159880881255959  0.973200857639311 -0.1896503418684  0.0180417699739336 0.091292805969715 
 7.63123935030309e-05 0.000177987152710557  0.0180417699739336 0.091292805969715  0.974037528038024 -0.192602679133415 
224.78125  0.930797934532164 -0.34960913658142  3.59161822416355e-05 0.000166024539794308  3.54086396328058e-05 0.000196882734599059 
 3.59161822416355e-05 0.000166024539794308  0.972847402095793 -0.192964717745781  0.0186598366126417 0.0937641002237795 
 3.54086396328058e-05 0.000196882734599059  0.0186598366126417 0.0937641002237795  0.973127543926238 -0.194539591670036 
228.5  0.929142355918883 -0.355883598327636  4.8862626499613e-05 0.00019085413805442  6.99094453011641e-05 0.000198443216504529 
 4.8862626499613e-05 0.00019085413805442  0.971167027950286 -0.195347860455513  0.0185215109959244 0.0954902581870554 
 6.99094453011641e-05 0.000198443216504529  0.0185215109959244 0.0954902581870554  0.971946239471434 -0.197690650820732 
232.21875  0.925498843193053 -0.362704306840896  4.03712429033477e-05 0.000180183647898958  6.77085754432484e-05 0.000201741560886149 
 4.03712429033477e-05 0.000180183647898958  0.971131920814513 -0.200431063771248  0.020368967205286 0.0965341478586196 
 6.77085754432484e-05 0.000201741560886149  0.020368967205286 0.0965341478586196  0.971447706222533 -0.20376218855381 
235.9375  0.924793481826781 -0.366407930850982  4.59020702692215e-05 0.000180453716893681  4.15175718444517e-05 0.00021555123385042 
 4.59020702692215e-05 0.000180453716893681  0.968669533729552 -0.201498627662658  0.0211629513651132 0.0978335291147231 
 4.15175718444517e-05 0.00021555123385042  0.0211629513651132 0.0978335291147231  0.969841837882994 -0.204341188073158 
239.65625  0.922172963619231 -0.372284114360809  3.89581709896447e-05 0.000166594094480388  6.18430749455002e-05 0.000219505578570534 
 3.89581709896447e-05 0.000166594094480388  0.968798041343688 -0.20427094399929  0.021318250335753 0.0994185432791708 
 6.18430749455002e-05 0.000219505578570534  0.021318250335753 0.0994185432791708  0.970147609710692 -0.207192182540893 
