! Matrix data file written by TouchstoneData, EPCOS AG
! FILENAME: "B4336_WB.s2p"
! COMMENT: "(B4336_X17Y54_WB.s2p) Epcos AG 2/27/2014 3:3"
! INFO: nport=2, nfreq=1601
! DATE: "Fri Mar  7 18:01:21 2014"
! USER: "Rosemary Xue"
!
! port | pin | signal
! -----|-----|--------
!   1  |  1  |  IN
!   2  |  4  |  OUT
! --------------------
!
# MHZ S RI R 50
! freq  reS11 imS11  reS21 imS21  reS12 imS12  reS22 imS22
50  0.994512736797331 -0.0724149271845816  -5.06130527355709e-05 -9.94461224763656e-05  -9.12729956326076e-06 -4.83121475554072e-05  0.995910942554472 -0.062836818397045
51.53125  0.994669556617736 -0.0744565278291701  9.96174276224339e-06 3.2354444556404e-05  2.61304398918583e-06 3.77193682652433e-05  0.997493267059325 -0.064842216670513
53.0625  0.994690060615538 -0.076859913766384  7.2654461291677e-06 1.13700380097726e-05  -1.88513581633743e-06 3.07380250887946e-05  0.997367441654204 -0.0670658722519873
54.59375  0.995072424411772 -0.0791365206241606  1.09276952571236e-05 3.49787769664545e-05  1.13415535452077e-05 2.83899462374393e-05  0.997276961803435 -0.069499760866165
56.125  0.994856476783751 -0.0811916962265967  -4.91497521579732e-05 -2.76196860795608e-05  -4.2127117922064e-05 -3.06911570078228e-05  0.996840715408324 -0.0712775364518164
57.65625  0.994841992855071 -0.0833184123039244  9.09940717974679e-06 -7.34553486836377e-06  -7.46560954212328e-06 4.03723461204209e-05  0.996690690517424 -0.0734910443425177
59.1875  0.994496881961821 -0.086159087717533  1.38760933623417e-05 4.09130916523282e-05  3.83236547349953e-05 5.47229683434126e-05  0.996625065803526 -0.0759526640176772
60.71875  0.994555830955504 -0.0880216881632803  -2.43290561030563e-08 -4.95599997520913e-05  4.76891091238941e-06 -2.37703006860102e-05  0.996888279914855 -0.0779990777373312
62.25  0.994645178318022 -0.0892253443598746  -1.72760101122549e-05 4.10337415814866e-05  -1.22568753795349e-05 3.73053080693354e-05  0.996487915515898 -0.0794554129242896
63.78125  0.993824899196623 -0.0914441496133803  1.11540757643525e-05 7.42542179068552e-05  -2.94253936772293e-06 4.24278332502582e-05  0.995889723300932 -0.0819242522120474
65.3125  0.993901431560515 -0.0939130112528799  1.80828010343248e-05 4.28570710937493e-05  -1.22588171507232e-05 1.83107076736633e-05  0.995966434478758 -0.0844031274318694
66.84375  0.994213223457335 -0.0957324504852293  -1.67595499078743e-05 8.47468800202479e-06  7.91885577200447e-06 -4.04455931857229e-06  0.995806574821471 -0.0859651267528532
68.375  0.993976652622222 -0.0986228734254835  2.87603616015986e-05 2.47852949541994e-05  5.51331759197638e-05 3.14639000862372e-05  0.995190382003783 -0.0884179398417471
69.90625  0.993202507495879 -0.101049065589905  -4.30084728577641e-05 -8.42604276840576e-06  -4.53990542155226e-05 -3.72231734218077e-05  0.993679404258727 -0.0906511917710303
71.4375  0.992854118347167 -0.103359341621399  6.08590244155494e-06 7.92399878264406e-05  -2.39868313656188e-07 9.50513931456955e-05  0.994110107421874 -0.0910428091883658
72.96875  0.993002653121947 -0.10523447394371  -5.17948210472242e-05 4.05891914851964e-05  -2.47782645601547e-05 3.14789213007317e-05  0.994103133678435 -0.0927922129631041
74.5  0.992818474769591 -0.107178628444671  3.95187416870613e-05 2.10213711397956e-05  5.04964555148036e-05 3.2570733310422e-05  0.994055747985838 -0.0958038121461866
76.03125  0.99264085292816 -0.109255328774452  5.39281063538511e-06 6.00549283262809e-05  1.10616183519596e-05 5.80696141696536e-05  0.993784964084624 -0.0973778516054152
77.5625  0.992208540439604 -0.111740238964558  -4.62914576928598e-05 6.37877456028947e-05  -4.0924242057372e-05 7.48228922020645e-05  0.992763340473174 -0.0994976013898848
79.09375  0.991205990314482 -0.113912403583526  -1.22487863336574e-05 1.47363007272361e-05  -9.72799534793013e-06 1.32916748043499e-05  0.993676662445067 -0.1010422706604
80.625  0.991389036178588 -0.116580411791801  2.27566815738101e-05 5.64210586162518e-06  2.8212871256983e-05 -3.16665978061792e-06  0.99364137649536 -0.103169299662113
82.15625  0.99175453186035 -0.118377670645714  4.17547344113701e-05 3.33820607920644e-05  9.71822555584369e-06 5.30699799128343e-05  0.993340849876402 -0.105074666440487
83.6875  0.992236614227294 -0.120996087789535  2.85016067209654e-05 6.81668825563976e-06  1.47728414958692e-05 3.64913175872062e-05  0.992450773715972 -0.10631749778986
85.21875  0.992414832115172 -0.123579621315002  7.7784152381355e-06 1.59075880219462e-05  1.18545385703328e-05 2.33580667554634e-05  0.991989731788634 -0.108979701995849
86.75  0.991446435451506 -0.124995589256286  -2.20649671973661e-05 5.9105321270181e-05  7.65155436965871e-06 3.95174029108603e-05  0.992006838321684 -0.111493401229381
88.28125  0.99076610803604 -0.127664253115654  -4.46946469310206e-05 6.287511496339e-05  -2.64626814896474e-05 5.70695956412238e-05  0.991935431957244 -0.113884381949901
89.8125  0.99080729484558 -0.13004207611084  2.6952700864058e-05 4.64891782030464e-05  2.73286332230783e-05 4.83119001728483e-05  0.991951823234557 -0.115037254989147
91.34375  0.990121126174925 -0.131698310375213  2.39730570683605e-06 2.35042916756357e-05  2.64173959294567e-05 3.07798036374152e-05  0.991895079612731 -0.11771560460329
92.875  0.989160656929015 -0.133866235613823  -5.573693124461e-05 5.75226295040921e-06  -3.78280019504019e-05 -1.02114654509933e-05  0.99137908220291 -0.120663799345493
94.40625  0.987927675247191 -0.13558754324913  0.000102579848316964 -3.62152350135148e-05  0.00010835804278031 -3.54182411683724e-05  0.990311145782469 -0.121170990169048
95.9375  0.988540291786192 -0.137761861085892  3.25680521200412e-05 -1.94968561118003e-06  2.34142662520754e-05 -6.20551327301656e-06  0.990528047084807 -0.122620187699795
97.46875  0.989081680774687 -0.139126464724541  -1.92290099221282e-06 1.81359155249084e-05  7.6529340731213e-06 1.55295965669211e-05  0.990352272987364 -0.123898841440677
99  0.988343000411986 -0.141333132982254  -2.55541863225517e-06 6.17320474702866e-05  -2.96194266411476e-05 4.16246220993344e-05  0.989925086498259 -0.126107394695282
100.53125  0.9880553483963 -0.143716648221016  -8.65401034388925e-06 1.36787484734669e-05  -2.64545833488228e-05 3.77292781195138e-05  0.990095555782317 -0.128125295042991
102.0625  0.98827701807022 -0.146852329373359  -1.32261884573382e-05 5.27269330632408e-05  6.69336577630021e-06 3.80111523554661e-05  0.989881515502928 -0.130499437451362
103.59375  0.988212823867796 -0.148865580558777  1.76206704054494e-05 5.87701069889591e-05  6.59457271012795e-07 2.71314584097127e-05  0.989509284496306 -0.132690519094467
105.125  0.98766928911209 -0.150785610079765  -2.40434255829314e-05 6.11818541074173e-05  3.5473654861562e-05 5.63629582757131e-05  0.988433361053466 -0.135298475623131
106.65625  0.98669135570526 -0.153117343783378  9.94731999526267e-06 -3.15479610435432e-06  1.74342312675435e-05 8.00240377429874e-06  0.988781511783598 -0.136822313070297
108.1875  0.986104607582091 -0.155253618955612  -7.08919924363728e-06 6.03501175646671e-05  -4.2818624933716e-05 1.96925338968868e-05  0.987379670143126 -0.139003917574882
109.71875  0.98612207174301 -0.157239183783531  1.0217459021078e-05 8.02498689154164e-05  4.63921651316924e-06 8.01424466772006e-05  0.986854851245879 -0.14125694334507
111.25  0.985383093357085 -0.15955339372158  1.94903532246827e-05 1.05307217381778e-05  3.25009423249867e-05 3.78088443540037e-05  0.985959589481352 -0.141467705368995
112.78125  0.985089361667632 -0.161900117993355  -6.16810302744853e-06 2.81559096038109e-05  3.6158391594654e-05 2.49709046329372e-05  0.986801803112029 -0.144514173269272
114.3125  0.985413193702696 -0.164381578564644  -1.61199732247042e-05 4.17740993725602e-05  -4.30317704740447e-05 3.67991160601378e-05  0.986232757568358 -0.146317094564438
115.84375  0.984230637550353 -0.166475310921669  -7.46479713598089e-07 4.02573168685195e-05  -1.3904512343288e-05 6.25808606855572e-05  0.985414624214171 -0.148344203829765
117.375  0.983531475067137 -0.167851909995079  -3.0528233764926e-05 6.09966555202847e-05  4.82775385535206e-06 8.65657493704932e-05  0.985827267169951 -0.149070486426353
118.90625  0.982936799526213 -0.170023813843727  4.5689845137531e-05 4.59515431430192e-05  4.52477033832111e-05 3.30442126141862e-05  0.985711872577666 -0.151122644543648
120.4375  0.982973635196684 -0.171896502375602  1.61730786203407e-05 2.21094778680709e-05  1.25021851999918e-05 1.38803006848321e-05  0.985420942306517 -0.153412282466888
121.96875  0.982923865318297 -0.174568191170692  -1.31579217850231e-05 4.14580063079485e-05  -2.02382270799717e-05 5.62909699510784e-05  0.985289394855498 -0.156150788068771
123.5  0.982526838779448 -0.176491126418113  3.47740979123046e-06 5.06181786477101e-05  2.17703163798433e-05 1.14403374027461e-05  0.985065579414366 -0.157946735620498
125.03125  0.981846511363982 -0.177568107843399  -4.31550733992481e-06 6.52076705591754e-05  2.07179236895172e-05 4.15297217841727e-05  0.984345197677611 -0.159545764327049
126.5625  0.981826841831206 -0.18053925037384  8.09020093583969e-06 2.53472571785097e-05  1.31081042127335e-05 2.99198127322598e-05  0.983958482742308 -0.161473482847214
128.09375  0.981277346611022 -0.183215409517288  9.32355669647224e-06 3.82564758183435e-05  -1.30382677525631e-05 3.34450996888336e-05  0.983523428440093 -0.163386240601539
129.625  0.981406152248381 -0.186269983649254  3.44833679264412e-05 3.61286292900332e-05  2.91142332571326e-05 3.63600629498251e-05  0.983264803886412 -0.166141152381897
131.15625  0.979640662670134 -0.187961786985397  5.40689325134736e-06 3.54475814674516e-05  1.14026097435272e-05 3.28036039718427e-05  0.983613669872283 -0.168713107705116
132.6875  0.979119062423705 -0.189705178141594  -1.61053685587831e-05 3.72322683688254e-05  2.7972162115475e-06 2.39299461100018e-05  0.983350515365599 -0.170633614063263
134.21875  0.979520142078398 -0.191660284996032  3.59491241397337e-05 8.08459371910432e-05  3.99068412662019e-05 0.000105107959825546  0.982011020183562 -0.172753989696502
135.75  0.979549586772917 -0.194050773978233  7.93725848780015e-05 1.15695956992568e-05  9.14554766495714e-05 -1.60195140779252e-05  0.981836140155791 -0.174343064427376
137.28125  0.979204773902892 -0.196355000138282  -6.65746483718977e-06 5.23149037690019e-06  -2.97154547297396e-05 1.04392411230947e-05  0.982389330863951 -0.176177054643631
138.8125  0.978762328624724 -0.198124065995216  -1.2933435755258e-05 1.40670990731451e-05  1.02687135949964e-06 1.54933172780148e-06  0.980635702610014 -0.178166285157203
140.34375  0.977420449256896 -0.198936343193054  -7.6148906373419e-05 0.000163260090630502  -7.00392847647892e-05 0.000112764450022951  0.980931878089903 -0.179201900959015
141.875  0.976962208747862 -0.201641231775284  3.28855712723453e-05 2.68066924036248e-05  1.61401003424544e-05 6.13139418419452e-05  0.98171418905258 -0.18155400454998
143.40625  0.976700365543364 -0.204924255609512  3.98832635255531e-05 -9.12683935894166e-06  5.26996009284631e-05 3.74321462004446e-05  0.980724632740019 -0.183620780706405
144.9375  0.976344048976897 -0.20701652765274  2.46112062995963e-06 5.85332418268082e-05  1.95947250176687e-05 3.24116954288912e-05  0.980523407459258 -0.184491410851478
146.46875  0.976098299026488 -0.208322450518608  2.57073838838551e-06 3.22341547871475e-05  -6.56797192277737e-06 1.56546666403301e-05  0.979549109935759 -0.186300799250602
148  0.975481510162352 -0.211012408137321  3.80216733901762e-05 5.60611952096225e-05  7.26874204701745e-05 5.83692271902693e-05  0.979637503623961 -0.188687697052955
149.53125  0.97406780719757 -0.214283019304275  -1.5947316569509e-05 -5.68352406844498e-05  -3.32332892867272e-05 -3.36699986291933e-06  0.979325413703917 -0.191182017326355
151.0625  0.974030196666716 -0.215993791818618  2.63918955170084e-05 0.000109337495814543  -6.74621560392553e-06 8.50825017550962e-05  0.979218900203704 -0.19284887611866
152.59375  0.973231971263884 -0.216272130608558  0.000112981288111769 -3.10472751152702e-05  0.00011416163033573 -4.36705777246972e-05  0.978714108467101 -0.195187836885452
154.125  0.974036037921904 -0.219206765294075  2.25366475206102e-05 4.97191831527744e-05  5.47164381714538e-06 4.51411870017183e-05  0.978468179702758 -0.196398109197616
155.65625  0.973227739334105 -0.222485333681106  1.22098772408208e-05 -1.9597151549533e-05  1.4303470379673e-05 1.39324110932648e-05  0.977558434009551 -0.198499664664268
157.1875  0.971821904182433 -0.22524231672287  -8.1830094131874e-06 5.78404396947009e-05  -7.12360224497389e-06 7.76746746851133e-05  0.976677834987639 -0.200938910245895
158.71875  0.971001386642455 -0.226521894335746  2.37446929531871e-05 3.81109057343566e-05  9.03033469512594e-06 5.3847412345931e-05  0.975519657135008 -0.203280955553055
160.25  0.970698833465575 -0.228623166680336  -8.74478610057851e-06 5.78672224946787e-05  2.05896540137474e-05 6.23740415903741e-05  0.975250720977782 -0.205237835645675
161.78125  0.970067620277404 -0.229974880814552  1.67058933584486e-05 7.09192245267333e-05  -2.53561811405234e-05 2.65252929239069e-05  0.973569333553313 -0.206252813339233
163.3125  0.970234572887419 -0.232402384281158  6.52761355013355e-06 5.52708152099514e-05  1.63260210683802e-05 4.91714563395363e-05  0.974833846092223 -0.207096755504608
164.84375  0.970049917697905 -0.234659016132354  4.5847202272853e-05 9.93221146927682e-06  3.79606244678144e-05 4.49923318228685e-05  0.975295543670653 -0.20898400247097
166.375  0.969811022281645 -0.235654830932617  -1.85384735118532e-07 4.36894515587483e-05  -4.92910930915969e-06 4.47865932073911e-05  0.974620342254637 -0.211099863052368
167.90625  0.969698786735533 -0.237442344427108  -4.53166539955419e-05 6.3689280068502e-05  1.29454774651095e-05 5.59494801564143e-05  0.974110603332518 -0.212768509984016
169.4375  0.9688982963562 -0.239893838763237  -1.04882410596474e-05 3.75788549717982e-05  -1.14105569082312e-05 3.62890677934048e-05  0.97338306903839 -0.214468032121658
170.96875  0.968342840671538 -0.24169585108757  4.51883242931218e-05 0.000111903551442083  1.82711519300938e-05 7.97903994680384e-05  0.972792863845824 -0.217267110943794
172.5  0.967521369457244 -0.243785232305526  3.77357682737057e-05 4.96013562951704e-05  1.1911969522771e-05 2.0525929357973e-05  0.973110258579253 -0.218326225876808
174.03125  0.966495871543883 -0.246442019939422  4.0180231735576e-05 2.22864891838981e-05  3.0834172548566e-07 4.01941179006827e-05  0.973157644271849 -0.219431355595588
175.5625  0.966699481010436 -0.24764983355999  -1.80536389962072e-05 6.78422074997799e-05  -3.47625245922246e-05 8.14212908153424e-05  0.972000598907469 -0.221471428871154
177.09375  0.965771794319152 -0.250313252210617  5.64796646358446e-05 7.20384632586503e-05  3.31077753799037e-05 4.97772707603873e-05  0.970079243183135 -0.224175229668617
178.625  0.965477764606474 -0.253440409898758  7.81228663981894e-05 0.00010197727533523  5.02909751958215e-05 7.77794557507151e-05  0.970492422580718 -0.226532131433487
180.15625  0.964439034461974 -0.254857838153839  1.93701325770235e-05 -2.15298041439383e-05  4.87410507048481e-05 1.12843936221907e-05  0.970508873462676 -0.227975383400917
181.6875  0.964562714099883 -0.256925880908966  -1.3519052117772e-06 5.14882958668751e-05  -5.19453863034867e-07 4.57573041785509e-05  0.970482766628264 -0.230402201414108
183.21875  0.963930308818816 -0.25912719964981  9.78867137746421e-06 7.32171392883176e-05  -2.12500672205352e-05 5.61691558687017e-05  0.969441413879393 -0.231637492775917
184.75  0.96268844604492 -0.261052310466766  1.89909515029285e-05 9.02625179151075e-05  -1.21499706438044e-05 7.12705805199222e-05  0.968514084815978 -0.234169661998748
186.28125  0.962142288684844 -0.261634826660156  6.31400616839529e-05 5.30203797097784e-05  6.7435255914461e-05 3.94347407564056e-05  0.967227935791014 -0.235567405819893
187.8125  0.962004959583281 -0.264182388782501  3.01070685964078e-05 3.10664108837955e-05  -2.75297384177975e-06 5.49871583643836e-05  0.968724608421324 -0.236944198608398
189.34375  0.961202800273894 -0.266402781009674  1.01917748906999e-05 2.0274788766983e-05  -2.94028723146767e-06 5.37959203938955e-05  0.969327926635741 -0.238142922520637
190.875  0.960397005081175 -0.268972516059875  4.00190256186762e-05 4.99441666761414e-05  1.40754846142954e-05 5.25959512742703e-05  0.969196259975432 -0.239986687898636
192.40625  0.959856152534484 -0.270693689584732  5.58883300527666e-07 6.66933192405851e-05  9.97832557914081e-06 6.45303807687016e-05  0.96814453601837 -0.241806343197822
193.9375  0.959615647792815 -0.27259224653244  1.68944279721473e-05 7.32431508367882e-05  7.20346224625247e-06 2.47868956648745e-05  0.96655762195587 -0.243866205215454
195.46875  0.959080636501311 -0.274419218301773  5.05759726365796e-06 7.45003926567735e-05  2.58748968917644e-05 7.46885561966339e-05  0.96588885784149 -0.245942905545234
197  0.958436548709868 -0.276260495185852  -2.59535204349959e-06 4.72429928777275e-05  -8.39765834825813e-06 4.82520736113657e-05  0.964634120464324 -0.247420817613601
198.53125  0.957702040672301 -0.278871923685073  -3.40705287271704e-06 4.22422963310965e-05  -5.34913965566373e-07 7.30734027456494e-05  0.964665293693541 -0.249964252114296
200.0625  0.956511557102202 -0.281559944152832  2.40992249018746e-05 5.79600418859628e-05  6.62500824546443e-05 4.32550004916266e-05  0.963994979858397 -0.251261919736862
201.59375  0.956176042556761 -0.283925801515579  -2.39205860452784e-07 2.59098269452807e-05  -1.20869453894557e-05 4.21643162553665e-05  0.963803589344023 -0.253278255462646
203.125  0.955370008945464 -0.285522848367691  2.30418481805828e-05 4.19346433773172e-05  2.18132099689683e-05 6.30007925792598e-05  0.963602900505065 -0.255202203989029
204.65625  0.95487743616104 -0.28800967335701  4.50087973149494e-05 6.59259239910172e-05  5.21285619470292e-05 9.7922624263447e-05  0.962794840335845 -0.256792396306991
206.1875  0.954627454280852 -0.29009410738945  2.40079480136047e-05 3.77231153834146e-05  -1.57907325046836e-05 1.75558216142236e-05  0.962680339813231 -0.257605731487274
207.71875  0.952249109745024 -0.292564928531646  4.53143838967663e-05 7.26647267583759e-05  3.07291957142298e-05 3.09895440295805e-05  0.959460377693175 -0.261398166418075
209.25  0.952405333518981 -0.292703539133072  -4.31200351158623e-05 2.55115246545757e-05  2.86647309621913e-06 8.86695397639416e-06  0.959625780582427 -0.260446310043335
210.78125  0.952943325042723 -0.296069502830505  6.60557707305999e-05 4.32235792686698e-05  7.34244313207456e-05 3.36398297804408e-05  0.960756957530974 -0.262351930141449
212.3125  0.9518826007843 -0.298037469387054  -7.03143632563298e-06 7.89374098530972e-05  -3.86444298783318e-05 9.09366572159344e-05  0.961534738540648 -0.264832556247711
213.84375  0.950532793998717 -0.297598302364349  3.56033815478441e-05 7.37091759219767e-05  1.07636415123125e-05 6.7070963268634e-05  0.961243033409117 -0.26707461476326
215.375  0.950720369815825 -0.300836026668548  -2.85266451101052e-05 3.37346136802808e-05  -4.24621139245574e-05 4.54430373793003e-05  0.959902703762053 -0.268436104059219
216.90625  0.950558602809905 -0.302973240613937  0.000107510611996986 3.62017890438438e-05  0.0001492265437264 2.08313831535634e-05  0.959181249141692 -0.269420385360717
218.4375  0.949716210365294 -0.305158108472824  -5.36309416929727e-05 8.41374421725051e-05  -3.08622911688872e-05 8.47621195134708e-05  0.958803772926329 -0.270972490310669
219.96875  0.948818862438201 -0.307093143463134  5.16016152687372e-05 6.23699597781525e-05  2.54349797614851e-05 6.79915392538534e-05  0.958265244960784 -0.272660732269287
221.5  0.947246193885802 -0.309419870376586  4.58093818451744e-05 2.82374530797825e-05  6.62586317048409e-05 5.82231696171222e-05  0.95810556411743 -0.27463412284851
223.03125  0.946350574493407 -0.310547143220901  2.61002296610969e-05 1.99283458641731e-05  3.09365022985731e-05 2.40663321164903e-05  0.956562638282775 -0.276884198188781
