! Matrix data file written by TouchstoneData, EPCOS AG
! FILENAME: "B4331_01_NB.snp"
! COMMENT: "(TS/B4331_01_NB.s2p) Epcos AG 11/12/2013 3:4"
! INFO: nport=2, nfreq=1601
! DATE: "Wed Dec 18 10:37:38 2013"
! USER: "Dan Wang"
!
! port | pin | signal
! -----|-----|--------
!   1  |  1  |  input
!   2  |  4  |  output
! --------------------
! 
# MHZ S RI R 50
! freq  reS11 imS11  reS21 imS21  reS12 imS12  reS22 imS22
1550  -0.412716746330261 -0.861965775489807  0.0211744857951999 -0.00540284533053637  0.0211744857951999 -0.00540284533053637  -0.532275855541229 -0.784470736980438 
1550.25  -0.41321188211441 -0.861826181411743  0.0211436916142702 -0.00536107691004872  0.0211436916142702 -0.00536107691004872  -0.532791674137115 -0.784395039081573 
1550.5  -0.41379651427269 -0.861608028411865  0.021126558072865 -0.00540138059295714  0.021126558072865 -0.00540138059295714  -0.533342063426971 -0.784655034542084 
1550.75  -0.414227068424225 -0.861167371273041  0.0210758987814188 -0.00542935240082443  0.0210758987814188 -0.00542935240082443  -0.53405487537384 -0.784872829914093 
1551  -0.41496080160141 -0.861262321472168  0.0210055084899068 -0.00541601073928177  0.0210055084899068 -0.00541601073928177  -0.535199284553528 -0.784670889377594 
1551.25  -0.415520548820496 -0.860990822315216  0.0209548594430089 -0.00542831723578275  0.0209548594430089 -0.00542831723578275  -0.53590202331543 -0.784362852573395 
1551.5  -0.416269510984421 -0.860512971878052  0.0208828058093786 -0.00541386427357793  0.0208828058093786 -0.00541386427357793  -0.536572873592377 -0.784286081790924 
1551.75  -0.416815102100372 -0.860332071781158  0.0207994710654021 -0.00544876698404551  0.0207994710654021 -0.00544876698404551  -0.537354469299316 -0.783965528011322 
1552  -0.417571693658829 -0.86019903421402  0.020735377445817 -0.00543479667976499  0.020735377445817 -0.00543479667976499  -0.538094758987427 -0.783749222755432 
1552.25  -0.418261289596558 -0.860051691532135  0.0206644553691149 -0.00540303671732545  0.0206644553691149 -0.00540303671732545  -0.538913667201996 -0.783614993095398 
1552.5  -0.418720573186874 -0.85951167345047  0.0206037955358624 -0.00539378705434501  0.0206037955358624 -0.00539378705434501  -0.539640963077545 -0.78323495388031 
1552.75  -0.419266402721405 -0.859401941299438  0.0205758735537529 -0.00537179433740675  0.0205758735537529 -0.00537179433740675  -0.539978682994843 -0.782793819904327 
1553  -0.419756263494492 -0.859295725822449  0.0205258335918188 -0.00535649643279612  0.0205258335918188 -0.00535649643279612  -0.540852010250092 -0.782484471797943 
1553.25  -0.420766085386276 -0.859173834323883  0.0204547913745046 -0.00534460321068763  0.0204547913745046 -0.00534460321068763  -0.541411399841309 -0.782253265380859 
1553.5  -0.421154171228409 -0.858615100383759  0.0203739684075117 -0.005336026661098  0.0203739684075117 -0.005336026661098  -0.542153298854828 -0.7818563580513 
1553.75  -0.421858310699463 -0.858281970024109  0.0203431425616145 -0.00532800471410155  0.0203431425616145 -0.00532800471410155  -0.543071389198303 -0.781612515449524 
1554  -0.422508716583252 -0.85822731256485  0.0202594017609954 -0.00534438202157617  0.0202594017609954 -0.00534438202157617  -0.543805956840515 -0.781080007553101 
1554.25  -0.423170268535614 -0.857951521873474  0.020179271697998 -0.00532925385050476  0.020179271697998 -0.00532925385050476  -0.544377326965332 -0.780495703220367 
1554.5  -0.423743695020676 -0.857916474342346  0.0200976049527526 -0.0052946477662772  0.0200976049527526 -0.0052946477662772  -0.545076489448547 -0.77995753288269 
1554.75  -0.424529999494553 -0.857513844966888  0.0200181119143963 -0.00524625857360661  0.0200181119143963 -0.00524625857360661  -0.545527279376984 -0.779443204402924 
1555  -0.425313830375671 -0.857426762580872  0.0199619345366955 -0.00523356278426945  0.0199619345366955 -0.00523356278426945  -0.546144366264343 -0.778691947460175 
1555.25  -0.425967544317245 -0.857060849666595  0.0199059974402189 -0.00519690150395036  0.0199059974402189 -0.00519690150395036  -0.546931982040405 -0.778294146060944 
1555.5  -0.426592081785202 -0.856758773326874  0.0198654336854815 -0.00517739844508469  0.0198654336854815 -0.00517739844508469  -0.54716831445694 -0.778010547161102 
1555.75  -0.427480697631836 -0.856466472148895  0.0197724448516965 -0.00515665858983994  0.0197724448516965 -0.00515665858983994  -0.548112154006958 -0.777520298957825 
1556  -0.42835521697998 -0.856156527996063  0.0197269096970558 -0.00511679775081575  0.0197269096970558 -0.00511679775081575  -0.548509836196899 -0.777117431163788 
1556.25  -0.42900738120079 -0.855563759803772  0.0196726992726326 -0.00509892147965729  0.0196726992726326 -0.00509892147965729  -0.549392282962799 -0.776214897632599 
1556.5  -0.429678440093994 -0.855030715465546  0.0196522064507008 -0.00508779473602772  0.0196522064507008 -0.00508779473602772  -0.550116777420044 -0.776205241680145 
1556.75  -0.43037149310112 -0.854766607284546  0.019585557281971 -0.005054812412709  0.019585557281971 -0.005054812412709  -0.550665199756622 -0.775557518005371 
1557  -0.430968880653381 -0.854336261749268  0.0195156941190362 -0.00505008595064282  0.0195156941190362 -0.00505008595064282  -0.551451325416565 -0.775230169296265 
1557.25  -0.431833982467651 -0.853763818740845  0.019459281116724 -0.00503483996726573  0.019459281116724 -0.00503483996726573  -0.552179098129272 -0.774767458438873 
1557.5  -0.432105034589767 -0.85338819026947  0.0194325251504779 -0.00501829735003412  0.0194325251504779 -0.00501829735003412  -0.552814900875092 -0.774053275585175 
1557.75  -0.432860463857651 -0.85298877954483  0.0193513892591 -0.00499908556230366  0.0193513892591 -0.00499908556230366  -0.553447127342224 -0.773431956768036 
1558  -0.433377772569656 -0.852579593658447  0.0192851694300771 -0.00498267519287765  0.0192851694300771 -0.00498267519287765  -0.554093718528748 -0.773115634918213 
1558.25  -0.434155762195587 -0.85238653421402  0.0192020507529378 -0.00496088061481714  0.0192020507529378 -0.00496088061481714  -0.554790318012238 -0.77272617816925 
1558.5  -0.434834450483322 -0.851933121681213  0.0191296255216002 -0.00494634499773383  0.0191296255216002 -0.00494634499773383  -0.555844724178314 -0.772178649902344 
1558.75  -0.435351878404617 -0.851528823375702  0.0190420998260379 -0.00490003009326756  0.0190420998260379 -0.00490003009326756  -0.556262195110321 -0.771643221378326 
1559  -0.435715287923813 -0.850937962532043  0.0189807433634996 -0.00485184066928923  0.0189807433634996 -0.00485184066928923  -0.557014763355255 -0.770902156829834 
1559.25  -0.436212152242661 -0.850667655467987  0.0189331891015172 -0.00480387988500298  0.0189331891015172 -0.00480387988500298  -0.557588815689087 -0.770431578159332 
1559.5  -0.436794012784958 -0.850447297096252  0.0188803561031818 -0.00479803909547627  0.0188803561031818 -0.00479803909547627  -0.558131635189056 -0.770100772380829 
1559.75  -0.437413722276688 -0.849964082241058  0.0188241833820939 -0.00478187017142773  0.0188241833820939 -0.00478187017142773  -0.558754920959473 -0.769337296485901 
1560  -0.438260138034821 -0.849582612514496  0.0187254007905722 -0.00474967015907169  0.0187254007905722 -0.00474967015907169  -0.559458017349243 -0.76867401599884 
1560.25  -0.438792020082474 -0.849047124385834  0.0186586957424879 -0.00470926566049456  0.0186586957424879 -0.00470926566049456  -0.559864223003387 -0.768157958984375 
1560.5  -0.439309448003769 -0.848571360111237  0.0185572542250156 -0.00467033963650465  0.0185572542250156 -0.00467033963650465  -0.56011551618576 -0.767256677150726 
1560.75  -0.44013649225235 -0.848187744617462  0.0184805607423187 -0.00462294393219054  0.0184805607423187 -0.00462294393219054  -0.560929894447327 -0.766910016536713 
1561  -0.44085556268692 -0.847370088100433  0.0183815658092499 -0.00454513402655721  0.0183815658092499 -0.00454513402655721  -0.561232626438141 -0.766309201717377 
1561.25  -0.441510140895844 -0.84637188911438  0.0183395687490702 -0.00447480869479477  0.0183395687490702 -0.00447480869479477  -0.561900556087494 -0.76568603515625 
1561.5  -0.441487193107605 -0.845766127109528  0.0183037938550114 -0.00439580576494336  0.0183037938550114 -0.00439580576494336  -0.562029182910919 -0.765045762062073 
1561.75  -0.442191869020462 -0.845215320587158  0.0182915031909943 -0.00437234644778073  0.0182915031909943 -0.00437234644778073  -0.562331557273865 -0.765026807785034 
1562  -0.44248628616333 -0.84414279460907  0.0181956039741635 -0.00432579987682402  0.0181956039741635 -0.00432579987682402  -0.562850654125214 -0.764717400074005 
1562.25  -0.442834258079529 -0.843407213687897  0.0181167656555771 -0.00425293762236833  0.0181167656555771 -0.00425293762236833  -0.564021646976471 -0.764384329319 
1562.5  -0.443041920661926 -0.842437744140625  0.0180685156956315 -0.00418361858464777  0.0180685156956315 -0.00418361858464777  -0.564318716526031 -0.763588130474091 
1562.75  -0.443087428808212 -0.841635286808014  0.0180389955639839 -0.00412063649855554  0.0180389955639839 -0.00412063649855554  -0.564874708652496 -0.76249086856842 
1563  -0.443294078111649 -0.840909898281097  0.0179873378947377 -0.00403033057227731  0.0179873378947377 -0.00403033057227731  -0.564705193042755 -0.762017071247101 
1563.25  -0.443661004304886 -0.840298712253571  0.0179521813988686 -0.00398101471364498  0.0179521813988686 -0.00398101471364498  -0.5648153424263 -0.761530220508575 
1563.5  -0.443928390741348 -0.839222133159637  0.0178828444331884 -0.00389989081304521  0.0178828444331884 -0.00389989081304521  -0.565213978290558 -0.760845243930817 
1563.75  -0.443896144628525 -0.838440179824829  0.0178989814594388 -0.00376793253235519  0.0178989814594388 -0.00376793253235519  -0.565325438976288 -0.760515749454498 
1564  -0.443240433931351 -0.838067233562469  0.0179267125204206 -0.00371056422591209  0.0179267125204206 -0.00371056422591209  -0.56571489572525 -0.760154902935028 
1564.25  -0.442719608545303 -0.838391959667206  0.0179731771349907 -0.00368584541138262  0.0179731771349907 -0.00368584541138262  -0.566013038158417 -0.760070085525513 
1564.5  -0.443087160587311 -0.838298618793488  0.0179357510060072 -0.00366350344847887  0.0179357510060072 -0.00366350344847887  -0.566788673400879 -0.759661316871643 
1564.75  -0.443538188934326 -0.838445425033569  0.0179163264110685 -0.00364856573287398  0.0179163264110685 -0.00364856573287398  -0.567596554756165 -0.758801758289337 
1565  -0.443615108728409 -0.838349223136902  0.0178825855255127 -0.00358249444980174  0.0178825855255127 -0.00358249444980174  -0.568053424358368 -0.757958710193634 
1565.25  -0.443823486566544 -0.838473498821259  0.0178972743451596 -0.00354617135599255  0.0178972743451596 -0.00354617135599255  -0.56815367937088 -0.756927371025085 
1565.5  -0.444243162870407 -0.83818119764328  0.0178967611864209 -0.00348800560459495  0.0178967611864209 -0.00348800560459495  -0.5679771900177 -0.756686389446259 
1565.75  -0.444285899400711 -0.837871789932251  0.0178972370922565 -0.00347074796445668  0.0178972370922565 -0.00347074796445668  -0.568270921707153 -0.756490230560303 
1566  -0.444448351860046 -0.837718904018402  0.0179329318925738 -0.00347031303681433  0.0179329318925738 -0.00347031303681433  -0.568971335887909 -0.756534039974213 
1566.25  -0.44447073340416 -0.837285757064819  0.0179048972204328 -0.00344629341270775  0.0179048972204328 -0.00344629341270775  -0.569634139537811 -0.755757033824921 
1566.5  -0.444145709276199 -0.837306022644043  0.0179278878495097 -0.00343022448942065  0.0179278878495097 -0.00343022448942065  -0.570346295833588 -0.755135178565979 
1566.75  -0.443901866674423 -0.83753114938736  0.0179334776476026 -0.00347070721909404  0.0179334776476026 -0.00347070721909404  -0.57088428735733 -0.754396200180054 
1567  -0.444142192602158 -0.837899029254913  0.0179441934451461 -0.00347269838675857  0.0179441934451461 -0.00347269838675857  -0.570836067199707 -0.754040837287903 
1567.25  -0.444165676832199 -0.838344812393188  0.0179043151438237 -0.00355704769026488  0.0179043151438237 -0.00355704769026488  -0.571359276771545 -0.753872096538544 
1567.5  -0.444959104061127 -0.839047074317932  0.0178255187347532 -0.00362438778392971  0.0178255187347532 -0.00362438778392971  -0.572174370288849 -0.753597736358643 
1567.75  -0.446031630039215 -0.838876366615295  0.0176956346258521 -0.00358037033583969  0.0176956346258521 -0.00358037033583969  -0.572886645793915 -0.752729475498199 
1568  -0.44660821557045 -0.838736176490784  0.0177050000056624 -0.00353199348319322  0.0177050000056624 -0.00353199348319322  -0.573011875152588 -0.751732110977173 
1568.25  -0.447583973407745 -0.838602125644684  0.0177180524915457 -0.00356066727545113  0.0177180524915457 -0.00356066727545113  -0.573489487171173 -0.75182968378067 
1568.5  -0.448637545108795 -0.83839339017868  0.0176411354914308 -0.00363116676453501  0.0176411354914308 -0.00363116676453501  -0.573851346969604 -0.751444220542908 
1568.75  -0.449137181043625 -0.838524997234344  0.0175586529076099 -0.00358093564864248  0.0175586529076099 -0.00358093564864248  -0.574149906635284 -0.75090217590332 
1569  -0.449795991182327 -0.838141918182373  0.0175083922222256 -0.00358184170909226  0.0175083922222256 -0.00358184170909226  -0.574825942516327 -0.750531375408173 
1569.25  -0.450861722230911 -0.838315010070801  0.0174414869397879 -0.00358478166162968  0.0174414869397879 -0.00358478166162968  -0.575255334377289 -0.750361919403076 
1569.5  -0.451989948749542 -0.83796364068985  0.0173604600131511 -0.00357435282785446  0.0173604600131511 -0.00357435282785446  -0.575976610183716 -0.749841630458832 
1569.75  -0.452623754739761 -0.837386906147003  0.0173065774142742 -0.00349156372249127  0.0173065774142742 -0.00349156372249127  -0.576302111148834 -0.749510824680328 
1570  -0.452941119670868 -0.837352693080902  0.0173144703730941 -0.00353339919820428  0.0173144703730941 -0.00353339919820428  -0.576652407646179 -0.749465227127075 
1570.25  -0.453779697418213 -0.837412595748901  0.0172487031668425 -0.00354750303085893  0.0172487031668425 -0.00354750303085893  -0.577201247215271 -0.749631822109222 
1570.5  -0.454724848270416 -0.837052047252655  0.0171705028042198 -0.0035505595151335  0.0171705028042198 -0.0035505595151335  -0.578191816806793 -0.749126434326172 
1570.75  -0.455446600914001 -0.836806237697601  0.0170884793624282 -0.00353553367312997  0.0170884793624282 -0.00353553367312997  -0.578948080539703 -0.748837649822235 
1571  -0.456026464700699 -0.836470007896423  0.0169884664937854 -0.0034963731886819  0.0169884664937854 -0.0034963731886819  -0.579265713691711 -0.748511672019958 
1571.25  -0.456837356090546 -0.836330711841583  0.0169235290959477 -0.00346929091028869  0.0169235290959477 -0.00346929091028869  -0.579865276813507 -0.748180389404297 
1571.5  -0.457851499319077 -0.835916340351105  0.0168456975370646 -0.00346465315669775  0.0168456975370646 -0.00346465315669775  -0.580568015575409 -0.74797534942627 
1571.75  -0.45857897400856 -0.835343480110168  0.0167481089010835 -0.00337880128063262  0.0167481089010835 -0.00337880128063262  -0.581241071224213 -0.747477173805237 
1572  -0.459201782941818 -0.834378004074097  0.0167294722050428 -0.00334558251779527  0.0167294722050428 -0.00334558251779527  -0.581875264644623 -0.747474908828735 
1572.25  -0.459349125623703 -0.833536207675934  0.0166623499244452 -0.00330107903573662  0.0166623499244452 -0.00330107903573662  -0.582659482955933 -0.747313499450684 
1572.5  -0.459524214267731 -0.833504736423492  0.0166097497567534 -0.00323147722519934  0.0166097497567534 -0.00323147722519934  -0.583591163158417 -0.746719181537628 
1572.75  -0.459932208061218 -0.833423733711243  0.0165870049968362 -0.00320070085581392  0.0165870049968362 -0.00320070085581392  -0.584063231945038 -0.746353626251221 
1573  -0.460652709007263 -0.833189129829407  0.016571274958551 -0.00318171759136021  0.016571274958551 -0.00318171759136021  -0.584832072257996 -0.745952546596527 
1573.25  -0.461086124181747 -0.832774877548218  0.016516855917871 -0.00316803145688027  0.016516855917871 -0.00316803145688027  -0.585733652114868 -0.745720148086548 
1573.5  -0.461672693490982 -0.832356929779053  0.0164823988452553 -0.00317820417694747  0.0164823988452553 -0.00317820417694747  -0.586621165275574 -0.745081961154938 
1573.75  -0.462150275707245 -0.832222700119019  0.0164357293397188 -0.00316094467416406  0.0164357293397188 -0.00316094467416406  -0.587496817111969 -0.744406700134277 
1574  -0.462816476821899 -0.83165967464447  0.0163383297622204 -0.00314991234336048  0.0163383297622204 -0.00314991234336048  -0.588110864162445 -0.743708848953247 
1574.25  -0.463615149259567 -0.831143915653229  0.0162727124989033 -0.00306405546143651  0.0162727124989033 -0.00306405546143651  -0.588572919368744 -0.74327290058136 
1574.5  -0.463792651891708 -0.830410063266754  0.0162473600357771 -0.00300022249575705  0.0162473600357771 -0.00300022249575705  -0.589314162731171 -0.743055820465088 
1574.75  -0.463896334171295 -0.829848170280457  0.0162477483972907 -0.00295453704893589  0.0162477483972907 -0.00295453704893589  -0.590120136737823 -0.742647647857666 
1575  -0.463725388050079 -0.829525053501129  0.0162424826994538 -0.00294907006900757  0.0162424826994538 -0.00294907006900757  -0.590974807739258 -0.74209201335907 
1575.25  -0.463804692029953 -0.829993665218353  0.0162441711872816 -0.0030181281035766  0.0162441711872816 -0.0030181281035766  -0.592014014720917 -0.741447627544403 
1575.5  -0.464364647865295 -0.830282747745514  0.0161377787590027 -0.00302927359007299  0.0161377787590027 -0.00302927359007299  -0.592835128307343 -0.740963637828827 
1575.75  -0.465293049812317 -0.830262899398804  0.0160755775868892 -0.00301271863281726  0.0160755775868892 -0.00301271863281726  -0.593778908252716 -0.74039626121521 
1576  -0.465989172458649 -0.830171048641205  0.0160390743985773 -0.00300135952420532  0.0160390743985773 -0.00300135952420532  -0.594614207744598 -0.739556908607483 
1576.25  -0.466853082180023 -0.829977035522461  0.0159636735916138 -0.00301454227883369  0.0159636735916138 -0.00301454227883369  -0.59511935710907 -0.738913774490356 
1576.5  -0.467815637588501 -0.829535841941833  0.0159153928980231 -0.00300111726392061  0.0159153928980231 -0.00300111726392061  -0.595977962017059 -0.738367855548859 
1576.75  -0.46839439868927 -0.82959657907486  0.0158504089340568 -0.00302060123067349  0.0158504089340568 -0.00302060123067349  -0.596876382827759 -0.738053381443024 
1577  -0.469611376523972 -0.829274475574493  0.0157515602186322 -0.00303804583381862  0.0157515602186322 -0.00303804583381862  -0.59757661819458 -0.737490773200989 
1577.25  -0.470045328140259 -0.828696846961975  0.0156407123431564 -0.00297567364759743  0.0156407123431564 -0.00297567364759743  -0.598435044288635 -0.736781299114227 
1577.5  -0.470816493034363 -0.828398406505585  0.0155724938958883 -0.00296500569675118  0.0155724938958883 -0.00296500569675118  -0.599396049976349 -0.736219882965088 
1577.75  -0.471663147211075 -0.828099310398102  0.0155332698486745 -0.00295671238563954  0.0155332698486745 -0.00295671238563954  -0.600209832191467 -0.735547006130219 
1578  -0.472306311130524 -0.828192889690399  0.0154665969312191 -0.00295612285844981  0.0154665969312191 -0.00295612285844981  -0.601014673709869 -0.73485940694809 
1578.25  -0.473348766565323 -0.827814638614655  0.015408085193485 -0.00292604125570506  0.015408085193485 -0.00292604125570506  -0.601654708385468 -0.734135568141937 
1578.5  -0.474229007959366 -0.827514588832855  0.0153088374063373 -0.00293561629951  0.0153088374063373 -0.00293561629951  -0.602705717086792 -0.733289301395416 
1578.75  -0.474911153316498 -0.827188074588776  0.01521937828511 -0.00292416731826961  0.01521937828511 -0.00292416731826961  -0.603390455245972 -0.73253333568573 
1579  -0.475616574287415 -0.82683926820755  0.0151227531023324 -0.00288439949508756  0.0151227531023324 -0.00288439949508756  -0.603897035121918 -0.731517553329468 
