! Matrix data file written by TouchstoneData, EPCOS AG
! FILENAME: "B4334_2_X30Y37_NB.snp"
! COMMENT: "(TS/B4334_2_X30Y37_NB.s2p) Epcos AG 4/24/201"
! INFO: nport=2, nfreq=1601
! DATE: "Tue Aug 12 10:42:19 2014"
! USER: "Dan Wang"
!
! port | pin | signal
! -----|-----|--------
!   1  |  1  |  input
!   2  |  4  |  output
! --------------------
! 
# MHZ S RI R 50
! freq  reS11 imS11  reS21 imS21  reS12 imS12  reS22 imS22
610  0.529341101646423 -0.825051426887512  -0.000208921839657705 -4.08476662414614e-05  -0.000208921839657705 -4.08476662414614e-05  0.0915421172976494 -0.963221907615662 
610.125  0.528869450092316 -0.825175821781158  -0.000210696780413855 -4.71552848466672e-05  -0.000210696780413855 -4.71552848466672e-05  0.0906720086932182 -0.962965548038483 
610.25  0.528693795204163 -0.825390875339508  -0.000201180890144315 -3.37332976414473e-05  -0.000201180890144315 -3.37332976414473e-05  0.0900610759854317 -0.962821662425995 
610.375  0.528566718101501 -0.825779497623444  -0.000203673014766537 -2.66833221758134e-05  -0.000203673014766537 -2.66833221758134e-05  0.089718334376812 -0.962524175643921 
610.5  0.528267502784729 -0.826138436794281  -0.000211427468457259 -4.42362143076025e-05  -0.000211427468457259 -4.42362143076025e-05  0.089065857231617 -0.962657153606415 
610.625  0.527828872203827 -0.826323747634888  -0.000201248578377999 -6.94938462402206e-05  -0.000201248578377999 -6.94938462402206e-05  0.0882051214575768 -0.962445378303528 
610.75  0.527374804019928 -0.826862871646881  -0.000193926272913814 -6.22272600594442e-05  -0.000193926272913814 -6.22272600594442e-05  0.0875079557299614 -0.962455630302429 
610.875  0.52705442905426 -0.827243983745575  -0.000217156994040124 -6.28838042757706e-05  -0.000217156994040124 -6.28838042757706e-05  0.0866819396615028 -0.961892127990723 
611  0.526687264442444 -0.827650547027588  -0.000217467975744512 -5.43626210856019e-05  -0.000217467975744512 -5.43626210856019e-05  0.0868804827332497 -0.961523711681366 
611.125  0.526481688022614 -0.828114807605743  -0.000224839604925364 -4.0530425394536e-05  -0.000224839604925364 -4.0530425394536e-05  0.0866193473339081 -0.961753726005554 
611.25  0.525892913341522 -0.828747928142548  -0.000200994036276825 -4.93378138344269e-05  -0.000200994036276825 -4.93378138344269e-05  0.086144246160984 -0.962254524230957 
611.375  0.525359272956848 -0.82879227399826  -0.000200559254153632 -5.5524109484395e-05  -0.000200559254153632 -5.5524109484395e-05  0.0851036235690117 -0.962362349033356 
611.5  0.524700462818146 -0.829126834869385  -0.000210162455914542 -7.87015014793724e-05  -0.000210162455914542 -7.87015014793724e-05  0.0844162106513977 -0.962396681308746 
611.625  0.524089515209198 -0.829411089420319  -0.000222566784941591 -5.29972676304169e-05  -0.000222566784941591 -5.29972676304169e-05  0.0836640447378159 -0.96217542886734 
611.75  0.523454427719116 -0.829588353633881  -0.00022393109247787 -6.36853510513901e-05  -0.00022393109247787 -6.36853510513901e-05  0.0831299275159836 -0.961783111095428 
611.875  0.522745132446289 -0.829889118671417  -0.000230213423492387 -6.07012534601381e-05  -0.000230213423492387 -6.07012534601381e-05  0.0828522145748138 -0.961519122123718 
612  0.522214710712433 -0.82989490032196  -0.000226841220865026 -4.41936681454536e-05  -0.000226841220865026 -4.41936681454536e-05  0.0826199948787689 -0.961623430252075 
612.125  0.521732985973358 -0.830129563808441  -0.00022957188775763 -5.36343768544611e-05  -0.00022957188775763 -5.36343768544611e-05  0.0823969319462776 -0.96156507730484 
612.25  0.52112740278244 -0.830304980278015  -0.000252046957029961 -3.49998772435356e-05  -0.000252046957029961 -3.49998772435356e-05  0.0821941718459129 -0.961695194244385 
612.375  0.52076655626297 -0.830411732196808  -0.000233494989515748 -1.94028723399242e-05  -0.000233494989515748 -1.94028723399242e-05  0.0818046778440475 -0.961857974529266 
612.5  0.520358562469482 -0.830639719963074  -0.000231703495956026 -2.94657320409897e-05  -0.000231703495956026 -2.94657320409897e-05  0.0813461020588875 -0.9620121717453 
612.625  0.519919335842133 -0.830813467502594  -0.000237082873354666 -2.43330910052464e-05  -0.000237082873354666 -2.43330910052464e-05  0.0806439816951752 -0.962388336658478 
612.75  0.519343614578247 -0.831029534339905  -0.000244419170485344 -1.50392053228643e-05  -0.000244419170485344 -1.50392053228643e-05  0.0800512805581093 -0.962336719036102 
612.875  0.518936574459076 -0.831457018852234  -0.0002088090768666 -2.23382121475879e-05  -0.0002088090768666 -2.23382121475879e-05  0.0798493549227715 -0.962352633476257 
613  0.518167436122894 -0.831914365291595  -0.000209616002393887 -2.42496980717988e-05  -0.000209616002393887 -2.42496980717988e-05  0.0792704820632935 -0.962538242340088 
613.125  0.51760059595108 -0.831880509853363  -0.000197319124708883 -6.83176460825053e-06  -0.000197319124708883 -6.83176460825053e-06  0.0788823515176773 -0.962697923183441 
613.25  0.516959846019745 -0.831988275051117  -0.000166933750733733 -5.49417090951465e-05  -0.000166933750733733 -5.49417090951465e-05  0.0784496068954468 -0.962742149829865 
613.375  0.516463458538055 -0.832074165344238  -0.000179897797352168 -3.63060598829179e-05  -0.000179897797352168 -3.63060598829179e-05  0.0779868364334106 -0.962789356708527 
613.5  0.516038656234741 -0.83244526386261  -0.00017885633133119 -6.09473336226074e-05  -0.00017885633133119 -6.09473336226074e-05  0.0774505436420441 -0.963105022907257 
613.625  0.515476047992706 -0.832771956920624  -0.000182784606295172 -7.28512986825081e-05  -0.000182784606295172 -7.28512986825081e-05  0.0767540335655212 -0.963359236717224 
613.75  0.515034735202789 -0.832641780376434  -0.000198124835151248 -8.01695532572922e-05  -0.000198124835151248 -8.01695532572922e-05  0.0760419368743896 -0.963415384292603 
613.875  0.514507353305817 -0.832910120487213  -0.000219853332964703 -6.12042294960702e-05  -0.000219853332964703 -6.12042294960702e-05  0.0755158662796021 -0.963620483875275 
614  0.514085292816162 -0.833280444145203  -0.000221640133531764 -6.80779485264793e-05  -0.000221640133531764 -6.80779485264793e-05  0.0747258439660072 -0.963940799236298 
614.125  0.513727843761444 -0.833640992641449  -0.00023032722674543 -6.5753858507378e-05  -0.00023032722674543 -6.5753858507378e-05  0.0740880742669106 -0.964033722877502 
614.25  0.513295650482178 -0.833932101726532  -0.000228897515626159 -7.99005792941898e-05  -0.000228897515626159 -7.99005792941898e-05  0.0730123147368431 -0.964239656925201 
614.375  0.512722909450531 -0.834317922592163  -0.000222492191824131 -7.90554331615567e-05  -0.000222492191824131 -7.90554331615567e-05  0.0721281096339226 -0.964063048362732 
614.5  0.512105047702789 -0.834630608558655  -0.000246111107117031 -8.85863082658034e-05  -0.000246111107117031 -8.85863082658034e-05  0.0713389813899994 -0.963878512382507 
614.625  0.511613845825195 -0.834979236125946  -0.000249816963332705 -8.76062840688973e-05  -0.000249816963332705 -8.76062840688973e-05  0.0705810859799385 -0.963623344898224 
614.75  0.511332333087921 -0.835075855255127  -0.000267822033492848 -7.39589158911258e-05  -0.000267822033492848 -7.39589158911258e-05  0.0702375695109367 -0.963537216186523 
614.875  0.511117041110992 -0.835471928119659  -0.000270947610260919 -6.14877553744009e-05  -0.000270947610260919 -6.14877553744009e-05  0.0695020854473114 -0.963621735572815 
615  0.51059877872467 -0.835905611515045  -0.00028440190362744 -4.0622595406603e-05  -0.00028440190362744 -4.0622595406603e-05  0.0686552822589874 -0.963809728622437 
615.125  0.510319471359253 -0.836330056190491  -0.000275997022981756 -2.01420484700066e-05  -0.000275997022981756 -2.01420484700066e-05  0.0678037032485008 -0.963885426521301 
615.25  0.509777188301086 -0.83687287569046  -0.000266879738774151 -2.08283461233805e-06  -0.000266879738774151 -2.08283461233805e-06  0.066791757941246 -0.963771939277649 
615.375  0.509069979190826 -0.837215185165405  -0.00023871742450865 8.51258164402678e-06  -0.00023871742450865 8.51258164402678e-06  0.0656671524047852 -0.96350109577179 
615.5  0.508468806743622 -0.837485134601593  -0.000225108349695802 7.24220535630593e-06  -0.000225108349695802 7.24220535630593e-06  0.0647093057632446 -0.962823390960693 
615.625  0.507655024528503 -0.838002264499664  -0.000231988560699392 7.7257577686396e-06  -0.000231988560699392 7.7257577686396e-06  0.0638667717576027 -0.962341487407684 
615.75  0.507461190223694 -0.837978601455688  -0.000176699795702007 1.04574874058017e-05  -0.000176699795702007 1.04574874058017e-05  0.0634920969605446 -0.961792588233948 
615.875  0.506868660449982 -0.838564097881317  -0.000201071066840086 -1.75930299519678e-05  -0.000201071066840086 -1.75930299519678e-05  0.0627226531505585 -0.961490154266357 
616  0.506556153297424 -0.839060366153717  -0.000201018759980797 -3.00923238683026e-05  -0.000201018759980797 -3.00923238683026e-05  0.0623853765428066 -0.960942566394806 
616.125  0.505948424339294 -0.839370548725128  -0.000194189698959235 -4.85356595163467e-05  -0.000194189698959235 -4.85356595163467e-05  0.0618646927177906 -0.960430443286896 
616.25  0.50516813993454 -0.839631199836731  -0.000220897498365957 -3.47597506333841e-05  -0.000220897498365957 -3.47597506333841e-05  0.0612775422632694 -0.959674537181854 
616.375  0.504516541957855 -0.839828729629517  -0.000211242506338749 -6.64683011564193e-05  -0.000211242506338749 -6.64683011564193e-05  0.0613571368157864 -0.958751261234283 
616.5  0.503942310810089 -0.840309381484985  -0.000194560008822009 -4.44479073848925e-05  -0.000194560008822009 -4.44479073848925e-05  0.0619068145751953 -0.958356022834778 
616.625  0.503463089466095 -0.840587437152863  -0.000215049687540159 -5.17357530043227e-05  -0.000215049687540159 -5.17357530043227e-05  0.0627816319465637 -0.958680391311646 
616.75  0.502974808216095 -0.840940535068512  -0.000215800020669121 -5.03587380080717e-05  -0.000215800020669121 -5.03587380080717e-05  0.0625568404793739 -0.959935665130615 
616.875  0.502502202987671 -0.841339111328125  -0.000222121612750925 -8.99228361959103e-05  -0.000222121612750925 -8.99228361959103e-05  0.0613428689539433 -0.960638463497162 
617  0.501787900924683 -0.841446340084076  -0.000244507638853975 -6.81365836499026e-05  -0.000244507638853975 -6.81365836499026e-05  0.0603085421025753 -0.960432171821594 
617.125  0.501138031482697 -0.841829538345337  -0.000244084381847642 -7.81462404120248e-05  -0.000244084381847642 -7.81462404120248e-05  0.0595793053507805 -0.960188269615173 
617.25  0.500548124313354 -0.84213399887085  -0.000268186704488471 -6.35776996205095e-05  -0.000268186704488471 -6.35776996205095e-05  0.0587716773152351 -0.959951758384705 
617.375  0.500121235847473 -0.84233295917511  -0.000229839220992289 -5.40798464498948e-05  -0.000229839220992289 -5.40798464498948e-05  0.0581640675663948 -0.959667026996613 
617.5  0.499354362487793 -0.842356085777283  -0.000248993339482695 -6.12733183515956e-05  -0.000248993339482695 -6.12733183515956e-05  0.0573913976550102 -0.959238588809967 
617.625  0.498797029256821 -0.842634558677673  -0.000226787895371672 -4.72075189463795e-05  -0.000226787895371672 -4.72075189463795e-05  0.0571466498076916 -0.958597719669342 
617.75  0.498435139656067 -0.842615127563477  -0.000233955805015285 -6.82732188579394e-05  -0.000233955805015285 -6.82732188579394e-05  0.0573150292038918 -0.95834618806839 
617.875  0.497880101203918 -0.843340337276459  -0.00023348345712293 -6.62853835819987e-05  -0.00023348345712293 -6.62853835819987e-05  0.0573489107191563 -0.95819765329361 
618  0.497094929218292 -0.843473672866821  -0.000248166674282401 -6.61184149066684e-05  -0.000248166674282401 -6.61184149066684e-05  0.0574437603354454 -0.95875495672226 
618.125  0.496664345264435 -0.843714416027069  -0.000232292688451707 -7.06565551809035e-05  -0.000232292688451707 -7.06565551809035e-05  0.05711355432868 -0.958908975124359 
618.25  0.496234267950058 -0.843813419342041  -0.00024828125606291 -6.11819559708238e-05  -0.00024828125606291 -6.11819559708238e-05  0.0565495193004608 -0.959285199642181 
618.375  0.495978027582169 -0.84430992603302  -0.000232551989029161 -5.54544749320484e-05  -0.000232551989029161 -5.54544749320484e-05  0.0558053143322468 -0.959245502948761 
618.5  0.495047152042389 -0.844615161418915  -0.000268072792096063 -6.11838622717187e-05  -0.000268072792096063 -6.11838622717187e-05  0.0556719191372395 -0.959092199802399 
618.625  0.494468778371811 -0.844648241996765  -0.000258207335718908 -6.2768967836746e-05  -0.000258207335718908 -6.2768967836746e-05  0.0561534613370895 -0.959318339824677 
618.75  0.49401718378067 -0.844703853130341  -0.00025080321211135 -6.34693024039734e-05  -0.00025080321211135 -6.34693024039734e-05  0.0556999295949936 -0.960297405719757 
618.875  0.493808746337891 -0.844972908496857  -0.000253853257163428 -8.43153939058539e-05  -0.000253853257163428 -8.43153939058539e-05  0.0549976490437984 -0.961378335952759 
619  0.493496954441071 -0.845477104187012  -0.000268644289462827 -7.44547178328503e-05  -0.000268644289462827 -7.44547178328503e-05  0.0536610409617424 -0.961612105369568 
619.125  0.492842346429825 -0.845767974853516  -0.000292496944894083 -7.24574383639265e-05  -0.000292496944894083 -7.24574383639265e-05  0.0528828874230385 -0.961863577365875 
619.25  0.492415010929108 -0.84570586681366  -0.000295276418910362 -6.73364374961238e-05  -0.000295276418910362 -6.73364374961238e-05  0.0517391413450241 -0.9620201587677 
619.375  0.491909116506577 -0.845875680446625  -0.000276755628874525 -5.36059287696844e-05  -0.000276755628874525 -5.36059287696844e-05  0.0509064644575119 -0.961905419826508 
619.5  0.491499871015549 -0.846083104610443  -0.000269320909865201 -4.21743643528316e-05  -0.000269320909865201 -4.21743643528316e-05  0.0496933422982693 -0.962086856365204 
619.625  0.491043925285339 -0.846265375614166  -0.00026649548090063 -3.52785227732965e-05  -0.00026649548090063 -3.52785227732965e-05  0.0485692881047726 -0.96183580160141 
619.75  0.490625619888306 -0.846835732460022  -0.000253994840022642 -4.65811790490989e-05  -0.000253994840022642 -4.65811790490989e-05  0.0476580113172531 -0.961502492427826 
619.875  0.489819675683975 -0.847197532653809  -0.000267727707978338 -7.56426306907088e-05  -0.000267727707978338 -7.56426306907088e-05  0.0467915534973145 -0.961688041687012 
620  0.489292562007904 -0.847412526607513  -0.000270339121925644 -6.67186068312731e-05  -0.000270339121925644 -6.67186068312731e-05  0.0457954294979572 -0.961110413074493 
620.125  0.48846971988678 -0.847505390644073  -0.000266569200903177 -8.06171246949818e-05  -0.000266569200903177 -8.06171246949818e-05  0.0448261052370071 -0.960649311542511 
620.25  0.487849950790405 -0.847304999828339  -0.000284115085378289 -7.51781590224709e-05  -0.000284115085378289 -7.51781590224709e-05  0.0447790510952473 -0.960118174552917 
620.375  0.487561851739883 -0.847034335136414  -0.000294621553621255 -7.04954763932619e-05  -0.000294621553621255 -7.04954763932619e-05  0.0443859212100506 -0.960752785205841 
620.5  0.487400323152542 -0.847204506397247  -0.000281201704638079 -8.0730977060739e-05  -0.000281201704638079 -8.0730977060739e-05  0.0432794764637947 -0.961038529872894 
620.625  0.487091481685638 -0.847394585609436  -0.000291335716610775 -6.8170436861692e-05  -0.000291335716610775 -6.8170436861692e-05  0.0418412499129772 -0.96115630865097 
620.75  0.486846745014191 -0.847645819187164  -0.000291256161290221 -6.73169815854635e-05  -0.000291256161290221 -6.73169815854635e-05  0.0400388799607754 -0.960893154144287 
620.875  0.486503452062607 -0.848340392112732  -0.000312665870296769 -4.64940203528385e-05  -0.000312665870296769 -4.64940203528385e-05  0.0386189706623554 -0.960150003433228 
621  0.485931932926178 -0.848841488361359  -0.000300563522614539 -5.45490493095712e-05  -0.000300563522614539 -5.45490493095712e-05  0.0375366993248463 -0.959551274776459 
621.125  0.485141485929489 -0.849395513534546  -0.000329332498949952 -2.04988355108072e-05  -0.000329332498949952 -2.04988355108072e-05  0.0360960960388184 -0.958967924118042 
621.25  0.48401090502739 -0.849686980247498  -0.000294946352369152 -1.96317059817374e-05  -0.000294946352369152 -1.96317059817374e-05  0.0342485681176186 -0.95805549621582 
621.375  0.483244240283966 -0.850036859512329  -0.000305060064420104 -2.32914217122016e-05  -0.000305060064420104 -2.32914217122016e-05  0.0330268852412701 -0.956708490848541 
621.5  0.482176035642624 -0.850157141685486  -0.000307907903334126 -2.53072421401157e-05  -0.000307907903334126 -2.53072421401157e-05  0.0318674929440022 -0.954785168170929 
621.625  0.481339186429977 -0.849975407123566  -0.000294580298941582 -5.65405957786424e-06  -0.000294580298941582 -5.65405957786424e-06  0.0313311517238617 -0.952961266040802 
621.75  0.480465978384018 -0.849798262119293  -0.000273566474788822 9.97657116386109e-06  -0.000273566474788822 9.97657116386109e-06  0.0304872915148735 -0.951079189777374 
621.875  0.479923635721207 -0.849645614624023  -0.00027644018700812 -3.83347542083357e-05  -0.00027644018700812 -3.83347542083357e-05  0.0301580000668764 -0.94822746515274 
622  0.479758441448212 -0.849766850471497  -0.000297879741992802 -2.72849383691209e-05  -0.000297879741992802 -2.72849383691209e-05  0.0318297557532787 -0.944616913795471 
622.125  0.479324251413345 -0.849901616573334  -0.000293688106467016 -8.80949573911491e-06  -0.000293688106467016 -8.80949573911491e-06  0.0357637442648411 -0.943117558956146 
622.25  0.479388862848282 -0.850327134132385  -0.00029819984047208 -2.73301520792302e-05  -0.00029819984047208 -2.73301520792302e-05  0.0389216989278793 -0.945647299289703 
622.375  0.478652238845825 -0.850949466228485  -0.000304923582007177 1.83618735718483e-05  -0.000304923582007177 1.83618735718483e-05  0.0389952212572098 -0.948526680469513 
622.5  0.478145271539688 -0.851950109004974  -0.000291473334073089 7.06274613548885e-06  -0.000291473334073089 7.06274613548885e-06  0.0366847701370716 -0.949496209621429 
622.625  0.477306842803955 -0.85233211517334  -0.000261680906987749 1.76108833329636e-05  -0.000261680906987749 1.76108833329636e-05  0.0346063300967216 -0.948482394218445 
622.75  0.476371347904205 -0.852837860584259  -0.000274307123618201 6.05908564921267e-06  -0.000274307123618201 6.05908564921267e-06  0.0339808724820614 -0.945968508720398 
622.875  0.475571721792221 -0.85313355922699  -0.00025357042613905 4.00845306103295e-06  -0.00025357042613905 4.00845306103295e-06  0.0353282429277897 -0.944167733192444 
623  0.474681586027145 -0.853356122970581  -0.000221592257730662 -4.80130699997974e-06  -0.000221592257730662 -4.80130699997974e-06  0.0372137241065502 -0.942807257175446 
623.125  0.473936468362808 -0.853944301605225  -0.000243620896071662 -3.66402264262434e-05  -0.000243620896071662 -3.66402264262434e-05  0.0392569564282894 -0.942184865474701 
623.25  0.473188579082489 -0.854406356811523  -0.000223583228944336 -6.00501589360647e-05  -0.000223583228944336 -6.00501589360647e-05  0.0425772219896317 -0.94291216135025 
623.375  0.472418427467346 -0.854785799980164  -0.000265348528046161 -8.21816720417701e-05  -0.000265348528046161 -8.21816720417701e-05  0.0447590500116348 -0.945313453674316 
623.5  0.47108668088913 -0.855110883712769  -0.00028423682670109 -5.07322256453336e-05  -0.00028423682670109 -5.07322256453336e-05  0.045210987329483 -0.948622465133667 
623.625  0.47041180729866 -0.855506002902985  -0.000256009312579409 -8.10381898190826e-05  -0.000256009312579409 -8.10381898190826e-05  0.0444879159331322 -0.951477646827698 
623.75  0.469279855489731 -0.855692625045776  -0.000292750410153531 -7.90598678577226e-05  -0.000292750410153531 -7.90598678577226e-05  0.0423801802098751 -0.953092575073242 
623.875  0.468538254499435 -0.855895042419434  -0.00031237438088283 -7.10420754330698e-05  -0.00031237438088283 -7.10420754330698e-05  0.0406728461384773 -0.953575015068054 
