! Matrix data file written by TouchstoneData, EPCOS AG
! FILENAME: "B4331_01_NB.snp"
! COMMENT: "xxxx"
! INFO: nport=2, nfreq=1601
! DATE: "Wed Dec 18 10:35:10 2013"
! USER: "Dan Wang"
!
! port | pin | signal
! -----|-----|--------
!   1  |  1  |  input
!   2  |  4  |  output
! --------------------
! 
# MHZ S RI R 50
! freq  reS11 imS11  reS21 imS21  reS12 imS12  reS22 imS22
1550  -0.934749776155879 -0.0847261240573985  0.00822369418391749 -0.0274876296055178  0.00822369418391749 -0.0274876296055178  -0.928286137689279 0.102225950463988 
1550.25  -0.934965423900391 -0.0838735844658049  0.00823590772297599 -0.0274220453622376  0.00823590772297599 -0.0274220453622376  -0.928506714771091 0.103012600446406 
1550.5  -0.935154889104101 -0.0828617497778933  0.00816324139469811 -0.0274292812294839  0.00816324139469811 -0.0274292812294839  -0.929115478861323 0.103626531568239 
1550.75  -0.934974345006576 -0.0818660824975612  0.00808244406877941 -0.0273878427594194  0.00808244406877941 -0.0273878427594194  -0.929779227356657 0.104445194826281 
1551  -0.935634731391112 -0.080908562625199  0.00802797428593247 -0.0272960154224262  0.00802797428593247 -0.0272960154224262  -0.930251249926957 0.105997768526898 
1551.25  -0.935742986461096 -0.0798864288935452  0.00796469107105056 -0.0272405673072883  0.00796469107105056 -0.0272405673072883  -0.930331781529853 0.107132315497382 
1551.5  -0.935749301197766 -0.0784949393625357  0.00791568066171439 -0.0271428516560826  0.00791568066171439 -0.0271428516560826  -0.930645025524497 0.10808908272903 
1551.75  -0.935951647574131 -0.0775557993534079  0.00780451252647762 -0.0270663368049021  0.00780451252647762 -0.0270663368049021  -0.930759868566527 0.109316815826811 
1552  -0.936361133382319 -0.0764061951577574  0.00775943971299395 -0.0269797272638852  0.00775943971299395 -0.0269797272638852  -0.930961791087171 0.11043542238009 
1552.25  -0.936704721388425 -0.0753234895317879  0.00772971793852728 -0.0268741131420372  0.00772971793852728 -0.0268741131420372  -0.931301152583065 0.111589515304786 
1552.5  -0.936426197064897 -0.0742242147493565  0.0076859881980007 -0.0267899976204248  0.0076859881980007 -0.0267899976204248  -0.931314396462135 0.112794282936617 
1552.75  -0.936707357909884 -0.0733358894731534  0.00768038626049659 -0.0267383974188361  0.00768038626049659 -0.0267383974188361  -0.931019917114251 0.113610469742264 
1553  -0.936952118379773 -0.0725149614370317  0.00764803712861043 -0.0266665091360678  0.00764803712861043 -0.0266665091360678  -0.931198764204354 0.114930482070923 
1553.25  -0.937553247773154 -0.0710804954044926  0.00759579245905623 -0.0265734078452023  0.00759579245905623 -0.0265734078452023  -0.931269809160581 0.115859192188656 
1553.5  -0.937200013452454 -0.070051723469291  0.00753886633760029 -0.0264669881582095  0.00753886633760029 -0.0264669881582095  -0.931271345605934 0.117088642617509 
1553.75  -0.937334013716001 -0.0688200632656592  0.0075093851701809 -0.02641954177074  0.0075093851701809 -0.02641954177074  -0.931546260470842 0.118416083794027 
1554  -0.9377520847384 -0.0678510852342683  0.00741958520537894 -0.026329331205128  0.00741958520537894 -0.026329331205128  -0.931393772115068 0.11971898778187 
1554.25  -0.937921194783196 -0.0667099375134064  0.00736965917293263 -0.0262201972386641  0.00736965917293263 -0.0262201972386641  -0.931084311851531 0.120875199577737 
1554.5  -0.938305096159274 -0.0658431690905089  0.00733981256789084 -0.0260989757102187  0.00733981256789084 -0.0260989757102187  -0.930902653774235 0.122142364850067 
1554.75  -0.938415032190048 -0.0644665498650416  0.00732796734149786 -0.0259681601694256  0.00732796734149786 -0.0259681601694256  -0.930595104167702 0.123123629914398 
1555  -0.938887292700881 -0.0633194994728113  0.00728996691310721 -0.0258876522429682  0.00728996691310721 -0.0258876522429682  -0.930129887414699 0.124429113471486 
1555.25  -0.938942844133711 -0.0621236242657525  0.00727866938024361 -0.0257920715295251  0.00727866938024361 -0.0257920715295251  -0.930153104937534 0.125705176781683 
1555.5  -0.939050548636878 -0.0610077864776782  0.00726284704186702 -0.0257279517915069  0.00726284704186702 -0.0257279517915069  -0.929965234786812 0.126310254072343 
1555.75  -0.939357870902156 -0.0595933462456493  0.00720611240889205 -0.0256003768963074  0.00720611240889205 -0.0256003768963074  -0.92998196443733 0.127811606628034 
1556  -0.939632644696403 -0.0581828612786324  0.00720675641702433 -0.025515420809046  0.00720675641702433 -0.025515420809046  -0.929761323707956 0.12866448579183 
1556.25  -0.939421529252303 -0.0568295746745715  0.00717667980503061 -0.0254279533142958  0.00717667980503061 -0.0254279533142958  -0.92928983215552 0.130346761189067 
1556.5  -0.939291715491007 -0.0554978697065862  0.00716027816694461 -0.0253911143326569  0.00716027816694461 -0.0253911143326569  -0.929693661704804 0.13131620884306 
1556.75  -0.939488531213399 -0.0543312854042695  0.00714035435841423 -0.0252855693052511  0.00714035435841423 -0.0252855693052511  -0.929296653038309 0.132479526364671 
1557  -0.939424847931998 -0.0531584614026094  0.00708523513554124 -0.0251958548509149  0.00708523513554124 -0.0251958548509149  -0.92939131433412 0.133707229401628 
1557.25  -0.939385220797448 -0.0515761487682356  0.00704957429465678 -0.0251116102730062  0.00704957429465678 -0.0251116102730062  -0.929302542764125 0.134952582806049 
1557.5  -0.939152315118384 -0.0508201439462727  0.00704083241210732 -0.0250609069833205  0.00704083241210732 -0.0250609069833205  -0.928883871419439 0.136248322211381 
1557.75  -0.939234276691147 -0.0494877295408866  0.00699539958134488 -0.0249471039819772  0.00699539958134488 -0.0249471039819772  -0.928564561060122 0.137483788134453 
1558  -0.939136140766769 -0.0484241306303944  0.006957942019578 -0.024854786728233  0.006957942019578 -0.024854786728233  -0.928584602795324 0.138551130781837 
1558.25  -0.9394708338326 -0.0472117407543458  0.00691271570258162 -0.0247406776457674  0.00691271570258162 -0.0247406776457674  -0.928554775919703 0.139716382641286 
1558.5  -0.93943398092572 -0.0459314424917961  0.00686527535728403 -0.0246392524150295  0.00686527535728403 -0.0246392524150295  -0.928566375013302 0.141364122296756 
1558.75  -0.939340062217962 -0.0448717563540638  0.00685014620209485 -0.024502613637101  0.00685014620209485 -0.024502613637101  -0.928209821070499 0.14231271265065 
1559  -0.938921888271188 -0.0438595301961021  0.00685357935554622 -0.0243905533311317  0.00685357935554622 -0.0243905533311317  -0.927829341958919 0.143747049237746 
1559.25  -0.938966737575604 -0.0429185244850541  0.00686481924507645 -0.0242991626984344  0.00686481924507645 -0.0242991626984344  -0.92763525783865 0.144825468830184 
1559.5  -0.939128492572669 -0.0419152995069526  0.00682470649318961 -0.0242305765495566  0.00682470649318961 -0.0242305765495566  -0.927574025120215 0.145785650842247 
1559.75  -0.93901281038871 -0.0406845976368623  0.0067945691853552 -0.0241457390277431  0.0067945691853552 -0.0241457390277431  -0.927091025626098 0.147090114599691 
1560  -0.939172841443364 -0.0392635664010385  0.00675206134972735 -0.0240039951679025  0.00675206134972735 -0.0240039951679025  -0.926764343802894 0.148421035231028 
1560.25  -0.938934320246119 -0.0380984222020369  0.006744456228256 -0.0238940897556367  0.006744456228256 -0.0238940897556367  -0.926420079698728 0.149342139048356 
1560.5  -0.93875475497808 -0.0369920244346995  0.00671492521388494 -0.0237442387610416  0.00671492521388494 -0.0237442387610416  -0.925567203367579 0.15032342883293 
1560.75  -0.938895988791734 -0.03559336225589  0.0067026323819912 -0.0236200209340514  0.0067026323819912 -0.0236200209340514  -0.925647884162832 0.151585085078525 
1561  -0.938461265524877 -0.0340174886085093  0.0067163240144437 -0.0234472602661983  0.0067163240144437 -0.0234472602661983  -0.925150398313701 0.152443405569613 
1561.25  -0.937772579860256 -0.0323921901659549  0.0067563612539029 -0.0233408997184878  0.0067563612539029 -0.0233408997184878  -0.924843623967526 0.153709131867184 
1561.5  -0.937065459634206 -0.0318200531831617  0.00681894355671673 -0.0232414450364177  0.00681894355671673 -0.0232414450364177  -0.924199451533761 0.154401128245671 
1561.75  -0.936925949140448 -0.0304500774154008  0.0068260665566447 -0.0232073303422828  0.0068260665566447 -0.0232073303422828  -0.924329492267016 0.15491301691551 
1562  -0.935903078138539 -0.0291908397336493  0.006808662990795 -0.0230591690147952  0.006808662990795 -0.0230591690147952  -0.924274172784821 0.155831178255932 
1562.25  -0.935304614500804 -0.0281038216557231  0.00682563171986976 -0.0229145229763749  0.00682563171986976 -0.0229145229763749  -0.924576093309826 0.157467935952143 
1562.5  -0.934340010940654 -0.0270170910666283  0.00686725251121753 -0.0228029493038935  0.00686725251121753 -0.0228029493038935  -0.923862202484631 0.158431677715247 
1562.75  -0.93345523423281 -0.026232805303662  0.00691331107203561 -0.0227152613500049  0.00691331107203561 -0.0227152613500049  -0.922975203542272 0.159850962982535 
1563  -0.932770733016717 -0.0253167841239911  0.00697852698211086 -0.0225919565694131  0.00697852698211086 -0.0225919565694131  -0.922335716630392 0.160120713231254 
1563.25  -0.932327861781697 -0.0242970197249235  0.00700507574970366 -0.0225132447475951  0.00700507574970366 -0.0225132447475951  -0.921846306748407 0.160699091262603 
1563.5  -0.931283174609066 -0.0230703660813711  0.00704499426915449 -0.0223708689970748  0.00704499426915449 -0.0223708689970748  -0.921312811028882 0.161705163752378 
1563.75  -0.930368431934451 -0.0223904311986057  0.00719915835889232 -0.0222972603382056  0.00719915835889232 -0.0222972603382056  -0.920992803079356 0.162193124434461 
1564  -0.929492529837692 -0.0227079732464037  0.00727991162875459 -0.0222875219453196  0.00727991162875459 -0.0222875219453196  -0.920801801395444 0.162997835277804 
1564.25  -0.929508502917469 -0.0233529982938024  0.0073343428945034 -0.022326859174639  0.0073343428945034 -0.022326859174639  -0.920854489017079 0.163541720064634 
1564.5  -0.929659856015928 -0.0226916256723387  0.00732343041293767 -0.0222665705206068  0.00732343041293767 -0.0222665705206068  -0.92083812110558 0.164789886654312 
1564.75  -0.930143338763559 -0.0221002236039524  0.00731524889855629 -0.0222293569070755  0.00731524889855629 -0.0222293569070755  -0.920353883400752 0.166335080068818 
1565  -0.930090413751912 -0.0217691366046995  0.00736072294437941 -0.0221432143735282  0.00736072294437941 -0.0221432143735282  -0.919682492945759 0.167492248786151 
1565.25  -0.930379932333409 -0.0214397735974355  0.00740544104955101 -0.0221305025617211  0.00740544104955101 -0.0221305025617211  -0.918600204662751 0.168373913107056 
1565.5  -0.930337270096131 -0.0205811410640828  0.0074645277891347 -0.0220898346128857  0.0074645277891347 -0.0220898346128857  -0.918207488909526 0.168497383571747 
1565.75  -0.930015693147782 -0.0201436255166615  0.00747819586237179 -0.0220762225112826  0.00747819586237179 -0.0220762225112826  -0.918136957697456 0.169099901877963 
1566  -0.92995520705416 -0.0196770099674272  0.00749088776804115 -0.0221145655140316  0.00749088776804115 -0.0221145655140316  -0.918560401592685 0.169999834601367 
1566.25  -0.929478185203342 -0.019177887917807  0.00749254450656093 -0.0220591831559848  0.00749254450656093 -0.0220591831559848  -0.918079319708084 0.171336689230564 
1566.5  -0.929281272304549 -0.0193886554501906  0.00751905990749308 -0.022070637829201  0.00751905990749308 -0.022070637829201  -0.917792582873692 0.172635288014199 
1566.75  -0.929375372920261 -0.0196480280189375  0.0074723395366847 -0.0220993841374059  0.0074723395366847 -0.0220993841374059  -0.917279062757368 0.173812977168856 
1567  -0.929965556648405 -0.0194497723964605  0.00747132970548142 -0.0221136803513789  0.00747132970548142 -0.0221136803513789  -0.916837789059191 0.174138690298553 
1567.25  -0.930497399602736 -0.0195545143177624  0.00734396995327486 -0.0221251628187165  0.00734396995327486 -0.0221251628187165  -0.916928740734666 0.17496890274535 
1567.5  -0.931852473654346 -0.0189507546400533  0.0072025855783718 -0.0220821115448265  0.0072025855783718 -0.0220821115448265  -0.917075019911554 0.176173838528398 
1567.75  -0.93239621539007 -0.01742561909947  0.00715383477261401 -0.0219007108397171  0.00715383477261401 -0.0219007108397171  -0.916523969845069 0.177612549009396 
1568  -0.932632392646573 -0.0164911304330859  0.00720590678103124 -0.0218723275187851  0.00720590678103124 -0.0218723275187851  -0.915493690198839 0.178494422341105 
1568.25  -0.933147652532905 -0.0151038849526073  0.00716727299090975 -0.0219033289707093  0.00716727299090975 -0.0219033289707093  -0.915841318138653 0.179121398344834 
1568.5  -0.933630385642738 -0.0135767969754656  0.00702697380428885 -0.021856586338709  0.00702697380428885 -0.021856586338709  -0.915605261189396 0.179902134298746 
1568.75  -0.934125205523067 -0.0129155231990224  0.00702173494618024 -0.0217304324840475  0.00702173494618024 -0.0217304324840475  -0.915164328882489 0.180706534069253 
1569  -0.934136510253264 -0.011722185963099  0.00697658785534815 -0.0216685322843188  0.00697658785534815 -0.0216685322843188  -0.915123522070459 0.181815841788682 
1569.25  -0.935062090002958 -0.0104396080558938  0.00691633563219662 -0.021594879915991  0.00691633563219662 -0.021594879915991  -0.915156592009805 0.18254480246804 
1569.5  -0.935426477511037 -0.00872907300719919  0.00686109685730097 -0.021490123162652  0.00686109685730097 -0.021490123162652  -0.914980878117575 0.183787833553969 
1569.75  -0.935195492649602 -0.0074332075900478  0.00690976915037894 -0.0213715595787694  0.00690976915037894 -0.0213715595787694  -0.914780269092954 0.184498667431796 
1570  -0.935372168156839 -0.00686999293010011  0.00685959105854331 -0.021405775480871  0.00685959105854331 -0.021405775480871  -0.914898663670342 0.185070570262935 
1570.25  -0.936009611868855 -0.00577131001185264  0.00678851841801317 -0.0213420271425623  0.00678851841801317 -0.0213420271425623  -0.915358625046447 0.185734501801229 
1570.5  -0.936235379917028 -0.00426632828114929  0.00671997916495964 -0.0212487629912081  0.00671997916495964 -0.0212487629912081  -0.915350479584207 0.187255827924773 
1570.75  -0.936441241506808 -0.00309520598906869  0.00667204964013895 -0.0211432062955593  0.00667204964013895 -0.0211432062955593  -0.915439699206193 0.188402213833832 
1571  -0.936447292495191 -0.00202594348732904  0.00664419912260988 -0.0210028327477089  0.00664419912260988 -0.0210028327477089  -0.915238784411015 0.189100129769097 
1571.25  -0.936833422932998 -0.000824482359622377  0.00662081469731566 -0.0209094656371015  0.00662081469731566 -0.0209094656371015  -0.915191933352805 0.190102341229793 
1571.5  -0.937039446651193 0.000794249784793804  0.006562724141423 -0.0208140932266465  0.006562724141423 -0.0208140932266465  -0.915338583176721 0.191142641833053 
1571.75  -0.936870507101273 0.00219081691963738  0.00658562039279926 -0.0206440975903435  0.00658562039279926 -0.0206440975903435  -0.915153960004429 0.192318452233352 
1572  -0.936179856118135 0.00372805156750492  0.006599781134228 -0.0205949867956855  0.006599781134228 -0.0205949867956855  -0.915476508427499 0.193170065254864 
1572.25  -0.935313860027244 0.00463698894805505  0.00659907429632969 -0.020485581153674  0.00659907429632969 -0.020485581153674  -0.915713643249372 0.194272680723605 
1572.5  -0.935394478143193 0.00503623629421  0.00663340444687878 -0.0203794956592156  0.00663340444687878 -0.0203794956592156  -0.915569809094418 0.195777731199314 
1572.75  -0.935573328834714 0.00573475533481828  0.00664431323830349 -0.0203319894226186  0.00664431323830349 -0.0203319894226186  -0.91541016060776 0.196660603773748 
1573  -0.935784106318596 0.00689350315114659  0.0066425352165333 -0.0202972553905161  0.0066425352165333 -0.0202972553905161  -0.915379432624133 0.19788027052916 
1573.25  -0.935597739505225 0.00784282032584837  0.00661236817648234 -0.0202230552086087  0.00661236817648234 -0.0202230552086087  -0.915603533295634 0.199146422636823 
1573.5  -0.935508483406847 0.00896919084742149  0.00656775117870905 -0.0201826140955089  0.00656775117870905 -0.0201826140955089  -0.915384841190126 0.20062479506566 
1573.75  -0.935671211862586 0.00978221220808977  0.00654657574823762 -0.0201138422265965  0.00654657574823762 -0.0201138422265965  -0.915119221611795 0.202110662747803 
1574  -0.935468481702946 0.0110958119677272  0.00648871489544056 -0.0199897785847172  0.00648871489544056 -0.0199897785847172  -0.914682965154534 0.203328891751421 
1574.25  -0.93540639560025 0.0125298650406649  0.00653269632510012 -0.0198574366069581  0.00653269632510012 -0.0198574366069581  -0.914440223271474 0.20423835683466 
1574.5  -0.93468223734424 0.013396542140275  0.00657937111197208 -0.0197835645480596  0.00657937111197208 -0.0197835645480596  -0.91458635944811 0.205322552983228 
1574.75  -0.934105692528328 0.0140641482857209  0.00662178256098456 -0.0197492031831555  0.00662178256098456 -0.0197492031831555  -0.914563696554827 0.206581898853566 
1575  -0.933620591948937 0.0142589139142541  0.0066177856061655 -0.0197340988611391  0.0066177856061655 -0.0197340988611391  -0.914410305885379 0.207974263999076 
1575.25  -0.934206560357503 0.0142146859824376  0.00653176110472022 -0.0197762440354125  0.00653176110472022 -0.0197762440354125  -0.914264345138973 0.209610840185183 
1575.5  -0.934906490322174 0.014840557287914  0.00644225190897901 -0.0196632192824293  0.00644225190897901 -0.0196632192824293  -0.914168436607336 0.210925825298092 
1575.75  -0.935495002482501 0.0160928219119334  0.00640751952487327 -0.0195788050922384  0.00640751952487327 -0.0195788050922384  -0.914050330810986 0.212417250267341 
1576  -0.935846498151241 0.0171267732959183  0.00638553529840374 -0.0195241874951574  0.00638553529840374 -0.0195241874951574  -0.913581342593998 0.213942671361931 
1576.25  -0.93619134214083 0.0184197563782345  0.00631387658727608 -0.0194423275141788  0.00631387658727608 -0.0194423275141788  -0.913138717136246 0.215006726958044 
1576.5  -0.936316690581673 0.0199881163196477  0.00628533573774932 -0.0193726233587825  0.00628533573774932 -0.0193726233587825  -0.912994189238267 0.21639265527154 
1576.75  -0.936763490209326 0.0207869682435299  0.00621178216817311 -0.0193097427920319  0.00621178216817311 -0.0193097427920319  -0.913117302187231 0.217692056775691 
1577  -0.937190388285134 0.0225672751773521  0.0061181498407588 -0.0192034383330613  0.0061181498407588 -0.0192034383330613  -0.91286691781859 0.218917023801871 
1577.25  -0.936810954458526 0.0236197338746984  0.00611037983862079 -0.0190342737085261  0.00611037983862079 -0.0190342737085261  -0.912546837306133 0.220391206645377 
1577.5  -0.936970499042217 0.0248738019325067  0.00606779240514518 -0.0189454383520902  0.00606779240514518 -0.0189454383520902  -0.912439362798257 0.221891132211325 
1577.75  -0.937177296657995 0.0262141273455836  0.00604067269749455 -0.0188894424058627  0.00604067269749455 -0.0188894424058627  -0.912131554984866 0.223294746192657 
1578  -0.937699778684246 0.0270654998212251  0.00598957667430072 -0.0188106466400281  0.00598957667430072 -0.0188106466400281  -0.911803012751313 0.224695890953076 
1578.25  -0.937941772323539 0.0286811615389808  0.0059751070693435 -0.0187196043432663  0.0059751070693435 -0.0187196043432663  -0.91134521711635 0.225941335118196 
1578.5  -0.938167039204135 0.0300595735216903  0.00589137643264449 -0.0186068103202585  0.00589137643264449 -0.0186068103202585  -0.910982348050609 0.227688050277746 
1578.75  -0.938232259674588 0.0312285999516905  0.00584025419360533 -0.0184935600969849  0.00584025419360533 -0.0184935600969849  -0.910514568818931 0.228996112962212 
1579  -0.938286379140518 0.0324386757719024  0.00581752241471332 -0.0183541822991273  0.00581752241471332 -0.0183541822991273  -0.909674359460277 0.230256338426357 
