! Matrix data file written by TouchstoneData, EPCOS AG
! FILENAME: "B4333_X43Y32_NB.snp"
! COMMENT: "(TS/AB84A_2_X43Y32_NB.s3p) Epcos AG 4/21/201"
! INFO: nport=3, nfreq=1601
! DATE: "Thu Aug  7 16:00:38 2014"
! USER: "Dan Wang"
!
! port | pin | signal
! -----|-----|--------
!   1  |  1  |  input
!   2  |  3  |  output
!   3  |  4  |  output
! --------------------
! 
# MHZ S RI R 50
! freq  reS11 imS11  reS12 imS12  reS13 imS13  ...
630  0.451885044574737 -0.8665252327919  -1.4992853266449e-05 5.94378234382021e-05  1.9626153346053e-05 0.000136969429149759 
 -1.4992853266449e-05 5.94378234382021e-05  0.786258041858672 -0.512618958950042  0.161917261779308 0.241607308387756 
 1.9626153346053e-05 0.000136969429149759  0.161917261779308 0.241607308387756  0.78499537706375 -0.517894566059112 
630.125  0.451304644346237 -0.866742849349974  -1.52521511154191e-05 5.94219418417198e-05  3.35063577949768e-05 0.000128382074763068 
 -1.52521511154191e-05 5.94219418417198e-05  0.786295652389525 -0.512629687786102  0.161799818277359 0.241798974573612 
 3.35063577949768e-05 0.000128382074763068  0.161799818277359 0.241798974573612  0.784794867038726 -0.51781553030014 
630.25  0.451170831918716 -0.86715918779373  -8.48302329359286e-06 5.32149369973923e-05  1.65373448908213e-05 0.000113074122054968 
 -8.48302329359286e-06 5.32149369973923e-05  0.78637397289276 -0.512832522392272  0.161864586174488 0.242137432098389 
 1.65373448908213e-05 0.000113074122054968  0.161864586174488 0.242137432098389  0.784681916236876 -0.517713367938995 
630.375  0.45075187087059 -0.867223620414733  -7.43506393519059e-06 3.83144370061928e-05  2.29991710511968e-05 0.000122632740385598 
 -7.43506393519059e-06 3.83144370061928e-05  0.786083102226256 -0.512663960456847  0.161977410316467 0.242230862379073 
 2.29991710511968e-05 0.000122632740385598  0.161977410316467 0.242230862379073  0.784113824367522 -0.517839968204498 
630.5  0.450723379850387 -0.867545664310454  -2.88953879135079e-05 4.05757000407903e-05  3.57704266207293e-05 0.000127972034533741 
 -2.88953879135079e-05 4.05757000407903e-05  0.785990118980407 -0.512847244739532  0.162029162049293 0.242472857236862 
 3.57704266207293e-05 0.000127972034533741  0.162029162049293 0.242472857236862  0.784417510032653 -0.517636835575103 
630.625  0.450592249631881 -0.867895185947417  -1.62644440990789e-05 3.76317511836533e-05  3.10579562210478e-05 0.00013825672067469 
 -1.62644440990789e-05 3.76317511836533e-05  0.785907685756682 -0.512834906578063  0.161898948252201 0.24274692684412 
 3.10579562210478e-05 0.00013825672067469  0.161898948252201 0.24274692684412  0.784272432327269 -0.517549455165862 
630.75  0.45007038116455 -0.868172883987426  -4.00668504880742e-05 4.23936526203761e-05  2.44760803980171e-05 0.000121334011055297 
 -4.00668504880742e-05 4.23936526203761e-05  0.785765767097472 -0.512838304042815  0.161954209208489 0.243184074759483 
 2.44760803980171e-05 0.000121334011055297  0.161954209208489 0.243184074759483  0.784214198589324 -0.517294049263 
630.875  0.449586629867553 -0.868766307830809  -2.46514036916779e-05 6.78535197948805e-05  2.88969331450062e-05 0.000133094810735202 
 -2.46514036916779e-05 6.78535197948805e-05  0.785641312599181 -0.512369036674499  0.16220074146986 0.243535481393337 
 2.88969331450062e-05 0.000133094810735202  0.16220074146986 0.243535481393337  0.784128248691558 -0.517224133014678 
631  0.449180424213409 -0.868901968002318  -3.75920244550798e-05 7.61238588893322e-05  4.36605787399459e-05 0.00011367911065463 
 -3.75920244550798e-05 7.61238588893322e-05  0.785958528518676 -0.512449026107787  0.162558898329735 0.243686601519584 
 4.36605787399459e-05 0.00011367911065463  0.162558898329735 0.243686601519584  0.784136950969695 -0.517442524433135 
631.125  0.448467969894409 -0.86921465396881  -2.6977821107721e-05 6.59443430777175e-05  2.35624529523194e-05 0.000114077360194642 
 -2.6977821107721e-05 6.59443430777175e-05  0.785688698291778 -0.512738704681396  0.162597879767417 0.243873432278633 
 2.35624529523194e-05 0.000114077360194642  0.162597879767417 0.243873432278633  0.784266591072082 -0.517400503158569 
631.25  0.448153227567672 -0.869424760341643  -3.19721948471852e-05 5.75319427298383e-05  1.80735407866451e-05 0.000131573498947546 
 -3.19721948471852e-05 5.75319427298383e-05  0.785717546939849 -0.51255315542221  0.162643365561962 0.24410779774189 
 1.80735407866451e-05 0.000131573498947546  0.162643365561962 0.24410779774189  0.783944964408873 -0.517489254474639 
631.375  0.447601974010467 -0.869272828102111  -3.99411419493846e-05 6.73118265694939e-05  3.84800714527956e-05 0.00015220378554659 
 -3.99411419493846e-05 6.73118265694939e-05  0.78553956747055 -0.512442648410796  0.162795551121235 0.244472846388817 
 3.84800714527956e-05 0.00015220378554659  0.162795551121235 0.244472846388817  0.78397649526596 -0.517204582691192 
631.5  0.44733041524887 -0.869515538215636  -3.13005702992087e-05 7.10548520146405e-05  3.35425374942134e-05 0.00013907076936448 
 -3.13005702992087e-05 7.10548520146405e-05  0.785710930824279 -0.512310981750488  0.162923090159893 0.244972579181194 
 3.35425374942134e-05 0.00013907076936448  0.162923090159893 0.244972579181194  0.784177780151366 -0.517316460609435 
631.625  0.446830511093139 -0.869764864444732  -2.45652208832325e-05 8.31098295748236e-05  3.57180142600556e-05 0.00014014083717484 
 -2.45652208832325e-05 8.31098295748236e-05  0.785797655582427 -0.512052118778228  0.16325917840004 0.245317704975605 
 3.57180142600556e-05 0.00014014083717484  0.16325917840004 0.245317704975605  0.784119963645934 -0.51737368106842 
631.75  0.446694195270538 -0.869903326034545  -1.37784212483894e-05 8.59608881000896e-05  5.23671824339545e-05 0.000125123624457046 
 -1.37784212483894e-05 8.59608881000896e-05  0.786094486713408 -0.512213170528411  0.1637874096632 0.245627768337726 
 5.23671824339545e-05 0.000125123624457046  0.1637874096632 0.245627768337726  0.784233093261718 -0.517498731613158 
631.875  0.44614964723587 -0.870010316371916  -3.47710788162204e-06 7.73037172621118e-05  4.48449363830151e-05 0.000152342523506377 
 -3.47710788162204e-06 7.73037172621118e-05  0.786477088928222 -0.512543439865112  0.164287663996219 0.245857127010822 
 4.48449363830151e-05 0.000152342523506377  0.164287663996219 0.245857127010822  0.784214079380034 -0.517756342887878 
632  0.445771485567092 -0.870393157005309  1.01169121080602e-05 8.42836525407621e-05  4.27716913691257e-05 0.000154240216943436 
 1.01169121080602e-05 8.42836525407621e-05  0.786556422710418 -0.512805759906768  0.164822608232498 0.245935849845409 
 4.27716913691257e-05 0.000154240216943436  0.164822608232498 0.245935849845409  0.784334123134612 -0.518012464046478 
632.125  0.445315957069396 -0.870502114295958  7.17287696261336e-06 6.32796618447174e-05  5.25278755958425e-05 0.000139690200740006 
 7.17287696261336e-06 6.32796618447174e-05  0.786706209182738 -0.51299375295639  0.16523203998804 0.245834670960903 
 5.25278755958425e-05 0.000139690200740006  0.16523203998804 0.245834670960903  0.784200251102446 -0.518459796905517 
632.25  0.444420486688613 -0.87064480781555  1.04088423995563e-05 5.60407788725571e-05  7.20844182069414e-05 0.000136090944579337 
 1.04088423995563e-05 5.60407788725571e-05  0.786602795124053 -0.513454139232635  0.165648311376571 0.245755732059478 
 7.20844182069414e-05 0.000136090944579337  0.165648311376571 0.245755732059478  0.784055292606353 -0.518658816814422 
632.375  0.444099128246307 -0.870603203773497  1.99364067157149e-05 4.70802096970147e-05  5.74614714423661e-05 0.000130123291455676 
 1.99364067157149e-05 4.70802096970147e-05  0.786539912223815 -0.513696670532226  0.165842719376087 0.245586059987545 
 5.74614714423661e-05 0.000130123291455676  0.165842719376087 0.245586059987545  0.783432364463805 -0.518862128257751 
632.5  0.443828791379928 -0.870841205120086  1.70018665812675e-06 5.83205601287774e-05  7.83010182203726e-05 0.000109628515929217 
 1.70018665812675e-06 5.83205601287774e-05  0.786301016807555 -0.51384550333023  0.165931284427642 0.245611079037189 
 7.83010182203726e-05 0.000109628515929217  0.165931284427642 0.245611079037189  0.783395409584044 -0.518532216548919 
632.625  0.443170636892318 -0.871164500713347  -1.09786196844652e-05 5.0195869334857e-05  5.48849111510209e-05 0.000142379947646987 
 -1.09786196844652e-05 5.0195869334857e-05  0.786195218563079 -0.514153659343719  0.166231483221054 0.24570383876562 
 5.48849111510209e-05 0.000142379947646987  0.166231483221054 0.24570383876562  0.783371448516845 -0.518555104732513 
632.75  0.44257292151451 -0.871458888053893  4.11797782362558e-06 5.94311641179957e-05  4.89724643557567e-05 0.000128388994198758 
 4.11797782362558e-06 5.94311641179957e-05  0.786045968532561 -0.514001548290252  0.166508026421069 0.245636448264122 
 4.89724643557567e-05 0.000128388994198758  0.166508026421069 0.245636448264122  0.783750474452971 -0.518593370914458 
632.875  0.441691219806671 -0.871537744998931  1.4544103123626e-05 4.0392485971097e-05  7.08792067598552e-05 9.51174624788111e-05 
 1.4544103123626e-05 4.0392485971097e-05  0.78613257408142 -0.514270901679992  0.166792988777161 0.245538987219334 
 7.08792067598552e-05 9.51174624788111e-05  0.166792988777161 0.245538987219334  0.78356635570526 -0.519139528274535 
633  0.440920114517211 -0.871417760848998  1.29316165953242e-05 4.18990548496368e-05  6.23905325483066e-05 0.000111606474092696 
 1.29316165953242e-05 4.18990548496368e-05  0.786237776279448 -0.514577150344848  0.16695749014616 0.245419047772884 
 6.23905325483066e-05 0.000111606474092696  0.16695749014616 0.245419047772884  0.783737838268279 -0.519324004650115 
633.125  0.440243899822234 -0.871203184127806  1.11592348730483e-05 5.73302404518474e-05  9.53780254349114e-05 0.000116154013085179 
 1.11592348730483e-05 5.73302404518474e-05  0.786307215690612 -0.514647662639617  0.167083762586117 0.245383642613888 
 9.53780254349114e-05 0.000116154013085179  0.167083762586117 0.245383642613888  0.78356772661209 -0.519404232501983 
633.25  0.439522236585616 -0.870757281780242  2.05836140594329e-05 4.43411463493249e-05  4.22122457166552e-05 0.000110717217467027 
 2.05836140594329e-05 4.43411463493249e-05  0.786157011985778 -0.515156388282775  0.167215853929519 0.245250210165977 
 4.22122457166552e-05 0.000110717217467027  0.167215853929519 0.245250210165977  0.783353924751281 -0.51993054151535 
633.375  0.439312428236007 -0.870620191097258  1.4004504919285e-05 3.62907053386153e-05  6.30768627161161e-05 0.000113668829726521 
 1.4004504919285e-05 3.62907053386153e-05  0.786232471466063 -0.515157938003539  0.167203523218632 0.245269030332565 
 6.30768627161161e-05 0.000113668829726521  0.167203523218632 0.245269030332565  0.783180117607116 -0.52022111415863 
633.5  0.438897937536239 -0.870334744453429  3.33164680341725e-05 4.73056788905525e-05  8.79328035807705e-05 7.94580737419893e-05 
 3.33164680341725e-05 4.73056788905525e-05  0.786262273788451 -0.51516318321228  0.167397640645504 0.245352186262607 
 8.79328035807705e-05 7.94580737419893e-05  0.167397640645504 0.245352186262607  0.783193945884704 -0.520562946796416 
633.625  0.438736408948898 -0.86971867084503  1.83222482519341e-05 2.30795635616233e-05  8.33824633446058e-05 9.15665477805307e-05 
 1.83222482519341e-05 2.30795635616233e-05  0.786237657070159 -0.515528082847594  0.167452290654182 0.24524001032114 
 8.33824633446058e-05 9.15665477805307e-05  0.167452290654182 0.24524001032114  0.782784223556518 -0.520684242248534 
633.75  0.43903961777687 -0.869825541973113  1.28433301824771e-05 7.76813999436855e-06  7.6349919254426e-05 4.62654261355057e-05 
 1.28433301824771e-05 7.76813999436855e-06  0.786549806594848 -0.515935957431792  0.167431324720382 0.245357565581798 
 7.6349919254426e-05 4.62654261355057e-05  0.167431324720382 0.245357565581798  0.78289633989334 -0.520652174949645 
633.875  0.438565909862518 -0.870346546173094  2.19465528061846e-06 -1.15316742039795e-05  5.89635528740474e-05 6.15165590716061e-05 
 2.19465528061846e-06 -1.15316742039795e-05  0.786175310611724 -0.516297996044158  0.167549632489681 0.245401941239833 
 5.89635528740474e-05 6.15165590716061e-05  0.167549632489681 0.245401941239833  0.782636880874633 -0.521001040935516 
634  0.438104391098022 -0.870380103588103  -1.47859075241286e-05 -3.13799685613959e-06  4.77345511171735e-05 7.51688021409793e-05 
 -1.47859075241286e-05 -3.13799685613959e-06  0.785886049270629 -0.516415357589721  0.167706660926342 0.245419077575206 
 4.77345511171735e-05 7.51688021409793e-05  0.167706660926342 0.245419077575206  0.782629191875457 -0.521208405494689 
634.125  0.437817156314849 -0.87021917104721  -5.09524888911984e-05 1.43597585520184e-05  2.87927014142043e-05 7.28330669517165e-05 
 -5.09524888911984e-05 1.43597585520184e-05  0.785572707653045 -0.516788125038146  0.167806163430214 0.245374202728271 
 2.87927014142043e-05 7.28330669517165e-05  0.167806163430214 0.245374202728271  0.782337009906768 -0.521534860134124 
634.25  0.437439709901809 -0.870053827762603  -1.64335083354672e-05 1.53789401338145e-05  2.52345157605305e-05 8.65955880726689e-05 
 -1.64335083354672e-05 1.53789401338145e-05  0.785400629043578 -0.516936063766479  0.167751222848892 0.245365060865879 
 2.52345157605305e-05 8.65955880726689e-05  0.167751222848892 0.245365060865879  0.782171368598937 -0.521622717380523 
634.375  0.437109887599944 -0.870119631290435  -2.51815936280764e-05 3.1322771064879e-05  3.15250163112069e-05 9.61523219302763e-05 
 -2.51815936280764e-05 3.1322771064879e-05  0.785213470458983 -0.517328739166259  0.167866267263889 0.2454689219594 
 3.15250163112069e-05 9.61523219302763e-05  0.167866267263889 0.2454689219594  0.781647086143493 -0.521996796131133 
634.5  0.436897337436675 -0.869953334331511  -1.80808101504226e-05 2.30829364227248e-05  1.71825991657215e-05 0.000108447624370456 
 -1.80808101504226e-05 2.30829364227248e-05  0.784849822521209 -0.517536461353301  0.167781628668308 0.245560370385646 
 1.71825991657215e-05 0.000108447624370456  0.167781628668308 0.245560370385646  0.7815603017807 -0.521802425384521 
634.625  0.436735153198242 -0.869890391826628  -3.34421729348833e-05 2.36061450777925e-05  4.21979639213533e-05 0.000102078673080542 
 -3.34421729348833e-05 2.36061450777925e-05  0.784468233585357 -0.517697811126708  0.167883172631264 0.245645217597485 
 4.21979639213533e-05 0.000102078673080542  0.167883172631264 0.245645217597485  0.781251788139342 -0.521864771842956 
634.75  0.436674684286117 -0.869916021823882  -4.66342380605057e-05 3.57700182576083e-05  3.3444735890953e-05 0.000106078288808931 
 -4.66342380605057e-05 3.57700182576083e-05  0.784099817276 -0.517755210399627  0.167992614209652 0.245705209672451 
 3.3444735890953e-05 0.000106078288808931  0.167992614209652 0.245705209672451  0.781071841716765 -0.522147715091705 
634.875  0.436802923679351 -0.869900226593016  -3.96964260289679e-05 3.80448964278913e-05  3.23461363223033e-05 9.59708995651455e-05 
 -3.96964260289679e-05 3.80448964278913e-05  0.783870875835418 -0.518197357654571  0.168097674846649 0.245840653777122 
 3.23461363223033e-05 9.59708995651455e-05  0.168097674846649 0.245840653777122  0.780692398548125 -0.521972477436065 
635  0.436925083398818 -0.870177567005156  -3.37740711984225e-05 3.38741410814692e-05  4.12823574151844e-05 0.000111870849650586 
 -3.37740711984225e-05 3.38741410814692e-05  0.783422887325286 -0.518295943737029  0.168175660073757 0.245892830193043 
 4.12823574151844e-05 0.000111870849650586  0.168175660073757 0.245892830193043  0.780825197696685 -0.521904826164245 
635.125  0.436637580394744 -0.870735645294188  -2.78428797173547e-05 4.20494634454372e-05  4.00136086682324e-05 9.79552205535586e-05 
 -2.78428797173547e-05 4.20494634454372e-05  0.783340513706206 -0.518295228481292  0.168283872306347 0.246061727404594 
 4.00136086682324e-05 9.79552205535586e-05  0.168283872306347 0.246061727404594  0.780756294727324 -0.521913886070251 
635.25  0.436120003461837 -0.870830059051512  -1.80346596607706e-05 2.72469560513856e-05  2.52341769737541e-05 0.000110287033749046 
 -1.80346596607706e-05 2.72469560513856e-05  0.78281658887863 -0.518519222736358  0.168564088642597 0.246040947735309 
 2.52341769737541e-05 0.000110287033749046  0.168564088642597 0.246040947735309  0.780681610107421 -0.522239863872527 
635.375  0.435961812734603 -0.871037006378173  -3.56252139681602e-05 3.6999579606345e-05  3.6777325476578e-05 0.000101519792224281 
 -3.56252139681602e-05 3.6999579606345e-05  0.782715320587157 -0.518196880817413  0.168593965470791 0.246058970689774 
 3.6777325476578e-05 0.000101519792224281  0.168593965470791 0.246058970689774  0.780610918998717 -0.522486507892608 
635.5  0.435549348592758 -0.871353209018706  -3.08302332996392e-05 4.43287826783491e-05  3.53184805135244e-05 9.94358015304899e-05 
 -3.08302332996392e-05 4.43287826783491e-05  0.782604813575744 -0.518314778804778  0.168556496500968 0.246076166629791 
 3.53184805135244e-05 9.94358015304899e-05  0.168556496500968 0.246076166629791  0.780566215515136 -0.522528171539306 
635.625  0.435050874948501 -0.871607363224028  -1.81743725988781e-05 4.49911494797562e-05  5.76370021008189e-05 0.000110834571387387 
 -1.81743725988781e-05 4.49911494797562e-05  0.78276753425598 -0.518444657325744  0.168563589453697 0.246147856116295 
 5.76370021008189e-05 0.000110834571387387  0.168563589453697 0.246147856116295  0.78032898902893 -0.522596716880798 
635.75  0.434770494699478 -0.871638655662535  -2.81502334473772e-05 6.35684809822125e-05  5.96853096794804e-05 0.000105908282421297 
 -2.81502334473772e-05 6.35684809822125e-05  0.782761633396148 -0.518743932247161  0.168597817420959 0.246222496032715 
 5.96853096794804e-05 0.000105908282421297  0.168597817420959 0.246222496032715  0.780041277408599 -0.522710561752319 
635.875  0.434072226285934 -0.871794342994689  -2.11536885217356e-05 2.87615798697517e-05  4.53871052741307e-05 9.82407145784241e-05 
 -2.11536885217356e-05 2.87615798697517e-05  0.782292425632476 -0.519221365451812  0.168642982840538 0.246289871633052 
 4.53871052741307e-05 9.82407145784241e-05  0.168642982840538 0.246289871633052  0.7797754406929 -0.523219525814056 
636  0.433588117361068 -0.871829509735106  -2.40534600379761e-05 3.08914213746903e-05  3.74644359908416e-05 0.000112327044917038 
 -2.40534600379761e-05 3.08914213746903e-05  0.7821187376976 -0.519346296787261  0.168621376156807 0.246443472802639 
 3.74644359908416e-05 0.000112327044917038  0.168621376156807 0.246443472802639  0.779548227787017 -0.52308702468872 
636.125  0.433107912540435 -0.871273159980773  -3.89329397876282e-05 4.45929754278041e-05  6.36329605185894e-05 0.000116330793389352 
 -3.89329397876282e-05 4.45929754278041e-05  0.781687438488006 -0.519740879535674  0.168627932667732 0.24655096232891 
 6.36329605185894e-05 0.000116330793389352  0.168627932667732 0.24655096232891  0.779175043106078 -0.523188054561614 
636.25  0.433436006307601 -0.870815038681029  -3.70453744835686e-05 3.70078168998589e-05  3.85034845749033e-05 9.16828685149087e-05 
 -3.70453744835686e-05 3.70078168998589e-05  0.781326413154601 -0.519620239734649  0.168575495481491 0.246758945286274 
 3.85034845749033e-05 9.16828685149087e-05  0.168575495481491 0.246758945286274  0.778762817382811 -0.523158967494964 
636.375  0.433455169200897 -0.870891869068144  -7.32541707293425e-06 3.9195846511575e-05  5.91975567658666e-05 0.000113388941826998 
 -7.32541707293425e-06 3.9195846511575e-05  0.781038224697112 -0.51976454257965  0.168571963906288 0.247161298990249 
 5.91975567658666e-05 0.000113388941826998  0.168571963906288 0.247161298990249  0.778480768203734 -0.523096621036529 
636.5  0.433676123619079 -0.871146082878112  -2.71306571448804e-05 3.70809857486166e-05  4.7850635382929e-05 0.000114437803858892 
 -2.71306571448804e-05 3.70809857486166e-05  0.780775547027587 -0.519422829151153  0.168834373354911 0.247537039220333 
