! Matrix data file written by TouchstoneData, EPCOS AG
! FILENAME: "B4334_2_X30Y37_WB.snp"
! COMMENT: "(TS/B4334_2_X30Y37_WB.s2p) Epcos AG 4/24/201"
! INFO: nport=2, nfreq=1601
! DATE: "Tue Aug 12 10:43:38 2014"
! USER: "Dan Wang"
!
! port | pin | signal
! -----|-----|--------
!   1  |  1  |  input
!   2  |  4  |  output
! --------------------
! 
# MHZ S RI R 50
! freq  reS11 imS11  reS21 imS21  reS12 imS12  reS22 imS22
50  0.993537127971649 -0.0741993561387062  -7.71940867707599e-05 0.000113425874587847  -7.71940867707599e-05 0.000113425874587847  0.990661680698395 -0.120577596127987 
53.71875  0.992698669433594 -0.0800487175583839  1.19264996101266e-06 -1.69753593581845e-05  1.19264996101266e-06 -1.69753593581845e-05  0.989850401878357 -0.131234630942345 
57.4375  0.991930842399597 -0.0858002528548241  1.66656891451567e-05 9.24091068554845e-06  1.66656891451567e-05 9.24091068554845e-06  0.988603830337524 -0.139888375997543 
61.15625  0.990858793258667 -0.0921248197555542  -9.48477668316627e-06 -8.05664421932306e-05  -9.48477668316627e-06 -8.05664421932306e-05  0.986440420150757 -0.149068355560303 
64.875  0.992207288742065 -0.0981994867324829  1.14626320737443e-05 -1.11428960281046e-05  1.14626320737443e-05 -1.11428960281046e-05  0.987022340297699 -0.158642053604126 
68.59375  0.992017388343811 -0.103523641824722  1.77966385308537e-05 5.22610716870986e-05  1.77966385308537e-05 5.22610716870986e-05  0.983607828617096 -0.168205454945564 
72.3125  0.991226136684418 -0.107769042253494  -4.15451950175339e-05 -1.81944596988615e-06  -4.15451950175339e-05 -1.81944596988615e-06  0.982002973556519 -0.174800515174866 
76.03125  0.990248024463654 -0.112824663519859  -2.9768747253911e-06 4.80481558042811e-05  -2.9768747253911e-06 4.80481558042811e-05  0.981407999992371 -0.183152303099632 
79.75  0.990677654743195 -0.118369989097118  -1.81189916474978e-05 6.83319158270023e-05  -1.81189916474978e-05 6.83319158270023e-05  0.978912353515625 -0.192427977919579 
83.46875  0.989546477794647 -0.124311074614525  -3.99689906771527e-05 6.54388277325779e-05  -3.99689906771527e-05 6.54388277325779e-05  0.97600644826889 -0.200917705893517 
87.1875  0.988413870334625 -0.130103439092636  -3.66534413842601e-05 0.000105836523289327  -3.66534413842601e-05 0.000105836523289327  0.974706292152405 -0.208577394485474 
90.90625  0.987121999263763 -0.136845871806145  1.79135099642736e-05 3.91480534744915e-05  1.79135099642736e-05 3.91480534744915e-05  0.97307026386261 -0.217358469963074 
94.625  0.986647009849548 -0.141480699181557  0.000267391995294019 -0.000331657793140039  0.000267391995294019 -0.000331657793140039  0.968706965446472 -0.227235078811646 
98.34375  0.986098408699036 -0.146738424897194  -2.04348189072334e-05 6.87526917317882e-05  -2.04348189072334e-05 6.87526917317882e-05  0.969305574893951 -0.235133022069931 
102.0625  0.985865235328674 -0.151213452219963  4.69168626295869e-05 5.51607481611427e-05  4.69168626295869e-05 5.51607481611427e-05  0.966444611549377 -0.242947578430176 
105.78125  0.984031617641449 -0.156323075294495  6.70485915179597e-05 9.50103603827301e-05  6.70485915179597e-05 9.50103603827301e-05  0.964478194713593 -0.252834886312485 
109.5  0.983015656471252 -0.162228211760521  -1.80604911292905e-06 8.59867795952595e-05  -1.80604911292905e-06 8.59867795952595e-05  0.962208986282349 -0.261197626590729 
113.21875  0.982445657253265 -0.167544767260551  1.18526050414403e-05 8.67039198055863e-05  1.18526050414403e-05 8.67039198055863e-05  0.959826588630676 -0.269978880882263 
116.9375  0.980918884277344 -0.172636941075325  3.6363359868119e-05 6.10875758866314e-05  3.6363359868119e-05 6.10875758866314e-05  0.955948352813721 -0.278430849313736 
120.65625  0.980939745903015 -0.178103551268578  1.67412308655912e-05 5.11582056788029e-05  1.67412308655912e-05 5.11582056788029e-05  0.953518331050873 -0.28637683391571 
124.375  0.979697167873383 -0.182770773768425  1.20787445894166e-05 6.80537668813486e-05  1.20787445894166e-05 6.80537668813486e-05  0.951594173908234 -0.293925911188126 
128.09375  0.977185666561127 -0.188716799020767  6.24668773525627e-05 7.71581180742942e-05  6.24668773525627e-05 7.71581180742942e-05  0.946902990341187 -0.302228033542633 
131.8125  0.976980686187744 -0.194660440087318  4.83556759718339e-05 5.20815228810534e-05  4.83556759718339e-05 5.20815228810534e-05  0.945708513259888 -0.312772452831268 
135.53125  0.975863039493561 -0.200384885072708  -1.65642145475431e-05 6.21727995167021e-05  -1.65642145475431e-05 6.21727995167021e-05  0.943127334117889 -0.319808930158615 
139.25  0.974842011928558 -0.205829322338104  4.57839705632068e-05 5.18983188158018e-05  4.57839705632068e-05 5.18983188158018e-05  0.940493941307068 -0.328945249319077 
142.96875  0.972684979438782 -0.210875421762466  -5.70607608096905e-06 1.58748202920833e-05  -5.70607608096905e-06 1.58748202920833e-05  0.936625897884369 -0.336533218622208 
146.6875  0.97145015001297 -0.214999198913574  8.8156659330707e-05 -5.33319291662337e-06  8.8156659330707e-05 -5.33319291662337e-06  0.935324370861053 -0.343991577625275 
150.40625  0.968785524368286 -0.218979433178902  7.50410690670833e-05 2.97008677989652e-05  7.50410690670833e-05 2.97008677989652e-05  0.928432941436768 -0.35120889544487 
154.125  0.969633281230927 -0.225988432765007  4.9967076847679e-05 0.000113640297058737  4.9967076847679e-05 0.000113640297058737  0.928280889987946 -0.360048443078995 
157.84375  0.969349563121796 -0.232194393873215  4.61076997453347e-05 6.91955865477212e-05  4.61076997453347e-05 6.91955865477212e-05  0.925309181213379 -0.369480043649673 
161.5625  0.966317772865295 -0.237109676003456  5.38727872481104e-05 0.000109233184048207  5.38727872481104e-05 0.000109233184048207  0.920859813690186 -0.377050638198853 
165.28125  0.965792953968048 -0.242373064160347  3.02901571558323e-05 9.21037571970373e-05  3.02901571558323e-05 9.21037571970373e-05  0.916584551334381 -0.383994668722153 
169  0.964752495288849 -0.246857866644859  3.82539983547758e-05 4.66884430352365e-05  3.82539983547758e-05 4.66884430352365e-05  0.914139151573181 -0.39232063293457 
172.71875  0.963047981262207 -0.251734763383865  8.45577642394348e-06 8.97560530574994e-05  8.45577642394348e-06 8.97560530574994e-05  0.911325931549072 -0.400348395109177 
176.4375  0.962175369262695 -0.25688374042511  -2.22725665821599e-06 9.23583102121481e-05  -2.22725665821599e-06 9.23583102121481e-05  0.906898200511932 -0.408113658428192 
180.15625  0.9607874751091 -0.263781428337097  2.53396350444746e-05 7.44502685847692e-05  2.53396350444746e-05 7.44502685847692e-05  0.904218852519989 -0.416204482316971 
183.875  0.958462119102478 -0.268158704042435  5.70976499147946e-05 0.000110244363895617  5.70976499147946e-05 0.000110244363895617  0.898921072483063 -0.423009365797043 
187.59375  0.95743864774704 -0.272770583629608  5.2147082897136e-05 6.49538433208363e-05  5.2147082897136e-05 6.49538433208363e-05  0.896050751209259 -0.431317031383514 
191.3125  0.956773579120636 -0.27674475312233  4.51798678113846e-05 0.000174538341525477  4.51798678113846e-05 0.000174538341525477  0.893547058105469 -0.439187228679657 
195.03125  0.953430473804474 -0.282243400812149  7.44476747058797e-05 7.02374527463689e-05  7.44476747058797e-05 7.02374527463689e-05  0.887476682662964 -0.446498692035675 
198.75  0.953205227851868 -0.288527220487595  4.28206658398267e-05 2.77783829005785e-05  4.28206658398267e-05 2.77783829005785e-05  0.884716689586639 -0.453770160675049 
202.46875  0.950676143169403 -0.293065190315247  1.71131150636938e-05 0.000128162595501635  1.71131150636938e-05 0.000128162595501635  0.880175471305847 -0.462898790836334 
206.1875  0.949488341808319 -0.298605352640152  4.19441748817917e-05 0.000117178686195985  4.19441748817917e-05 0.000117178686195985  0.87586897611618 -0.466426193714142 
209.90625  0.948021590709686 -0.30313578248024  5.83898909098935e-05 0.000101945675851311  5.83898909098935e-05 0.000101945675851311  0.872848927974701 -0.47316563129425 
213.625  0.946484386920929 -0.309559464454651  7.76877041062108e-05 4.16819166275672e-05  7.76877041062108e-05 4.16819166275672e-05  0.86895763874054 -0.481685698032379 
217.34375  0.944832921028137 -0.312649488449097  1.89033012247819e-05 6.96938168402994e-05  1.89033012247819e-05 6.96938168402994e-05  0.865340411663055 -0.488694131374359 
221.0625  0.942783176898956 -0.317939221858978  5.51243520021671e-05 8.40315224195365e-05  5.51243520021671e-05 8.40315224195365e-05  0.860275685787201 -0.496689826250076 
224.78125  0.942246496677399 -0.322845429182053  2.43587707586812e-05 5.94567191001261e-05  2.43587707586812e-05 5.94567191001261e-05  0.856145739555359 -0.50434422492981 
228.5  0.940572023391724 -0.32817143201828  1.97492445295211e-05 0.000129725442093332  1.97492445295211e-05 0.000129725442093332  0.850755572319031 -0.511221706867218 
232.21875  0.936586022377014 -0.334253251552582  6.46136304567335e-05 7.90179146861192e-05  6.46136304567335e-05 7.90179146861192e-05  0.844633519649506 -0.520072877407074 
235.9375  0.935209691524506 -0.338168263435364  2.6356669877714e-05 9.605450759409e-05  2.6356669877714e-05 9.605450759409e-05  0.840834975242615 -0.524949908256531 
239.65625  0.933482348918915 -0.342610478401184  1.75344731516702e-05 5.48144453205168e-05  1.75344731516702e-05 5.48144453205168e-05  0.837098836898804 -0.530640482902527 
243.375  0.932772219181061 -0.347326457500458  4.70648392365547e-05 7.87981516623404e-05  4.70648392365547e-05 7.87981516623404e-05  0.832439661026001 -0.539458453655243 
247.09375  0.930018663406372 -0.352826327085495  6.69212677166797e-05 9.47456028370652e-05  6.69212677166797e-05 9.47456028370652e-05  0.828538417816162 -0.545540452003479 
250.8125  0.927416741847992 -0.358816087245941  2.80176909654983e-05 5.08798111695796e-05  2.80176909654983e-05 5.08798111695796e-05  0.823136627674103 -0.553423225879669 
254.53125  0.926465213298798 -0.364346742630005  3.47874065482757e-05 5.61634969926672e-05  3.47874065482757e-05 5.61634969926672e-05  0.817579090595245 -0.562448263168335 
258.25  0.922714293003082 -0.368096679449081  1.06511213289196e-05 5.10956851940137e-05  1.06511213289196e-05 5.10956851940137e-05  0.812329769134521 -0.566957652568817 
261.96875  0.921704709529877 -0.373529732227325  4.19705556851113e-05 0.000138157054607291  4.19705556851113e-05 0.000138157054607291  0.807533323764801 -0.57183301448822 
265.6875  0.920251607894897 -0.377690643072128  3.58411543857074e-05 8.61003973113839e-05  3.58411543857074e-05 8.61003973113839e-05  0.803690314292908 -0.582074046134949 
269.40625  0.918197214603424 -0.383585274219513  9.95269698478298e-06 7.94402899373381e-06  9.95269698478298e-06 7.94402899373381e-06  0.798586070537567 -0.588221788406372 
273.125  0.91613781452179 -0.388207048177719  5.84714980504941e-05 0.000113369795144536  5.84714980504941e-05 0.000113369795144536  0.793087184429169 -0.596626937389374 
276.84375  0.913466513156891 -0.393630385398865  2.35913630604045e-05 7.799889499438e-05  2.35913630604045e-05 7.799889499438e-05  0.788032948970795 -0.602791607379913 
280.5625  0.910115838050842 -0.397720456123352  3.32749505105312e-05 9.47410153457892e-05  3.32749505105312e-05 9.47410153457892e-05  0.781380116939545 -0.608026266098022 
284.28125  0.909097790718079 -0.401864916086197  4.32642436862807e-05 4.69667320430745e-05  4.32642436862807e-05 4.69667320430745e-05  0.77692836523056 -0.614076972007751 
288  0.907452404499054 -0.407527208328247  2.76091636806087e-05 8.77771672094241e-05  2.76091636806087e-05 8.77771672094241e-05  0.772061705589294 -0.620755255222321 
291.71875  0.903544902801514 -0.412949413061142  7.58714431867701e-05 0.000104348746390315  7.58714431867701e-05 0.000104348746390315  0.766061067581177 -0.628872036933899 
295.4375  0.901369750499725 -0.418373376131058  2.1018890038249e-05 5.9541527662077e-05  2.1018890038249e-05 5.9541527662077e-05  0.760726392269135 -0.633297979831696 
299.15625  0.899332165718079 -0.422983318567276  5.77786140638636e-05 0.000123736826935783  5.77786140638636e-05 0.000123736826935783  0.754058063030243 -0.642720580101013 
302.875  0.891874194145203 -0.426808327436447  7.70162441767752e-05 6.21125545876567e-05  7.70162441767752e-05 6.21125545876567e-05  0.748155057430267 -0.645294785499573 
306.59375  0.893915116786957 -0.429712951183319  8.65293043261772e-06 9.90291737252846e-05  8.65293043261772e-06 9.90291737252846e-05  0.743351995944977 -0.65050607919693 
310.3125  0.891543984413147 -0.43425926566124  3.18215981565117e-05 8.61749758769293e-05  3.18215981565117e-05 8.61749758769293e-05  0.737261652946472 -0.658859193325043 
314.03125  0.889995574951172 -0.440126061439514  -1.05012927633652e-05 8.56951592140831e-05  -1.05012927633652e-05 8.56951592140831e-05  0.731544196605682 -0.66570907831192 
317.75  0.888082087039948 -0.444622606039047  2.74870644716429e-05 8.03678085503634e-05  2.74870644716429e-05 8.03678085503634e-05  0.725327789783478 -0.672325193881989 
321.46875  0.8852698802948 -0.450128048658371  4.08693194913212e-05 6.77270436426625e-05  4.08693194913212e-05 6.77270436426625e-05  0.720628917217255 -0.676722526550293 
325.1875  0.88111674785614 -0.455110788345337  5.56055638298858e-05 0.000118891279271338  5.56055638298858e-05 0.000118891279271338  0.710940778255463 -0.682610690593719 
328.90625  0.879395961761475 -0.460065394639969  6.35140313534066e-05 9.05096821952611e-05  6.35140313534066e-05 9.05096821952611e-05  0.708431959152222 -0.688007295131683 
332.625  0.876360058784485 -0.464509695768356  -1.01725522654306e-05 0.000112316716695204  -1.01725522654306e-05 0.000112316716695204  0.703010499477386 -0.693601012229919 
336.34375  0.874693393707275 -0.469940960407257  8.09442062745802e-05 5.24263214174426e-05  8.09442062745802e-05 5.24263214174426e-05  0.698256134986877 -0.7009437084198 
340.0625  0.87171882390976 -0.474397778511047  4.29908086516662e-05 0.000157785041665193  4.29908086516662e-05 0.000157785041665193  0.690873861312866 -0.705105721950531 
343.78125  0.86843466758728 -0.47979947924614  5.14971379743656e-05 1.823917227739e-05  5.14971379743656e-05 1.823917227739e-05  0.684688746929169 -0.712999105453491 
347.5  0.864150404930115 -0.484732568264008  -4.01957331632729e-05 0.000103126905742102  -4.01957331632729e-05 0.000103126905742102  0.676889538764954 -0.719078958034515 
351.21875  0.862866520881653 -0.488639086484909  5.16138625243912e-05 5.96247427893104e-05  5.16138625243912e-05 5.96247427893104e-05  0.670302093029022 -0.722249925136566 
354.9375  0.859955668449402 -0.494146943092346  8.13783371995669e-05 0.000118222546007019  8.13783371995669e-05 0.000118222546007019  0.664426505565643 -0.728578209877014 
358.65625  0.856518864631653 -0.498378127813339  -3.51720927938004e-05 8.70596741151532e-05  -3.51720927938004e-05 8.70596741151532e-05  0.656557559967041 -0.730547308921814 
362.375  0.854108989238739 -0.504671812057495  5.2157049140078e-05 7.8628136179759e-05  5.2157049140078e-05 7.8628136179759e-05  0.653516173362732 -0.738577961921692 
366.09375  0.850346803665161 -0.509347021579742  -1.27584680740256e-05 -2.8986542019993e-05  -1.27584680740256e-05 -2.8986542019993e-05  0.647078633308411 -0.744011580944061 
369.8125  0.846887528896332 -0.514118731021881  2.43141817009018e-05 6.18528811173746e-05  2.43141817009018e-05 6.18528811173746e-05  0.641031682491302 -0.749404728412628 
373.53125  0.843718469142914 -0.519093036651611  1.97256972569448e-05 4.43812787125353e-05  1.97256972569448e-05 4.43812787125353e-05  0.632758736610413 -0.754720091819763 
377.25  0.841185450553894 -0.523779630661011  9.4853232440073e-05 0.000100093733635731  9.4853232440073e-05 0.000100093733635731  0.627914190292358 -0.759698748588562 
380.96875  0.837936639785767 -0.529630601406097  -3.89019783142432e-06 -1.19928265576163e-05  -3.89019783142432e-06 -1.19928265576163e-05  0.620968222618103 -0.765229880809784 
384.6875  0.833772659301758 -0.535329043865204  1.128630947278e-05 4.39844479842577e-05  1.128630947278e-05 4.39844479842577e-05  0.614356815814972 -0.769765436649323 
388.40625  0.829193949699402 -0.540199518203735  4.25178641307866e-05 6.08720365562476e-05  4.25178641307866e-05 6.08720365562476e-05  0.607657611370087 -0.775610566139221 
392.125  0.824724733829498 -0.543100595474243  6.31381954008247e-05 4.44129545940086e-05  6.31381954008247e-05 4.44129545940086e-05  0.600026607513428 -0.781737506389618 
395.84375  0.821554601192474 -0.546929717063904  7.91119346104097e-05 0.000121953886264237  7.91119346104097e-05 0.000121953886264237  0.592376232147217 -0.785392105579376 
399.5625  0.819357872009277 -0.553053021430969  6.9881269155303e-05 9.71020017459523e-05  6.9881269155303e-05 9.71020017459523e-05  0.587060689926147 -0.78940749168396 
403.28125  0.817566692829132 -0.556090533733368  8.20471495899254e-06 7.91833590483293e-05  8.20471495899254e-06 7.91833590483293e-05  0.580626547336578 -0.794773399829865 
407  0.814666390419006 -0.561429917812347  -6.58578678969234e-06 6.65347693029615e-06  -6.58578678969234e-06 6.65347693029615e-06  0.572607278823853 -0.800246357917786 
410.71875  0.808686196804047 -0.569152534008026  -4.88426594529301e-05 5.17726857651724e-05  -4.88426594529301e-05 5.17726857651724e-05  0.564859509468079 -0.805023074150085 
414.4375  0.805790781974792 -0.571821749210358  4.6622099034721e-05 7.44652388675604e-05  4.6622099034721e-05 7.44652388675604e-05  0.557763040065765 -0.809866666793823 
418.15625  0.800242781639099 -0.577591896057129  3.72132562915795e-05 8.84929577296134e-05  3.72132562915795e-05 8.84929577296134e-05  0.550702512264252 -0.810905337333679 
421.875  0.79890251159668 -0.580371141433716  2.99403127428377e-05 3.59273017238593e-05  2.99403127428377e-05 3.59273017238593e-05  0.543459534645081 -0.814750611782074 
425.59375  0.795700073242187 -0.580165088176727  3.84933873647242e-05 6.14637465332635e-05  3.84933873647242e-05 6.14637465332635e-05  0.53976583480835 -0.819056987762451 
429.3125  0.792510330677032 -0.590519726276398  -9.42041037887976e-06 7.2446680860594e-05  -9.42041037887976e-06 7.2446680860594e-05  0.531333088874817 -0.826211810112 
433.03125  0.789498746395111 -0.595200061798096  6.71012094244361e-05 7.56407644075807e-05  6.71012094244361e-05 7.56407644075807e-05  0.524900019168854 -0.830267190933228 
436.75  0.785979449748993 -0.599900186061859  5.29541721334681e-05 6.35523629171075e-05  5.29541721334681e-05 6.35523629171075e-05  0.51873904466629 -0.830575048923492 
440.46875  0.781818091869354 -0.606072187423706  1.95589279314845e-05 6.36275581200607e-05  1.95589279314845e-05 6.36275581200607e-05  0.505844473838806 -0.838373363018036 
444.1875  0.777559161186218 -0.61001992225647  4.52896601927932e-05 3.60387184628053e-05  4.52896601927932e-05 3.60387184628053e-05  0.504217028617859 -0.839977264404297 
447.90625  0.774967849254608 -0.614218413829803  2.23022193495126e-05 0.000113520996819715  2.23022193495126e-05 0.000113520996819715  0.496860772371292 -0.84429657459259 
451.625  0.770441710948944 -0.619892358779907  3.03954811897711e-05 3.47395434801002e-05  3.03954811897711e-05 3.47395434801002e-05  0.490262776613235 -0.848687767982483 
455.34375  0.766079127788544 -0.62462329864502  3.70406280580937e-06 5.61361830477835e-05  3.70406280580937e-06 5.61361830477835e-05  0.480552196502686 -0.853025913238525 
459.0625  0.76180225610733 -0.627510845661163  6.64056859989162e-06 5.39679040230112e-05  6.64056859989162e-06 5.39679040230112e-05  0.473422467708588 -0.858655154705048 
462.78125  0.755990326404572 -0.633606731891632  -4.30146465077996e-05 4.72145347885089e-05  -4.30146465077996e-05 4.72145347885089e-05  0.46552386879921 -0.862771570682526 
466.5  0.754441022872925 -0.636149942874908  2.59440139416256e-05 4.78506153740454e-05  2.59440139416256e-05 4.78506153740454e-05  0.455934703350067 -0.865420341491699 
470.21875  0.750805616378784 -0.639872014522552  -5.24539173056837e-05 3.436931365286e-06  -5.24539173056837e-05 3.436931365286e-06  0.451763421297073 -0.864793717861176 
