! Matrix data file written by TouchstoneData, EPCOS AG
! FILENAME: "B4332_WB.s2p"
! COMMENT: "(B4332_X42Y43_WB.s2p) Epcos AG 11/21/2013 3:"
! INFO: nport=2, nfreq=1601
! DATE: "Tue Dec  3 14:35:13 2013"
! USER: "Rosemary Xue"
!
! port | pin | signal
! -----|-----|--------
!   1  |  1  |  IN
!   2  |  4  |  OUT
! --------------------
! 
# MHZ S RI R 50
! freq  reS11 imS11  reS21 imS21  reS12 imS12  reS22 imS22
50  0.995823979377745 -0.066133715212345  5.8996185543947e-05 0.00282729230821132  0.00021816031949129 0.00275616510771214  0.998026967048644 -0.0601507276296614 
53.71875  0.995251655578612 -0.0697264447808264  0.000182576390216127 0.0029774154536426  0.00017913269402925 0.00297974096611142  0.996057629585265 -0.0654548630118369 
57.4375  0.995861053466796 -0.0746443718671797  0.000193747633602471 0.00319599756039678  0.000176276676938869 0.00321098393760621  0.995930910110472 -0.0682873502373694 
61.15625  0.995383083820342 -0.0808034762740134  0.000272325385594741 0.00336645171046256  0.000244104565354065 0.00339137157425284  0.995912373065947 -0.0741780400276183 
64.875  0.994283616542815 -0.0841990932822226  0.000317159487167374 0.00358918332494794  0.000283407280221582 0.00360153429210185  0.997105419635771 -0.0778267979621886 
68.59375  0.993668735027312 -0.0897471308708189  0.000337904348270968 0.00379139743745326  0.000330510752974079 0.00376621284522115  0.996163129806517 -0.0834707021713255 
72.3125  0.993740081787108 -0.0947271063923834  0.000457811809610576 0.00397329963743686  0.000456115609267728 0.00397184910252689  0.995655953884123 -0.0872583910822867 
76.03125  0.993146240711211 -0.0992048084735869  0.000321476196404547 0.00417536031454801  0.000336307508405299 0.00417379429563879  0.994871735572814 -0.0918573588132857 
79.75  0.992699146270751 -0.104518570005894  0.000465857301605866 0.00438437378033995  0.000450619292678312 0.0043914378620684  0.993580520153044 -0.096040219068527 
83.46875  0.992207169532774 -0.109124295413494  0.000458004244137556 0.00460510794073342  0.00047131086466834 0.00461125979200004  0.993136882781981 -0.100635416805744 
87.1875  0.992472767829894 -0.11346061527729  0.000589406932704152 0.00480095390230416  0.000592549913562836 0.0047817938029766  0.993547201156615 -0.107029221951961 
90.90625  0.991193950176238 -0.1180399954319  0.000533923623152078 0.00500831333920358  0.000561340362764896 0.00503317406401037  0.991983532905577 -0.109627291560173 
94.625  0.990189671516417 -0.122636772692203  0.00077506684465334 0.00520251877605914  0.000750349601730706 0.0051867514848709  0.99141764640808 -0.113987788558006 
98.34375  0.989131927490233 -0.128054901957512  0.000674713985063137 0.0054150535725057  0.000669092580210419 0.00540344184264539  0.991236090660094 -0.11851891130209 
102.0625  0.988915801048278 -0.132841780781746  0.000719739764463158 0.0056537459604442  0.000698802352417262 0.00567319057881831  0.99122393131256 -0.122651904821396 
105.78125  0.988068997859954 -0.13739413022995  0.000774977088440211 0.00581689458340405  0.000738305563572796 0.00583411147817968  0.989830017089842 -0.126181036233902 
109.5  0.98754060268402 -0.142537638545036  0.000833999947644772 0.00600895425304769  0.00082909647608176 0.0060011097230017  0.988899171352385 -0.132509991526604 
113.21875  0.986953914165496 -0.146255984902382  0.000858145358506592 0.00618466967716812  0.000888648617547007 0.00619805091992019  0.988748788833617 -0.13585290312767 
116.9375  0.985356390476226 -0.151899188756943  0.000947857857681813 0.00634891074150799  0.000911029172129931 0.00635081576183437  0.987934350967406 -0.140626758337021 
120.65625  0.98515349626541 -0.156723067164421  0.00100523140281439 0.00659008603543042  0.000978481373749676 0.00660057505592702  0.98777139186859 -0.144580036401748 
124.375  0.984423041343688 -0.160175904631614  0.00105561385862529 0.00680702924728392  0.00102579675149172 0.00677941786125301  0.987063288688658 -0.147603675723076 
128.09375  0.983447432518004 -0.165422886610031  0.0010984088294208 0.00692588416859506  0.00109356315806508 0.00692596146836875  0.98506736755371 -0.154030799865722 
131.8125  0.98191612958908 -0.171211764216423  0.00117912923451513 0.00713259819895028  0.00115462474059313 0.00719317793846129  0.986262142658232 -0.156910061836242 
135.53125  0.981690943241118 -0.175251513719558  0.00129332195501774 0.00735769607126711  0.00126826739870012 0.00737723940983413  0.98482036590576 -0.162956178188324 
139.25  0.981058418750762 -0.179921418428421  0.00134578219149261 0.00757298478856681  0.00132301088888198 0.00756746204569934  0.983965098857878 -0.167655125260353 
142.96875  0.979807853698729 -0.184595301747322  0.00132548192050308 0.00751115428283809  0.00134969165083021 0.00754318060353397  0.982253789901732 -0.170535251498222 
146.6875  0.978543937206267 -0.188757732510566  0.00144571159034967 0.00793262757360933  0.00143471919000148 0.0079497806727886  0.981518328189848 -0.175235167145729 
150.40625  0.978353142738341 -0.193471357226372  0.00156747060827911 0.00812408514320848  0.00157173629850149 0.00814557354897259  0.981682837009429 -0.179292812943458 
154.125  0.977079689502715 -0.199756801128387  0.00165753904730081 0.00825825612992046  0.00164982874412089 0.00835154484957455  0.98020964860916 -0.184935688972473 
157.84375  0.9759224653244 -0.203246757388115  0.00172859872691333 0.00846850778907536  0.00173574988730251 0.00847861357033251  0.978943169116972 -0.188109308481216 
161.5625  0.975177764892577 -0.208164125680923  0.00183316797483712 0.00866890046745537  0.00183847011066973 0.00865665730088947  0.979784488677977 -0.193671256303787 
165.28125  0.973080337047576 -0.212358981370926  0.0017834558384493 0.00872167479246853  0.00180380977690219 0.0087239872664213  0.976466059684752 -0.196830004453659 
169  0.97211718559265 -0.215898990631103  0.00189945113379508 0.00903108064085243  0.00190301961265504 0.00903733447194097  0.976842880249022 -0.199850305914879 
172.71875  0.971134245395659 -0.221070602536201  0.00202030222862958 0.00923790596425531  0.0020170141942799 0.00926305074244736  0.97629690170288 -0.204382330179214 
176.4375  0.970022499561308 -0.226126655936241  0.00212102150544524 0.00938715506345032  0.00208834651857614 0.00943597033619879  0.9755220413208 -0.209747642278671 
180.15625  0.97001016139984 -0.231003656983375  0.00221311603672802 0.00959103927016256  0.00218829442746937 0.00960636790841816  0.975156605243682 -0.213049009442329 
183.875  0.969000339508055 -0.234443232417106  0.00229083164595067 0.00975781772285698  0.00227089528925716 0.00974954478442667  0.973762750625609 -0.217784762382507 
187.59375  0.966745316982268 -0.240663975477218  0.00237214099615812 0.00990947056561706  0.00234379130415618 0.00990729220211504  0.971714735031127 -0.222243800759315 
191.3125  0.965786516666411 -0.244020074605941  0.00237160315737128 0.0101316114887595  0.0024105655029416 0.0101555725559592  0.971489191055296 -0.226230844855308 
195.03125  0.965178787708281 -0.247984930872917  0.00257956609129905 0.0103573789820075  0.00254278327338397 0.0103901326656341  0.970763027667998 -0.229965135455131 
198.75  0.962117671966551 -0.254115045070648  0.0026805477682501 0.0104935001581907  0.00267096236348152 0.0105209173634648  0.969854176044463 -0.23444601893425 
202.46875  0.961563825607298 -0.257643193006515  0.00275698071345686 0.0107057373970747  0.00277736387215554 0.0107086794450879  0.967945992946623 -0.239770159125328 
206.1875  0.960674703121184 -0.262908309698104  0.00286684837192296 0.0108112171292305  0.00288550811819732 0.0108436085283756  0.967320203781127 -0.242810636758804 
209.90625  0.959617257118224 -0.267643272876739  0.00297308154404163 0.0110180359333753  0.00298012164421379 0.0110014015808701  0.96609604358673 -0.248156458139419 
213.625  0.957989752292632 -0.27144455909729  0.00293493107892572 0.0111940242350101  0.00291877426207065 0.0112128825858235  0.965142905712126 -0.24990177154541 
217.34375  0.956577897071837 -0.275299161672592  0.00313835102133452 0.0113906813785434  0.00311441300436854 0.0114240627735853  0.964768826961516 -0.254461914300918 
221.0625  0.954460024833678 -0.281420052051544  0.00322331930510699 0.0115557238459587  0.00324396323412656 0.0115287518128752  0.963605046272276 -0.258160859346389 
224.78125  0.953463673591612 -0.284876614809036  0.00338799832388758 0.0116677656769752  0.00339631317183375 0.0116877276450395  0.962245404720305 -0.263095915317535 
228.5  0.952184498310088 -0.289419293403625  0.00346879707649349 0.0118568753823638  0.00345691735856234 0.0118841473013162  0.960324943065642 -0.266931444406509 
232.21875  0.949013829231261 -0.296973228454589  0.00364928902126848 0.0120462058112025  0.00362628931179642 0.0120255881920457  0.958193123340605 -0.273846000432968 
235.9375  0.948453962802886 -0.297922581434249  0.00368240033276378 0.0121931480243802  0.00364396953955292 0.0122159076854586  0.957818865776061 -0.274648785591125 
239.65625  0.948395133018492 -0.302674502134323  0.00374792143702506 0.0123926997184753  0.00375750008970498 0.0124127035960555  0.95799422264099 -0.278013169765472 
243.375  0.94685536623001 -0.306644171476364  0.0038737196009606 0.0125733269378543  0.00386099983006715 0.0126081313937902  0.956202208995818 -0.281917005777359 
247.09375  0.945303618907927 -0.311107099056243  0.00401585409417748 0.0127116693183779  0.00404245313256978 0.0127261318266392  0.955021262168883 -0.286829203367233 
250.8125  0.943898856639861 -0.316672325134277  0.00415782816708087 0.0129282521083951  0.00411564297974109 0.0129252653568983  0.953581571578978 -0.290601223707199 
254.53125  0.942897737026213 -0.321107476949691  0.00427024392411112 0.0130052864551544  0.00424518436193465 0.0130041036754846  0.9520605802536 -0.294377505779266 
258.25  0.938873529434203 -0.323473334312438  0.00438364036381244 0.0131982564926147  0.00434969225898384 0.0132140470668673  0.950281739234923 -0.297829270362854 
261.96875  0.939044892787932 -0.328686237335205  0.00446795299649238 0.0134149175137281  0.00449137901887297 0.0134472167119384  0.950154244899748 -0.301896870136261 
265.6875  0.937949001789092 -0.333177745342254  0.00460822833701967 0.01350998878479  0.00466141896322369 0.0135399168357253  0.948317050933837 -0.307492226362228 
269.40625  0.935949325561522 -0.338917702436447  0.00478570209816097 0.0136831970885396  0.00477626500651239 0.0137067222967744  0.947489917278288 -0.310079753398895 
273.125  0.934645950794219 -0.342275619506835  0.00487332930788397 0.0138250263407826  0.00488147558644413 0.0138605935499072  0.946784615516661 -0.315430581569671 
276.84375  0.932627737522124 -0.346796303987503  0.00499213719740509 0.0140042826533317  0.00500376429408788 0.0140337916091084  0.945742428302764 -0.31891256570816 
280.5625  0.930494368076323 -0.352534413337707  0.0051494832150638 0.0141374580562114  0.00515380781143903 0.0141402287408709  0.944422125816344 -0.323364704847335 
284.28125  0.929470062255858 -0.355421930551528  0.00524815917015074 0.0143939144909382  0.00525175407528876 0.0144068533554673  0.942492365837096 -0.326507240533828 
288  0.927499175071715 -0.359329462051391  0.00539841502904891 0.0144629664719104  0.00540745398029684 0.0144897177815437  0.940522909164427 -0.330107301473617 
291.71875  0.926536917686461 -0.363803774118423  0.0055262348614633 0.0146194752305746  0.00554501963779329 0.0146433152258396  0.939952850341796 -0.333924323320388 
295.4375  0.925418496131896 -0.366867989301681  0.00567192770540713 0.0147677874192595  0.00568288471549748 0.0147912688553333  0.938353359699248 -0.338827729225158 
299.15625  0.922700643539428 -0.371633827686309  0.00575221236795186 0.0149043668061495  0.00576884811744093 0.0149362813681364  0.93706578016281 -0.342842042446136 
302.875  0.920394003391265 -0.376942783594131  0.00592598132789134 0.01505639962852  0.00593147985637187 0.0150495572015643  0.935305535793303 -0.34809872508049 
306.59375  0.918853044509886 -0.379620194435119  0.00595849379897116 0.0152043430134654  0.00598046602681278 0.0152483014389872  0.932947874069213 -0.349997341632843 
310.3125  0.917600631713866 -0.384519338607788  0.00625263527035712 0.0153186647221446  0.00619019009172915 0.0153879066929221  0.932222545146941 -0.355199843645095 
314.03125  0.915917396545409 -0.388129562139511  0.00632874108850954 0.0155022405087948  0.00629885401576756 0.0154366157948971  0.930196285247802 -0.358542263507842 
317.75  0.913489758968352 -0.393104553222656  0.00646123941987752 0.0156459305435419  0.00646353978663682 0.0156589336693287  0.928613364696501 -0.362632185220718 
321.46875  0.911530852317809 -0.397103488445281  0.00661489972844718 0.0157125648111105  0.0066298423334956 0.0157575570046901  0.926266729831694 -0.3660569190979 
325.1875  0.909634053707122 -0.400458484888076  0.00681294361129402 0.0158935524523258  0.00679234322160481 0.015920577570796  0.924606800079344 -0.370997548103332 
328.90625  0.907081127166747 -0.403268128633499  0.00675648730248211 0.0159361697733402  0.006735079921782 0.0159723907709121  0.923265397548674 -0.373771846294403 
332.625  0.905487000942229 -0.408159643411636  0.00705426512286065 0.0162023995071649  0.00702386582270263 0.0162558443844318  0.922241091728209 -0.378105700016021 
336.34375  0.903291642665862 -0.412339866161346  0.00719420751556752 0.0163160357624292  0.00721602607518433 0.0163252111524343  0.920181393623351 -0.381880939006805 
340.0625  0.901750802993773 -0.416659593582153  0.00730376830324529 0.0164474565535783  0.00735031208023427 0.016492735594511  0.919182240962981 -0.386935979127883 
343.78125  0.899866521358489 -0.420590013265609  0.00753927649930118 0.0165776722133159  0.00753608113154767 0.0166296157985925  0.91704499721527 -0.391589015722274 
347.5  0.898264706134795 -0.425289809703826  0.00762434164062141 0.0166604164987802  0.00757139036431907 0.0167065858840942  0.915582954883574 -0.394997477531433 
351.21875  0.893608391284941 -0.428971767425536  0.00776988826692103 0.0167327746748924  0.00778127647936342 0.016777778044343  0.911127448081969 -0.399663478136062 
354.9375  0.893615245819091 -0.432086169719695  0.00796198751777409 0.0170039664953947  0.00794566888362168 0.0170126892626285  0.911173045635222 -0.402205467224121 
358.65625  0.891844272613524 -0.436989098787307  0.00809899903833864 0.0171116832643747  0.00809745024889706 0.0171372853219509  0.909740924835204 -0.406926959753036 
362.375  0.890849709510802 -0.441404521465301  0.00829704292118548 0.0172135587781667  0.00829357095062731 0.017239686101675  0.907966852188109 -0.410585552453994 
366.09375  0.88713240623474 -0.445160597562789  0.00838711392134426 0.0173329394310712  0.00839819293469189 0.0173854865133762  0.905808269977568 -0.414935588836669 
369.8125  0.885104119777678 -0.450024455785751  0.00859877746552227 0.0175081696361303  0.00857246574014423 0.0175186954438686  0.904052674770354 -0.419642955064773 
373.53125  0.883466005325316 -0.453781276941299  0.00871043931692837 0.0175782591104507  0.00868743192404507 0.0175867192447185  0.901464045047759 -0.423985987901687 
377.25  0.881264626979827 -0.457838326692581  0.0088667096570134 0.0177990216761827  0.00884527713060377 0.0178186018019914  0.899060308933257 -0.426256358623504 
380.96875  0.879278779029845 -0.462141543626785  0.0090233953669667 0.0178343299776315  0.00904174149036406 0.0178676694631576  0.897102773189544 -0.430569052696227 
384.6875  0.876783847808837 -0.465080112218856  0.00921100564301012 0.0179448556154966  0.0091643016785383 0.0179330464452505  0.894897520542144 -0.435025572776794 
388.40625  0.875106871128081 -0.469168275594711  0.00933227408677338 0.0180321056395769  0.00932363513857124 0.0181045439094305  0.893312513828276 -0.438523977994918 
392.125  0.872622787952422 -0.473747849464416  0.00952837243676184 0.0181064754724502  0.00951557047665117 0.0181448888033628  0.891830384731292 -0.442644149065017 
395.84375  0.870147705078124 -0.479024618864059  0.00971643533557651 0.018228443339467  0.00970072019845245 0.01821219176054  0.889212250709532 -0.446927279233932 
399.5625  0.86711299419403 -0.48056861758232  0.00965930242091415 0.0183933600783348  0.00968739949166773 0.0184123646467924  0.886925101280211 -0.449101150035858 
403.28125  0.866630136966704 -0.485900104045867  0.0100251901894808 0.0184874795377254  0.00999183021485803 0.0185271836817264  0.885538399219512 -0.454378366470336 
407  0.86306059360504 -0.490491449832916  0.0101335952058434 0.0185692589730024  0.0101008079946041 0.0185750797390937  0.883426427841185 -0.458580136299133 
410.71875  0.861337780952452 -0.493832051753997  0.0103380940854549 0.0186857674270868  0.0103979781270027 0.0186793450266122  0.88152128458023 -0.461696237325668 
414.4375  0.859213829040526 -0.497825801372527  0.0105272298678756 0.0187522396445274  0.0105168810114264 0.018804807215929  0.87942749261856 -0.466057270765304 
418.15625  0.856919646263121 -0.502161622047424  0.0106284273788333 0.0189020875841379  0.0106678074225783 0.0188918355852365  0.87720364332199 -0.469727665185928 
421.875  0.85341840982437 -0.505533874034881  0.0107014272361994 0.0188651923090219  0.0107906404882669 0.0189034044742584  0.873398005962371 -0.472804278135299 
425.59375  0.851896584033965 -0.509126424789428  0.0109398821368813 0.0191412325948476  0.011008195579052 0.0191599503159523  0.872787177562712 -0.477144330739974 
429.3125  0.849524378776549 -0.512991666793823  0.011123277246952 0.0191206373274326  0.0111436257138848 0.019111318513751  0.871388494968413 -0.480902463197707 
433.03125  0.847489774227141 -0.517617940902709  0.0114520844072103 0.0191783159971237  0.0114536359906196 0.0192789416760206  0.8688006401062 -0.485375225543975 
436.75  0.844445466995238 -0.522563815116882  0.0115891881287098 0.0192973241209983  0.011648915708065 0.0193269979208707  0.865922451019286 -0.489360034465789 
440.46875  0.841814041137694 -0.526229083538055  0.011682229116559 0.0193245112895965  0.0117470445111394 0.0193713046610355  0.863592147827147 -0.49289658665657 
444.1875  0.837733685970305 -0.53261125087738  0.011911790817976 0.0193865876644849  0.0119214244186878 0.0194106716662645  0.859170258045195 -0.49823647737503 
447.90625  0.836441695690154 -0.534132957458495  0.0120159815996885 0.0195395089685917  0.012053731828928 0.0195519719272852  0.858012974262236 -0.50001835823059 
451.625  0.832428574562072 -0.536765158176421  0.0121885789558291 0.0196458138525486  0.0122669022530317 0.0196172147989273  0.85666263103485 -0.503708839416503 
455.34375  0.828698158264159 -0.541200876235961  0.01233403198421 0.0196717195212841  0.0124129857867956 0.0196459852159023  0.854690074920653 -0.506749212741851 
459.0625  0.828367173671721 -0.544745206832885  0.0125285983085632 0.0198152735829353  0.0126236425712704 0.0198254249989986  0.852095782756804 -0.511358022689819 
462.78125  0.825584828853606 -0.547763764858245  0.0126975169405341 0.0198888424783945  0.0127617716789245 0.0198250450193882  0.850482821464537 -0.51505035161972 
466.5  0.822165608406066 -0.552275836467742  0.012907724827528 0.0198909807950258  0.0128963924944401 0.0198945086449384  0.847054302692412 -0.519447028636932 
470.21875  0.820093095302581 -0.555678308010101  0.0130027327686548 0.0200634784996509  0.0130045292899012 0.020090801641345  0.844447314739226 -0.52089625597 
473.9375  0.817015588283538 -0.559519052505492  0.0133179286494851 0.0200599320232868  0.0133208222687244 0.020127223804593  0.843914449214934 -0.525528967380523 
477.65625  0.814397513866424 -0.561797559261321  0.0134331937879324 0.0201388578861951  0.0134754860773682 0.0202077180147171  0.841951012611388 -0.52941882610321 
481.375  0.812181830406188 -0.567140102386474  0.0135696725919842 0.0202217437326908  0.0136124985292554 0.0202068872749805  0.83890676498413 -0.532596051692962 
485.09375  0.811069965362548 -0.572361230850219  0.0138600245118141 0.0203113593161106  0.0139124924317002 0.0202632211148738  0.837725281715392 -0.53572791814804 
