! Matrix data file written by TouchstoneData, EPCOS AG
! FILENAME: "ptable_B4330_PCB1_WB.s2p"
! COMMENT: "(B4330_PCB1_WB.s2p) Epcos AG 1/15/2014 2:45:"
! INFO: nport=2, nfreq=1601
! DATE: "Mon Jan 27 09:28:02 2014"
! USER: "Sergey Rostovtsev"
!
! port | pin | signal
! -----|-----|--------
!   1  |  1  |  input
!   2  |  4  |  output
! --------------------
! 
# MHZ S RI R 50
! freq  reS11 imS11  reS21 imS21  reS12 imS12  reS22 imS22
50  0.984577059745787 -0.158608302474022  1.62133874255233e-05 0.000947214895859363  3.1013037187222e-06 0.00107578304596245  0.99219101667404 -0.123042099177837 
53.71875  0.983302116394042 -0.168417647480964  0.000208711921004579 0.00100377888884395  0.000172557556652464 0.00103937438689172  0.989635169506072 -0.13085401058197 
57.4375  0.981666743755339 -0.180210143327713  0.000132018511067145 0.00111276528332382  0.000130794229335152 0.00111253792420029  0.987749695777892 -0.14046286046505 
61.15625  0.9790922999382 -0.190744653344154  0.000140551681397483 0.00125229265540838  0.000131991255329922 0.00125913182273507  0.98751127719879 -0.150050178170204 
64.875  0.976369917392729 -0.202775985002517  0.000196447363123298 0.00139261351432651  0.000219822977669538 0.00137462769635021  0.985462427139281 -0.159065321087837 
68.59375  0.974203050136565 -0.212408050894737  0.000263895431999118 0.00133938284125179  0.000256749161053449 0.00133603531867265  0.983833968639372 -0.167587473988533 
72.3125  0.970906198024748 -0.224200889468193  0.000584432389587165 0.00122030964121222  0.000561503460630776 0.00121466908603906  0.98079866170883 -0.176001578569412 
76.03125  0.968524158000945 -0.235448628664016  0.000359092402504758 0.0013331746449694  0.000345246313372628 0.00135598541237414  0.980751574039458 -0.185402005910873 
79.75  0.965614318847655 -0.246729731559753  0.000441829150076956 0.00151396368164569  0.000444000790594147 0.00149841653183102  0.978687226772307 -0.194979056715965 
83.46875  0.963211119174956 -0.256561338901519  0.000427157647209243 0.00155031215399503  0.00045493626384996 0.00154675496742129  0.976682782173155 -0.202219307422638 
87.1875  0.959761559963225 -0.269542098045349  0.00047710695071146 0.0016131947049871  0.000457809976069258 0.00163715134840458  0.975273370742796 -0.213097840547561 
90.90625  0.956494688987731 -0.279805183410644  0.000516786472871901 0.00173144193831831  0.000503291143104435 0.00171072874218225  0.973464012145995 -0.220483899116516 
94.625  0.952253818511962 -0.291645973920822  0.000536099949385972 0.00174944952595979  0.000508206838276238 0.00175859709270298  0.970521926879882 -0.230293199419975 
98.34375  0.950531721115111 -0.30140271782875  0.000693440961185844 0.00181474641431123  0.000712575856596233 0.00178540358319878  0.968186497688292 -0.236992642283439 
102.0625  0.946330904960631 -0.313190311193466  0.000545448099728675 0.00195872713811695  0.00054714275756851 0.00195011612959206  0.967285573482512 -0.247197777032852 
105.78125  0.941938698291777 -0.323658317327499  0.000605833774898202 0.00197417242452502  0.000590173061937095 0.00192824506666511  0.963564932346343 -0.256154358386993 
109.5  0.938596785068511 -0.33347538113594  0.000665085564833136 0.00210206117480993  0.000661305559333415 0.00207331799902021  0.961970925331114 -0.264856368303299 
113.21875  0.934870958328246 -0.344863951206207  0.000746759644243868 0.00213723047636449  0.000744663877412678 0.00212151766754686  0.958948135375975 -0.274163961410522 
116.9375  0.930284023284911 -0.356876999139785  0.000930471287574621 0.00194724113680422  0.000915065058507027 0.00195766985416412  0.956691920757292 -0.280295878648758 
120.65625  0.925417184829711 -0.36495479941368  0.000847049930598589 0.00216191983781754  0.000874844379723074 0.00211911066435277  0.953287839889525 -0.289478838443756 
124.375  0.92185878753662 -0.376175194978714  0.000842447276227178 0.00229673064313828  0.000877704063896092 0.00228553032502532  0.950797498226164 -0.2985320687294 
128.09375  0.917383313179015 -0.385096758604049  0.00111707428004592 0.00209630466997623  0.00114129914436489 0.0020601712167263  0.947781264781951 -0.305406928062439 
131.8125  0.912791252136229 -0.396284580230712  0.000903901294805112 0.00233736750669777  0.000917507975827904 0.00232266681268811  0.945589005947112 -0.315187960863113 
135.53125  0.908367991447448 -0.407016336917877  0.00102333910763263 0.00240444368682801  0.00102623004931956 0.00240109697915613  0.943116486072539 -0.324171185493469 
139.25  0.903921365737914 -0.416308462619781  0.00110655871685594 0.00242858962155878  0.00109991489443928 0.00245699402876198  0.940976798534392 -0.332652419805526 
142.96875  0.898064374923705 -0.42690435051918  0.00109454174526036 0.00277405837550759  0.0010609362507239 0.00277844397351145  0.935322821140288 -0.340904504060745 
146.6875  0.894020736217498 -0.436726719141006  0.00115508923772722 0.0025105308741331  0.00114318809937685 0.00252028903923928  0.932863414287566 -0.348932892084121 
150.40625  0.888799667358397 -0.446690708398818  0.00115553452633321 0.00255068251863121  0.00112143415026366 0.00256762141361832  0.930605769157408 -0.356943756341934 
154.125  0.882630109786986 -0.456985533237457  0.00130236323457211 0.00264180009253322  0.00125749071594327 0.00265297340229153  0.927446246147154 -0.366399347782134 
157.84375  0.875784873962401 -0.462583988904952  0.00130699516739696 0.00279824831523001  0.00130161840934306 0.00276875845156609  0.923402726650237 -0.374068051576614 
161.5625  0.872151315212248 -0.477038830518722  0.00138734676875174 0.00272215716540813  0.00142406346276402 0.00273869396187364  0.919884979724883 -0.382149010896682 
165.28125  0.866928219795226 -0.485639750957488  0.00144387269392609 0.00279426621273159  0.00142303539905697 0.00279391650110483  0.915637910366057 -0.390061497688293 
169  0.861174404621123 -0.4910369515419  0.0015230713179335 0.00286373775452375  0.00154036027379334 0.00284568686038255  0.912996113300322 -0.396385580301284 
172.71875  0.856293976306914 -0.502591729164123  0.00160098541527986 0.00270293490029871  0.00161651545204222 0.00270938733592629  0.910005748271941 -0.40411952137947 
176.4375  0.849467158317565 -0.511801064014434  0.00157703564036637 0.00279117817990481  0.00155222602188587 0.00279357703402638  0.905860781669616 -0.413605540990829 
180.15625  0.847175061702727 -0.520728051662444  0.00169496773742139 0.00285132159478962  0.00169332674704492 0.00283436197787523  0.902534008026122 -0.420024901628494 
183.875  0.840259969234465 -0.528880059719085  0.00166041380725801 0.00285503570921718  0.00165448919869959 0.0028583388775587  0.899799346923827 -0.428158640861511 
187.59375  0.83297049999237 -0.539988815784454  0.00174472830258309 0.00295563391409814  0.00176344357896596 0.00296525843441486  0.895352602005004 -0.43634009361267 
191.3125  0.827426135540007 -0.547596871852874  0.00187500636093318 0.00308151170611381  0.00186315365135669 0.00308093056082725  0.890969038009642 -0.443638950586318 
195.03125  0.821685850620269 -0.556436896324157  0.00186977279372513 0.00296786497347056  0.00187397829722613 0.0029867289122194  0.887623250484465 -0.449672698974609 
198.75  0.81638216972351 -0.564727902412414  0.00187754584476351 0.00311082415282726  0.00190827052574604 0.00310625112615525  0.883794128894805 -0.457596063613891 
202.46875  0.809782147407531 -0.574297189712524  0.00191707501653581 0.00311509007588028  0.00191542890388518 0.00308289309032261  0.880204141139983 -0.465622186660766 
206.1875  0.803974151611327 -0.582495689392089  0.00200044666416943 0.00317094032652675  0.00196133623830974 0.0031724942382425  0.877108812332152 -0.472932130098342 
209.90625  0.79668092727661 -0.591030240058898  0.00211859075352549 0.00318732252344488  0.00211800262331962 0.00322690466418862  0.872118771076201 -0.481469571590423 
213.625  0.788829147815703 -0.598481893539428  0.00234792521223425 0.0032921612728387  0.00232151453383266 0.00330477184616028  0.864461123943328 -0.487151950597762 
217.34375  0.783314645290374 -0.606557607650756  0.00242358446121215 0.00324429082684218  0.00242671044543385 0.00326165719889104  0.862643897533416 -0.49454253911972 
221.0625  0.77653932571411 -0.613610506057738  0.00232145655900239 0.00324620632454752  0.00230486830696463 0.00323422951623797  0.85820299386978 -0.502574563026428 
224.78125  0.77136605978012 -0.622180759906768  0.0027223436627537 0.00282747671008109  0.00273446924984454 0.00284000160172581  0.855061769485472 -0.507535219192504 
228.5  0.765436232089995 -0.63154238462448  0.00228661624714732 0.00312178768217563  0.00228180992417037 0.00313690607436001  0.851295948028563 -0.515227675437927 
232.21875  0.755457460880278 -0.641664326190948  0.00246403319761156 0.00331265805289149  0.00248989160172641 0.0032901472877711  0.844749033451079 -0.52555751800537 
235.9375  0.750377118587493 -0.647879898548125  0.0025550746358931 0.00324091268703341  0.00252575823105871 0.00320649612694978  0.841987192630767 -0.531612396240234 
239.65625  0.743503034114837 -0.65347671508789  0.00262084184214472 0.00330597232095896  0.00261621945537626 0.00329134333878755  0.837418377399443 -0.53672307729721 
243.375  0.73669135570526 -0.662369191646575  0.00259838462807238 0.003303560661152  0.00256372662261128 0.00330650084652006  0.833252489566802 -0.543023169040679 
247.09375  0.73016196489334 -0.668924629688262  0.00264125945977866 0.00333620375022291  0.0026442464441061 0.00334922899492084  0.829499542713164 -0.550768196582793 
250.8125  0.72352248430252 -0.678163111209868  0.00279502919875085 0.00338406837545335  0.0027729864232242 0.00335336616262793  0.824720084667205 -0.558557987213134 
254.53125  0.714641869068145 -0.685090720653533  0.00281467312015592 0.00336761306971311  0.00279272557236254 0.00338492798618972  0.819547593593596 -0.566358149051666 
258.25  0.7086523771286 -0.692057907581328  0.00292139290831982 0.00353424716740846  0.00287942821159958 0.00351353571750223  0.81336998939514 -0.572890043258666 
261.96875  0.69962054491043 -0.69923311471939  0.00326408725231885 0.0032626106403768  0.00328631047159433 0.0032676679547876  0.807626903057097 -0.57716017961502 
265.6875  0.693473815917968 -0.70481640100479  0.00311474781483411 0.00338550214655697  0.00306667364202439 0.00338738062418996  0.803134143352508 -0.585842967033385 
269.40625  0.686414837837218 -0.711252093315124  0.00322104920633136 0.0025539135094732  0.00321382377296685 0.00253319879993796  0.800843834877013 -0.59072309732437 
273.125  0.679101526737212 -0.719770610332488  0.00309743685647845 0.00331100309267639  0.00306561728939413 0.00330068776383995  0.79683893918991 -0.598561286926269 
276.84375  0.671754956245422 -0.722696721553802  0.00317335152067243 0.00337943760678171  0.00316502293571829 0.00338761555030941  0.790886461734771 -0.606072843074798 
280.5625  0.663218736648559 -0.733192265033721  0.00321452156640588 0.00330738257616758  0.00319310743361711 0.00333063583821058  0.785117864608764 -0.611876547336578 
284.28125  0.656417906284331 -0.740032792091369  0.00340791954658925 0.00334884575568139  0.00338908936828374 0.00333898188546299  0.778276860713958 -0.618448555469512 
288  0.648008584976195 -0.744040131568908  0.00340933515690266 0.00339595414698123  0.00337831862270831 0.00336851039901375  0.774817585945128 -0.623524367809295 
291.71875  0.641558706760406 -0.750422120094298  0.00349167129024862 0.0033708803821355  0.00344730494543909 0.00336519558914005  0.769711613655089 -0.630385041236877 
295.4375  0.632199943065642 -0.756961166858672  0.00346956984139978 0.00336724147200584  0.00342502468265592 0.00333468057215213  0.765253126621245 -0.637103617191314 
299.15625  0.627401530742644 -0.763876855373382  0.00361058046109974 0.00341908074915408  0.0035979920066893 0.00339488335885107  0.758193969726562 -0.643960893154143 
302.875  0.61836689710617 -0.770469486713408  0.00364677025936543 0.00335842859931289  0.00362877757288515 0.00339216669090091  0.752132713794707 -0.65019655227661 
306.59375  0.609001040458678 -0.777131378650664  0.0038131836336106 0.0035015670582652  0.00379321398213505 0.00348151521757244  0.745343685150146 -0.657196402549743 
310.3125  0.602200090885162 -0.780975639820098  0.00364541658200323 0.0032225721515715  0.00365747325122356 0.00326711800880729  0.739613950252532 -0.660419344902038 
314.03125  0.593612909317016 -0.787794113159179  0.00372692197561263 0.00292449095286428  0.00372111331671476 0.00288767111487686  0.736228704452514 -0.66603672504425 
317.75  0.58575165271759 -0.793740987777709  0.00391062535345554 0.0032376842573285  0.00387653545476495 0.00323372683487832  0.730924725532531 -0.672736108303069 
321.46875  0.578938424587249 -0.79967701435089  0.00391894346103071 0.00334528903476893  0.00386570068076252 0.00332593685016035  0.725276708602904 -0.679608285427093 
325.1875  0.570970714092254 -0.80486887693405  0.00393827538937329 0.00303811812773346  0.00392565270885824 0.00306421425193548  0.719559967517852 -0.686288237571715 
328.90625  0.561709225177764 -0.809531986713408  0.00415739743039011 0.00321617652662098  0.00411637546494602 0.00324206193909048  0.712056219577788 -0.691560268402099 
332.625  0.553307235240936 -0.814078390598296  0.00407882127910852 0.0031475112773478  0.00405250163748859 0.00319266016595065  0.706132352352141 -0.695742845535277 
336.34375  0.546237468719482 -0.82014638185501  0.00409226166084408 0.00318224052898585  0.00409623840823769 0.00319261639378964  0.701862692832946 -0.70130169391632 
340.0625  0.538497865200042 -0.824755132198333  0.00419253902509808 0.00325804040767252  0.00415976531803607 0.003256072755903  0.697047233581542 -0.7073016166687 
343.78125  0.530001997947692 -0.830008447170256  0.00418547121807932 0.00318192411214112  0.00420623645186423 0.00321581913158297  0.690354883670806 -0.714017570018767 
347.5  0.521013438701629 -0.835693895816802  0.00427555618807672 0.00329423905350267  0.00425856560468673 0.00327105703763663  0.683685600757598 -0.719220459461211 
351.21875  0.513278901576995 -0.840268492698668  0.00443361233919858 0.00327478069812059  0.0043960092589259 0.00326519552618264  0.676407933235168 -0.725998282432555 
354.9375  0.504407763481139 -0.845771372318267  0.0046302219852805 0.00328597682528197  0.00460247136652469 0.00325874332338571  0.668884217739104 -0.730888366699218 
358.65625  0.494693845510482 -0.849407017230986  0.00430757133290171 0.00289362529292702  0.00429500173777341 0.00287786684930324  0.66571283340454 -0.733638942241668 
362.375  0.488106667995452 -0.854823768138884  0.00455597601830958 0.00308402488008141  0.00453807460144161 0.00307757034897804  0.659364044666289 -0.740285873413085 
366.09375  0.48032447695732 -0.859406352043151  0.00454431725665926 0.00314328307285904  0.00457089440897106 0.00313193700276314  0.653102338314056 -0.746338248252868 
369.8125  0.471260219812393 -0.863484978675841  0.00456681009382008 0.0029254073742777  0.00458459695801138 0.00290361884981393  0.644866824150085 -0.752056837081908 
373.53125  0.462870031595229 -0.867909431457518  0.00505735725164412 0.00294949067756533  0.00505320588126778 0.00297394883818924  0.639178454875945 -0.756720781326293 
377.25  0.454143166542053 -0.872053146362304  0.00468247011303901 0.00299254106357693  0.00467988243326544 0.00302114826627075  0.63373577594757 -0.760729491710662 
380.96875  0.446783006191253 -0.874251186847686  0.00463346764445304 0.0028614574111998  0.00463098241016268 0.0028567062690854  0.628906965255736 -0.764571368694304 
384.6875  0.439217209815978 -0.878607094287871  0.00485969521105288 0.00297932000830769  0.00481974147260188 0.00295565160922705  0.622231066226958 -0.77092558145523 
388.40625  0.429039895534515 -0.881847023963927  0.00478340731933712 0.00288627156987786  0.00475648278370499 0.00287431781180202  0.615870177745818 -0.776109397411345 
392.125  0.423438996076583 -0.886298179626464  0.00487227691337465 0.00294809369370341  0.00489066820591687 0.00295827072113752  0.609875559806823 -0.781249165534972 
395.84375  0.416123360395431 -0.890017271041869  0.00493701547384261 0.00292909773997962  0.00492424378171562 0.00293276621960103  0.603038012981414 -0.78660213947296 
399.5625  0.406461834907531 -0.894640505313872  0.00503405835479497 0.002909985370934  0.00497359689325093 0.00290309777483343  0.595754444599151 -0.791597843170165 
403.28125  0.396203905344009 -0.895940780639647  0.00506626721471547 0.00278651062399148  0.00505242077633737 0.00277262507006525  0.588506758213042 -0.793521344661712 
407  0.389853030443191 -0.898993551731108  0.00509908003732561 0.00283475080505013  0.00506778014823793 0.00281089916825294  0.583645820617675 -0.799406647682189 
410.71875  0.382457941770553 -0.903079628944396  0.00521558476611971 0.00276529463008046  0.0052370405755937 0.0027700699865818  0.577192366123199 -0.80465680360794 
414.4375  0.374123394489288 -0.906085193157195  0.00496727181598543 0.00260903383605182  0.00497271306812762 0.00264414492994546  0.570011675357818 -0.808898270130156 
418.15625  0.365545272827148 -0.910429060459136  0.00557343382388352 0.00224679359234869  0.00555665744468568 0.0022255852818489  0.562302291393279 -0.810269713401793 
421.875  0.358338475227355 -0.912375211715697  0.00522116059437393 0.00269648851826786  0.005165989510715 0.00266388710588216  0.557562589645385 -0.814878582954406 
425.59375  0.349865674972534 -0.917617321014403  0.00517568411305546 0.00259136804379522  0.00515332259237765 0.00260183960199356  0.55204939842224 -0.820037961006163 
429.3125  0.339673042297363 -0.919268012046813  0.00517657352611421 0.00251957587897777  0.00514624547213315 0.00249558431096374  0.54656171798706 -0.82371687889099 
433.03125  0.332764357328414 -0.922539889812468  0.00529621029272674 0.00252612121403217  0.00526337604969739 0.00251072505488991  0.540970146656036 -0.827906310558318 
436.75  0.324486970901489 -0.925270378589629  0.00536423688754438 0.00254899333231151  0.00535790575668215 0.00253881770186126  0.534511983394622 -0.83311641216278 
440.46875  0.315446019172668 -0.92644029855728  0.00532855559140443 0.00244056340306997  0.00533852586522697 0.00247804983519017  0.526389479637145 -0.837671756744384 
444.1875  0.307761222124099 -0.929593384265898  0.00547780515626072 0.00244123814627528  0.00546529563143848 0.00243268767371773  0.519045650959014 -0.841804742813109 
447.90625  0.299569189548492 -0.932111620903014  0.00541313178837298 0.00235098018310964  0.0054098879918456 0.00236170063726603  0.51196539402008 -0.845689117908477 
451.625  0.290660887956619 -0.933220744132994  0.0055218832567334 0.00227419193834066  0.00552457943558692 0.00227001006714999  0.505429983139037 -0.847790300846099 
455.34375  0.28377616405487 -0.935336530208586  0.00544764986261724 0.00225940044037997  0.00546475453302263 0.00227427226491272  0.498319119215011 -0.85266876220703 
459.0625  0.275420129299163 -0.938558816909789  0.00547402119264005 0.00243209954351186  0.00547760119661688 0.00243403133936226  0.491949617862701 -0.855937123298644 
462.78125  0.266583740711212 -0.940484583377837  0.00578161561861633 0.00154729688074439  0.00579739501699804 0.00156433449592441  0.484149008989333 -0.857159554958342 
466.5  0.258237808942794 -0.94269961118698  0.00593138765543698 0.00240927515551447  0.00593614950776099 0.00239821895956993  0.478781223297118 -0.861993134021758 
470.21875  0.250964283943176 -0.945067346096038  0.00551946228370069 0.00213380344212055  0.00551416957750915 0.00212938315235078  0.473626405000686 -0.866460442543029 
473.9375  0.241324141621589 -0.946725130081176  0.00564385810866951 0.00207058899104595  0.0055979755707085 0.00205002329312264  0.46682184934616 -0.869459927082061 
477.65625  0.234784930944442 -0.947343945503234  0.0056080026552081 0.00210203742608428  0.00562103092670439 0.00212853704579174  0.460584044456481 -0.873119354248046 
