! Matrix data file written by TouchstoneData, EPCOS AG
! FILENAME: "B4336_NB.s2p"
! COMMENT: "(B4336_X17Y54_NB.s2p) Epcos AG 2/27/2014 3:3"
! INFO: nport=2, nfreq=1601
! DATE: "Fri Mar  7 18:00:46 2014"
! USER: "Rosemary Xue"
!
! port | pin | signal
! -----|-----|--------
!   1  |  1  |  IN
!   2  |  4  |  OUT
! --------------------
!
# MHZ S RI R 50
! freq  reS11 imS11  reS21 imS21  reS12 imS12  reS22 imS22
825.15  0.270837903022766 -0.94808256626129  -0.000596220896113665 -0.000127550520119258  -0.0006063268519938 -0.000127119608805515  0.395093500614166 -0.895766019821166
825.275  0.270027160644531 -0.947962939739226  -0.000638397119473667 -0.000139780095196329  -0.000608246307820083 -0.000151525528053753  0.394299715757369 -0.895380914211272
825.4  0.269400209188461 -0.948190510272978  -0.000613305775914342 -0.00011727985838661  -0.000630912662018092 -0.000155630841618404  0.393830567598342 -0.894920289516448
825.525  0.268725544214248 -0.948066771030425  -0.000633818504866214 -0.000117755647806917  -0.00063195754773915 -0.000136474933242426  0.393252551555633 -0.894141435623168
825.65  0.26819223165512 -0.948055267333983  -0.000635941745713354 -0.000173113468918018  -0.000638159399386497 -0.000118897783977445  0.393402397632598 -0.893262624740599
825.775  0.267644673585891 -0.948222637176512  -0.000666722015012057 -0.000134601723402739  -0.000692008645273747 -0.000144468518556096  0.393594712018966 -0.892883300781249
825.9  0.267244040966034 -0.948205828666686  -0.000673374801408501 -0.000158752736751922  -0.000645561667624862 -0.000130988046294079  0.393666923046112 -0.892230808734893
826.025  0.266817301511764 -0.948324978351592  -0.000636969984043391 -0.00011300080223009  -0.000648491200990976 -0.000109680862806272  0.393872410058975 -0.89186656475067
826.15  0.266052007675171 -0.948201596736907  -0.000645001127850266 -0.000131726017571055  -0.000614635006058962 -0.000145114827319049  0.394688785076141 -0.891867458820342
826.275  0.265586823225021 -0.948557913303374  -0.000639115169178696 -0.000107398824184202  -0.000640156271401794 -0.000122356417705305  0.395264506340026 -0.892375171184539
826.4  0.265066474676132 -0.94823384284973  -0.000622529594693334 -0.000162547294166871  -0.000622555147856475 -0.000112548070319463  0.395534127950668 -0.892968893051146
826.525  0.264719039201736 -0.948219537734984  -0.000644385174382479 -0.000137071911012754  -0.000636238662991674 -0.000130664600874298  0.395496815443038 -0.893659114837645
826.65  0.26413083076477 -0.948223590850829  -0.000611543771810831 -0.000146678590681404  -0.000652839546091856 -0.000142549513839186  0.395456939935684 -0.894483506679534
826.775  0.263803005218506 -0.948396742343901  -0.000609407317824663 -9.97736715362409e-05  -0.000650419387966396 -0.000127279636217282  0.394887864589691 -0.895088493824004
826.9  0.263189226388931 -0.948365092277526  -0.000649467168841512 -0.000130342014017515  -0.000628884357865901 -0.000147822545841337  0.394192814826965 -0.895294964313506
827.025  0.262834340333938 -0.948472678661345  -0.000643358507659288 -8.44810347189197e-05  -0.000662647245917471 -0.00015668997366447  0.393577516078948 -0.895249545574187
827.15  0.262417584657669 -0.948682963848113  -0.000638439494650812 -0.0001187336674775  -0.000651857641059907 -0.000117648072773591  0.393485605716705 -0.895147919654845
827.275  0.262029021978378 -0.948985993862151  -0.000621359213255347 -0.000130792599520646  -0.000665712170302869 -0.000137474708026275  0.393276870250701 -0.895351171493529
827.4  0.261387854814529 -0.948934972286223  -0.000642060069367291 -0.000167038917425089  -0.000643489416688682 -0.000154299283167348  0.393342822790145 -0.895583331584929
827.525  0.260623604059219 -0.94925808906555  -0.000677765754517169 -0.000142621298437007  -0.000642568338662387 -0.000135320675326512  0.393295228481292 -0.896209716796874
827.65  0.260075241327285 -0.949167370796202  -0.00065710151102394 -0.00014594491221942  -0.000652069866191597 -0.000139594558277168  0.39275911450386 -0.896960675716399
827.775  0.259394466876983 -0.949688553810118  -0.000666293257381768 -0.000137677081511356  -0.0006856921245344 -0.000136476402985864  0.392535626888275 -0.897438883781432
827.9  0.25849837064743 -0.949907898902892  -0.000660047808196397 -0.000132727189338766  -0.000674549606628718 -0.000134379806695506  0.392059952020645 -0.89777386188507
828.025  0.257586598396301 -0.949785113334654  -0.000669564236886801 -0.000138533374411054  -0.000679012679029258 -0.000114830065285787  0.391674369573593 -0.897965550422667
828.15  0.256680160760879 -0.949956357479094  -0.000638515106402339 -0.000103771053545643  -0.000662809412460776 -0.000102558515209239  0.390891671180725 -0.898588716983794
828.275  0.256411880254745 -0.94987505674362  -0.000668694614432754 -8.66164846229368e-05  -0.000644562882371248 -0.000113323287223466  0.390546709299087 -0.898943126201628
828.4  0.25543874502182 -0.949848532676696  -0.00066976808011532 -0.000110852684883867  -0.000647872744593771 -0.000116587434604299  0.389376312494277 -0.899288833141326
828.525  0.255163431167602 -0.949282646179198  -0.000618501333519818 -9.55202995100992e-05  -0.000651873182505371 -8.89247967279518e-05  0.388908177614212 -0.899479448795317
828.65  0.254934012889862 -0.949030816555022  -0.000630195369012655 -9.00171726243572e-05  -0.000658904027659447 -5.94443881709595e-05  0.388239115476608 -0.899330377578734
828.775  0.254652440547943 -0.949167907238005  -0.000642275030259044 -0.000102973979664967  -0.00061378604732454 -0.000109066524601076  0.387590289115905 -0.899289369583129
828.9  0.254142791032791 -0.949164509773253  -0.000631853297818454 -0.000122229059343227  -0.000635665899608286 -7.39446113584564e-05  0.387215614318847 -0.899161100387572
829.025  0.253884315490722 -0.949494719505309  -0.000632755516562612 -0.000120593249448575  -0.000624778389465065 -0.00011241630272707  0.387043237686157 -0.899154603481292
829.15  0.253470748662948 -0.949844002723692  -0.000624766689725222 -0.000115668510261458  -0.000619287311565132 -0.000123781195725315  0.386684328317642 -0.899662435054778
829.275  0.253088027238845 -0.950045526027678  -0.000631658826023342 -0.000107895211840514  -0.000613274809438737 -0.000145517333294265  0.386254489421844 -0.899940907955168
829.4  0.25254538655281 -0.950589597225188  -0.00058831973001361 -0.000135433787363582  -0.000642010360024871 -0.000137700306368061  0.385523855686187 -0.900188088417052
829.525  0.252094507217407 -0.950997233390807  -0.000641844875644894 -0.000123799676657655  -0.000656933465506883 -0.000148206265293993  0.385066121816635 -0.900056362152098
829.65  0.251600444316864 -0.950909674167632  -0.000652600137982519 -0.000129432140965946  -0.000636540586128832 -0.000104720507806633  0.384638875722885 -0.899888694286345
829.775  0.250937759876251 -0.951128721237181  -0.000659526151139291 -0.000121679520816542  -0.000660527090076359 -0.000127430816064589  0.384127706289291 -0.899846076965331
829.9  0.250233054161071 -0.951231777667998  -0.000608062255196275 -0.000135019610752352  -0.000643419742118569 -0.000109200947917998  0.383816242218017 -0.900190770626067
830.025  0.249639868736267 -0.951443850994109  -0.000626575783826412 -0.000111211673356593  -0.000640626705717297 -0.000106347491964698  0.383290380239486 -0.900399148464202
830.15  0.249008879065513 -0.951486885547637  -0.000641564431134613 -0.00010323864989914  -0.000641704769805075 -0.000109021413663868  0.382464230060577 -0.900594174861907
830.275  0.248322024941444 -0.951419234275817  -0.00064601836493239 -8.27374169602992e-05  -0.000659142562653871 -0.000114997281343676  0.381992608308792 -0.900586545467376
830.4  0.247843980789184 -0.95160686969757  -0.000628281384706498 -0.000112736590381246  -0.000636731972917916 -0.000103563026641496  0.381451606750488 -0.900566160678862
830.525  0.247000604867935 -0.951874911785124  -0.00064435013337061 -0.000108767882920802  -0.000631962320767344 -0.000141412296216004  0.381093889474868 -0.900617718696593
830.65  0.246201530098915 -0.951591372489928  -0.000664922874420883 -0.000107334803033155  -0.000661538273561747 -0.000104794831713662  0.380241483449935 -0.900329291820525
830.775  0.246018394827842 -0.951159417629241  -0.000641259190160782 -0.000127846986288205  -0.000654560106340797 -0.00011705893848557  0.379707932472228 -0.900191605091094
830.9  0.24617837369442 -0.951157689094542  -0.000671717571094634 -0.000123406760394573  -0.000661865284200759 -0.000110043030872476  0.379114687442779 -0.899843871593474
831.025  0.245166093111038 -0.95117139816284  -0.000656090443953873 -9.3941234808881e-05  -0.000675816263537855 -0.000116081129817758  0.379009932279586 -0.89971613883972
831.15  0.245015725493431 -0.95125514268875  -0.000671407207846643 -6.96715142112227e-05  -0.000649239053018392 -0.000109329288534355  0.378454327583312 -0.89950120449066
831.275  0.244555324316024 -0.951007723808287  -0.000645410618744792 -9.00408340385185e-05  -0.000645175809040667 -0.000130557775264606  0.378263860940933 -0.8990980386734
831.4  0.244276896119117 -0.95098054409027  -0.000642494007479401 -0.000128416606457904  -0.00063057546503842 -0.000129070482216776  0.377901285886764 -0.89913100004196
831.525  0.243606105446815 -0.951627433300017  -0.000691245310008527 -8.90044830157423e-05  -0.000654425413813443 -0.000106378931377549  0.378128826618194 -0.89902764558792
831.65  0.243128567934036 -0.951887130737303  -0.000660757534205915 -7.53393906052226e-05  -0.000639597128611059 -9.2772963398602e-05  0.378190845251083 -0.899253964424132
831.775  0.242408111691475 -0.952253282070159  -0.000633965712040664 -4.39576142525767e-05  -0.000619337777607144 -0.000108305393951014  0.378435045480728 -0.899315416812896
831.9  0.242056354880333 -0.952507197856902  -0.000633481424301864 -0.000143054261570797  -0.000625600921921433 -8.71054799063133e-05  0.378234058618545 -0.899747610092162
832.025  0.240982457995414 -0.952569425106047  -0.000611211988143624 -0.00010899511835305  -0.000633580144494773 -0.000112206675112248  0.378012061119079 -0.900026679039
832.15  0.24008347094059 -0.952680587768553  -0.000599207880441101 -9.63305137702266e-05  -0.00060769240371883 -0.000125580379972235  0.377194434404373 -0.900426506996154
832.275  0.239558309316635 -0.952494502067565  -0.000624796084593983 -0.000139067735290155  -0.00064356386428699 -0.000146429418236949  0.376355558633804 -0.900463521480559
832.4  0.238517880439758 -0.952326536178588  -0.00063626322662458 -0.000104941042081919  -0.000651325855869801 -0.000124404934467748  0.375728517770767 -0.900064349174498
832.525  0.238038092851638 -0.95217454433441  -0.000656146439723672 -0.000107290026789997  -0.000648355227895082 -0.000126570055726916  0.37519085407257 -0.899390280246733
832.65  0.237130671739578 -0.952265977859496  -0.000642773346044125 -9.18715522857385e-05  -0.000645862543024124 -0.000116850664198864  0.375566959381103 -0.899064600467681
832.775  0.236689195036888 -0.951931595802306  -0.000619816011749209 -9.15766067919323e-05  -0.00062566954875365 -0.000114946749818046  0.376344799995422 -0.899166405200957
832.9  0.236116304993629 -0.952073216438292  -0.000640469253994526 -0.00012108404916944  -0.000617476121988149 -0.000138213741593063  0.376473575830459 -0.899658918380736
833.025  0.235978737473488 -0.951848983764647  -0.000636337616015227 -0.000157053407747299  -0.000618766876868905 -0.000119941731099971  0.376309245824813 -0.899952054023742
833.15  0.235345616936683 -0.951918303966521  -0.000686767860315742 -0.000127534513012506  -0.000639297766610981 -0.000131718305055984  0.37612098455429 -0.900194883346556
833.275  0.234955891966819 -0.951921403408049  -0.000650422240141781 -0.000118455121992156  -0.00063930917531252 -0.000167755541042425  0.376021862030029 -0.900388002395629
833.4  0.234435975551605 -0.952322304248808  -0.000655113311950119 -0.000133727371576242  -0.000626396213192494 -9.74666181718932e-05  0.376335799694061 -0.900510430335997
833.525  0.233581304550171 -0.952322483062743  -0.000670154695399107 -0.000116967865324114  -0.000633108022157104 -0.000143717305036262  0.37663722038269 -0.900701284408568
833.65  0.233250424265861 -0.952440619468688  -0.000651861482765527 -0.000120292548672296  -0.000671071116812529 -0.00014077450032346  0.376808613538742 -0.901245892047881
833.775  0.23249439895153 -0.952330827713011  -0.000633610994555058 -0.000141313998028636  -0.000636391399893911 -0.000135187423438765  0.37673333287239 -0.90195071697235
833.9  0.232025071978569 -0.951973795890807  -0.000653789145871998 -0.000143770361319185  -0.000688643776811661 -0.000134305562824011  0.376881808042526 -0.902595162391661
834.025  0.231885477900505 -0.951752364635466  -0.000684124359395356 -0.000110537039290648  -0.000690593500621618 -0.000120950957352761  0.376984655857086 -0.903302550315856
834.15  0.231421053409576 -0.951194941997527  -0.000700700853485616 -0.000108614302007482  -0.000708987878169866 -0.000119281256047543  0.376447319984436 -0.903718411922454
834.275  0.230922013521194 -0.951369583606719  -0.000686308369040491 -8.81349042174408e-05  -0.000673960836138578 -8.74532488523984e-05  0.375754863023757 -0.904482483863829
834.4  0.229911491274833 -0.951463997364043  -0.000680972589179875 -0.000107093204860576  -0.000681346864439548 -8.23380469228142e-05  0.375144571065902 -0.905343115329741
834.525  0.22966131567955 -0.95127773284912  -0.000679312157444657 -0.00012187879474368  -0.000649157096631826 -9.94637885014528e-05  0.374565213918685 -0.906015515327452
834.65  0.228970125317573 -0.951423048973082  -0.000655670475680382 -0.000106833052996081  -0.000654995383229108 -0.000110356391815003  0.37365710735321 -0.906481027603148
834.775  0.228330686688423 -0.951210796833037  -0.000697403214871885 -0.000103799335192889  -0.000683681806549431 -8.89613656909207e-05  0.372981160879135 -0.906689822673796
834.9  0.227315589785576 -0.95122456550598  -0.000638187571894379 -0.000104002625448629  -0.000669269065838309 -8.45446702442134e-05  0.371964693069458 -0.907196104526518
835.025  0.226006597280502 -0.951070725917815  -0.000646321219392122 -8.22878864710221e-05  -0.00063961435807869 -8.48585987114349e-05  0.371302843093872 -0.907666027545928
835.15  0.225640386343002 -0.949932694435118  -0.000623783911578359 -0.00010167249274673  -0.000635098956990988 -0.000109109365439508  0.370670139789581 -0.907840132713317
835.275  0.225828692317009 -0.949259042739867  -0.000625479093287142 -9.69963220995853e-05  -0.000634216004982592 -0.000123618359793909  0.370102107524871 -0.907847583293914
835.4  0.226492211222648 -0.948646366596221  -0.000660453864838929 -0.00012862500443589  -0.000661626050714405 -9.34762938413771e-05  0.369575232267379 -0.908086776733397
835.525  0.22694718837738 -0.948859751224516  -0.000653191702440382 -0.000136392642161809  -0.000614622433204205 -0.000129148422274739  0.369190633296966 -0.90832221508026
835.65  0.226776361465454 -0.949551641941069  -0.00068117934279144 -0.000133565496071242  -0.000674306764267386 -0.000150096893776208  0.368830442428588 -0.908801019191741
835.775  0.226004883646965 -0.949782490730284  -0.000680687720887364 -0.000145572805195116  -0.000690914632286878 -0.00015365268336609  0.368216693401336 -0.908973217010497
835.9  0.225667580962181 -0.949834287166594  -0.000713042449206115 -0.000165141813340597  -0.000708255858626218 -0.000110679095087108  0.367587804794311 -0.909324407577513
836.025  0.225387781858444 -0.949581563472746  -0.00073089625220746 -0.000105862753116526  -0.00071607338031754 -9.63661586865784e-05  0.367079466581344 -0.909595131874083
836.15  0.225171029567718 -0.949187099933623  -0.000688781554345043 -7.05438942532056e-05  -0.000721695250831546 -8.54431709740312e-05  0.366468220949172 -0.909839868545531
836.275  0.22545801103115 -0.948852479457854  -0.000685125763993712 -0.000103956925158855  -0.000701958779245616 -9.11641764105299e-05  0.365778446197509 -0.910059332847594
836.4  0.226002216339111 -0.948467016220092  -0.000683645892422648 -8.90678929863499e-05  -0.000692460278514774 -6.59107972751373e-05  0.365484833717346 -0.910408616065978
836.525  0.226357653737068 -0.94945865869522  -0.000698514399118723 -9.5961084298324e-05  -0.000682091049384327 -0.000102815312857274  0.364609688520431 -0.910848736762999
836.65  0.226248994469642 -0.949802398681639  -0.000703590456396343 -4.09890453738627e-05  -0.000680692435707898 -4.89841040689499e-05  0.364306211471557 -0.910943508148192
836.775  0.226569414138794 -0.950645446777342  -0.000692671106662603 -6.44181855022908e-05  -0.000694420246873052 -5.30306606378873e-05  0.363512158393859 -0.910838842391966
836.9  0.226488277316093 -0.951707184314726  -0.000641737540718169 -4.45511568614166e-06  -0.000686115527059884 -4.37941162090284e-05  0.362998217344284 -0.91101312637329
837.025  0.225930616259575 -0.952869594097136  -0.000633857562206687 -2.80446347460384e-05  -0.000646032509393992 -6.49786452413538e-05  0.362630903720855 -0.911367595195769
837.15  0.225069254636764 -0.953437626361846  -0.000666571373585613 -8.11062855063939e-05  -0.000646789907477798 -3.52742899849546e-05  0.36203595995903 -0.911201417446135
837.275  0.224458590149879 -0.954417347908019  -0.000655431649647654 -5.01555659866427e-05  -0.000649408262688668 -4.68033213110176e-05  0.36172792315483 -0.911496937274932
837.4  0.223473817110061 -0.954705834388732  -0.000646227912511678 -4.8568610509392e-05  -0.000626936613116415 -4.28827479481698e-05  0.361460477113723 -0.911475956439971
837.525  0.222401335835457 -0.95473265647888  -0.000625656917691232 -4.82590949104634e-05  -0.000620706472545864 -6.63882601656952e-05  0.361060708761215 -0.911805331707
837.65  0.221616610884666 -0.95509898662567  -0.000619119207840414 -5.43276109965519e-05  -0.000597438134718688 -6.77933712722735e-05  0.360451430082321 -0.911973178386687
837.775  0.22071261703968 -0.955367863178252  -0.000604937551543118 -5.42158413736616e-05  -0.000594426412135364 -9.98119066935034e-05  0.359926253557205 -0.912271320819854
837.9  0.21954333782196 -0.955196619033812  -0.000618958962149919 -5.6112425227184e-05  -0.000607623893301935 -8.19814231363127e-05  0.359217822551727 -0.912442505359648
838.025  0.218321144580841 -0.955237269401549  -0.000619473052211107 -7.87454191595317e-05  -0.000580718507990242 -6.89330481691287e-05  0.358897596597671 -0.912414133548735
838.15  0.217945247888565 -0.955169022083281  -0.000604270433541389 -3.80241508537438e-05  -0.000600813538767399 -0.000104861770523712  0.358216166496276 -0.912421762943267
838.275  0.21759295463562 -0.954780399799346  -0.000629699148703368 -0.000134472124045715  -0.000575139187276365 -0.000111602843389847  0.358267396688461 -0.912643134593962
838.4  0.217318013310432 -0.955206811428069  -0.000581952568609269 -0.000124341633636505  -0.00058783224085346 -0.00012324181443546  0.357621103525161 -0.913290798664092
838.525  0.216727271676063 -0.955654978752135  -0.000649557041469963 -0.000144515666761436  -0.000644613464828582 -0.0001474340679124  0.357296675443649 -0.913695871829985
838.65  0.216095745563507 -0.95617765188217  -0.000625429092906417 -0.000118337069579866  -0.000635990756563844 -0.000130239801364951  0.356516361236572 -0.91363626718521
838.775  0.214780420064926 -0.956476569175719  -0.0006304964190349 -0.000106293002318125  -0.000638216093648226 -0.00013141350063961  0.355865538120269 -0.913895547389983
838.9  0.213751628994941 -0.956844151020049  -0.000643498555291446 -0.000118605159514118  -0.000626770837698133 -0.000144064062624239  0.355342030525207 -0.913928806781768
839.025  0.212489783763885 -0.956741333007811  -0.000611282011959703 -0.000104047168861144  -0.00060108955949545 -0.000118877767818049  0.355121076107025 -0.914033591747283
839.15  0.211427047848701 -0.956788301467894  -0.000604675617069007 -0.000138560659252107  -0.000629512476734818 -0.000145690122735687  0.354970306158065 -0.914374351501464
