! Matrix data file written by TouchstoneData, EPCOS AG
! FILENAME: "ptable_B4330_PCB1_NB.s2p"
! COMMENT: "(B4330_PCB1_NB.s2p) Epcos AG 1/15/2014 2:45:"
! INFO: nport=2, nfreq=1601
! DATE: "Mon Jan 27 09:27:52 2014"
! USER: "Sergey Rostovtsev"
!
! port | pin | signal
! -----|-----|--------
!   1  |  1  |  input
!   2  |  4  |  output
! --------------------
! 
# MHZ S RI R 50
! freq  reS11 imS11  reS21 imS21  reS12 imS12  reS22 imS22
697.5  -0.222366124391555 -0.937770962715148  0.00493512721732258 -0.000350227346643806  0.00494823558256029 -0.000339140417054296  0.0286487117409706 -0.978695929050444 
697.75  -0.22308549284935 -0.937739014625548  0.00484960572794079 -0.000277703948086128  0.00480497209355234 -0.000284803565591574  0.0278573855757713 -0.978107035160063 
698  -0.223408058285713 -0.937551558017729  0.00481207435950636 -0.000114695838419721  0.00479774829000234 -0.000135594804305584  0.0271829646080732 -0.977714717388152 
698.25  -0.224150657653808 -0.937295496463774  0.00484682619571685 -6.02528562012595e-05  0.00484182685613631 -4.43575263489039e-05  0.0266783852130174 -0.977001070976256 
698.5  -0.224407702684402 -0.937309026718138  0.00485104043036698 5.6529537687311e-05  0.00484932353720068 2.06082240765682e-05  0.0263978838920593 -0.97664439678192 
698.75  -0.224857822060585 -0.937283515930174  0.00487540988251566 9.35558273340577e-05  0.00489692809060215 0.000121959499665536  0.026459977030754 -0.97578191757202 
699  -0.225642040371895 -0.936739206314086  0.00497614033520221 0.000200149428565056  0.00496555492281913 0.000223670882405714  0.0265317391604185 -0.976051151752471 
699.25  -0.225760862231254 -0.936441421508788  0.0051201689057052 0.000222284157644026  0.00510518671944736 0.000224809773499147  0.0262111071497201 -0.976448297500609 
699.5  -0.226324170827865 -0.936378359794615  0.00521193910390137 0.000232908190810122  0.00518868397921323 0.000213072416954674  0.0257500875741243 -0.976455748081206 
699.75  -0.226846799254417 -0.936348021030425  0.005274785682559 0.000205647593247705  0.0052577401511371 0.000190549602848478  0.0247714333236217 -0.976587891578673 
700  -0.227715298533439 -0.936072945594786  0.0053637190721929 0.000268490781309084  0.00537793617695569 0.000236434774706141  0.0244360882788896 -0.976420521736144 
700.25  -0.228120476007461 -0.935956120491026  0.00559205375611781 3.73734583263286e-05  0.0055456245318055 4.00483040721156e-05  0.0242577567696571 -0.97662329673767 
700.5  -0.22867950797081 -0.935561776161192  0.00556439720094203 -0.000142120581585914  0.00554608181118964 -0.000157051501446404  0.0233929567039012 -0.976617991924284 
700.75  -0.22976142168045 -0.935407936573027  0.00551033997908233 -0.000237700223806315  0.00549987470731138 -0.000247736315941439  0.0227492749691009 -0.97651821374893 
701  -0.230119511485099 -0.93501842021942  0.00544648710638283 -0.000368529581464828  0.00543948868289589 -0.000355894590029494  0.0219280254095792 -0.976636946201323 
701.25  -0.230832904577255 -0.935231626033782  0.00533988699316977 -0.000388784857932479  0.0053353770636022 -0.000389703345717863  0.0212305001914501 -0.976195633411406 
701.5  -0.23125210404396 -0.934818863868712  0.00528349634259938 -0.000455131666967646  0.00525977928191422 -0.000447008962510155  0.020521018654108 -0.975940763950346 
701.75  -0.232151001691818 -0.935019075870513  0.00514280470088123 -0.000518265296705068  0.00517227128148078 -0.000507851305883379  0.0198644269257784 -0.975315332412718 
702  -0.23266538977623 -0.934753298759459  0.00501901376992463 -0.000472137035103516  0.00498936884105204 -0.000505991629324854  0.0195198319852352 -0.974863171577452 
702.25  -0.232950612902641 -0.934278786182402  0.00493906252086161 -0.000503637245856227  0.00488760462030767 -0.000493472442030908  0.0192891601473093 -0.974881350994109 
702.5  -0.232942953705787 -0.93369835615158  0.00470948964357375 -0.000444203120423482  0.0046743806451559 -0.000442994612967596  0.0186446532607078 -0.974738478660582 
702.75  -0.233410403132438 -0.933500766754149  0.00451562227681278 -0.000309511320665479  0.00456549320369958 -0.000285849062493072  0.0179167632013559 -0.974216282367705 
703  -0.233498051762581 -0.933689951896666  0.00438655866309999 -9.94023721432315e-05  0.00439560925588011 -0.000127266583149322  0.0178060047328472 -0.973773658275603 
703.25  -0.234148487448692 -0.933751821517943  0.00432088086381554 0.000234693899983541  0.004271084908396 0.000208354700589553  0.0175371989607811 -0.973733127117156 
703.5  -0.234894976019859 -0.93348717689514  0.00439351424574851 0.000517232809215785  0.00440436648204922 0.000558352097868921  0.0168907847255468 -0.973595917224883 
703.75  -0.23535968363285 -0.933289110660552  0.00465610390529036 0.000793590676039459  0.00461893901228904 0.000750289298594  0.0166975483298301 -0.973300337791442 
704  -0.235745832324028 -0.933126628398894  0.00482670636847614 0.000797566492110492  0.00481570092961191 0.000860184780322017  0.01639492996037 -0.973013520240782 
704.25  -0.236111789941787 -0.933354139328002  0.00497267674654721 0.000922066392377021  0.00496875075623392 0.000973568588960918  0.0161641053855419 -0.972617566585539 
704.5  -0.236794993281364 -0.933024644851683  0.00513598090037702 0.00103142543230206  0.00512238685041665 0.00100049050524831  0.0157163981348276 -0.972016155719756 
704.75  -0.237365439534187 -0.932870805263518  0.00536765297874807 0.00113451096694916  0.00535830901935695 0.00114611850585788  0.01555185765028 -0.971356987953185 
705  -0.237921223044395 -0.932488918304442  0.00539431860670446 0.00114534085150808  0.00538673484697937 0.00118241715244949  0.017336506396532 -0.969917356967925 
705.25  -0.238282173871994 -0.932457327842711  0.00590165331959723 0.00130491715390235  0.00588694727048276 0.00132683664560318  0.0178655702620744 -0.970982074737548 
705.5  -0.238713070750236 -0.932601571083068  0.0062645599246025 0.00115923909470439  0.00625836988911031 0.00118189980275929  0.0180637333542108 -0.971534311771392 
705.75  -0.239389091730117 -0.932543218135832  0.00665467092767356 0.000905480410438033  0.00661156279966234 0.000923419545870276  0.018336871638894 -0.972418129444121 
706  -0.239801064133644 -0.932787120342253  0.00680607743561266 0.000476650136988611  0.00679808203130959 0.000495868967846037  0.0185882411897182 -0.973103165626524 
706.25  -0.240477353334427 -0.932865321636199  0.00683140894398092 0.000134028698084876  0.00679367361590265 9.56307849264706e-05  0.0178473871201276 -0.974615693092345 
706.5  -0.240984454751014 -0.933130085468291  0.00666132196784018 -0.000147382175782696  0.00667449738830326 -0.000140223521157168  0.017009349539876 -0.975183069705962 
706.75  -0.241561591625213 -0.933256328105925  0.00659753847867249 -0.000309460534481332  0.00661780452355741 -0.000316204881528393  0.0167253892868757 -0.975747764110564 
707  -0.242442816495895 -0.933118760585784  0.00645685428753494 -0.000527778523974122  0.00646593049168585 -0.000506055192090572  0.0151821384206414 -0.97629290819168 
707.25  -0.242921367287635 -0.932981193065642  0.00628690980374812 -0.000588799186516554  0.00629388261586426 -0.000588364724535496  0.0140626784414053 -0.976561784744261 
707.5  -0.243403285741806 -0.93316352367401  0.00616497173905371 -0.000601688574533911  0.00616857036948203 -0.00059278978733346  0.0125819286331534 -0.976410210132598 
707.75  -0.244249328970909 -0.933020532131194  0.00612868461757897 -0.000632971641607584  0.00610447768121956 -0.000628395762760194  0.0124207520857453 -0.975741505622862 
708  -0.244800001382827 -0.932759284973143  0.00602419953793286 -0.0006734486669302  0.00601640436798333 -0.000675570976454766  0.012238142080605 -0.975894510746001 
708.25  -0.245507687330246 -0.932732820510863  0.00599208008497952 -0.000666073581669481  0.00595933292061089 -0.000666927604470404  0.0118413716554642 -0.976189851760863 
708.5  -0.246042355895042 -0.932804465293883  0.00596883380785583 -0.000661319994833322  0.00596644356846808 -0.000693503650836648  0.0110353818163276 -0.976180315017699 
708.75  -0.246600404381752 -0.932770252227782  0.00596142234280704 -0.00072330387774855  0.00592313008382915 -0.00074557773768902  0.0104616312310099 -0.975843906402586 
709  -0.247242465615272 -0.932664573192595  0.00585780665278434 -0.00079742551315576  0.00584256788715719 -0.000808015116490426  0.0105205923318863 -0.975642263889311 
709.25  -0.24790446460247 -0.93262755870819  0.00579805904999374 -0.000797208573203536  0.00579965114593504 -0.000775452936068179  0.00978138484060762 -0.976100206375121 
709.5  -0.24856823682785 -0.932552516460417  0.00577228609472512 -0.000802538939751686  0.00578854326158761 -0.000804489129222931  0.00914063863456247 -0.975989878177642 
709.75  -0.249300152063369 -0.932081341743468  0.00575660541653632 -0.000800529262050988  0.00575884198769926 -0.000783793861046435  0.00893480889499186 -0.976315438747405 
710  -0.249962374567985 -0.931579887866973  0.00574640510603784 -0.000836173770949246  0.00569469481706618 -0.000833122117910536  0.00838303938508032 -0.976348996162413 
710.25  -0.250233799219131 -0.931334674358367  0.00568860117346047 -0.000837130064610394  0.00566895678639411 -0.000828413642011585  0.00764550874009727 -0.976671636104582 
710.5  -0.251009970903396 -0.931127548217772  0.00565567333251237 -0.0008597580017522  0.00565221393480896 -0.000831298704724761  0.00688707642257212 -0.977102398872374 
710.75  -0.251246213912964 -0.930699825286864  0.00568451639264821 -0.000894283351954075  0.00564751541242002 -0.000897894205991181  0.00641765166074036 -0.977223634719847 
711  -0.251903414726257 -0.930680572986602  0.00559087842702864 -0.000942354614380749  0.00561838410794734 -0.00091932056238875  0.00565771386027335 -0.977222263813018 
711.25  -0.252517729997635 -0.93030273914337  0.00551631208509206 -0.00099250487983227  0.00551740918308495 -0.00100023357663303  0.00503983348608016 -0.97729194164276 
711.5  -0.25318905711174 -0.93002676963806  0.00545432604849337 -0.00100774841848761  0.00543916365131735 -0.000982631929218771  0.00421993061900138 -0.977392852306365 
711.75  -0.253767162561416 -0.929896891117095  0.00534553034231066 -0.000966581224929544  0.00533029483631252 -0.000983474543318155  0.00366144417785107 -0.977337241172789 
712  -0.254344701766967 -0.929609775543212  0.00529333017766474 -0.000925530155654999  0.00529056275263428 -0.000949034292716535  0.00307156983762979 -0.977714002132414 
712.25  -0.254875391721725 -0.929378986358641  0.00523584010079502 -0.000874066492542626  0.00524637987837194 -0.000876295613124968  0.00223349803127348 -0.977634668350218 
712.5  -0.255575060844421 -0.928967714309691  0.00520595721900462 -0.000827442505396904  0.00518531119450926 -0.000821343972347678  0.00176944665145129 -0.977647364139556 
712.75  -0.255984842777252 -0.928610622882842  0.00523561099544166 -0.000797578890342267  0.0052306530997157 -0.000795163796283306  0.00111006433144212 -0.977758169174193 
713  -0.256452947854995 -0.92848753929138  0.00523532787337898 -0.000756921770516785  0.00522264931350945 -0.000763779273256661  0.000330175738781691 -0.977887094020842 
713.25  -0.257352799177169 -0.928043007850646  0.00520110968500375 -0.000728978484403344  0.00519982445985078 -0.00074640871025622  -0.00031573441810906 -0.977448940277098 
713.5  -0.257960647344589 -0.928006887435912  0.00521515682339667 -0.000684047117829324  0.00522387353703378 -0.000717320188414307  -0.000715367379598321 -0.977053344249724 
713.75  -0.258521258831024 -0.92763179540634  0.00522737856954335 -0.000696960894856604  0.00525010935962199 -0.00073230644920841  -0.00112506246659904 -0.977256715297698 
714  -0.259406358003616 -0.927412211894988  0.00522411661222576 -0.000719462579581888  0.00519903143867849 -0.000704272941220553  -0.00172691117040813 -0.977416217327117 
714.25  -0.260353684425354 -0.92673349380493  0.0052700308151543 -0.000709174608346076  0.00526164798066019 -0.000674110138788821  -0.00230325665324926 -0.977638781070708 
714.5  -0.259132027626037 -0.922995328903197  0.00524108484387397 -0.000817247724626215  0.00522881885990499 -0.000821587280370297  -0.00296621420420706 -0.977592766284941 
714.75  -0.25954258441925 -0.926897644996642  0.00522944377735256 -0.000725942314602436  0.00520157068967818 -0.000743508979212494  -0.0036972805391997 -0.977880656719206 
715  -0.260645598173141 -0.926785171031951  0.00521678570657967 -0.000759470625780524  0.00519941886886953 -0.00073315267218277  -0.00451692473143338 -0.978183865547179 
715.25  -0.261376470327377 -0.926111638545989  0.00523243797942995 -0.000726316880900414  0.00517560355365275 -0.000740073330234738  -0.00503403972834348 -0.977864325046538 
715.5  -0.262526750564575 -0.926317274570464  0.00518481852486728 -0.000747897720430048  0.00518760131672024 -0.00071880576433614  -0.00575545150786637 -0.978276133537291 
715.75  -0.263148188591003 -0.925739288330077  0.0051734005101025 -0.00069027818972245  0.00517029967159032 -0.00068086455576122  -0.00645423866808413 -0.978380441665648 
716  -0.263609379529953 -0.925676584243773  0.00519984774291514 -0.000692641071509571  0.00520037999376653 -0.00066444225376472  -0.0073538734577596 -0.978453993797301 
716.25  -0.263990402221679 -0.925401747226714  0.00520454300567507 -0.00068618025397882  0.0051892097108066 -0.00068443489726633  -0.00815465580672024 -0.978533506393431 
716.5  -0.26459139585495 -0.925252616405486  0.0052089332602918 -0.000701982819009574  0.00519827939569949 -0.000669724657200278  -0.00880615413188932 -0.978578746318816 
716.75  -0.265204966068267 -0.925200521945952  0.00521349720656871 -0.00071449368260801  0.00520375929772853 -0.000684626458678396  -0.00946647860109804 -0.978607773780821 
717  -0.265765637159347 -0.925141096115111  0.00521138822659849 -0.000692828733008356  0.0052058333531022 -0.000684356316924097  -0.010088293813169 -0.978644132614134 
717.25  -0.265611737966537 -0.924446940422057  0.00523103633895515 -0.000675519404467197  0.00519389007240533 -0.000692949339281769  -0.0105169294402003 -0.978597879409789 
717.5  -0.26594877243042 -0.924047231674193  0.00524195004254578 -0.000683399150148036  0.00523795373737811 -0.00069203245220706  -0.0110623091459274 -0.978837251663207 
717.75  -0.266609251499176 -0.924725413322448  0.00524764088913797 -0.000719840871170165  0.00524151185527443 -0.000724229204934092  -0.0118323573842644 -0.978836953639983 
718  -0.26715338230133 -0.924820542335509  0.00522147445008158 -0.000743999728001656  0.00523406686261295 -0.000737437105271967  -0.012308694422245 -0.979170143604277 
718.25  -0.267958879470825 -0.924541115760802  0.00523457070812582 -0.000792787934187801  0.00524977641180156 -0.000783370051067324  -0.0130656752735376 -0.979128420352934 
718.5  -0.268572211265564 -0.924529790878295  0.005223645363003 -0.000806838797871025  0.00521891098469495 -0.00079224619548768  -0.0138490470126271 -0.978386819362639 
718.75  -0.269112199544906 -0.924310266971587  0.00521503156051038 -0.000815331120975317  0.00518786441534756 -0.000804286042694004  -0.0141043607145548 -0.97820734977722 
719  -0.269935607910156 -0.923963308334349  0.00519086886197327 -0.000813324411865326  0.00514955865219234 -0.000830639968626203  -0.0147402668371796 -0.978097677230834 
719.25  -0.270174026489257 -0.923790037631987  0.00514420028775929 -0.000848614086862655  0.00511964131146668 -0.000842254550661894  -0.015121784992516 -0.977975249290465 
719.5  -0.271086126565933 -0.923560142517089  0.00512604322284459 -0.000825818337034436  0.00508549716323613 -0.000802015245426448  -0.0157375130802393 -0.978214323520659 
719.75  -0.271994620561599 -0.923124492168425  0.00511422380805014 -0.000794725376181306  0.00506799435243009 -0.000806642288807781  -0.0160437822341919 -0.977759838104247 
720  -0.271793752908706 -0.922935426235198  0.00504488451406359 -0.000805167772341521  0.00510411383584141 -0.000813059683423491  -0.0167898032814264 -0.977618873119353 
720.25  -0.272800654172897 -0.922857105731963  0.00508324755355715 -0.000798441469669344  0.0050819725729525 -0.000836583378259094  -0.0173746347427368 -0.977314054965972 
720.5  -0.273609668016433 -0.922378480434416  0.00502943294122814 -0.000847193354275079  0.00504668196663259 -0.000868251547217371  -0.0176678132265806 -0.97724938392639 
720.75  -0.274033159017562 -0.921852588653563  0.00504486868157982 -0.000806594034656884  0.00501496298238634 -0.000830823730211707  -0.0179534256458282 -0.977256357669829 
721  -0.274530261754989 -0.921422004699706  0.00502270972356199 -0.000829592347145082  0.00500913849100469 -0.000816962332464756  -0.0187385063618421 -0.977539896965026 
721.25  -0.274345427751541 -0.920889079570769  0.00500177405774592 -0.000805113988462837  0.00498794484883546 -0.000845495727844538  -0.0195052120834589 -0.977594673633574 
721.5  -0.27395561337471 -0.920726358890532  0.00497310003265737 -0.000819946173578502  0.00494380807504057 -0.000833744183182718  -0.0198404565453529 -0.977661907672881 
721.75  -0.273769974708557 -0.921074628829955  0.0049214488826692 -0.000758940470404925  0.00491402205079793 -0.000774860731326045  -0.0206968765705824 -0.977476477622984 
722  -0.274519860744476 -0.921520471572875  0.00495683401823043 -0.000763254647608848  0.00495431292802094 -0.000785705749876799  -0.0214587152004242 -0.977999925613402 
722.25  -0.275479406118393 -0.922056913375853  0.00494953151792287 -0.000751366314943882  0.00496051786467432 -0.000785706390161069  -0.0222024992108345 -0.977988898754118 
722.5  -0.276612490415573 -0.921938061714171  0.00491177011281251 -0.000767134246416392  0.00492179905995726 -0.000777966692112388  -0.022674337029457 -0.978115260601042 
722.75  -0.277707040309906 -0.92199420928955  0.00493310671299695 -0.000761907896958293  0.00490479916334151 -0.000766750134062024  -0.0235739964991808 -0.97788244485855 
723  -0.27861601114273 -0.921932220458983  0.0049403985030949 -0.000773672189097853  0.00489338859915732 -0.000766002340242268  -0.0242086201906204 -0.978133738040923 
723.25  -0.279350131750106 -0.922070503234862  0.00491533940657972 -0.000771728693507613  0.00490114931017159 -0.000754312903154643  -0.0248386021703481 -0.978070080280303 
723.5  -0.280396908521652 -0.921579599380492  0.00486873183399438 -0.000734629342332484  0.0048667057417333 -0.000761625065933915  -0.0255781915038824 -0.978224337100981 
723.75  -0.281131714582443 -0.921546936035155  0.00488129584118723 -0.000726098776794972  0.00489054294303058 -0.000704528589267285  -0.0263814739882946 -0.978191137313841 
724  -0.281870543956756 -0.920868515968322  0.00488980626687406 -0.000707984960172327  0.00489283958449959 -0.000699177326168866  -0.027145367115736 -0.978430628776549 
724.25  -0.282400608062744 -0.920365452766417  0.00487382803112267 -0.000717776361852886  0.00487034348770975 -0.000700313656125219  -0.0279179383069276 -0.978434622287749 
724.5  -0.283142775297164 -0.919801831245421  0.00486657954752444 -0.000710204010829331  0.0048519275151193 -0.000681812816765161  -0.0284602530300617 -0.97851127386093 
724.75  -0.283476591110229 -0.919146716594695  0.00488697364926337 -0.000633779331110419  0.00483868550509213 -0.000659925339277835  -0.0293502379208803 -0.978379368782042 
725  -0.284347265958786 -0.918690145015715  0.00488644232973455 -0.000611173629295082  0.00487876310944556 -0.000617872865404935  -0.0299996007233858 -0.978205084800719 
725.25  -0.28479191660881 -0.918106138706206  0.00489882798865436 -0.000608646078035237  0.00491441274061798 -0.000579317798838021  -0.0305722467601299 -0.978709995746611 
725.5  -0.285220652818679 -0.917619585990904  0.00491918670013546 -0.000594696204643698  0.00493817823007702 -0.000626461813226344  -0.0309652183204889 -0.978519201278685 
725.75  -0.285365015268325 -0.917238235473632  0.00496185570955275 -0.000579018669668586  0.00495743192732333 -0.000593036063946785  -0.0321087427437305 -0.978609740734099 
