! Matrix data file written by TouchstoneData, EPCOS AG
! FILENAME: "AB81A_X22Y20_NB.pli.snp"
! COMMENT: "(TS/AB81A_X22Y20_NB.s3p) Epcos AG 10/2/2013"
! INFO: nport=3, nfreq=1601
! DATE: "Wed Oct  9 11:09:52 2013"
! USER: "Wee Chuan Tay"
!
! port | pin | signal
! -----|-----|--------
!   1  |  3  |  Non-GPS
!   2  |  6  |  Antenna
!   3  |  1  |  GPS
! --------------------
! 
# MHZ S RI R 50
! freq  reS11 imS11  reS12 imS12  reS13 imS13  ...
1380  0.198996872982341 -0.164884571604827  0.890389270297425 0.164159898294445  -0.00162857835109084 0.00708853464273264 
 0.890389270297425 0.164159898294445  -0.165940462384142 -0.242336055894461  0.00947500736494675 -0.00315265906266237 
 -0.00162857835109084 0.00708853464273264  0.00947500736494675 -0.00315265906266237  -0.218901726487089 -0.933602578409745 
1380.25  0.198780465244859 -0.165208896865339  0.890427567066748 0.163610199263183  -0.00158809668219854 0.00705981077684766 
 0.890427567066748 0.163610199263183  -0.165790741585617 -0.242257163292896  0.00946918444352707 -0.00315577027601427 
 -0.00158809668219854 0.00705981077684766  0.00946918444352707 -0.00315577027601427  -0.219762643158371 -0.933851107174048 
1380.5  0.198719352983163 -0.16533578461252  0.890364788752828 0.163493093218233  -0.00161788733205513 0.00704962713437883 
 0.890364788752828 0.163493093218233  -0.165628022687983 -0.242374799844972  0.00944357462416989 -0.00316951236081254 
 -0.00161788733205513 0.00704962713437883  0.00944357462416989 -0.00316951236081254  -0.220055193938796 -0.933875245111378 
1380.75  0.198829448962791 -0.165599211801569  0.890388200598562 0.163021890924264  -0.00161247898847161 0.00707195648105493 
 0.890388200598562 0.163021890924264  -0.165672431376981 -0.242569958364942  0.00947212561182276 -0.00313077014417425 
 -0.00161247898847161 0.00707195648105493  0.00947212561182276 -0.00313077014417425  -0.220330253383275 -0.933798350157752 
1381  0.198906349756658 -0.166232521373173  0.890460354249115 0.16297957486785  -0.00161471577013604 0.00708060965892432 
 0.890460354249115 0.16297957486785  -0.16583234679922 -0.242548190923837  0.00945774647369215 -0.00312493434634718 
 -0.00161471577013604 0.00708060965892432  0.00945774647369215 -0.00312493434634718  -0.220681855285387 -0.934178516927728 
1381.25  0.19857360999096 -0.166821630691918  0.890843150543274 0.162518791264969  -0.00160992818721166 0.00711184117808722 
 0.890843150543274 0.162518791264969  -0.165956006517403 -0.242361520947515  0.00950531020625099 -0.00316551283187393 
 -0.00160992818721166 0.00711184117808722  0.00950531020625099 -0.00316551283187393  -0.221348083570073 -0.934368063068935 
1381.5  0.198401549343616 -0.167066584715176  0.890922302557258 0.162163097567115  -0.00158743853982544 0.00705650747344758 
 0.890922302557258 0.162163097567115  -0.165840747372844 -0.242138286754955  0.00947961515173444 -0.00318181525576458 
 -0.00158743853982544 0.00705650747344758  0.00947961515173444 -0.00318181525576458  -0.22201344185385 -0.934676401159797 
1381.75  0.198133355296719 -0.167191034847897  0.890918589243444 0.161721536444329  -0.00157575184987111 0.00705764380375628 
 0.890918589243444 0.161721536444329  -0.165903841504108 -0.242079428432953  0.00946579251869156 -0.00319229380587515 
 -0.00157575184987111 0.00705764380375628  0.00946579251869156 -0.00319229380587515  -0.222660893280167 -0.934530548783162 
1382  0.197914264787124 -0.166996472406146  0.891054009181293 0.161187955010111  -0.00157202673629765 0.00704498376912039 
 0.891054009181293 0.161187955010111  -0.166164587841559 -0.241916355915345  0.00943629153584553 -0.00319472635702829 
 -0.00157202673629765 0.00704498376912039  0.00943629153584553 -0.00319472635702829  -0.223299101265985 -0.934583535939894 
1382.25  0.19763602715161 -0.166948130447775  0.891251958623129 0.160458635338711  -0.00156398801139725 0.00706340039046422 
 0.891251958623129 0.160458635338711  -0.166361091813643 -0.241859040699056  0.00943266792694499 -0.00317902622098153 
 -0.00156398801139725 0.00706340039046422  0.00943266792694499 -0.00317902622098153  -0.224041064068857 -0.934133120321432 
1382.5  0.197238346145672 -0.166839012519204  0.891154167297705 0.16014356874218  -0.00154998868103137 0.00706525214730381 
 0.891154167297705 0.16014356874218  -0.166560686726668 -0.241850676347363  0.00946920102450237 -0.00319246519839304 
 -0.00154998868103137 0.00706525214730381  0.00946920102450237 -0.00319246519839304  -0.224755107613454 -0.934165735947719 
1382.75  0.196828947421812 -0.166613071546183  0.89143331916983 0.159465918072265  -0.00154463750520765 0.0070983110222533 
 0.89143331916983 0.159465918072265  -0.166882406452074 -0.241785947233992  0.0094570687826685 -0.00318440932242128 
 -0.00154463750520765 0.0070983110222533  0.0094570687826685 -0.00318440932242128  -0.225107407457416 -0.934130458674969 
1383  0.196652781012926 -0.166297653293924  0.891350177394237 0.158884093429546  -0.00150548842504116 0.00705078609947047 
 0.891350177394237 0.158884093429546  -0.167115733022981 -0.241718162941801  0.00946710869172061 -0.00322011302436786 
 -0.00150548842504116 0.00705078609947047  0.00946710869172061 -0.00322011302436786  -0.225857962128181 -0.934144186052318 
1383.25  0.196590449914882 -0.16618451343281  0.891268901990829 0.158538214095925  -0.00153438725929167 0.00703986243569325 
 0.891268901990829 0.158538214095925  -0.167271175720807 -0.241795979275546  0.00944792950511652 -0.00321420239516909 
 -0.00153438725929167 0.00703986243569325  0.00944792950511652 -0.00321420239516909  -0.226751772792101 -0.933579534896566 
1383.5  0.196456872783764 -0.165965110878902  0.891023016148692 0.158091268813723  -0.00152629830776895 0.00704892672677934 
 0.891023016148692 0.158091268813723  -0.167440797651188 -0.241740730712727  0.00944468704545439 -0.00322666794927973 
 -0.00152629830776895 0.00704892672677934  0.00944468704545439 -0.00322666794927973  -0.227254639407877 -0.933513110666954 
1383.75  0.196270227192922 -0.165971678773067  0.891065867236817 0.157575321741693  -0.00149404802019013 0.00703871102136759 
 0.891065867236817 0.157575321741693  -0.167717735157061 -0.241871780240266  0.00944853116889982 -0.00326141253444848 
 -0.00149404802019013 0.00703871102136759  0.00944853116889982 -0.00326141253444848  -0.227818457420394 -0.933242849179389 
1384  0.19617753865646 -0.165836967327829  0.891151430075149 0.157202045820145  -0.00152133802658254 0.00700756326652538 
 0.891151430075149 0.157202045820145  -0.168133094160213 -0.241890603410305  0.00941792905986935 -0.00325941009406707 
 -0.00152133802658254 0.00700756326652538  0.00941792905986935 -0.00325941009406707  -0.228134714180006 -0.933020168783646 
1384.25  0.195959345928999 -0.166006961767407  0.891257983108167 0.156775099571781  -0.00152071390484733 0.00700417959953997 
 0.891257983108167 0.156775099571781  -0.168181542104905 -0.241736717926064  0.00941955588453769 -0.00327375688895076 
 -0.00152071390484733 0.00700417959953997  0.00941955588453769 -0.00327375688895076  -0.228113558171982 -0.932916400587596 
1384.5  0.195924694427862 -0.16645465213447  0.891119991244369 0.15644508754236  -0.0015310785409038 0.00701030491986082 
 0.891119991244369 0.15644508754236  -0.167881328050373 -0.241780763515941  0.00940692356922471 -0.00325525923176101 
 -0.0015310785409038 0.00701030491986082  0.00940692356922471 -0.00325525923176101  -0.22870596419519 -0.932517159700686 
1384.75  0.196012013332529 -0.167013096513294  0.891078803162688 0.156252913191333  -0.00151130500837291 0.00700980958940076 
 0.891078803162688 0.156252913191333  -0.167593972337314 -0.242003878581252  0.00940918664424889 -0.00327585602206553 
 -0.00151130500837291 0.00700980958940076  0.00940918664424889 -0.00327585602206553  -0.2288314499815 -0.932502227960863 
1385  0.195802788564355 -0.16751066164931  0.891273052741767 0.155893536629092  -0.00151537902647938 0.00702061659871214 
 0.891273052741767 0.155893536629092  -0.167583363034406 -0.24212957329778  0.00939171836438102 -0.00327032857320671 
 -0.00151537902647938 0.00702061659871214  0.00939171836438102 -0.00327032857320671  -0.229258808531063 -0.932287136763307 
1385.25  0.195675292814167 -0.168157119877511  0.891146823683099 0.155616209690946  -0.00149254112067942 0.00699921035167458 
 0.891146823683099 0.155616209690946  -0.16738377414811 -0.242187166611535  0.00938636429215942 -0.00328102044426126 
 -0.00149254112067942 0.00699921035167458  0.00938636429215942 -0.00328102044426126  -0.229498238206952 -0.932045846439307 
1385.5  0.195314351567621 -0.168524177278138  0.891269402756092 0.15523364190811  -0.001505405662365 0.00698896747466064 
 0.891269402756092 0.15523364190811  -0.167361026692917 -0.242019872571624  0.00938530771315797 -0.00329918729384815 
 -0.001505405662365 0.00698896747466064  0.00938530771315797 -0.00329918729384815  -0.229928222144905 -0.932157269995675 
1385.75  0.195155055201267 -0.168990247607271  0.891325191824053 0.154868437256476  -0.0015261080998692 0.00698842947597883 
 0.891325191824053 0.154868437256476  -0.167002741031176 -0.242074055666996  0.00934654064249851 -0.00327011529749946 
 -0.0015261080998692 0.00698842947597883  0.00934654064249851 -0.00327011529749946  -0.230359957650052 -0.931965246632924 
1386  0.195180505897595 -0.169299182824191  0.8913237820086 0.154550593438175  -0.00150488479657149 0.00699600221604289 
 0.8913237820086 0.154550593438175  -0.166755258765278 -0.24222319333788  0.00938737125105998 -0.00327771412042174 
 -0.00150488479657149 0.00699600221604289  0.00938737125105998 -0.00327771412042174  -0.230785490864895 -0.931707299478925 
1386.25  0.195156677786205 -0.169775258050436  0.891328793942363 0.154493223040078  -0.00151192285950576 0.00697402335948412 
 0.891328793942363 0.154493223040078  -0.166635873522729 -0.242334161631166  0.0093676564293771 -0.00328178318146638 
 -0.00151192285950576 0.00697402335948412  0.0093676564293771 -0.00328178318146638  -0.231089054238739 -0.931300379094801 
1386.5  0.195088206458791 -0.170340494705268  0.891523009652808 0.154328939972276  -0.00149217093918894 0.00698599471438159 
 0.891523009652808 0.154328939972276  -0.166572073347437 -0.242423652126922  0.00935230511561443 -0.00328467953042127 
 -0.00149217093918894 0.00698599471438159  0.00935230511561443 -0.00328467953042127  -0.231556637392371 -0.931733376369638 
1386.75  0.194857174837652 -0.170799797533981  0.891864337964125 0.153945866448253  -0.00146647567697368 0.00697697369809719 
 0.891864337964125 0.153945866448253  -0.166665742461468 -0.242206563762543  0.00935338401981982 -0.00330527489841799 
 -0.00146647567697368 0.00697697369809719  0.00935338401981982 -0.00330527489841799  -0.231867169887212 -0.93143863318645 
1387  0.194787272558793 -0.171020147070875  0.891952133967213 0.153414593958696  -0.00147832305526959 0.0069484670623063 
 0.891952133967213 0.153414593958696  -0.16671801762459 -0.242066581699614  0.00932515336852787 -0.00332107999486306 
 -0.00147832305526959 0.0069484670623063  0.00932515336852787 -0.00332107999486306  -0.232728955264112 -0.931404398800681 
1387.25  0.194688185371166 -0.171362989246755  0.892054804737712 0.153205874607826  -0.00149180805422874 0.00695573410356897 
 0.892054804737712 0.153205874607826  -0.166908617267463 -0.242114825422395  0.0093317095348779 -0.00330514805329474 
 -0.00149180805422874 0.00695573410356897  0.0093317095348779 -0.00330514805329474  -0.233176488989008 -0.93111009678936 
1387.5  0.194498291772871 -0.171627511856137  0.892188449093183 0.152774850236679  -0.00146097394538619 0.00692779090769848 
 0.892188449093183 0.152774850236679  -0.167042676617158 -0.242107910100461  0.00934585824658736 -0.00333159741586013 
 -0.00146097394538619 0.00692779090769848  0.00934585824658736 -0.00333159741586013  -0.233090783169865 -0.930824404109636 
1387.75  0.194403679166444 -0.171908945580794  0.892237189752891 0.152326078685495  -0.00146276547745966 0.00691762632751038 
 0.892237189752891 0.152326078685495  -0.167232076035513 -0.242031863048704  0.00929506211840005 -0.00335275131072894 
 -0.00146276547745966 0.00691762632751038  0.00929506211840005 -0.00335275131072894  -0.233690272961471 -0.930991826222836 
1388  0.19418915432268 -0.172260852917835  0.892391711606447 0.151633505334111  -0.00146201276116788 0.00689583416279828 
 0.892391711606447 0.151633505334111  -0.167294698187498 -0.241945437589012  0.00929754757971084 -0.00333209047415354 
 -0.00146201276116788 0.00689583416279828  0.00929754757971084 -0.00333209047415354  -0.234442933976246 -0.931317525424306 
1388.25  0.194107703391843 -0.172479297152741  0.892378919066947 0.151306651811059  -0.0014533869100682 0.00691628304197557 
 0.892378919066947 0.151306651811059  -0.167317169278747 -0.241901071107487  0.0092947073746973 -0.00333871389456748 
 -0.0014533869100682 0.00691628304197557  0.0092947073746973 -0.00333871389456748  -0.234923289738657 -0.931309629571463 
1388.5  0.194123091146559 -0.172760354077412  0.892234875442927 0.150818596973472  -0.00145502314431662 0.00688277535392697 
 0.892234875442927 0.150818596973472  -0.167432048799201 -0.24207666189374  0.00928841654278104 -0.00335290165364421 
 -0.00145502314431662 0.00688277535392697  0.00928841654278104 -0.00335290165364421  -0.23570110010155 -0.931059194741958 
1388.75  0.193994982491548 -0.173051479426261  0.892354955960497 0.150410056114435  -0.00144138236156456 0.00684422675437143 
 0.892354955960497 0.150410056114435  -0.167569372088336 -0.2421517929737  0.00929325235348282 -0.00335983374894689 
 -0.00144138236156456 0.00684422675437143  0.00929325235348282 -0.00335983374894689  -0.23598667287737 -0.930681179721132 
1389  0.193929869164511 -0.17330364215157  0.892165682447187 0.150035577475228  -0.00143731524198331 0.00685047100566501 
 0.892165682447187 0.150035577475228  -0.167857880559279 -0.24215299598706  0.00928947533508611 -0.00337500862087664 
 -0.00143731524198331 0.00685047100566501  0.00928947533508611 -0.00337500862087664  -0.236581988049498 -0.931032362413461 
1389.25  0.193730305276732 -0.173570714613384  0.892087468704223 0.149567777337611  -0.00142862800706104 0.00682204548494191 
 0.892087468704223 0.149567777337611  -0.167778140840469 -0.242130069354708  0.00929150130491154 -0.00339503827953076 
 -0.00142862800706104 0.00682204548494191  0.00929150130491154 -0.00339503827953076  -0.237254078006476 -0.930848368432818 
1389.5  0.193556653507769 -0.173575939354742  0.892127247179069 0.149413890762995  -0.00145996054232441 0.00680276624815692 
 0.892127247179069 0.149413890762995  -0.167592666895078 -0.242081866786514  0.00924326412715978 -0.00342763268921905 
 -0.00145996054232441 0.00680276624815692  0.00924326412715978 -0.00342763268921905  -0.238025057887208 -0.930972488175085 
1389.75  0.193569462849648 -0.173682966080382  0.892424572990014 0.148943600654719  -0.00147176930171847 0.00680485495924495 
 0.892424572990014 0.148943600654719  -0.167635337932415 -0.242072044738502  0.00923043618012116 -0.00340886813972876 
 -0.00147176930171847 0.00680485495924495  0.00923043618012116 -0.00340886813972876  -0.238776643136399 -0.930802336442953 
1390  0.193326517666766 -0.173585608444978  0.892404053434853 0.14849404961702  -0.00147964891844277 0.00680089262172226 
 0.892404053434853 0.14849404961702  -0.167531623398159 -0.242042542491714  0.0092186639526845 -0.00342247594699586 
 -0.00147964891844277 0.00680089262172226  0.0092186639526845 -0.00342247594699586  -0.239660955020351 -0.930791471555013 
1390.25  0.193204913842129 -0.173580452914056  0.892441198300194 0.148232844431434  -0.0014708105198242 0.00678783185440875 
 0.892441198300194 0.148232844431434  -0.167414614561925 -0.242368341208772  0.00922389284732068 -0.00343509556195564 
 -0.0014708105198242 0.00678783185440875  0.00922389284732068 -0.00343509556195564  -0.240574593150587 -0.930093906723112 
1390.5  0.193127380475819 -0.173790060129673  0.892673207183673 0.147707140429687  -0.00145568857231754 0.00676693207922533 
 0.892673207183673 0.147707140429687  -0.167550900888981 -0.24240830539624  0.00919459257946303 -0.00343222539915922 
 -0.00145568857231754 0.00676693207922533  0.00919459257946303 -0.00343222539915922  -0.240917174240716 -0.9302484097841 
1390.75  0.193003490089391 -0.173746623928573  0.892783703394974 0.147401371249871  -0.00146803614806981 0.00674697535779591 
 0.892783703394974 0.147401371249871  -0.167457283810508 -0.242410410265102  0.0091902827448748 -0.00342814655418298 
 -0.00146803614806981 0.00674697535779591  0.0091902827448748 -0.00342814655418298  -0.242048596955588 -0.929953989329347 
1391  0.192964518184459 -0.173769930094826  0.892701285638218 0.146945424253494  -0.00149948357851248 0.00675699573525801 
 0.892701285638218 0.146945424253494  -0.167350502255092 -0.242536386181853  0.00917266955538398 -0.00344341861090941 
 -0.00149948357851248 0.00675699573525801  0.00917266955538398 -0.00344341861090941  -0.242618440712286 -0.929397567969537 
1391.25  0.192968938665308 -0.173879625611176  0.89299403481973 0.146572601915996  -0.00150816791365832 0.00674703833143354 
 0.89299403481973 0.146572601915996  -0.167497214802154 -0.242858267275901  0.00917338992026812 -0.0034400608953018 
 -0.00150816791365832 0.00674703833143354  0.00917338992026812 -0.0034400608953018  -0.24283861252611 -0.929019184193819 
1391.5  0.193015589610804 -0.173907342453805  0.893103692621714 0.146289758046905  -0.00151958139383611 0.00673653655745026 
 0.893103692621714 0.146289758046905  -0.167615945698545 -0.24299398327663  0.00913057026203115 -0.00343807250314324 
 -0.00151958139383611 0.00673653655745026  0.00913057026203115 -0.00343807250314324  -0.24335292241117 -0.929555187130057 
1391.75  0.1931355139948 -0.174045568392797  0.892856978577435 0.146152659722462  -0.00151863911342234 0.00673158087421998 
 0.892856978577435 0.146152659722462  -0.167768477341357 -0.24327196658441  0.00913579813404778 -0.00345015369919262 
 -0.00151863911342234 0.00673158087421998  0.00913579813404778 -0.00345015369919262  -0.244120444561976 -0.929512711692496 
1392  0.19318358302431 -0.174598506215842  0.893234212771216 0.145976696538265  -0.0015339279354113 0.00673801126295002 
 0.893234212771216 0.145976696538265  -0.167934680855054 -0.243336567661753  0.00912266716318913 -0.00349866306408676 
 -0.0015339279354113 0.00673801126295002  0.00912266716318913 -0.00349866306408676  -0.244835481294395 -0.929149673337701 
1392.25  0.192915550712707 -0.175048904843088  0.893368458845536 0.145516019077905  -0.00155464357516909 0.00673280079872267 
 0.893368458845536 0.145516019077905  -0.168017409644096 -0.243306934101524  0.00908918984148244 -0.00345544932923867 
 -0.00155464357516909 0.00673280079872267  0.00908918984148244 -0.00345544932923867  -0.245328770211026 -0.929063042578575 
1392.5  0.192578240132027 -0.17522784625117  0.893607035123323 0.144929363111972  -0.00152186646110457 0.00672543041057466 
 0.893607035123323 0.144929363111972  -0.168170469791518 -0.243374602536471  0.00909035975677438 -0.0034611459720995 
 -0.00152186646110457 0.00672543041057466  0.00909035975677438 -0.0034611459720995  -0.245768366101916 -0.928659484553753 
1392.75  0.192454235899241 -0.175555419235478  0.893632087198872 0.144459256477382  -0.00152026649322287 0.00671616188758901 
 0.893632087198872 0.144459256477382  -0.167989514072459 -0.243393292009254  0.00907492019326207 -0.00349721560222417 
 -0.00152026649322287 0.00671616188758901  0.00907492019326207 -0.00349721560222417  -0.246324304360487 -0.928545208264098 
1393  0.192263598936438 -0.175742694555659  0.893626690400072 0.144107586395864  -0.00154834765557026 0.00670687233655144 
 0.893626690400072 0.144107586395864  -0.167966096843012 -0.243392488526247  0.00905636445047259 -0.0034855383830722 
 -0.00154834765557026 0.00670687233655144  0.00905636445047259 -0.0034855383830722  -0.247138960125199 -0.928666117624996 
1393.25  0.192049343664463 -0.17601519376511  0.893800492841172 0.143597973025559  -0.00155828368340518 0.00669125855494805 
