! Matrix data file written by TouchstoneData, EPCOS AG
! FILENAME: "AB81A_X22Y20_WB.pli.snp"
! COMMENT: "(TS/AB81A_X22Y20_WB.s3p) Epcos AG 10/2/2013"
! INFO: nport=3, nfreq=1601
! DATE: "Wed Oct  9 11:10:17 2013"
! USER: "Wee Chuan Tay"
!
! port | pin | signal
! -----|-----|--------
!   1  |  3  |  Non-GPS
!   2  |  6  |  Antenna
!   3  |  1  |  GPS
! --------------------
! 
# MHZ S RI R 50
! freq  reS11 imS11  reS12 imS12  reS13 imS13  ...
50  0.931472747465264 -0.355568546624002  -0.000582538073797705 -0.000478002570559484  2.1954539389601e-06 1.51070263814103e-05 
 -0.000582538073797705 -0.000478002570559484  0.981367397606607 -0.18787458836132  0.00031128133317347 0.00219943767889588 
 2.1954539389601e-06 1.51070263814103e-05  0.00031128133317347 0.00219943767889588  0.995181009757337 -0.0736092086826603 
53.71875  0.921520588553753 -0.379342474564644  -0.000651300386818605 -0.000785143873266939  -2.31170800326909e-05 7.77622121142456e-05 
 -0.000651300386818605 -0.000785143873266939  0.978682681120747 -0.200753504622591  0.00033313359292342 0.00236006410765184 
 -2.31170800326909e-05 7.77622121142456e-05  0.00033313359292342 0.00236006410765184  0.995915815554377 -0.0773036603946773 
57.4375  0.910712232549335 -0.403311682803201  -0.000964856184540572 -0.000959416743343291  1.3809151613171e-05 2.7908288385447e-05 
 -0.000964856184540572 -0.000959416743343291  0.976264595265569 -0.214604662631978  0.000390863898555354 0.00251090075288924 
 1.3809151613171e-05 2.7908288385447e-05  0.000390863898555354 0.00251090075288924  0.994651139011724 -0.0826081367142418 
61.15625  0.899203973232732 -0.428794089639554  -0.00104733819451031 -0.0010969334561356  1.63140254207916e-05 3.33264541519731e-05 
 -0.00104733819451031 -0.0010969334561356  0.972251746299628 -0.229213007861219  0.000439310557537756 0.00267812050897957 
 1.63140254207916e-05 3.33264541519731e-05  0.000439310557537756 0.00267812050897957  0.995367848109515 -0.0883134998294396 
64.875  0.887970015238367 -0.451446714880403  -0.00131390618601792 -0.00134662265327575  -7.45889617150192e-06 -2.62647644014838e-05 
 -0.00131390618601792 -0.00134662265327575  0.96969408339237 -0.241933278447521  0.000502416514364054 0.00285244968073358 
 -7.45889617150192e-06 -2.62647644014838e-05  0.000502416514364054 0.00285244968073358  0.995122834680271 -0.0931705097555257 
68.59375  0.874296527403656 -0.474968735195576  -0.00164672534707465 -0.00158661987272374  -4.68313323479565e-06 7.50535651774273e-05 
 -0.00164672534707465 -0.00158661987272374  0.96528941330796 -0.255774969132003  0.000493997319616838 0.00299604139034887 
 -4.68313323479565e-06 7.50535651774273e-05  0.000493997319616838 0.00299604139034887  0.993089211812546 -0.0982830157366996 
72.3125  0.861444098453989 -0.496611038949564  -0.00173996660683487 -0.00190444439854904  -1.38991398890205e-05 9.9259544341593e-06 
 -0.00173996660683487 -0.00190444439854904  0.961976092486839 -0.266896357633193  0.000585111979815528 0.00316261053939093 
 -1.38991398890205e-05 9.9259544341593e-06  0.000585111979815528 0.00316261053939093  0.993891636989288 -0.102808183479961 
76.03125  0.848632411416047 -0.519479153648952  -0.00219588502019081 -0.00229441516802896  2.24693379825167e-05 5.48502206930043e-06 
 -0.00219588502019081 -0.00229441516802896  0.957790683127129 -0.28180965605267  0.000701041287050682 0.00330441800606631 
 2.24693379825167e-05 5.48502206930043e-06  0.000701041287050682 0.00330441800606631  0.993383074199602 -0.108585753443315 
79.75  0.834879101980604 -0.541390098768909  -0.00254943989472223 -0.00268406391506679  2.05651807556408e-05 2.60127218172997e-05 
 -0.00254943989472223 -0.00268406391506679  0.954204767232457 -0.294329080830282  0.00073930170751659 0.00342611382304394 
 2.05651807556408e-05 2.60127218172997e-05  0.00073930170751659 0.00342611382304394  0.993473595394899 -0.113595014007038 
83.46875  0.819488000562264 -0.563679324997912  -0.0029989997046775 -0.00313759783872333  9.23008026760555e-06 8.18902212389171e-05 
 -0.0029989997046775 -0.00313759783872333  0.949971865948751 -0.307928581711495  0.000766977641313234 0.00355414884469707 
 9.23008026760555e-06 8.18902212389171e-05  0.000766977641313234 0.00355414884469707  0.99180495392813 -0.11899915880857 
87.1875  0.802976332579788 -0.584136331108909  -0.00352308046536656 -0.00357271167133217  3.65929905181731e-05 0.000126461790231481 
 -0.00352308046536656 -0.00357271167133217  0.944606550914092 -0.321727476492934  0.000916927985187997 0.00373039467931105 
 3.65929905181731e-05 0.000126461790231481  0.000916927985187997 0.00373039467931105  0.991957120973217 -0.124473775163433 
90.90625  0.787836493373579 -0.605359912317703  -0.00394514504699752 -0.00411800983501151  4.52514519216995e-05 7.24850855308333e-05 
 -0.00394514504699752 -0.00411800983501151  0.940442875611063 -0.335280910634863  0.000938502530984595 0.00386122708391049 
 4.52514519216995e-05 7.24850855308333e-05  0.000938502530984595 0.00386122708391049  0.990291831967633 -0.130268869060156 
94.625  0.771823027274746 -0.62477958349089  -0.00493735469344813 -0.00430897673537936  0.000123344947888062 7.82899266089838e-05 
 -0.00493735469344813 -0.00430897673537936  0.934858624804001 -0.346254855348315  0.00131190237165844 0.00398891721888701 
 0.000123344947888062 7.82899266089838e-05  0.00131190237165844 0.00398891721888701  0.988606812704945 -0.135514290713842 
98.34375  0.754765722527458 -0.644146294001795  -0.0052723570057473 -0.00501315082634315  4.12599010023566e-05 1.95091203225789e-05 
 -0.0052723570057473 -0.00501315082634315  0.930724662244037 -0.36025336545284  0.00111488703942015 0.00417077382505091 
 4.12599010023566e-05 1.95091203225789e-05  0.00111488703942015 0.00417077382505091  0.98878157243979 -0.139947980005104 
102.0625  0.737015299644517 -0.66399469447932  -0.00591868489772435 -0.00549930544445109  5.89467878324246e-05 6.2925356600382e-05 
 -0.00591868489772435 -0.00549930544445109  0.923951880192147 -0.373024504617985  0.00118643898956999 0.00434492327201036 
 5.89467878324246e-05 6.2925356600382e-05  0.00118643898956999 0.00434492327201036  0.988056610666726 -0.144885429327901 
105.78125  0.719287455574839 -0.68159392997626  -0.00672287381645223 -0.00619742130568689  8.44278961468861e-05 0.000117852099702524 
 -0.00672287381645223 -0.00619742130568689  0.919404631286567 -0.386020061819579  0.00128735273405978 0.00442018930328889 
 8.44278961468861e-05 0.000117852099702524  0.00128735273405978 0.00442018930328889  0.987474590531782 -0.150205420038452 
109.5  0.701286593693377 -0.700255459778494  -0.0076809207963434 -0.00662238475431473  6.60070063554673e-05 6.60303454952689e-05 
 -0.0076809207963434 -0.00662238475431473  0.913751973996185 -0.399539682518916  0.00138600723406489 0.0045813959823466 
 6.60070063554673e-05 6.60303454952689e-05  0.00138600723406489 0.0045813959823466  0.986101803307163 -0.155726006705017 
113.21875  0.681856095897649 -0.716390147434419  -0.00838724979979645 -0.00707632524877519  5.74449353283699e-05 2.87443409714591e-05 
 -0.00838724979979645 -0.00707632524877519  0.907533349895786 -0.410715691723424  0.00148417980825506 0.00471328517776507 
 5.74449353283699e-05 2.87443409714591e-05  0.00148417980825506 0.00471328517776507  0.985378186644583 -0.162034916450538 
116.9375  0.662286092719087 -0.733478291198854  -0.00912929522392017 -0.00782052222338484  9.31781259649605e-05 5.71301802623267e-05 
 -0.00912929522392017 -0.00782052222338484  0.899940710120773 -0.424597151955455  0.0015562549360319 0.00483961967360839 
 9.31781259649605e-05 5.71301802623267e-05  0.0015562549360319 0.00483961967360839  0.982717165144624 -0.166890247067648 
120.65625  0.644963899843869 -0.749509092378933  -0.0104695096145771 -0.00842443010460591  5.47821248320107e-05 3.62763378442584e-05 
 -0.0104695096145771 -0.00842443010460591  0.896420405136847 -0.435423074435687  0.00166342273170071 0.00499869285287387 
 5.47821248320107e-05 3.62763378442584e-05  0.00166342273170071 0.00499869285287387  0.98332700142939 -0.171004227611646 
124.375  0.624410535996483 -0.764377908095793  -0.0115867518333961 -0.00881623146089482  8.79474690871838e-05 7.97869246202695e-05 
 -0.0115867518333961 -0.00881623146089482  0.889349664675848 -0.447802501752235  0.0017161565678926 0.00511213932293559 
 8.79474690871838e-05 7.97869246202695e-05  0.0017161565678926 0.00511213932293559  0.982769336408464 -0.177078041454761 
128.09375  0.604775294596645 -0.780377845587976  -0.0126786395640816 -0.00954251842164585  0.000107766646528635 7.99540569683111e-05 
 -0.0126786395640816 -0.00954251842164585  0.883552326145239 -0.459978722945866  0.00183458296583637 0.00525292843504063 
 0.000107766646528635 7.99540569683111e-05  0.00183458296583637 0.00525292843504063  0.980661155557804 -0.181543956077462 
131.8125  0.584237345355362 -0.795746901219595  -0.0140014700592454 -0.0102331596657612  9.25391005030495e-05 0.000105586900982941 
 -0.0140014700592454 -0.0102331596657612  0.875927056109226 -0.4729011703841  0.0019222200758017 0.00540664623348172 
 9.25391005030495e-05 0.000105586900982941  0.0019222200758017 0.00540664623348172  0.981157350158221 -0.186367740522392 
135.53125  0.56414448588649 -0.808058130979687  -0.0154771466874236 -0.0108429417355404  0.000116987835869528 3.32247070584998e-05 
 -0.0154771466874236 -0.0108429417355404  0.870004503371194 -0.484610134788971  0.00204920457445313 0.00548019071597299 
 0.000116987835869528 3.32247070584998e-05  0.00204920457445313 0.00548019071597299  0.979176396467051 -0.19214488338156 
139.25  0.542332833906525 -0.821233676945378  -0.0166605034887255 -0.0113149914303576  0.000141534663698921 3.07460360372886e-05 
 -0.0166605034887255 -0.0113149914303576  0.860728912165342 -0.496883768400931  0.00217352438559195 0.00559299354384528 
 0.000141534663698921 3.07460360372886e-05  0.00217352438559195 0.00559299354384528  0.977067834247543 -0.197900110717168 
142.96875  0.521728284707066 -0.833140179118247  -0.0182929197619477 -0.0120768117603375  0.000110928110735028 0.00011584699975453 
 -0.0182929197619477 -0.0120768117603375  0.855478450866097 -0.50677336119183  0.00225535403185069 0.00569822453766377 
 0.000110928110735028 0.00011584699975453  0.00225535403185069 0.00569822453766377  0.976521194469348 -0.202394375701727 
146.6875  0.501029955466508 -0.84648657168176  -0.019936365252344 -0.0126215686041852  0.000124043509423634 4.87014086284646e-05 
 -0.019936365252344 -0.0126215686041852  0.848868475584647 -0.519848613795741  0.00241307254453028 0.0058461260162716 
 0.000124043509423634 4.87014086284646e-05  0.00241307254453028 0.0058461260162716  0.976123619715399 -0.206324823213362 
150.40625  0.478928712727027 -0.857650466828623  -0.0217308634863338 -0.0131567143991135  0.000115543618080267 4.96803051393462e-05 
 -0.0217308634863338 -0.0131567143991135  0.840672643601327 -0.53145601896434  0.00241463424959665 0.00598525582312945 
 0.000115543618080267 4.96803051393462e-05  0.00241463424959665 0.00598525582312945  0.97506600038837 -0.214127856948328 
154.125  0.457619088427413 -0.868748206144506  -0.023263038793778 -0.013478386480573  0.000185541155494555 6.34010349665051e-05 
 -0.023263038793778 -0.013478386480573  0.831815283495944 -0.543733698836327  0.00258886064075446 0.00609146742107938 
 0.000185541155494555 6.34010349665051e-05  0.00258886064075446 0.00609146742107938  0.974290832013311 -0.217678631237751 
157.84375  0.435728155583613 -0.878604829389248  -0.0250017194402266 -0.0141408382798777  0.000213407019665942 0.000100347000834182 
 -0.0250017194402266 -0.0141408382798777  0.824710508778904 -0.553941223305918  0.00272217817250937 0.0062010464985238 
 0.000213407019665942 0.000100347000834182  0.00272217817250937 0.0062010464985238  0.972632606861775 -0.223363076335694 
161.5625  0.412862896607029 -0.888066492894441  -0.0269411095300642 -0.0146295007421147  0.000167687020305905 6.64513020388355e-05 
 -0.0269411095300642 -0.0146295007421147  0.816408595171845 -0.564683670803398  0.00287842644327943 0.00629670359212421 
 0.000167687020305905 6.64513020388355e-05  0.00287842644327943 0.00629670359212421  0.970437049351575 -0.228958916687182 
165.28125  0.391713305474548 -0.896040589016273  -0.0291747452213423 -0.0151047526327446  0.000213019925819125 9.75037880330165e-05 
 -0.0291747452213423 -0.0151047526327446  0.808788499235192 -0.574949393950102  0.00290912652861756 0.00639758923021572 
 0.000213019925819125 9.75037880330165e-05  0.00290912652861756 0.00639758923021572  0.96895014398977 -0.232036284217168 
169  0.369237426291831 -0.905288543935748  -0.0312384195812686 -0.015584960431565  0.000275533479698208 6.40370798132763e-05 
 -0.0312384195812686 -0.015584960431565  0.800566502676052 -0.586961612698675  0.00304382482846028 0.00652221046446657 
 0.000275533479698208 6.40370798132763e-05  0.00304382482846028 0.00652221046446657  0.968103955978265 -0.236250672635094 
172.71875  0.347247357312179 -0.912882480424932  -0.033662104828801 -0.016055346931906  0.000273829175922682 9.07261990253345e-05 
 -0.033662104828801 -0.016055346931906  0.791216868461246 -0.596752517704863  0.00314672834098735 0.00658323414268718 
 0.000273829175922682 9.07261990253345e-05  0.00314672834098735 0.00658323414268718  0.96685335158973 -0.243082191365084 
176.4375  0.325324583066294 -0.920205473259653  -0.0357439619762911 -0.0164272551917632  0.000255228180977732 4.6572371503489e-05 
 -0.0357439619762911 -0.0164272551917632  0.78426116044223 -0.607251362342957  0.00331417558060133 0.00673937904799567 
 0.000255228180977732 4.6572371503489e-05  0.00331417558060133 0.00673937904799567  0.966500850848455 -0.246074138948103 
180.15625  0.302099007846272 -0.927559629703096  -0.038391335212013 -0.0166901855192263  0.000311312804851218 6.74626873693664e-05 
 -0.038391335212013 -0.0166901855192263  0.774798986932496 -0.618599159577609  0.00349346844575491 0.0068008961836121 
 0.000311312804851218 6.74626873693664e-05  0.00349346844575491 0.0068008961836121  0.964947406598153 -0.252921670299584 
183.875  0.279538859477683 -0.933352389203494  -0.0406644230596451 -0.0170180647655873  0.00035050590848823 8.52607817230925e-05 
 -0.0406644230596451 -0.0170180647655873  0.765611869846671 -0.628665161414404  0.00359256867029958 0.0068928621567461 
 0.00035050590848823 8.52607817230925e-05  0.00359256867029958 0.0068928621567461  0.962924429914742 -0.258339030302917 
187.59375  0.257454499790618 -0.937422405524938  -0.0434557004929781 -0.01702357824884  0.000307936329229857 4.11075703547217e-05 
 -0.0434557004929781 -0.01702357824884  0.75761241683096 -0.637565038569675  0.00373905163298514 0.00686453179948005 
 0.000307936329229857 4.11075703547217e-05  0.00373905163298514 0.00686453179948005  0.960523311300339 -0.263114667703207 
191.3125  0.235032301710891 -0.943844032660234  -0.0460487081774521 -0.0173590022145301  0.00041965016795242 0.000113223098030149 
 -0.0460487081774521 -0.0173590022145301  0.747050265874496 -0.648754697241387  0.0038507063843543 0.00713780559957045 
 0.00041965016795242 0.000113223098030149  0.0038507063843543 0.00713780559957045  0.960730326061182 -0.26824259750326 
195.03125  0.211932017006332 -0.947209946046367  -0.0490305341912138 -0.0176625626865655  0.000395187422057889 -3.47245422793843e-06 
 -0.0490305341912138 -0.0176625626865655  0.738640851525704 -0.659340219950129  0.00403021852788262 0.00714624655440893 
 0.000395187422057889 -3.47245422793843e-06  0.00403021852788262 0.00714624655440893  0.959497582106967 -0.272827325663471 
198.75  0.190002748732006 -0.951393985130392  -0.0516728419997118 -0.0173170051888701  0.000371186952805682 3.71959351368114e-05 
 -0.0516728419997118 -0.0173170051888701  0.728672827511603 -0.669216971010313  0.00413022575101257 0.00729451283291939 
 0.000371186952805682 3.71959351368114e-05  0.00413022575101257 0.00729451283291939  0.957016195497255 -0.277842997941212 
202.46875  0.167211343980124 -0.954838909445555  -0.0547425355444133 -0.0174988084729063  0.000395505094445831 -2.12350444724149e-05 
 -0.0547425355444133 -0.0174988084729063  0.719167528059685 -0.679269553316282  0.00427489489311869 0.00731396422645576 
 0.000395505094445831 -2.12350444724149e-05  0.00427489489311869 0.00731396422645576  0.956164930771481 -0.282456418920072 
206.1875  0.144447011145533 -0.957449687357046  -0.0576265546269357 -0.0175459387081013  0.000461218312336433 2.13001626430799e-05 
 -0.0576265546269357 -0.0175459387081013  0.710140699076014 -0.687584775922715  0.00436906469162152 0.00736892042143023 
 0.000461218312336433 2.13001626430799e-05  0.00436906469162152 0.00736892042143023  0.95530696140768 -0.28808776899225 
209.90625  0.124384066090963 -0.957745072861672  -0.0610496284466135 -0.0173224835643362  0.000462476676989677 -3.0471484063502e-05 
 -0.0610496284466135 -0.0173224835643362  0.699542239253616 -0.694272066758718  0.00452848435150185 0.00741292094980008 
 0.000462476676989677 -3.0471484063502e-05  0.00452848435150185 0.00741292094980008  0.952324266664825 -0.291312757587303 
213.625  0.100858146408692 -0.960087751211255  -0.0640185621997065 -0.0170784772464711  0.000533381419311675 -4.12098384692956e-05 
 -0.0640185621997065 -0.0170784772464711  0.690830771812611 -0.704009882565175  0.00464747747357962 0.00752180625138143 
 0.000533381419311675 -4.12098384692956e-05  0.00464747747357962 0.00752180625138143  0.951781723880409 -0.296549131610176 
217.34375  0.0779821356242189 -0.959975795316478  -0.0673069386144254 -0.0165377723689712  0.000490987912981832 -1.62243737470041e-05 
 -0.0673069386144254 -0.0165377723689712  0.679986923128986 -0.714678729701137  0.00482546049008139 0.00753602969068585 
 0.000490987912981832 -1.62243737470041e-05  0.00482546049008139 0.00753602969068585  0.950306401137546 -0.302804771042651 
221.0625  0.0565762762010157 -0.961175241357109  -0.070470028081965 -0.0162108885031088  0.000530749764332722 -7.12776244218884e-05 
 -0.070470028081965 -0.0162108885031088  0.669625056275059 -0.723515147988179  0.00495215025357326 0.00766580734974133 
 0.000530749764332722 -7.12776244218884e-05  0.00495215025357326 0.00766580734974133  0.948032238649072 -0.306045690716361 
224.78125  0.034502232960483 -0.961645582658663  -0.0742535131027552 -0.0157414210050753  0.000569648249144109 -8.22154725501644e-05 
 -0.0742535131027552 -0.0157414210050753  0.659009084433086 -0.73169146169657  0.00516723362121506 0.00769535542890044 
 0.000569648249144109 -8.22154725501644e-05  0.00516723362121506 0.00769535542890044  0.947467674973546 -0.311940580243907 
228.5  0.0127567531532801 -0.960748127768075  -0.0777961402246946 -0.014742327467831  0.000604204339007321 -9.73033460259158e-05 
 -0.0777961402246946 -0.014742327467831  0.649115539405694 -0.740246611705748  0.00525194226249919 0.00782275053597923 
 0.000604204339007321 -9.73033460259158e-05  0.00525194226249919 0.00782275053597923  0.945756873615061 -0.316237890115686 
232.21875  -0.0131477681092629 -0.958834018932798  -0.0814702079926164 -0.0139884629678314  0.00060345172407882 -9.60919006289561e-05 
 -0.0814702079926164 -0.0139884629678314  0.636253526446093 -0.751330823060566  0.00545843145336628 0.00785448964183003 
 0.00060345172407882 -9.60919006289561e-05  0.00545843145336628 0.00785448964183003  0.942660196357991 -0.324198156067762 
235.9375  -0.0306561401961329 -0.957436576852794  -0.0847964305515387 -0.0133824125045911  0.000593770833502105 -0.000147714850417875 
 -0.0847964305515387 -0.0133824125045911  0.628014672121149 -0.755493737220908  0.00551016568749207 0.00788112768958553 
 0.000593770833502105 -0.000147714850417875  0.00551016568749207 0.00788112768958553  0.941295394526348 -0.325973080366009 
239.65625  -0.0516119137815806 -0.954994862372736  -0.0886248895973592 -0.0124141456195723  0.000638404474479175 -0.000184296103369327 
 -0.0886248895973592 -0.0124141456195723  0.617024391805057 -0.764934256404055  0.00571381614871967 0.00794384094981121 
