! Matrix data file written by TouchstoneData, EPCOS AG
! FILENAME: "newformat_LY67A_Filter1_1_WB.s3p"
! COMMENT: "(LY67A_Filter1_1_WB.s3p) Epcos AG 17.01.2012"
! INFO: nport=3, nfreq=1601
! DATE: "Wed Feb  8 11:20:11 2012"
! USER: "Michael Schemies"
!
! port | pin | signal
! -----|-----|--------
!   1  |  1  |  in
!   2  |  8  |  out
!   3  |  9  |  out
! --------------------
!
# MHZ S MA R 50
! freq  magS11 angS11  magS12 angS12  magS13 angS13  ...
1.000000E+02  9.985490E-01 -6.283710E+00  1.382824E-03 7.979545E+01  1.346055E-03 7.773145E+01
1.380649E-03 8.010979E+01  9.972585E-01 -5.317715E+00  1.080686E-02 8.106970E+01
1.346032E-03 7.768873E+01  1.081856E-02 8.112424E+01  9.969876E-01 -4.916415E+00
1.036875E+02  9.984832E-01 -6.484694E+00  1.371281E-03 8.646404E+01  1.264081E-03 8.703495E+01
1.390035E-03 8.639875E+01  9.970536E-01 -5.495081E+00  1.118100E-02 8.143832E+01
1.246617E-03 8.705399E+01  1.117275E-02 8.135451E+01  9.982801E-01 -5.128420E+00
1.073750E+02  9.990095E-01 -6.701824E+00  1.424080E-03 8.470440E+01  1.289456E-03 8.462644E+01
1.410788E-03 8.476045E+01  9.976062E-01 -5.757799E+00  1.161708E-02 8.113206E+01
1.288538E-03 8.448339E+01  1.157459E-02 8.138426E+01  9.966632E-01 -5.285573E+00
1.110625E+02  1.000009E+00 -6.927739E+00  1.527383E-03 8.302164E+01  1.306668E-03 8.455374E+01
1.525092E-03 8.322989E+01  9.978246E-01 -5.871865E+00  1.192533E-02 8.156813E+01
1.314910E-03 8.496787E+01  1.189975E-02 8.165816E+01  9.983001E-01 -5.472384E+00
1.147500E+02  9.992938E-01 -7.121531E+00  1.623829E-03 8.366486E+01  1.382004E-03 7.997472E+01
1.612491E-03 8.407355E+01  9.978622E-01 -6.026214E+00  1.236486E-02 8.112191E+01
1.384726E-03 8.021055E+01  1.235937E-02 8.115126E+01  9.979045E-01 -5.584716E+00
1.184375E+02  9.984236E-01 -7.339406E+00  1.559356E-03 8.332682E+01  1.437291E-03 8.397217E+01
1.573499E-03 8.341709E+01  9.972762E-01 -6.283149E+00  1.282701E-02 8.155571E+01
1.444093E-03 8.458112E+01  1.284510E-02 8.152245E+01  9.980018E-01 -5.796926E+00
1.221250E+02  9.984143E-01 -7.568498E+00  1.745416E-03 8.184965E+01  1.406344E-03 8.296695E+01
1.740747E-03 8.195513E+01  9.966703E-01 -6.516579E+00  1.308262E-02 8.108057E+01
1.401839E-03 8.339983E+01  1.305314E-02 8.112029E+01  9.971207E-01 -5.990023E+00
1.258125E+02  9.984016E-01 -7.819395E+00  1.699314E-03 8.263483E+01  1.558016E-03 8.340829E+01
1.682997E-03 8.316736E+01  9.970113E-01 -6.617903E+00  1.341433E-02 8.040235E+01
1.560922E-03 8.319334E+01  1.339890E-02 8.033945E+01  9.971769E-01 -6.090685E+00
1.295000E+02  9.987656E-01 -8.071852E+00  1.807697E-03 7.934097E+01  1.460323E-03 8.438385E+01
1.819422E-03 7.938800E+01  9.970010E-01 -6.878465E+00  1.382896E-02 8.118975E+01
1.450303E-03 8.401756E+01  1.384086E-02 8.112836E+01  9.986433E-01 -6.344987E+00
1.331875E+02  9.988564E-01 -8.230961E+00  1.810220E-03 7.980365E+01  1.608289E-03 7.710878E+01
1.820533E-03 8.027906E+01  9.975367E-01 -7.028335E+00  1.417832E-02 8.094346E+01
1.618084E-03 7.690444E+01  1.417148E-02 8.092667E+01  9.978136E-01 -6.443133E+00
1.368750E+02  9.977628E-01 -8.384171E+00  1.799453E-03 8.098789E+01  1.578621E-03 8.285501E+01
1.796530E-03 8.064425E+01  9.971444E-01 -7.221171E+00  1.459003E-02 8.013130E+01
1.578493E-03 8.277807E+01  1.459225E-02 8.002630E+01  9.970819E-01 -6.609513E+00
1.405625E+02  9.987311E-01 -8.707532E+00  1.829419E-03 8.067725E+01  1.574335E-03 7.745089E+01
1.831297E-03 8.100043E+01  9.973854E-01 -7.413312E+00  1.491579E-02 8.115839E+01
1.551878E-03 7.816846E+01  1.489909E-02 8.107681E+01  9.981685E-01 -6.787779E+00
1.442500E+02  9.989322E-01 -8.938012E+00  1.904856E-03 8.180238E+01  1.670521E-03 8.388255E+01
1.920800E-03 8.223906E+01  9.973627E-01 -7.542097E+00  1.527070E-02 8.077848E+01
1.677645E-03 8.400620E+01  1.529964E-02 8.087860E+01  9.984393E-01 -6.978774E+00
1.479375E+02  9.985492E-01 -9.151274E+00  1.981095E-03 8.250861E+01  1.758829E-03 7.883269E+01
1.991467E-03 8.246864E+01  9.968490E-01 -7.862943E+00  1.598232E-02 8.016877E+01
1.762636E-03 7.893270E+01  1.604299E-02 8.002969E+01  9.976414E-01 -7.133060E+00
1.516250E+02  9.991911E-01 -9.331106E+00  2.081604E-03 8.162022E+01  1.796906E-03 8.432227E+01
2.074800E-03 8.150763E+01  9.981942E-01 -7.966378E+00  1.615590E-02 7.982550E+01
1.803903E-03 8.422758E+01  1.620946E-02 7.975375E+01  9.979697E-01 -7.336072E+00
1.553125E+02  9.982171E-01 -9.599458E+00  2.082089E-03 8.021037E+01  1.812241E-03 8.203525E+01
2.088743E-03 8.050581E+01  9.967855E-01 -8.187986E+00  1.643954E-02 7.967487E+01
1.811405E-03 8.144523E+01  1.647389E-02 7.952769E+01  9.971987E-01 -7.464323E+00
1.590000E+02  9.982759E-01 -9.744363E+00  2.128136E-03 7.987897E+01  1.807931E-03 8.028599E+01
2.134537E-03 8.002042E+01  9.967476E-01 -8.343765E+00  1.685679E-02 8.004836E+01
1.819777E-03 8.059313E+01  1.689030E-02 7.991477E+01  9.972752E-01 -7.624776E+00
1.626875E+02  9.996068E-01 -9.983248E+00  2.181943E-03 8.153190E+01  1.901964E-03 8.223822E+01
2.185132E-03 8.140378E+01  9.987739E-01 -8.479480E+00  1.728629E-02 8.049994E+01
1.904794E-03 8.203548E+01  1.728600E-02 8.039598E+01  9.979481E-01 -7.850045E+00
1.663750E+02  9.991994E-01 -1.020047E+01  2.297809E-03 8.182092E+01  1.942966E-03 8.126187E+01
2.299113E-03 8.174224E+01  9.975754E-01 -8.694335E+00  1.765773E-02 7.966002E+01
1.940299E-03 8.147679E+01  1.759416E-02 7.956940E+01  9.971917E-01 -8.041676E+00
1.700625E+02  9.984329E-01 -1.045674E+01  2.344797E-03 8.035781E+01  2.008442E-03 8.006918E+01
2.351617E-03 8.020912E+01  9.959394E-01 -8.920944E+00  1.827582E-02 7.964292E+01
1.995964E-03 8.004807E+01  1.822678E-02 7.962536E+01  9.969775E-01 -8.253388E+00
1.737500E+02  9.976101E-01 -1.061326E+01  2.356322E-03 7.877914E+01  2.019360E-03 8.188582E+01
2.355565E-03 7.891457E+01  9.951642E-01 -9.002883E+00  1.824057E-02 7.973762E+01
2.024739E-03 8.144557E+01  1.822787E-02 7.966938E+01  9.967436E-01 -8.309372E+00
1.774375E+02  9.987301E-01 -1.093415E+01  2.386878E-03 7.827204E+01  2.049744E-03 8.043926E+01
2.397195E-03 7.833099E+01  9.964098E-01 -9.233798E+00  1.864143E-02 7.929143E+01
2.057167E-03 8.010972E+01  1.862606E-02 7.925695E+01  9.975470E-01 -8.589705E+00
1.811250E+02  9.989549E-01 -1.108121E+01  2.414545E-03 7.857939E+01  2.085568E-03 7.962383E+01
2.403792E-03 7.848124E+01  9.964346E-01 -9.382706E+00  1.932201E-02 7.954385E+01
2.091853E-03 7.947598E+01  1.929274E-02 7.942373E+01  9.972222E-01 -8.746125E+00
1.848125E+02  9.996334E-01 -1.123697E+01  2.515258E-03 7.984900E+01  2.182788E-03 8.107011E+01
2.512580E-03 7.989572E+01  9.969335E-01 -9.565754E+00  1.945482E-02 7.910372E+01
2.174434E-03 8.081519E+01  1.945266E-02 7.899690E+01  9.972479E-01 -8.868193E+00
1.885000E+02  1.000100E+00 -1.147951E+01  2.514008E-03 7.931603E+01  2.207297E-03 8.066583E+01
2.523139E-03 7.930002E+01  9.975847E-01 -9.751786E+00  1.992382E-02 7.842451E+01
2.199080E-03 8.046209E+01  1.989426E-02 7.845073E+01  9.978032E-01 -9.098955E+00
1.921875E+02  9.990249E-01 -1.177216E+01  2.619834E-03 7.937586E+01  2.296656E-03 8.035615E+01
2.626786E-03 7.937639E+01  9.975587E-01 -1.004363E+01  2.046149E-02 7.890897E+01
2.291727E-03 8.023303E+01  2.043482E-02 7.893612E+01  9.974148E-01 -9.374380E+00
1.958750E+02  9.988291E-01 -1.197597E+01  2.753712E-03 7.865629E+01  2.466034E-03 7.883163E+01
2.745326E-03 7.880283E+01  9.961439E-01 -1.017236E+01  2.064400E-02 7.798969E+01
2.456000E-03 7.870051E+01  2.061666E-02 7.805780E+01  9.955987E-01 -9.540705E+00
1.995625E+02  9.985859E-01 -1.205368E+01  2.780156E-03 7.745007E+01  2.410810E-03 7.675988E+01
2.776169E-03 7.760423E+01  9.970934E-01 -1.029095E+01  2.112103E-02 7.807705E+01
2.411959E-03 7.668164E+01  2.109793E-02 7.804022E+01  9.964624E-01 -9.714059E+00
2.032500E+02  9.992477E-01 -1.242554E+01  2.843041E-03 7.613465E+01  2.450493E-03 7.623577E+01
2.841112E-03 7.630235E+01  9.979145E-01 -1.047281E+01  2.152130E-02 7.839132E+01
2.453503E-03 7.640204E+01  2.148693E-02 7.838526E+01  9.973573E-01 -9.848048E+00
2.069375E+02  9.985692E-01 -1.266824E+01  2.713404E-03 7.588288E+01  2.330073E-03 7.463164E+01
2.721309E-03 7.587727E+01  9.968270E-01 -1.069605E+01  2.189880E-02 7.790410E+01
2.326047E-03 7.517575E+01  2.184582E-02 7.788443E+01  9.975967E-01 -1.008140E+01
2.106250E+02  9.987109E-01 -1.276941E+01  2.724369E-03 7.442558E+01  2.498890E-03 7.630107E+01
2.713262E-03 7.430116E+01  9.960994E-01 -1.071995E+01  2.234615E-02 7.731869E+01
2.488906E-03 7.652079E+01  2.232073E-02 7.731464E+01  9.962932E-01 -1.018556E+01
2.143125E+02  9.978563E-01 -1.303918E+01  2.887347E-03 7.666704E+01  2.378455E-03 7.889970E+01
2.888003E-03 7.680190E+01  9.964098E-01 -1.098389E+01  2.258816E-02 7.729756E+01
2.382682E-03 7.927188E+01  2.256223E-02 7.745443E+01  9.962218E-01 -1.052236E+01
2.180000E+02  9.975895E-01 -1.327989E+01  2.846198E-03 7.724072E+01  2.503971E-03 7.604519E+01
2.845237E-03 7.694258E+01  9.966946E-01 -1.125712E+01  2.290339E-02 7.739898E+01
2.491956E-03 7.581070E+01  2.289494E-02 7.742340E+01  9.964550E-01 -1.074904E+01
2.216875E+02  9.967070E-01 -1.343407E+01  2.883039E-03 7.492067E+01  2.524551E-03 7.519203E+01
2.884826E-03 7.492506E+01  9.930658E-01 -1.136849E+01  2.343017E-02 7.662513E+01
2.525912E-03 7.524881E+01  2.345443E-02 7.662437E+01  9.944416E-01 -1.089018E+01
2.253750E+02  9.980499E-01 -1.361413E+01  2.931086E-03 7.565065E+01  2.451656E-03 7.702651E+01
2.927959E-03 7.572404E+01  9.965882E-01 -1.152428E+01  2.379584E-02 7.719011E+01
2.456541E-03 7.690993E+01  2.379530E-02 7.719985E+01  9.968681E-01 -1.101053E+01
2.290625E+02  9.983184E-01 -1.385155E+01  2.858045E-03 7.658637E+01  2.531082E-03 7.807010E+01
2.856581E-03 7.683861E+01  9.969950E-01 -1.176080E+01  2.396475E-02 7.599949E+01
2.525526E-03 7.774369E+01  2.394463E-02 7.599502E+01  9.957465E-01 -1.112167E+01
2.327500E+02  9.985561E-01 -1.369832E+01  3.010870E-03 7.756675E+01  2.662108E-03 7.918147E+01
3.012863E-03 7.766311E+01  9.950782E-01 -1.160207E+01  2.421353E-02 7.642404E+01
2.668387E-03 7.889355E+01  2.419767E-02 7.648353E+01  9.958967E-01 -1.101188E+01
2.364375E+02  9.976349E-01 -1.425864E+01  3.071796E-03 7.808609E+01  2.675555E-03 7.804363E+01
3.070962E-03 7.809017E+01  9.966021E-01 -1.210527E+01  2.473255E-02 7.651452E+01
2.665863E-03 7.813328E+01  2.472438E-02 7.646190E+01  9.977637E-01 -1.158295E+01
2.401250E+02  9.982203E-01 -1.456135E+01  3.174955E-03 7.765595E+01  2.697425E-03 7.711300E+01
3.183587E-03 7.779544E+01  9.974962E-01 -1.234244E+01  2.514523E-02 7.617400E+01
2.683425E-03 7.724829E+01  2.517663E-02 7.627373E+01  9.975889E-01 -1.175798E+01
2.438125E+02  9.982513E-01 -1.481581E+01  3.220155E-03 7.694782E+01  2.881702E-03 7.741860E+01
3.236296E-03 7.673953E+01  9.965365E-01 -1.252852E+01  2.584684E-02 7.596234E+01
2.898483E-03 7.767826E+01  2.587376E-02 7.597466E+01  9.968153E-01 -1.193407E+01
2.475000E+02  9.968132E-01 -1.502086E+01  3.250708E-03 7.524232E+01  2.618986E-03 7.571678E+01
3.250090E-03 7.517543E+01  9.954597E-01 -1.267044E+01  2.562651E-02 7.585168E+01
2.634444E-03 7.583229E+01  2.568791E-02 7.586306E+01  9.949151E-01 -1.210537E+01
2.511875E+02  9.975601E-01 -1.520917E+01  3.300723E-03 7.590966E+01  2.798727E-03 7.685042E+01
3.305941E-03 7.614639E+01  9.957662E-01 -1.285591E+01  2.593236E-02 7.515965E+01
2.810856E-03 7.679801E+01  2.597352E-02 7.516071E+01  9.951564E-01 -1.222520E+01
2.548750E+02  9.982312E-01 -1.541821E+01  3.296021E-03 7.623602E+01  2.881322E-03 7.803705E+01
3.318925E-03 7.626645E+01  9.959331E-01 -1.301567E+01  2.643270E-02 7.531856E+01
2.890737E-03 7.799770E+01  2.645476E-02 7.537499E+01  9.966625E-01 -1.243784E+01
2.585625E+02  9.981584E-01 -1.570907E+01  3.396273E-03 7.652772E+01  2.978164E-03 7.701728E+01
3.413850E-03 7.636361E+01  9.959351E-01 -1.315097E+01  2.689543E-02 7.586556E+01
2.990902E-03 7.738828E+01  2.689987E-02 7.578244E+01  9.972934E-01 -1.263334E+01
2.622500E+02  9.972515E-01 -1.593950E+01  3.496735E-03 7.568811E+01  3.021379E-03 7.686306E+01
3.494446E-03 7.565623E+01  9.962859E-01 -1.336745E+01  2.719417E-02 7.520179E+01
3.026295E-03 7.686615E+01  2.717724E-02 7.506948E+01  9.970758E-01 -1.282230E+01
2.659375E+02  9.969395E-01 -1.614549E+01  3.527114E-03 7.527297E+01  3.067787E-03 7.554145E+01
3.518630E-03 7.545654E+01  9.973336E-01 -1.363542E+01  2.775427E-02 7.538309E+01
3.082118E-03 7.544027E+01  2.776893E-02 7.523823E+01  9.969338E-01 -1.301434E+01
2.696250E+02  9.958581E-01 -1.640320E+01  3.617933E-03 7.340084E+01  3.193366E-03 7.277778E+01
3.609650E-03 7.347325E+01  9.953520E-01 -1.381268E+01  2.819538E-02 7.544015E+01
3.201414E-03 7.277165E+01  2.820318E-02 7.519845E+01  9.956261E-01 -1.314250E+01
2.733125E+02  9.969233E-01 -1.646440E+01  3.592128E-03 7.446865E+01  3.056841E-03 7.594395E+01
3.600431E-03 7.460181E+01  9.947182E-01 -1.389765E+01  2.851345E-02 7.502639E+01
3.047313E-03 7.578847E+01  2.847160E-02 7.490121E+01  9.949359E-01 -1.324888E+01
2.770000E+02  9.975763E-01 -1.669452E+01  3.621900E-03 7.515078E+01  3.191946E-03 7.684184E+01
3.630021E-03 7.514613E+01  9.960043E-01 -1.417082E+01  2.919872E-02 7.396420E+01
3.175454E-03 7.673307E+01  2.919200E-02 7.380513E+01  9.953486E-01 -1.346818E+01
2.806875E+02  9.971469E-01 -1.698663E+01  3.731710E-03 7.570562E+01  3.322159E-03 7.595067E+01
3.732679E-03 7.559913E+01  9.958679E-01 -1.430692E+01  2.906448E-02 7.433063E+01
3.300088E-03 7.583011E+01  2.900860E-02 7.419596E+01  9.949848E-01 -1.355930E+01
2.843750E+02  9.978923E-01 -1.714370E+01  3.790152E-03 7.576021E+01  3.464041E-03 7.443672E+01
3.792673E-03 7.586647E+01  9.952305E-01 -1.449480E+01  2.924458E-02 7.302725E+01
3.458994E-03 7.425064E+01  2.922212E-02 7.297467E+01  9.961727E-01 -1.372943E+01
2.880625E+02  9.965784E-01 -1.744789E+01  3.936144E-03 7.246394E+01  3.324033E-03 7.216511E+01
3.932598E-03 7.244730E+01  9.953040E-01 -1.461104E+01  2.967608E-02 7.429615E+01
3.323578E-03 7.217373E+01  2.963079E-02 7.424339E+01  9.950639E-01 -1.393074E+01
2.917500E+02  9.964304E-01 -1.768733E+01  4.062370E-03 7.276485E+01  3.457296E-03 6.957151E+01
4.053440E-03 7.277356E+01  9.956687E-01 -1.490434E+01  2.992774E-02 7.447574E+01
3.453213E-03 6.945772E+01  2.984909E-02 7.450374E+01  9.949070E-01 -1.408474E+01
2.954375E+02  9.954724E-01 -1.788474E+01  3.799605E-03 7.105561E+01  3.314208E-03 7.242348E+01
3.802845E-03 7.102009E+01  9.934734E-01 -1.513076E+01  3.071802E-02 7.338673E+01
3.290885E-03 7.262419E+01  3.063954E-02 7.346724E+01  9.937912E-01 -1.436012E+01
2.991250E+02  9.952385E-01 -1.796038E+01  3.735651E-03 6.928067E+01  3.118982E-03 6.919186E+01
3.729121E-03 6.896627E+01  9.947056E-01 -1.528942E+01  3.146253E-02 7.352708E+01
3.101174E-03 6.918328E+01  3.140259E-02 7.366502E+01  9.945295E-01 -1.447384E+01
3.028125E+02  9.960397E-01 -1.815648E+01  3.821813E-03 7.177279E+01  3.264149E-03 7.270115E+01
3.812461E-03 7.172246E+01  9.954155E-01 -1.542901E+01  3.110707E-02 7.298157E+01
3.264639E-03 7.279155E+01  3.103426E-02 7.304958E+01  9.957168E-01 -1.458964E+01
3.065000E+02  9.966789E-01 -1.842807E+01  3.822119E-03 7.310359E+01  3.240726E-03 7.402866E+01
3.829849E-03 7.324669E+01  9.948999E-01 -1.562955E+01  3.145534E-02 7.268895E+01
3.231184E-03 7.399762E+01  3.142143E-02 7.273152E+01  9.954273E-01 -1.475270E+01
3.101875E+02  9.974762E-01 -1.867304E+01  3.950236E-03 7.298292E+01  3.393980E-03 7.459902E+01
3.950547E-03 7.308452E+01  9.959472E-01 -1.584128E+01  3.197435E-02 7.327916E+01
3.382183E-03 7.448569E+01  3.195167E-02 7.341993E+01  9.951074E-01 -1.489466E+01
3.138750E+02  9.971832E-01 -1.888941E+01  4.018766E-03 7.379318E+01  3.444252E-03 7.373764E+01
4.020254E-03 7.395978E+01  9.958988E-01 -1.601127E+01  3.245509E-02 7.310996E+01
3.431711E-03 7.390334E+01  3.243738E-02 7.323118E+01  9.951414E-01 -1.512683E+01
3.175625E+02  9.959248E-01 -1.917714E+01  4.142983E-03 7.292887E+01  3.593481E-03 7.357044E+01
4.151387E-03 7.304011E+01  9.949616E-01 -1.626144E+01  3.307959E-02 7.215527E+01
3.583898E-03 7.370135E+01  3.308085E-02 7.222852E+01  9.952387E-01 -1.540826E+01
3.212500E+02  9.956941E-01 -1.933181E+01  4.108617E-03 7.151788E+01  3.536047E-03 7.238164E+01
4.102481E-03 7.166049E+01  9.935464E-01 -1.642892E+01  3.317283E-02 7.177304E+01
3.537665E-03 7.283361E+01  3.321521E-02 7.190538E+01  9.944559E-01 -1.548815E+01
3.249375E+02  9.968751E-01 -1.953464E+01  4.120494E-03 7.222678E+01  3.521693E-03 7.302454E+01
4.127922E-03 7.232359E+01  9.934761E-01 -1.657693E+01  3.293432E-02 7.149441E+01
3.521478E-03 7.288110E+01  3.302930E-02 7.152054E+01  9.944122E-01 -1.556604E+01
3.286250E+02  9.976667E-01 -1.976833E+01  4.255514E-03 7.347144E+01  3.627693E-03 7.351943E+01
4.242307E-03 7.354853E+01  9.948851E-01 -1.670500E+01  3.349277E-02 7.185201E+01
3.629456E-03 7.371352E+01  3.353027E-02 7.197546E+01  9.943798E-01 -1.577024E+01
3.323125E+02  9.974300E-01 -1.994759E+01  4.275726E-03 7.315789E+01  3.682788E-03 7.374071E+01
4.276468E-03 7.307824E+01  9.959145E-01 -1.694763E+01  3.415312E-02 7.221367E+01
3.687255E-03 7.384889E+01  3.405612E-02 7.222566E+01  9.962199E-01 -1.594459E+01
3.360000E+02  9.988085E-01 -2.020348E+01  4.331203E-03 7.233775E+01  3.757996E-03 7.329349E+01
4.328781E-03 7.240007E+01  9.945007E-01 -1.713323E+01  3.415665E-02 7.188987E+01
3.744384E-03 7.338122E+01  3.421934E-02 7.182005E+01  9.945766E-01 -1.615509E+01
3.396875E+02  9.978630E-01 -2.046755E+01  4.402251E-03 7.224377E+01  3.797352E-03 7.325102E+01
4.421111E-03 7.231573E+01  9.949679E-01 -1.737728E+01  3.485546E-02 7.143066E+01
3.799460E-03 7.331626E+01  3.494080E-02 7.148826E+01  9.948089E-01 -1.632625E+01
3.433750E+02  9.948295E-01 -2.066085E+01  4.441414E-03 7.201669E+01  3.762889E-03 7.234026E+01
4.442653E-03 7.188797E+01  9.944250E-01 -1.760879E+01  3.527388E-02 7.164535E+01
3.767392E-03 7.271017E+01  3.538328E-02 7.158210E+01  9.946914E-01 -1.653304E+01
3.470625E+02  9.954215E-01 -2.081368E+01  4.465440E-03 7.069374E+01  3.808962E-03 7.278121E+01
4.486694E-03 7.085931E+01  9.935603E-01 -1.770366E+01  3.559962E-02 7.113334E+01
3.819808E-03 7.266821E+01  3.566798E-02 7.109655E+01  9.937019E-01 -1.662772E+01
3.507500E+02  9.958061E-01 -2.102869E+01  4.550233E-03 7.204866E+01  3.932920E-03 7.286053E+01
4.555242E-03 7.211044E+01  9.936673E-01 -1.787272E+01  3.572583E-02 7.096484E+01
3.943298E-03 7.286423E+01  3.578889E-02 7.096220E+01  9.941219E-01 -1.681576E+01
3.544375E+02  9.944116E-01 -2.118210E+01  4.593354E-03 7.140426E+01  3.945151E-03 7.242045E+01
4.590296E-03 7.151295E+01  9.917342E-01 -1.793066E+01  3.597719E-02 7.110757E+01
3.950532E-03 7.226282E+01  3.600408E-02 7.103306E+01  9.915230E-01 -1.693449E+01
3.581250E+02  9.980417E-01 -2.156072E+01  4.667881E-03 7.132054E+01  4.043859E-03 7.231350E+01
4.675138E-03 7.156217E+01  9.934245E-01 -1.825910E+01  3.631204E-02 7.015619E+01
4.035597E-03 7.234905E+01  3.635289E-02 7.005737E+01  9.945058E-01 -1.720223E+01
3.618125E+02  9.977826E-01 -2.178835E+01  4.738720E-03 7.172161E+01  4.128457E-03 7.263675E+01
4.745642E-03 7.180299E+01  9.944192E-01 -1.849821E+01  3.672240E-02 7.052064E+01
4.136827E-03 7.245311E+01  3.675819E-02 7.039764E+01  9.947773E-01 -1.738939E+01
3.655000E+02  9.962466E-01 -2.196781E+01  4.860383E-03 7.128299E+01  4.258927E-03 7.235476E+01
4.863993E-03 7.127715E+01  9.950855E-01 -1.866464E+01  3.716498E-02 7.095969E+01
4.258485E-03 7.224438E+01  3.712896E-02 7.089057E+01  9.937083E-01 -1.753240E+01
3.691875E+02  9.945351E-01 -2.215684E+01  4.964787E-03 7.041894E+01  4.333162E-03 7.190590E+01
4.955601E-03 7.055732E+01  9.908945E-01 -1.881821E+01  3.774033E-02 7.044767E+01
4.327856E-03 7.185780E+01  3.765099E-02 7.038657E+01  9.917641E-01 -1.770439E+01
3.728750E+02  9.950114E-01 -2.238065E+01  4.949258E-03 7.069291E+01  4.355934E-03 6.956934E+01
4.943047E-03 7.067723E+01  9.921881E-01 -1.889775E+01  3.818732E-02 6.967786E+01
4.338720E-03 6.954720E+01  3.810724E-02 6.953943E+01  9.932201E-01 -1.785621E+01
3.765625E+02  9.951348E-01 -2.254166E+01  5.091599E-03 6.827556E+01  4.363231E-03 6.886619E+01
5.086532E-03 6.824480E+01  9.940877E-01 -1.916011E+01  3.788456E-02 6.983415E+01
4.369877E-03 6.874087E+01  3.788575E-02 6.980522E+01  9.936965E-01 -1.810086E+01
