! Matrix data file written by TouchstoneData, EPCOS AG
! FILENAME: "LY65A_X34Y34_F2_NB.s3p_newformat"
! COMMENT: "(LY65A_X34Y34_F2_NB.s3p) Epcos AG 12/3/2010"
! INFO: nport=3, nfreq=801
! DATE: "Wed Jun 15 09:02:24 2011"
! USER: "Michael Schemies"
!
! port | pin | signal
! -----|-----|--------
!   1  |  4  |  in
!   2  |  6  |  out
!   3  |  7  |  out
! --------------------
!
# MHZ S MA R 50
! freq  magS11 angS11  magS12 angS12  magS13 angS13  ...
7.500000E+02  9.653766E-01 -1.010867E+02  1.102154E-02 3.126971E+01  7.616278E-03 3.840486E+01
1.107877E-02 3.118352E+01  8.950135E-01 -3.646596E+01  4.036146E-01 5.249182E+01
7.653763E-03 3.844333E+01  4.029525E-01 5.264125E+01  8.962822E-01 -3.639118E+01
7.503750E+02  9.652996E-01 -1.011788E+02  1.099827E-02 3.175886E+01  7.697187E-03 3.794760E+01
1.099242E-02 3.196300E+01  8.949425E-01 -3.646494E+01  4.030684E-01 5.241247E+01
7.688095E-03 3.797163E+01  4.027824E-01 5.257202E+01  8.962985E-01 -3.638718E+01
7.507500E+02  9.649270E-01 -1.012744E+02  1.108573E-02 3.081729E+01  7.691873E-03 3.790606E+01
1.111654E-02 3.075521E+01  8.953227E-01 -3.650544E+01  4.031097E-01 5.242844E+01
7.702788E-03 3.811190E+01  4.028425E-01 5.259590E+01  8.967054E-01 -3.640460E+01
7.511250E+02  9.642032E-01 -1.013614E+02  1.098341E-02 3.054519E+01  7.706550E-03 3.753041E+01
1.097704E-02 3.046139E+01  8.950549E-01 -3.653885E+01  4.033643E-01 5.247896E+01
7.688365E-03 3.774309E+01  4.032147E-01 5.262706E+01  8.962424E-01 -3.645845E+01
7.515000E+02  9.634698E-01 -1.014122E+02  1.085937E-02 3.028836E+01  7.668010E-03 3.691376E+01
1.086129E-02 3.031810E+01  8.948828E-01 -3.656805E+01  4.043353E-01 5.250476E+01
7.663396E-03 3.719086E+01  4.040382E-01 5.266673E+01  8.956730E-01 -3.645990E+01
7.518750E+02  9.632421E-01 -1.014565E+02  1.083221E-02 3.085547E+01  7.636731E-03 3.716003E+01
1.087318E-02 3.079645E+01  8.944203E-01 -3.658887E+01  4.049322E-01 5.245327E+01
7.648109E-03 3.735193E+01  4.046816E-01 5.263827E+01  8.953594E-01 -3.643347E+01
7.522500E+02  9.633485E-01 -1.015287E+02  1.092154E-02 3.035205E+01  7.690974E-03 3.701318E+01
1.093561E-02 3.021076E+01  8.944318E-01 -3.662389E+01  4.051297E-01 5.242934E+01
7.713299E-03 3.716749E+01  4.049581E-01 5.260305E+01  8.955269E-01 -3.646332E+01
7.526250E+02  9.626944E-01 -1.016229E+02  1.091488E-02 2.967194E+01  7.681755E-03 3.682737E+01
1.091910E-02 2.947608E+01  8.941914E-01 -3.665186E+01  4.058325E-01 5.247068E+01
7.678189E-03 3.707224E+01  4.055503E-01 5.263549E+01  8.956118E-01 -3.646690E+01
7.530000E+02  9.619239E-01 -1.017047E+02  1.076539E-02 2.881155E+01  7.653145E-03 3.564025E+01
1.079544E-02 2.862340E+01  8.941436E-01 -3.667595E+01  4.066432E-01 5.242485E+01
7.645175E-03 3.584531E+01  4.063464E-01 5.260522E+01  8.955955E-01 -3.649586E+01
7.533750E+02  9.610144E-01 -1.017237E+02  1.056338E-02 2.868562E+01  7.475894E-03 3.592238E+01
1.057973E-02 2.844840E+01  8.940200E-01 -3.670507E+01  4.074103E-01 5.238866E+01
7.471327E-03 3.589522E+01  4.070554E-01 5.253942E+01  8.954556E-01 -3.651518E+01
7.537500E+02  9.610357E-01 -1.017801E+02  1.049181E-02 2.901184E+01  7.515043E-03 3.688648E+01
1.051253E-02 2.916771E+01  8.945152E-01 -3.671871E+01  4.080585E-01 5.230311E+01
7.521122E-03 3.665166E+01  4.075995E-01 5.244021E+01  8.959456E-01 -3.654095E+01
7.541250E+02  9.601525E-01 -1.018390E+02  1.047710E-02 2.909048E+01  7.440101E-03 3.615657E+01
1.049836E-02 2.882070E+01  8.943078E-01 -3.676068E+01  4.085203E-01 5.228546E+01
7.429673E-03 3.615202E+01  4.081099E-01 5.241735E+01  8.957933E-01 -3.655974E+01
7.545000E+02  9.599803E-01 -1.018812E+02  1.042408E-02 2.868859E+01  7.413213E-03 3.642486E+01
1.040757E-02 2.840089E+01  8.939725E-01 -3.677899E+01  4.090263E-01 5.219382E+01
7.419953E-03 3.654794E+01  4.087134E-01 5.234809E+01  8.961731E-01 -3.660438E+01
7.548750E+02  9.597103E-01 -1.019279E+02  1.019196E-02 2.858303E+01  7.381705E-03 3.645717E+01
1.019789E-02 2.843355E+01  8.940952E-01 -3.678911E+01  4.093882E-01 5.215448E+01
7.337760E-03 3.704497E+01  4.090106E-01 5.230423E+01  8.960441E-01 -3.664972E+01
7.552500E+02  9.598276E-01 -1.019581E+02  1.009273E-02 2.885041E+01  7.316232E-03 3.776148E+01
1.010597E-02 2.905054E+01  8.941107E-01 -3.682634E+01  4.099236E-01 5.208636E+01
7.308898E-03 3.779303E+01  4.096181E-01 5.224054E+01  8.959910E-01 -3.667554E+01
7.556250E+02  9.595059E-01 -1.020431E+02  1.005801E-02 2.970879E+01  7.375476E-03 3.822637E+01
1.003309E-02 2.953971E+01  8.940062E-01 -3.687714E+01  4.102818E-01 5.204126E+01
7.373571E-03 3.808206E+01  4.098032E-01 5.219511E+01  8.955404E-01 -3.670212E+01
7.560000E+02  9.589576E-01 -1.020556E+02  1.002307E-02 3.020247E+01  7.350722E-03 3.870132E+01
1.003602E-02 2.989761E+01  8.936798E-01 -3.688124E+01  4.103830E-01 5.199655E+01
7.340926E-03 3.884658E+01  4.099774E-01 5.215110E+01  8.952959E-01 -3.670428E+01
7.563750E+02  9.601226E-01 -1.020557E+02  9.996761E-03 3.039241E+01  7.542413E-03 3.923741E+01
1.001449E-02 3.032041E+01  8.937924E-01 -3.693582E+01  4.107573E-01 5.197047E+01
7.549479E-03 3.951095E+01  4.101821E-01 5.211606E+01  8.952448E-01 -3.675514E+01
7.567500E+02  9.608689E-01 -1.021214E+02  9.921008E-03 3.074098E+01  7.603893E-03 3.844692E+01
9.940434E-03 3.059703E+01  8.935953E-01 -3.698021E+01  4.111441E-01 5.192241E+01
7.589296E-03 3.866418E+01  4.107003E-01 5.208038E+01  8.950339E-01 -3.679411E+01
7.571250E+02  9.613725E-01 -1.022036E+02  9.962405E-03 3.146409E+01  7.563375E-03 3.804412E+01
9.962494E-03 3.128148E+01  8.931832E-01 -3.702195E+01  4.113766E-01 5.187496E+01
7.564914E-03 3.807663E+01  4.108322E-01 5.201416E+01  8.946103E-01 -3.682375E+01
7.575000E+02  9.614794E-01 -1.022397E+02  9.946208E-03 3.153573E+01  7.567952E-03 3.821508E+01
9.952452E-03 3.148036E+01  8.929589E-01 -3.703525E+01  4.114347E-01 5.186656E+01
7.588506E-03 3.839773E+01  4.109164E-01 5.201516E+01  8.944150E-01 -3.682943E+01
7.578750E+02  9.623165E-01 -1.022686E+02  1.000520E-02 3.193138E+01  7.565948E-03 3.849864E+01
1.002398E-02 3.188689E+01  8.929502E-01 -3.707737E+01  4.117765E-01 5.185938E+01
7.587749E-03 3.885756E+01  4.113530E-01 5.199731E+01  8.943958E-01 -3.687077E+01
7.582500E+02  9.631933E-01 -1.023534E+02  1.004557E-02 3.180722E+01  7.673002E-03 3.789787E+01
1.004420E-02 3.183477E+01  8.928213E-01 -3.712082E+01  4.123237E-01 5.181417E+01
7.647833E-03 3.790591E+01  4.118373E-01 5.196224E+01  8.939588E-01 -3.692187E+01
7.586250E+02  9.636411E-01 -1.024571E+02  1.009333E-02 3.193084E+01  7.618922E-03 3.752664E+01
1.010531E-02 3.181568E+01  8.926685E-01 -3.716073E+01  4.125985E-01 5.176754E+01
7.612714E-03 3.773765E+01  4.121623E-01 5.191734E+01  8.937856E-01 -3.694820E+01
7.590000E+02  9.639623E-01 -1.025370E+02  1.005460E-02 3.192371E+01  7.612570E-03 3.690452E+01
1.004235E-02 3.202546E+01  8.923248E-01 -3.720035E+01  4.129183E-01 5.172840E+01
7.587101E-03 3.701868E+01  4.125335E-01 5.188101E+01  8.933196E-01 -3.697384E+01
7.593750E+02  9.644764E-01 -1.026066E+02  1.013774E-02 3.205090E+01  7.579278E-03 3.704710E+01
1.014636E-02 3.201594E+01  8.922677E-01 -3.722636E+01  4.131352E-01 5.169054E+01
7.592764E-03 3.736869E+01  4.127667E-01 5.184168E+01  8.932654E-01 -3.701561E+01
7.597500E+02  9.652671E-01 -1.027231E+02  1.013109E-02 3.154927E+01  7.494572E-03 3.678750E+01
1.013486E-02 3.159542E+01  8.922480E-01 -3.727645E+01  4.136903E-01 5.167630E+01
7.516141E-03 3.682670E+01  4.132462E-01 5.182123E+01  8.929695E-01 -3.706215E+01
7.601250E+02  9.655596E-01 -1.028425E+02  1.010926E-02 3.165335E+01  7.476954E-03 3.688782E+01
1.010097E-02 3.149425E+01  8.919632E-01 -3.729666E+01  4.141137E-01 5.162250E+01
7.467286E-03 3.706863E+01  4.140333E-01 5.177376E+01  8.928861E-01 -3.709770E+01
7.605000E+02  9.655939E-01 -1.029393E+02  1.011089E-02 3.163169E+01  7.396580E-03 3.695003E+01
1.013788E-02 3.155997E+01  8.921140E-01 -3.733616E+01  4.146867E-01 5.158250E+01
7.381330E-03 3.675700E+01  4.143886E-01 5.174611E+01  8.923448E-01 -3.711931E+01
7.608750E+02  9.658499E-01 -1.030511E+02  1.011283E-02 3.151461E+01  7.418006E-03 3.752000E+01
1.007499E-02 3.167852E+01  8.920035E-01 -3.736929E+01  4.152120E-01 5.151413E+01
7.394240E-03 3.776166E+01  4.148480E-01 5.169831E+01  8.922162E-01 -3.712807E+01
7.612500E+02  9.659258E-01 -1.031560E+02  1.013854E-02 3.140964E+01  7.441272E-03 3.778087E+01
1.016489E-02 3.145281E+01  8.919276E-01 -3.739399E+01  4.157774E-01 5.148378E+01
7.428169E-03 3.811372E+01  4.153484E-01 5.163085E+01  8.924523E-01 -3.717186E+01
7.616250E+02  9.656396E-01 -1.032506E+02  1.007739E-02 3.134511E+01  7.452257E-03 3.813989E+01
1.010353E-02 3.129528E+01  8.913690E-01 -3.742665E+01  4.159060E-01 5.142503E+01
7.440590E-03 3.819008E+01  4.155506E-01 5.157962E+01  8.922731E-01 -3.720298E+01
7.620000E+02  9.657193E-01 -1.033513E+02  1.009830E-02 3.167207E+01  7.492431E-03 3.755369E+01
1.010023E-02 3.160833E+01  8.914161E-01 -3.746418E+01  4.165515E-01 5.141734E+01
7.459160E-03 3.768596E+01  4.160689E-01 5.155262E+01  8.921770E-01 -3.723433E+01
7.623750E+02  9.661030E-01 -1.034384E+02  1.014441E-02 3.155053E+01  7.411156E-03 3.751128E+01
1.016490E-02 3.178083E+01  8.909139E-01 -3.751191E+01  4.170666E-01 5.136245E+01
7.413714E-03 3.754783E+01  4.164171E-01 5.148519E+01  8.921457E-01 -3.727034E+01
7.627500E+02  9.661616E-01 -1.035467E+02  1.023632E-02 3.093485E+01  7.335544E-03 3.811153E+01
1.021221E-02 3.109846E+01  8.905448E-01 -3.754040E+01  4.174854E-01 5.129992E+01
7.349773E-03 3.815443E+01  4.168291E-01 5.141482E+01  8.919766E-01 -3.728082E+01
7.631250E+02  9.658908E-01 -1.036432E+02  1.005170E-02 3.080977E+01  7.404769E-03 3.850479E+01
1.009678E-02 3.083155E+01  8.906035E-01 -3.756875E+01  4.177290E-01 5.127609E+01
7.387362E-03 3.865536E+01  4.169350E-01 5.138605E+01  8.920855E-01 -3.730227E+01
7.635000E+02  9.658210E-01 -1.037437E+02  1.006567E-02 3.129253E+01  7.427261E-03 3.853010E+01
1.009448E-02 3.132632E+01  8.902007E-01 -3.761870E+01  4.181170E-01 5.122782E+01
7.438448E-03 3.862607E+01  4.173525E-01 5.133714E+01  8.919677E-01 -3.734974E+01
7.638750E+02  9.657785E-01 -1.038255E+02  1.025144E-02 3.123932E+01  7.369858E-03 3.807447E+01
1.027429E-02 3.128638E+01  8.898896E-01 -3.764454E+01  4.185508E-01 5.119085E+01
7.389213E-03 3.841848E+01  4.175259E-01 5.127121E+01  8.917143E-01 -3.738483E+01
7.642500E+02  9.658494E-01 -1.039329E+02  1.027387E-02 3.000790E+01  7.311474E-03 3.906578E+01
1.032895E-02 3.014126E+01  8.896124E-01 -3.768692E+01  4.188613E-01 5.115246E+01
7.323317E-03 3.922142E+01  4.178451E-01 5.122701E+01  8.914777E-01 -3.742108E+01
7.646250E+02  9.654782E-01 -1.040583E+02  1.016422E-02 2.979013E+01  7.388374E-03 3.894336E+01
1.013843E-02 2.994585E+01  8.895770E-01 -3.770813E+01  4.191235E-01 5.112986E+01
7.410187E-03 3.901759E+01  4.181384E-01 5.122225E+01  8.913393E-01 -3.744540E+01
7.650000E+02  9.649034E-01 -1.041437E+02  1.014425E-02 2.994578E+01  7.326099E-03 3.875361E+01
1.016003E-02 3.018087E+01  8.894885E-01 -3.774973E+01  4.194428E-01 5.110693E+01
7.296385E-03 3.890136E+01  4.184634E-01 5.118705E+01  8.910026E-01 -3.749236E+01
7.653750E+02  9.644948E-01 -1.042386E+02  1.025954E-02 2.959588E+01  7.220741E-03 3.991416E+01
1.027640E-02 2.943571E+01  8.893361E-01 -3.779857E+01  4.199279E-01 5.106760E+01
7.207980E-03 4.013444E+01  4.188093E-01 5.116718E+01  8.905955E-01 -3.752815E+01
7.657500E+02  9.642326E-01 -1.043010E+02  1.017839E-02 2.878083E+01  7.310961E-03 4.082901E+01
1.018758E-02 2.854634E+01  8.889188E-01 -3.784265E+01  4.201779E-01 5.103642E+01
7.334940E-03 4.114674E+01  4.193422E-01 5.112835E+01  8.905501E-01 -3.756671E+01
7.661250E+02  9.642826E-01 -1.044327E+02  1.017992E-02 2.782353E+01  7.372366E-03 4.195225E+01
1.015115E-02 2.783595E+01  8.886182E-01 -3.787825E+01  4.205020E-01 5.098536E+01
7.352659E-03 4.203157E+01  4.195617E-01 5.109042E+01  8.902009E-01 -3.760324E+01
7.665000E+02  9.635210E-01 -1.045433E+02  9.923193E-03 2.753539E+01  7.525948E-03 4.165986E+01
9.953504E-03 2.742066E+01  8.884794E-01 -3.792767E+01  4.207821E-01 5.097000E+01
7.501677E-03 4.178462E+01  4.198610E-01 5.107716E+01  8.901160E-01 -3.763996E+01
7.668750E+02  9.630428E-01 -1.046270E+02  9.841008E-03 2.784854E+01  7.499515E-03 4.198121E+01
9.880145E-03 2.791890E+01  8.882551E-01 -3.795489E+01  4.213585E-01 5.094010E+01
7.469345E-03 4.236763E+01  4.204485E-01 5.103954E+01  8.895089E-01 -3.769390E+01
7.672500E+02  9.622938E-01 -1.047110E+02  9.824290E-03 2.776387E+01  7.583526E-03 4.257783E+01
9.801833E-03 2.792283E+01  8.881651E-01 -3.799588E+01  4.218825E-01 5.088239E+01
7.583304E-03 4.274002E+01  4.207441E-01 5.100053E+01  8.893646E-01 -3.770551E+01
7.676250E+02  9.620863E-01 -1.048031E+02  9.841341E-03 2.700088E+01  7.588623E-03 4.354234E+01
9.865178E-03 2.709738E+01  8.875916E-01 -3.805012E+01  4.222488E-01 5.082076E+01
7.570093E-03 4.358333E+01  4.211701E-01 5.091606E+01  8.891061E-01 -3.776421E+01
7.680000E+02  9.616313E-01 -1.048946E+02  9.601974E-03 2.656789E+01  7.857124E-03 4.428481E+01
9.656762E-03 2.668927E+01  8.871031E-01 -3.806588E+01  4.225203E-01 5.077161E+01
7.820100E-03 4.430647E+01  4.214906E-01 5.086562E+01  8.888707E-01 -3.779094E+01
7.683750E+02  9.612439E-01 -1.049813E+02  9.530643E-03 2.612003E+01  8.048521E-03 4.376956E+01
9.548009E-03 2.636328E+01  8.867706E-01 -3.810011E+01  4.227402E-01 5.072140E+01
8.035212E-03 4.413001E+01  4.217608E-01 5.081963E+01  8.887599E-01 -3.781352E+01
7.687500E+02  9.605296E-01 -1.050669E+02  9.299147E-03 2.615954E+01  8.249779E-03 4.292571E+01
9.313650E-03 2.611119E+01  8.868683E-01 -3.814039E+01  4.231116E-01 5.069667E+01
8.238542E-03 4.291962E+01  4.221726E-01 5.079139E+01  8.888559E-01 -3.784753E+01
7.691250E+02  9.604708E-01 -1.051413E+02  9.221708E-03 2.668342E+01  8.168205E-03 4.175395E+01
9.226110E-03 2.688208E+01  8.863618E-01 -3.818251E+01  4.235423E-01 5.064526E+01
8.197139E-03 4.200512E+01  4.224644E-01 5.073776E+01  8.884175E-01 -3.789793E+01
7.695000E+02  9.598616E-01 -1.052414E+02  9.221592E-03 2.681538E+01  8.104400E-03 4.192203E+01
9.243317E-03 2.687211E+01  8.861832E-01 -3.821697E+01  4.237904E-01 5.060464E+01
8.130855E-03 4.207113E+01  4.228625E-01 5.066937E+01  8.884044E-01 -3.793680E+01
7.698750E+02  9.593216E-01 -1.053046E+02  9.130675E-03 2.695621E+01  8.165904E-03 4.269371E+01
9.129329E-03 2.671103E+01  8.859727E-01 -3.826598E+01  4.239986E-01 5.055277E+01
8.151747E-03 4.291332E+01  4.231690E-01 5.063900E+01  8.881283E-01 -3.797327E+01
7.702500E+02  9.585075E-01 -1.053733E+02  9.063496E-03 2.641222E+01  8.320354E-03 4.324462E+01
9.075056E-03 2.650753E+01  8.857183E-01 -3.831484E+01  4.243725E-01 5.051170E+01
8.344128E-03 4.310988E+01  4.234895E-01 5.060574E+01  8.878466E-01 -3.802184E+01
7.706250E+02  9.578803E-01 -1.054219E+02  8.851120E-03 2.665150E+01  8.593640E-03 4.187535E+01
8.841737E-03 2.661723E+01  8.850628E-01 -3.835419E+01  4.244481E-01 5.047675E+01
8.585692E-03 4.225047E+01  4.237154E-01 5.059216E+01  8.874037E-01 -3.805152E+01
7.710000E+02  9.580666E-01 -1.054635E+02  8.684248E-03 2.728242E+01  8.451792E-03 4.118101E+01
8.683468E-03 2.734812E+01  8.847002E-01 -3.838651E+01  4.248117E-01 5.046645E+01
8.456116E-03 4.141259E+01  4.241729E-01 5.057645E+01  8.869639E-01 -3.811092E+01
7.713750E+02  9.580774E-01 -1.055643E+02  8.630644E-03 2.797283E+01  8.517019E-03 4.200899E+01
8.640494E-03 2.777093E+01  8.849119E-01 -3.844087E+01  4.253960E-01 5.042266E+01
8.522232E-03 4.202988E+01  4.244938E-01 5.053853E+01  8.861865E-01 -3.814922E+01
7.717500E+02  9.570931E-01 -1.056260E+02  8.557560E-03 2.839200E+01  8.530657E-03 4.264956E+01
8.562134E-03 2.830282E+01  8.845369E-01 -3.847646E+01  4.259566E-01 5.038438E+01
8.527405E-03 4.275881E+01  4.252804E-01 5.052345E+01  8.859709E-01 -3.818477E+01
7.721250E+02  9.565801E-01 -1.056681E+02  8.439676E-03 2.890002E+01  8.888381E-03 4.407020E+01
8.394509E-03 2.891853E+01  8.842537E-01 -3.851939E+01  4.262449E-01 5.032311E+01
8.899051E-03 4.428095E+01  4.256558E-01 5.045453E+01  8.852840E-01 -3.820784E+01
7.725000E+02  9.564388E-01 -1.056933E+02  8.321750E-03 2.953663E+01  9.415345E-03 4.182754E+01
8.280514E-03 2.956611E+01  8.839060E-01 -3.857662E+01  4.265540E-01 5.026266E+01
9.409876E-03 4.217345E+01  4.258678E-01 5.041204E+01  8.848992E-01 -3.822260E+01
7.728750E+02  9.573938E-01 -1.057391E+02  8.366215E-03 3.204782E+01  9.407280E-03 3.849058E+01
8.319967E-03 3.192068E+01  8.834562E-01 -3.861129E+01  4.268094E-01 5.025502E+01
9.426574E-03 3.863724E+01  4.261938E-01 5.039900E+01  8.846886E-01 -3.827018E+01
7.732500E+02  9.576813E-01 -1.058448E+02  8.526234E-03 3.157200E+01  9.268077E-03 3.805924E+01
8.553157E-03 3.164324E+01  8.828367E-01 -3.865000E+01  4.274595E-01 5.022120E+01
9.298690E-03 3.840515E+01  4.268214E-01 5.036353E+01  8.843914E-01 -3.830830E+01
7.736250E+02  9.577835E-01 -1.059193E+02  8.517282E-03 3.176949E+01  9.354793E-03 3.751940E+01
8.524684E-03 3.193986E+01  8.825933E-01 -3.868806E+01  4.280345E-01 5.015934E+01
9.376684E-03 3.753871E+01  4.273193E-01 5.032260E+01  8.839814E-01 -3.835700E+01
7.740000E+02  9.579241E-01 -1.059951E+02  8.580146E-03 3.220765E+01  9.431469E-03 3.639507E+01
8.567920E-03 3.223846E+01  8.821206E-01 -3.872935E+01  4.285821E-01 5.009241E+01
9.461165E-03 3.639939E+01  4.278237E-01 5.024941E+01  8.835129E-01 -3.837386E+01
7.743750E+02  9.580155E-01 -1.060781E+02  8.643342E-03 3.224261E+01  9.479741E-03 3.456445E+01
8.680948E-03 3.223071E+01  8.814394E-01 -3.876587E+01  4.287782E-01 5.002423E+01
9.526151E-03 3.502323E+01  4.279197E-01 5.018472E+01  8.832900E-01 -3.837591E+01
7.747500E+02  9.578295E-01 -1.061494E+02  8.692716E-03 3.083243E+01  9.272212E-03 3.341374E+01
8.727388E-03 3.078933E+01  8.805872E-01 -3.880172E+01  4.290948E-01 4.997318E+01
9.291029E-03 3.353262E+01  4.282229E-01 5.016040E+01  8.836900E-01 -3.840495E+01
7.751250E+02  9.578715E-01 -1.061859E+02  8.508639E-03 3.048699E+01  9.188108E-03 3.319147E+01
8.525294E-03 3.059662E+01  8.800082E-01 -3.880981E+01  4.294833E-01 4.992833E+01
9.212454E-03 3.317750E+01  4.287984E-01 5.012406E+01  8.838999E-01 -3.845730E+01
7.755000E+02  9.592366E-01 -1.062680E+02  8.429841E-03 3.039427E+01  9.150527E-03 3.307503E+01
8.446136E-03 3.045727E+01  8.793301E-01 -3.881545E+01  4.299243E-01 4.989775E+01
9.182652E-03 3.309339E+01  4.290569E-01 5.008576E+01  8.835616E-01 -3.851749E+01
7.758750E+02  9.594881E-01 -1.064057E+02  8.252807E-03 3.010732E+01  9.160393E-03 3.296369E+01
8.304470E-03 3.024262E+01  8.792255E-01 -3.884115E+01  4.304866E-01 4.984549E+01
9.196783E-03 3.310660E+01  4.294895E-01 5.003908E+01  8.830007E-01 -3.854720E+01
7.762500E+02  9.590740E-01 -1.065170E+02  8.025642E-03 2.994471E+01  9.227036E-03 3.257636E+01
8.034031E-03 2.996421E+01  8.780592E-01 -3.885298E+01  4.306424E-01 4.977902E+01
9.240482E-03 3.270935E+01  4.298303E-01 4.998193E+01  8.828160E-01 -3.855396E+01
7.766250E+02  9.584984E-01 -1.065768E+02  7.730886E-03 3.134615E+01  9.248514E-03 3.164146E+01
7.726782E-03 3.139471E+01  8.780970E-01 -3.883236E+01  4.308729E-01 4.973631E+01
9.242711E-03 3.172911E+01  4.299585E-01 4.993691E+01  8.827078E-01 -3.860129E+01
7.770000E+02  9.587145E-01 -1.066457E+02  7.680000E-03 3.349749E+01  9.207566E-03 3.111275E+01
7.671896E-03 3.331041E+01  8.777375E-01 -3.883429E+01  4.310123E-01 4.970161E+01
9.227336E-03 3.105478E+01  4.302229E-01 4.991465E+01  8.825920E-01 -3.863377E+01
7.773750E+02  9.590687E-01 -1.067430E+02  7.569960E-03 3.473255E+01  9.253908E-03 3.063070E+01
7.564776E-03 3.519646E+01  8.778060E-01 -3.881772E+01  4.311208E-01 4.968729E+01
9.234368E-03 3.086742E+01  4.304458E-01 4.991307E+01  8.823701E-01 -3.868937E+01
7.777500E+02  9.591134E-01 -1.068633E+02  7.636381E-03 3.685406E+01  9.266140E-03 2.985241E+01
7.624359E-03 3.663799E+01  8.778821E-01 -3.883123E+01  4.315382E-01 4.969126E+01
9.312813E-03 3.004101E+01  4.309234E-01 4.992785E+01  8.819246E-01 -3.872995E+01
7.781250E+02  9.589352E-01 -1.069647E+02  7.607222E-03 3.819555E+01  9.355828E-03 2.868322E+01
7.601164E-03 3.811910E+01  8.786461E-01 -3.883675E+01  4.320021E-01 4.961700E+01
9.381587E-03 2.880538E+01  4.314502E-01 4.985110E+01  8.814707E-01 -3.875643E+01
