! Matrix data file written by TouchstoneData, EPCOS AG
! FILENAME: "LY65A_X34Y34_F2_WB.s3p_newformat"
! COMMENT: "(LY65A_X34Y34_F2_WB.s3p) Epcos AG 12/3/2010"
! INFO: nport=3, nfreq=1601
! DATE: "Wed Jun 15 09:23:11 2011"
! USER: "Michael Schemies"
!
! port | pin | signal
! -----|-----|--------
!   1  |  4  |  in
!   2  |  6  |  out
!   3  |  7  |  out
! --------------------
!
# MHZ S MA R 50
! freq  magS11 angS11  magS12 angS12  magS13 angS13  ...
1.000000E+02  9.970351E-01 -1.471976E+01  2.834113E-03 8.020427E+01  1.720336E-03 8.390615E+01
2.834619E-03 7.994626E+01  9.959507E-01 -4.920980E+00  5.287385E-02 8.483909E+01
1.695408E-03 8.413766E+01  5.286719E-02 8.500925E+01  9.968615E-01 -4.767874E+00
1.036875E+02  9.971696E-01 -1.528718E+01  2.832215E-03 8.018549E+01  1.702786E-03 7.980158E+01
2.846458E-03 7.998867E+01  9.948265E-01 -5.107061E+00  5.483229E-02 8.454993E+01
1.722078E-03 8.053346E+01  5.486006E-02 8.475663E+01  9.964276E-01 -4.964143E+00
1.073750E+02  9.971690E-01 -1.583290E+01  3.035551E-03 7.948875E+01  1.836617E-03 8.189758E+01
3.050810E-03 8.017341E+01  9.943308E-01 -5.361072E+00  5.643989E-02 8.432962E+01
1.870818E-03 8.197492E+01  5.655106E-02 8.454071E+01  9.958984E-01 -5.181092E+00
1.110625E+02  9.969853E-01 -1.637429E+01  3.131142E-03 7.921706E+01  1.886233E-03 8.096888E+01
3.057441E-03 7.911744E+01  9.920406E-01 -5.663819E+00  5.842000E-02 8.404072E+01
1.865709E-03 8.198113E+01  5.873674E-02 8.445200E+01  9.963016E-01 -5.334757E+00
1.147500E+02  9.968029E-01 -1.688800E+01  3.362436E-03 7.701081E+01  2.119298E-03 7.564781E+01
3.381165E-03 7.673814E+01  9.921613E-01 -5.921302E+00  6.006105E-02 8.400652E+01
2.126521E-03 7.404308E+01  6.031247E-02 8.455159E+01  9.965564E-01 -5.506337E+00
1.184375E+02  9.963951E-01 -1.747580E+01  3.207682E-03 7.371232E+01  1.905822E-03 7.743087E+01
3.232564E-03 7.373797E+01  9.903972E-01 -6.065931E+00  6.253157E-02 8.398848E+01
1.901803E-03 7.840519E+01  6.276537E-02 8.421859E+01  9.961041E-01 -5.723245E+00
1.221250E+02  9.956249E-01 -1.792395E+01  3.296916E-03 7.695414E+01  1.942918E-03 6.911412E+01
3.255153E-03 7.605329E+01  9.913449E-01 -6.212375E+00  6.419073E-02 8.393346E+01
1.905695E-03 6.975018E+01  6.438373E-02 8.423646E+01  9.937293E-01 -5.840464E+00
1.258125E+02  9.961155E-01 -1.850858E+01  3.240208E-03 7.886224E+01  1.931936E-03 7.973719E+01
3.238482E-03 7.878175E+01  9.910060E-01 -6.348035E+00  6.690654E-02 8.340175E+01
1.948538E-03 8.071579E+01  6.725847E-02 8.380038E+01  9.948549E-01 -5.976958E+00
1.295000E+02  9.959286E-01 -1.901800E+01  3.527108E-03 7.638679E+01  2.064106E-03 7.747674E+01
3.532976E-03 7.705030E+01  9.915083E-01 -6.566577E+00  6.790621E-02 8.303817E+01
2.061394E-03 7.837232E+01  6.813101E-02 8.332121E+01  9.949976E-01 -6.157238E+00
1.331875E+02  9.962393E-01 -1.957953E+01  3.652846E-03 7.904855E+01  2.133481E-03 8.192650E+01
3.593147E-03 7.826608E+01  9.902004E-01 -6.782528E+00  7.052411E-02 8.300304E+01
2.102708E-03 8.144280E+01  7.084903E-02 8.334562E+01  9.949894E-01 -6.359285E+00
1.368750E+02  9.962455E-01 -2.012742E+01  3.856849E-03 7.642251E+01  2.357168E-03 7.761842E+01
3.826696E-03 7.705098E+01  9.904729E-01 -6.927255E+00  7.191378E-02 8.255762E+01
2.294573E-03 7.795760E+01  7.198354E-02 8.296904E+01  9.950192E-01 -6.576640E+00
1.405625E+02  9.956085E-01 -2.061515E+01  3.988257E-03 7.561165E+01  2.120793E-03 8.047273E+01
4.024121E-03 7.502889E+01  9.909210E-01 -7.133392E+00  7.417104E-02 8.251363E+01
2.141934E-03 8.014909E+01  7.437641E-02 8.280177E+01  9.945899E-01 -6.683876E+00
1.442500E+02  9.949894E-01 -2.117593E+01  3.894099E-03 7.793119E+01  2.500418E-03 7.533672E+01
3.894144E-03 7.724475E+01  9.899391E-01 -7.278779E+00  7.560851E-02 8.197641E+01
2.474368E-03 7.598062E+01  7.584968E-02 8.228781E+01  9.930586E-01 -6.927736E+00
1.479375E+02  9.960517E-01 -2.163781E+01  4.023282E-03 7.432310E+01  2.453964E-03 7.813830E+01
4.039902E-03 7.440609E+01  9.898708E-01 -7.396797E+00  7.767398E-02 8.209195E+01
2.472949E-03 7.865955E+01  7.787301E-02 8.249191E+01  9.935440E-01 -7.083032E+00
1.516250E+02  9.954572E-01 -2.215530E+01  4.126437E-03 7.517458E+01  2.487813E-03 7.858983E+01
4.110042E-03 7.550638E+01  9.887382E-01 -7.555115E+00  7.911127E-02 8.116003E+01
2.502320E-03 7.768378E+01  7.925207E-02 8.156069E+01  9.932308E-01 -7.138377E+00
1.553125E+02  9.956042E-01 -2.271528E+01  4.102193E-03 7.383945E+01  2.653495E-03 7.521802E+01
4.110608E-03 7.372179E+01  9.897678E-01 -7.709489E+00  8.115220E-02 8.204680E+01
2.676972E-03 7.507728E+01  8.129219E-02 8.239925E+01  9.944739E-01 -7.407015E+00
1.590000E+02  9.960587E-01 -2.325169E+01  4.549190E-03 7.557351E+01  2.426949E-03 7.924044E+01
4.498479E-03 7.591754E+01  9.898127E-01 -7.892974E+00  8.253787E-02 8.162161E+01
2.480457E-03 7.788481E+01  8.278631E-02 8.193919E+01  9.941593E-01 -7.533311E+00
1.626875E+02  9.957234E-01 -2.373074E+01  4.307652E-03 7.316945E+01  2.712025E-03 7.421862E+01
4.312496E-03 7.264148E+01  9.899875E-01 -8.017415E+00  8.494266E-02 8.162677E+01
2.642806E-03 7.456563E+01  8.501508E-02 8.212535E+01  9.948964E-01 -7.722784E+00
1.663750E+02  9.960899E-01 -2.432779E+01  4.554601E-03 7.470420E+01  2.626215E-03 7.723535E+01
4.587845E-03 7.463397E+01  9.897075E-01 -8.242031E+00  8.693721E-02 8.139570E+01
2.624999E-03 7.622072E+01  8.707852E-02 8.177259E+01  9.935695E-01 -7.913812E+00
1.700625E+02  9.950664E-01 -2.472398E+01  4.524086E-03 7.296967E+01  2.655303E-03 7.504222E+01
4.530597E-03 7.296627E+01  9.882935E-01 -8.378648E+00  8.827087E-02 8.172685E+01
2.684376E-03 7.492373E+01  8.851314E-02 8.208816E+01  9.924737E-01 -8.108328E+00
1.737500E+02  9.957914E-01 -2.527637E+01  4.667224E-03 7.470871E+01  2.694110E-03 7.695893E+01
4.646317E-03 7.505807E+01  9.886789E-01 -8.428799E+00  9.111957E-02 8.118098E+01
2.709393E-03 7.676209E+01  9.144818E-02 8.154992E+01  9.925792E-01 -8.173887E+00
1.774375E+02  9.959677E-01 -2.579444E+01  4.767600E-03 7.398750E+01  2.880985E-03 7.628764E+01
4.815407E-03 7.359642E+01  9.887541E-01 -8.619719E+00  9.222074E-02 8.125814E+01
2.863422E-03 7.622516E+01  9.225497E-02 8.153211E+01  9.925160E-01 -8.390576E+00
1.811250E+02  9.962428E-01 -2.628608E+01  4.818559E-03 7.329176E+01  2.956163E-03 7.623975E+01
4.845006E-03 7.384769E+01  9.893350E-01 -8.759715E+00  9.481154E-02 8.091363E+01
2.950079E-03 7.571235E+01  9.495628E-02 8.120585E+01  9.926547E-01 -8.577127E+00
1.848125E+02  9.955021E-01 -2.680091E+01  4.957494E-03 7.065396E+01  2.936888E-03 7.281604E+01
4.964809E-03 7.038941E+01  9.893586E-01 -8.934491E+00  9.672934E-02 8.096694E+01
2.981037E-03 7.299809E+01  9.685781E-02 8.114074E+01  9.924087E-01 -8.747871E+00
1.885000E+02  9.965080E-01 -2.735653E+01  4.893763E-03 7.231885E+01  2.960939E-03 7.487203E+01
4.910028E-03 7.218901E+01  9.893756E-01 -9.106802E+00  9.865072E-02 8.057446E+01
2.947549E-03 7.544852E+01  9.885911E-02 8.088406E+01  9.930244E-01 -8.931829E+00
1.921875E+02  9.961264E-01 -2.788193E+01  5.146309E-03 7.206316E+01  3.098978E-03 7.479847E+01
5.171594E-03 7.231071E+01  9.893588E-01 -9.286754E+00  1.006357E-01 8.049250E+01
3.133790E-03 7.598779E+01  1.007017E-01 8.072503E+01  9.931583E-01 -9.123627E+00
1.958750E+02  9.957312E-01 -2.835549E+01  5.138814E-03 7.125688E+01  3.158378E-03 7.366376E+01
5.084536E-03 7.137898E+01  9.880528E-01 -9.432656E+00  1.024990E-01 8.018123E+01
3.174050E-03 7.278681E+01  1.025931E-01 8.043522E+01  9.914288E-01 -9.260359E+00
1.995625E+02  9.948378E-01 -2.888941E+01  5.366093E-03 7.310522E+01  3.298600E-03 7.564271E+01
5.347941E-03 7.272746E+01  9.882633E-01 -9.560389E+00  1.040069E-01 8.000906E+01
3.266998E-03 7.597069E+01  1.043039E-01 8.025242E+01  9.915871E-01 -9.451983E+00
2.032500E+02  9.953422E-01 -2.934910E+01  5.436719E-03 7.073058E+01  3.201602E-03 7.453982E+01
5.471494E-03 7.068599E+01  9.883990E-01 -9.742515E+00  1.058839E-01 7.990555E+01
3.201634E-03 7.386794E+01  1.060215E-01 8.020783E+01  9.917343E-01 -9.658436E+00
2.069375E+02  9.954378E-01 -2.987282E+01  5.547609E-03 7.151291E+01  3.512756E-03 7.230927E+01
5.605250E-03 7.152877E+01  9.884813E-01 -9.923969E+00  1.077607E-01 7.978340E+01
3.533249E-03 7.278160E+01  1.077496E-01 8.002505E+01  9.911029E-01 -9.828551E+00
2.106250E+02  9.952402E-01 -3.039795E+01  5.661853E-03 6.842311E+01  3.342446E-03 7.080308E+01
5.643173E-03 6.808405E+01  9.878360E-01 -1.010076E+01  1.095185E-01 7.999125E+01
3.355094E-03 7.094461E+01  1.097070E-01 8.033792E+01  9.912229E-01 -9.960463E+00
2.143125E+02  9.950477E-01 -3.095932E+01  5.701582E-03 7.177517E+01  3.342558E-03 6.887923E+01
5.670196E-03 7.185043E+01  9.890078E-01 -1.026611E+01  1.115691E-01 7.929835E+01
3.327016E-03 6.940239E+01  1.118313E-01 7.961611E+01  9.901997E-01 -1.016143E+01
2.180000E+02  9.938926E-01 -3.141110E+01  5.630704E-03 6.982499E+01  3.458731E-03 7.078224E+01
5.653066E-03 6.968782E+01  9.859904E-01 -1.036459E+01  1.151506E-01 7.979799E+01
3.445767E-03 7.138782E+01  1.153499E-01 8.009302E+01  9.902284E-01 -1.030519E+01
2.216875E+02  9.942659E-01 -3.190766E+01  5.991018E-03 7.072614E+01  3.460513E-03 7.237563E+01
6.037493E-03 7.090373E+01  9.875407E-01 -1.043572E+01  1.155746E-01 7.898607E+01
3.476502E-03 7.261335E+01  1.155967E-01 7.926048E+01  9.896318E-01 -1.044993E+01
2.253750E+02  9.946916E-01 -3.242466E+01  5.968172E-03 6.953707E+01  3.421848E-03 7.207881E+01
5.965721E-03 6.910301E+01  9.875781E-01 -1.068640E+01  1.183044E-01 7.913888E+01
3.438698E-03 7.289739E+01  1.186021E-01 7.939455E+01  9.901679E-01 -1.053585E+01
2.290625E+02  9.949793E-01 -3.292507E+01  5.985671E-03 7.062894E+01  3.749678E-03 7.170467E+01
5.994868E-03 7.029625E+01  9.880336E-01 -1.084501E+01  1.198101E-01 7.868857E+01
3.771679E-03 7.107476E+01  1.200246E-01 7.883907E+01  9.901826E-01 -1.080064E+01
2.327500E+02  9.954349E-01 -3.333287E+01  6.386366E-03 6.810556E+01  3.400593E-03 7.086704E+01
6.352617E-03 6.773132E+01  9.880603E-01 -1.108896E+01  1.217725E-01 7.885262E+01
3.404602E-03 7.169915E+01  1.217534E-01 7.902959E+01  9.900420E-01 -1.086385E+01
2.364375E+02  9.949371E-01 -3.391824E+01  5.996779E-03 6.897557E+01  3.742567E-03 7.328065E+01
6.059273E-03 6.890197E+01  9.871834E-01 -1.115918E+01  1.241505E-01 7.824124E+01
3.746876E-03 7.378016E+01  1.243526E-01 7.847741E+01  9.891750E-01 -1.113898E+01
2.401250E+02  9.941569E-01 -3.447938E+01  6.348221E-03 6.832342E+01  3.772729E-03 7.029632E+01
6.320603E-03 6.817278E+01  9.877990E-01 -1.134928E+01  1.253462E-01 7.830556E+01
3.785688E-03 7.050416E+01  1.255926E-01 7.858135E+01  9.900122E-01 -1.127847E+01
2.438125E+02  9.944520E-01 -3.497697E+01  6.402189E-03 6.861911E+01  3.711252E-03 6.911832E+01
6.428070E-03 6.819863E+01  9.852887E-01 -1.141715E+01  1.260104E-01 7.732609E+01
3.721365E-03 6.867542E+01  1.261569E-01 7.757019E+01  9.865614E-01 -1.136438E+01
2.475000E+02  9.938889E-01 -3.547109E+01  6.294764E-03 6.785480E+01  3.969297E-03 7.174008E+01
6.297934E-03 6.743232E+01  9.863978E-01 -1.160788E+01  1.283887E-01 7.787446E+01
4.015954E-03 7.174460E+01  1.284170E-01 7.816934E+01  9.891656E-01 -1.153278E+01
2.511875E+02  9.938673E-01 -3.596572E+01  6.661088E-03 6.799566E+01  3.687561E-03 7.168553E+01
6.647437E-03 6.794550E+01  9.860565E-01 -1.185701E+01  1.304272E-01 7.754142E+01
3.657052E-03 7.150168E+01  1.304164E-01 7.791698E+01  9.888058E-01 -1.169875E+01
2.548750E+02  9.944872E-01 -3.644868E+01  6.576047E-03 6.663052E+01  4.008828E-03 7.091562E+01
6.560768E-03 6.664312E+01  9.868137E-01 -1.196508E+01  1.320707E-01 7.766426E+01
4.027781E-03 7.101828E+01  1.321673E-01 7.797386E+01  9.891392E-01 -1.192019E+01
2.585625E+02  9.937658E-01 -3.699454E+01  6.660220E-03 6.742417E+01  3.843370E-03 7.176183E+01
6.691930E-03 6.716934E+01  9.869465E-01 -1.220561E+01  1.346546E-01 7.743641E+01
3.838862E-03 7.211353E+01  1.349554E-01 7.775208E+01  9.881864E-01 -1.204372E+01
2.622500E+02  9.944691E-01 -3.750678E+01  6.758574E-03 6.679548E+01  4.101397E-03 7.215176E+01
6.725126E-03 6.663521E+01  9.858575E-01 -1.238590E+01  1.356374E-01 7.743805E+01
4.080700E-03 7.170503E+01  1.359215E-01 7.768116E+01  9.887613E-01 -1.224319E+01
2.659375E+02  9.930958E-01 -3.794419E+01  6.887861E-03 6.619751E+01  4.096854E-03 7.138094E+01
6.871519E-03 6.570777E+01  9.848093E-01 -1.253238E+01  1.387466E-01 7.731006E+01
4.139820E-03 7.149832E+01  1.388042E-01 7.754729E+01  9.876736E-01 -1.239594E+01
2.696250E+02  9.935657E-01 -3.845479E+01  7.133120E-03 6.437623E+01  4.422484E-03 6.727526E+01
7.118212E-03 6.425035E+01  9.841635E-01 -1.271193E+01  1.390844E-01 7.731631E+01
4.440504E-03 6.759793E+01  1.393942E-01 7.761976E+01  9.863054E-01 -1.256651E+01
2.733125E+02  9.935741E-01 -3.895499E+01  6.929895E-03 6.468633E+01  4.124373E-03 6.770333E+01
6.930670E-03 6.441728E+01  9.855625E-01 -1.277680E+01  1.426808E-01 7.714408E+01
4.158032E-03 6.800839E+01  1.427842E-01 7.742192E+01  9.862333E-01 -1.262548E+01
2.770000E+02  9.938823E-01 -3.943818E+01  7.099655E-03 6.447292E+01  4.324987E-03 6.867827E+01
7.114685E-03 6.449131E+01  9.857348E-01 -1.298639E+01  1.442168E-01 7.679746E+01
4.303409E-03 6.868240E+01  1.443935E-01 7.702631E+01  9.870843E-01 -1.289883E+01
2.806875E+02  9.940830E-01 -3.992581E+01  6.912837E-03 6.471092E+01  4.099084E-03 6.898038E+01
6.876989E-03 6.465912E+01  9.857766E-01 -1.314823E+01  1.467068E-01 7.660619E+01
4.131697E-03 6.911969E+01  1.470187E-01 7.678769E+01  9.870733E-01 -1.304663E+01
2.843750E+02  9.941694E-01 -4.048916E+01  7.180765E-03 6.520664E+01  4.358105E-03 6.930638E+01
7.191702E-03 6.517478E+01  9.872818E-01 -1.328816E+01  1.487557E-01 7.641257E+01
4.367983E-03 6.893577E+01  1.486772E-01 7.648904E+01  9.871707E-01 -1.321782E+01
2.880625E+02  9.936053E-01 -4.098717E+01  7.280517E-03 6.500180E+01  4.463987E-03 6.849231E+01
7.278639E-03 6.451021E+01  9.869034E-01 -1.340570E+01  1.505178E-01 7.619498E+01
4.459161E-03 6.895758E+01  1.505412E-01 7.634021E+01  9.870078E-01 -1.339916E+01
2.917500E+02  9.927800E-01 -4.141761E+01  7.294902E-03 6.495340E+01  4.455546E-03 6.782856E+01
7.317447E-03 6.460765E+01  9.849937E-01 -1.355158E+01  1.529176E-01 7.599666E+01
4.447224E-03 6.771798E+01  1.526830E-01 7.606494E+01  9.855021E-01 -1.353623E+01
2.954375E+02  9.931332E-01 -4.193166E+01  7.549718E-03 6.336268E+01  4.583659E-03 6.691871E+01
7.553794E-03 6.344176E+01  9.850172E-01 -1.373562E+01  1.540549E-01 7.583123E+01
4.587520E-03 6.692068E+01  1.538539E-01 7.595832E+01  9.857578E-01 -1.366917E+01
2.991250E+02  9.930782E-01 -4.241098E+01  7.442507E-03 6.378211E+01  4.573899E-03 6.761644E+01
7.407891E-03 6.359278E+01  9.853113E-01 -1.388251E+01  1.558656E-01 7.575311E+01
4.560474E-03 6.735823E+01  1.556777E-01 7.583341E+01  9.853203E-01 -1.385050E+01
3.028125E+02  9.932028E-01 -4.287847E+01  7.394628E-03 6.329035E+01  4.539125E-03 6.613702E+01
7.425954E-03 6.316438E+01  9.836031E-01 -1.409415E+01  1.580475E-01 7.579253E+01
4.578765E-03 6.584965E+01  1.579991E-01 7.590192E+01  9.849156E-01 -1.403021E+01
3.065000E+02  9.931690E-01 -4.343835E+01  7.696737E-03 6.435103E+01  4.687096E-03 6.684017E+01
7.748745E-03 6.428021E+01  9.847901E-01 -1.422878E+01  1.598872E-01 7.530341E+01
4.706813E-03 6.694782E+01  1.597357E-01 7.547618E+01  9.856006E-01 -1.425848E+01
3.101875E+02  9.925979E-01 -4.392674E+01  7.658198E-03 6.390607E+01  4.710362E-03 6.691486E+01
7.668909E-03 6.362700E+01  9.840460E-01 -1.446341E+01  1.622126E-01 7.535762E+01
4.768307E-03 6.754159E+01  1.623823E-01 7.551736E+01  9.842324E-01 -1.437970E+01
3.138750E+02  9.919217E-01 -4.431602E+01  8.117414E-03 6.315095E+01  5.045833E-03 6.411250E+01
8.137058E-03 6.309194E+01  9.825872E-01 -1.463295E+01  1.639964E-01 7.501363E+01
5.082732E-03 6.474341E+01  1.642978E-01 7.509759E+01  9.840129E-01 -1.462872E+01
3.175625E+02  9.919313E-01 -4.482647E+01  8.199824E-03 6.062594E+01  4.623280E-03 6.492194E+01
8.183978E-03 6.022614E+01  9.808848E-01 -1.483749E+01  1.657784E-01 7.501336E+01
4.618510E-03 6.420531E+01  1.657536E-01 7.512372E+01  9.828957E-01 -1.458441E+01
3.212500E+02  9.924464E-01 -4.531289E+01  7.950016E-03 6.202592E+01  4.991494E-03 6.460128E+01
7.902582E-03 6.205327E+01  9.807889E-01 -1.483379E+01  1.680029E-01 7.436553E+01
4.988088E-03 6.465459E+01  1.679938E-01 7.458956E+01  9.831438E-01 -1.481814E+01
3.249375E+02  9.910355E-01 -4.577081E+01  8.255001E-03 5.892897E+01  4.718299E-03 5.833864E+01
8.278853E-03 5.894905E+01  9.817703E-01 -1.509285E+01  1.694084E-01 7.480091E+01
4.724210E-03 5.886540E+01  1.693274E-01 7.494236E+01  9.821942E-01 -1.493190E+01
3.286250E+02  9.915197E-01 -4.630961E+01  7.778997E-03 5.938663E+01  4.956644E-03 6.853288E+01
7.770550E-03 5.920704E+01  9.781799E-01 -1.518966E+01  1.715602E-01 7.376283E+01
4.951099E-03 6.859829E+01  1.714368E-01 7.388165E+01  9.827648E-01 -1.507786E+01
3.323125E+02  9.912795E-01 -4.681220E+01  8.101046E-03 6.181673E+01  4.738733E-03 6.422909E+01
8.105872E-03 6.213465E+01  9.812846E-01 -1.543125E+01  1.732183E-01 7.407319E+01
4.724002E-03 6.404866E+01  1.729856E-01 7.423259E+01  9.814805E-01 -1.522478E+01
3.360000E+02  9.904548E-01 -4.732522E+01  8.320901E-03 6.172255E+01  5.010648E-03 6.476546E+01
8.270367E-03 6.212519E+01  9.798449E-01 -1.561311E+01  1.753544E-01 7.369600E+01
5.012389E-03 6.497078E+01  1.754365E-01 7.384248E+01  9.820497E-01 -1.547110E+01
3.396875E+02  9.905799E-01 -4.778210E+01  8.289963E-03 6.060935E+01  5.008109E-03 6.589775E+01
8.325758E-03 6.077085E+01  9.791904E-01 -1.577002E+01  1.766779E-01 7.361323E+01
5.035988E-03 6.540947E+01  1.765083E-01 7.376426E+01  9.806566E-01 -1.559847E+01
3.433750E+02  9.904371E-01 -4.822458E+01  8.412574E-03 6.104174E+01  4.877312E-03 6.306373E+01
8.445042E-03 6.108684E+01  9.785357E-01 -1.601171E+01  1.790141E-01 7.319564E+01
4.886571E-03 6.309611E+01  1.787668E-01 7.336494E+01  9.805697E-01 -1.575892E+01
3.470625E+02  9.902040E-01 -4.873176E+01  8.563807E-03 5.951013E+01  4.927818E-03 6.537310E+01
8.531538E-03 5.917309E+01  9.784414E-01 -1.610788E+01  1.794335E-01 7.340775E+01
4.923584E-03 6.544191E+01  1.792412E-01 7.356308E+01  9.803602E-01 -1.594252E+01
3.507500E+02  9.906670E-01 -4.922656E+01  8.604709E-03 5.961535E+01  5.052242E-03 6.775393E+01
8.642286E-03 5.915487E+01  9.782645E-01 -1.631035E+01  1.822062E-01 7.318774E+01
5.041797E-03 6.759672E+01  1.819128E-01 7.332160E+01  9.805361E-01 -1.610105E+01
3.544375E+02  9.899820E-01 -4.973672E+01  8.612202E-03 5.906888E+01  5.326520E-03 6.519570E+01
8.611214E-03 5.897103E+01  9.767326E-01 -1.652336E+01  1.831397E-01 7.317447E+01
5.333614E-03 6.509888E+01  1.829992E-01 7.329352E+01  9.805049E-01 -1.630122E+01
3.581250E+02  9.896994E-01 -5.026820E+01  8.827930E-03 6.055221E+01  5.485579E-03 6.767255E+01
8.796880E-03 6.049158E+01  9.768061E-01 -1.670362E+01  1.861362E-01 7.317948E+01
5.465450E-03 6.779319E+01  1.860465E-01 7.331257E+01  9.794701E-01 -1.651653E+01
3.618125E+02  9.886793E-01 -5.071827E+01  8.869554E-03 5.628937E+01  5.718490E-03 6.162314E+01
8.815518E-03 5.625536E+01  9.752325E-01 -1.693961E+01  1.874954E-01 7.281380E+01
5.745005E-03 6.222727E+01  1.871686E-01 7.291386E+01  9.792904E-01 -1.672596E+01
3.655000E+02  9.882788E-01 -5.115403E+01  8.609560E-03 5.716932E+01  5.144492E-03 6.001298E+01
8.583421E-03 5.702373E+01  9.754227E-01 -1.695610E+01  1.907743E-01 7.264220E+01
5.151408E-03 6.038364E+01  1.907727E-01 7.282204E+01  9.774632E-01 -1.674499E+01
3.691875E+02  9.883876E-01 -5.163419E+01  9.023794E-03 5.703348E+01  5.613134E-03 6.044629E+01
9.020570E-03 5.699232E+01  9.752027E-01 -1.718634E+01  1.913503E-01 7.253238E+01
5.643136E-03 6.038687E+01  1.911086E-01 7.269044E+01  9.776923E-01 -1.697460E+01
3.728750E+02  9.891488E-01 -5.214921E+01  8.540454E-03 5.720455E+01  5.187372E-03 6.255168E+01
8.500058E-03 5.723333E+01  9.748152E-01 -1.736744E+01  1.945884E-01 7.228525E+01
5.206864E-03 6.319148E+01  1.943775E-01 7.247095E+01  9.782625E-01 -1.714971E+01
3.765625E+02  9.889515E-01 -5.268642E+01  8.796974E-03 5.799780E+01  5.433940E-03 6.314080E+01
8.808173E-03 5.807812E+01  9.751082E-01 -1.758677E+01  1.959126E-01 7.200183E+01
5.438171E-03 6.307219E+01  1.960632E-01 7.213712E+01  9.782101E-01 -1.737025E+01
