! Matrix data file written by TouchstoneData, EPCOS AG
! FILENAME: "newformat_LY67A_Filter2_1_NB.s3p"
! COMMENT: "(LY67A_Filter2_1_NB.s3p) Epcos AG 17.01.2012"
! INFO: nport=3, nfreq=1601
! DATE: "Wed Feb  8 11:20:51 2012"
! USER: "Michael Schemies"
!
! port | pin | signal
! -----|-----|--------
!   1  |  4  |  in
!   2  |  6  |  out
!   3  |  7  |  out
! --------------------
!
# MHZ S MA R 50
! freq  magS11 angS11  magS12 angS12  magS13 angS13  ...
1.700000E+03  9.455717E-01 -1.167703E+02  2.393043E-03 8.797349E+01  2.815516E-03 1.851440E+01
2.381893E-03 8.809534E+01  9.386512E-01 -8.130095E+01  3.896281E-02 3.392815E+01
2.816055E-03 1.869574E+01  3.890922E-02 3.400613E+01  9.440909E-01 -7.866242E+01
1.700250E+03  9.445614E-01 -1.168761E+02  2.722657E-03 8.704174E+01  2.890401E-03 2.196360E+01
2.721042E-03 8.719848E+01  9.389256E-01 -8.136780E+01  3.853403E-02 3.361125E+01
2.886990E-03 2.223654E+01  3.850579E-02 3.371689E+01  9.442938E-01 -7.871692E+01
1.700500E+03  9.430805E-01 -1.169644E+02  3.028227E-03 8.600946E+01  3.018363E-03 2.503140E+01
3.032092E-03 8.594034E+01  9.391250E-01 -8.142808E+01  3.811256E-02 3.350502E+01
3.012379E-03 2.508112E+01  3.809590E-02 3.361676E+01  9.446083E-01 -7.877006E+01
1.700750E+03  9.420596E-01 -1.170362E+02  3.372257E-03 8.439260E+01  3.179498E-03 2.130014E+01
3.366084E-03 8.445598E+01  9.393466E-01 -8.149949E+01  3.779728E-02 3.368339E+01
3.178407E-03 2.146953E+01  3.777942E-02 3.373851E+01  9.450045E-01 -7.883275E+01
1.701000E+03  9.406436E-01 -1.171151E+02  3.727559E-03 8.041845E+01  2.937744E-03 1.617230E+01
3.724747E-03 8.059999E+01  9.394324E-01 -8.156058E+01  3.776557E-02 3.372044E+01
2.938022E-03 1.623815E+01  3.770792E-02 3.378262E+01  9.451898E-01 -7.889531E+01
1.701250E+03  9.397725E-01 -1.171638E+02  3.867725E-03 7.577742E+01  2.583148E-03 1.867041E+01
3.866225E-03 7.584259E+01  9.396790E-01 -8.161098E+01  3.766602E-02 3.350966E+01
2.576519E-03 1.863328E+01  3.765251E-02 3.359845E+01  9.453809E-01 -7.895101E+01
1.701500E+03  9.389946E-01 -1.172701E+02  3.877120E-03 7.353222E+01  2.549793E-03 2.093184E+01
3.884339E-03 7.354429E+01  9.400759E-01 -8.167549E+01  3.757889E-02 3.317542E+01
2.553552E-03 2.084596E+01  3.754375E-02 3.324025E+01  9.455613E-01 -7.901431E+01
1.701750E+03  9.372315E-01 -1.173995E+02  3.956117E-03 7.466775E+01  2.351594E-03 1.994740E+01
3.954597E-03 7.462976E+01  9.403011E-01 -8.174405E+01  3.726490E-02 3.270128E+01
2.344077E-03 2.008886E+01  3.723497E-02 3.274299E+01  9.458293E-01 -7.905810E+01
1.702000E+03  9.344852E-01 -1.174871E+02  4.303253E-03 7.453567E+01  2.193967E-03 2.272971E+01
4.299246E-03 7.437251E+01  9.404845E-01 -8.181859E+01  3.677986E-02 3.253104E+01
2.192672E-03 2.274820E+01  3.673600E-02 3.258681E+01  9.461234E-01 -7.912069E+01
1.702250E+03  9.317345E-01 -1.175057E+02  4.584935E-03 7.452829E+01  1.965333E-03 2.291589E+01
4.572172E-03 7.430506E+01  9.405886E-01 -8.188653E+01  3.637421E-02 3.269429E+01
1.961845E-03 2.316283E+01  3.635210E-02 3.274093E+01  9.464063E-01 -7.918334E+01
1.702500E+03  9.292077E-01 -1.174898E+02  5.257353E-03 7.291509E+01  1.703827E-03 2.770900E+01
5.261263E-03 7.284143E+01  9.407113E-01 -8.194619E+01  3.611401E-02 3.288629E+01
1.691690E-03 2.786643E+01  3.606991E-02 3.289337E+01  9.465264E-01 -7.924750E+01
1.702750E+03  9.275465E-01 -1.174124E+02  5.773770E-03 6.600992E+01  1.478936E-03 4.019719E+01
5.768378E-03 6.602458E+01  9.408240E-01 -8.201804E+01  3.587161E-02 3.302398E+01
1.477949E-03 4.035320E+01  3.586903E-02 3.303701E+01  9.466621E-01 -7.931473E+01
1.703000E+03  9.267124E-01 -1.173965E+02  5.990547E-03 5.989931E+01  1.615761E-03 5.089050E+01
5.984970E-03 5.974567E+01  9.410011E-01 -8.207950E+01  3.571537E-02 3.317093E+01
1.622305E-03 5.140537E+01  3.567779E-02 3.317654E+01  9.466316E-01 -7.937304E+01
1.703250E+03  9.256323E-01 -1.173559E+02  6.023137E-03 5.489334E+01  1.810457E-03 5.249731E+01
6.012445E-03 5.476481E+01  9.411961E-01 -8.214715E+01  3.559136E-02 3.328839E+01
1.808490E-03 5.257376E+01  3.554178E-02 3.332066E+01  9.467751E-01 -7.943123E+01
1.703500E+03  9.254186E-01 -1.173824E+02  6.049764E-03 5.174317E+01  1.717327E-03 4.885597E+01
6.040955E-03 5.164652E+01  9.413272E-01 -8.221596E+01  3.543406E-02 3.328633E+01
1.709744E-03 4.912511E+01  3.541235E-02 3.329416E+01  9.469667E-01 -7.949050E+01
1.703750E+03  9.235060E-01 -1.173966E+02  6.175129E-03 4.896198E+01  1.415078E-03 4.787719E+01
6.169968E-03 4.882421E+01  9.413776E-01 -8.228312E+01  3.523002E-02 3.326542E+01
1.411546E-03 4.794662E+01  3.519670E-02 3.324507E+01  9.470390E-01 -7.955197E+01
1.704000E+03  9.221247E-01 -1.174009E+02  6.331983E-03 4.747058E+01  1.010072E-03 6.014818E+01
6.324767E-03 4.732935E+01  9.414677E-01 -8.235587E+01  3.502911E-02 3.329120E+01
1.006269E-03 6.002114E+01  3.498619E-02 3.328727E+01  9.471360E-01 -7.961291E+01
1.704250E+03  9.192822E-01 -1.173462E+02  6.872881E-03 4.380453E+01  9.328854E-04 9.683699E+01
6.864171E-03 4.367005E+01  9.414395E-01 -8.241713E+01  3.472573E-02 3.331482E+01
9.205127E-04 9.721105E+01  3.469307E-02 3.335842E+01  9.470963E-01 -7.967505E+01
1.704500E+03  9.180679E-01 -1.172073E+02  7.030712E-03 3.795780E+01  1.473879E-03 1.159876E+02
7.017738E-03 3.789123E+01  9.415891E-01 -8.247321E+01  3.449908E-02 3.361117E+01
1.464041E-03 1.161265E+02  3.445236E-02 3.360714E+01  9.472761E-01 -7.973466E+01
1.704750E+03  9.174817E-01 -1.170326E+02  7.187450E-03 3.304159E+01  1.904321E-03 1.171512E+02
7.169212E-03 3.295849E+01  9.418236E-01 -8.254218E+01  3.430168E-02 3.386046E+01
1.901263E-03 1.169487E+02  3.427122E-02 3.387891E+01  9.473901E-01 -7.981298E+01
1.705000E+03  9.194921E-01 -1.168604E+02  7.099849E-03 2.736923E+01  2.337837E-03 1.210200E+02
7.083084E-03 2.722490E+01  9.419053E-01 -8.261419E+01  3.420987E-02 3.402424E+01
2.329522E-03 1.207517E+02  3.417517E-02 3.403101E+01  9.474654E-01 -7.988703E+01
1.705250E+03  9.226652E-01 -1.168779E+02  6.897198E-03 2.414098E+01  2.884221E-03 1.180451E+02
6.883153E-03 2.412492E+01  9.418975E-01 -8.269416E+01  3.407092E-02 3.418224E+01
2.878648E-03 1.177886E+02  3.401781E-02 3.417392E+01  9.473741E-01 -7.996169E+01
1.705500E+03  9.234049E-01 -1.169807E+02  6.759475E-03 2.200434E+01  3.102687E-03 1.138265E+02
6.757852E-03 2.187455E+01  9.416811E-01 -8.276475E+01  3.393451E-02 3.430778E+01
3.095094E-03 1.137625E+02  3.390204E-02 3.432490E+01  9.472038E-01 -8.003297E+01
1.705750E+03  9.233847E-01 -1.170549E+02  6.880062E-03 2.186987E+01  3.231923E-03 1.128807E+02
6.869162E-03 2.174567E+01  9.414938E-01 -8.282303E+01  3.377404E-02 3.437183E+01
3.226882E-03 1.129271E+02  3.373868E-02 3.442839E+01  9.471657E-01 -8.009178E+01
1.706000E+03  9.226588E-01 -1.170706E+02  7.311507E-03 1.904958E+01  3.296031E-03 1.153589E+02
7.289600E-03 1.885562E+01  9.415372E-01 -8.287785E+01  3.356556E-02 3.453918E+01
3.285983E-03 1.152499E+02  3.351747E-02 3.458800E+01  9.472940E-01 -8.016191E+01
1.706250E+03  9.226539E-01 -1.170500E+02  7.590567E-03 1.365139E+01  3.597219E-03 1.188571E+02
7.566067E-03 1.349575E+01  9.416905E-01 -8.294545E+01  3.341162E-02 3.481098E+01
3.592917E-03 1.190232E+02  3.336737E-02 3.484585E+01  9.473270E-01 -8.024274E+01
1.706500E+03  9.229355E-01 -1.170160E+02  7.567720E-03 8.114039E+00  3.950839E-03 1.202342E+02
7.541312E-03 8.088564E+00  9.417223E-01 -8.300768E+01  3.328579E-02 3.504101E+01
3.947228E-03 1.203020E+02  3.323983E-02 3.506382E+01  9.472612E-01 -8.031651E+01
1.706750E+03  9.240300E-01 -1.170094E+02  7.405030E-03 3.468890E+00  4.347564E-03 1.222581E+02
7.387162E-03 3.377113E+00  9.416221E-01 -8.308447E+01  3.315876E-02 3.524481E+01
4.335175E-03 1.222080E+02  3.311836E-02 3.530941E+01  9.469956E-01 -8.039591E+01
1.707000E+03  9.249185E-01 -1.170467E+02  7.113754E-03 -2.441009E-01  4.963297E-03 1.216494E+02
7.103735E-03 -3.255633E-01  9.414034E-01 -8.315118E+01  3.298809E-02 3.545655E+01
4.960313E-03 1.217235E+02  3.296700E-02 3.548065E+01  9.467281E-01 -8.046668E+01
1.707250E+03  9.251896E-01 -1.170642E+02  6.748700E-03 -1.917464E+00  5.323093E-03 1.176762E+02
6.735819E-03 -1.977597E+00  9.412187E-01 -8.321747E+01  3.285738E-02 3.583804E+01
5.330859E-03 1.177200E+02  3.284260E-02 3.588720E+01  9.465320E-01 -8.052983E+01
1.707500E+03  9.264787E-01 -1.170715E+02  6.653218E-03 -7.513073E-01  5.380911E-03 1.164741E+02
6.630392E-03 -7.339426E-01  9.410816E-01 -8.327903E+01  3.281743E-02 3.618241E+01
5.376152E-03 1.164948E+02  3.279806E-02 3.621214E+01  9.464117E-01 -8.059554E+01
1.707750E+03  9.278479E-01 -1.171438E+02  6.895256E-03 -6.006147E-01  5.631757E-03 1.185234E+02
6.868850E-03 -6.182375E-01  9.410067E-01 -8.333302E+01  3.284432E-02 3.649371E+01
5.613612E-03 1.185084E+02  3.281813E-02 3.651050E+01  9.463022E-01 -8.066500E+01
1.708000E+03  9.291692E-01 -1.172483E+02  7.260153E-03 -1.874231E+00  6.113659E-03 1.187006E+02
7.238885E-03 -1.983390E+00  9.409726E-01 -8.339617E+01  3.287860E-02 3.658799E+01
6.121771E-03 1.188573E+02  3.285175E-02 3.666785E+01  9.461038E-01 -8.073778E+01
1.708250E+03  9.294914E-01 -1.174110E+02  7.614327E-03 -5.131797E+00  6.477238E-03 1.178307E+02
7.585929E-03 -5.235444E+00  9.408415E-01 -8.346086E+01  3.283530E-02 3.664505E+01
6.458012E-03 1.178355E+02  3.280415E-02 3.670935E+01  9.458471E-01 -8.080674E+01
1.708500E+03  9.284635E-01 -1.175529E+02  7.866485E-03 -9.037804E+00  6.850394E-03 1.175458E+02
7.847870E-03 -9.108208E+00  9.404744E-01 -8.353925E+01  3.278817E-02 3.676037E+01
6.855221E-03 1.176069E+02  3.279429E-02 3.678362E+01  9.455962E-01 -8.087997E+01
1.708750E+03  9.270560E-01 -1.176364E+02  7.964053E-03 -1.361021E+01  7.272160E-03 1.169382E+02
7.949712E-03 -1.367869E+01  9.401482E-01 -8.361185E+01  3.272941E-02 3.673498E+01
7.271271E-03 1.169645E+02  3.272198E-02 3.674760E+01  9.452999E-01 -8.095423E+01
1.709000E+03  9.255330E-01 -1.176441E+02  7.797618E-03 -1.745768E+01  7.699298E-03 1.153708E+02
7.771561E-03 -1.749875E+01  9.398315E-01 -8.368849E+01  3.255727E-02 3.682505E+01
7.699999E-03 1.154131E+02  3.255270E-02 3.686702E+01  9.449236E-01 -8.102625E+01
1.709250E+03  9.255051E-01 -1.176102E+02  7.615990E-03 -1.893721E+01  7.886360E-03 1.142417E+02
7.607615E-03 -1.898485E+01  9.394509E-01 -8.376545E+01  3.242233E-02 3.714070E+01
7.885421E-03 1.143338E+02  3.240982E-02 3.715854E+01  9.444953E-01 -8.109025E+01
1.709500E+03  9.265225E-01 -1.176351E+02  7.621736E-03 -1.976905E+01  8.239367E-03 1.150544E+02
7.606366E-03 -1.981962E+01  9.390359E-01 -8.383757E+01  3.243737E-02 3.750067E+01
8.242096E-03 1.151702E+02  3.245062E-02 3.749204E+01  9.440102E-01 -8.115481E+01
1.709750E+03  9.272824E-01 -1.176973E+02  7.708318E-03 -2.028814E+01  8.789116E-03 1.139132E+02
7.687682E-03 -2.037872E+01  9.387320E-01 -8.390197E+01  3.253247E-02 3.754864E+01
8.803548E-03 1.140416E+02  3.255935E-02 3.753400E+01  9.436633E-01 -8.120541E+01
1.710000E+03  9.281020E-01 -1.178044E+02  7.953968E-03 -2.096665E+01  8.945027E-03 1.124091E+02
7.939456E-03 -2.103478E+01  9.383996E-01 -8.398492E+01  3.249601E-02 3.756420E+01
8.951730E-03 1.125268E+02  3.251355E-02 3.752582E+01  9.435284E-01 -8.126362E+01
1.710250E+03  9.281249E-01 -1.179463E+02  8.178745E-03 -2.200084E+01  9.261747E-03 1.138484E+02
8.178343E-03 -2.208402E+01  9.379491E-01 -8.405799E+01  3.249645E-02 3.761137E+01
9.264213E-03 1.139041E+02  3.252271E-02 3.761252E+01  9.433053E-01 -8.133388E+01
1.710500E+03  9.277301E-01 -1.181101E+02  8.630879E-03 -2.201122E+01  9.998261E-03 1.141342E+02
8.633087E-03 -2.212179E+01  9.375289E-01 -8.412742E+01  3.249353E-02 3.754798E+01
1.000116E-02 1.142211E+02  3.252103E-02 3.747894E+01  9.429436E-01 -8.140751E+01
1.710750E+03  9.257051E-01 -1.182736E+02  9.378094E-03 -2.500221E+01  1.070514E-02 1.121801E+02
9.386056E-03 -2.503424E+01  9.371601E-01 -8.420179E+01  3.241581E-02 3.737739E+01
1.072797E-02 1.122941E+02  3.243694E-02 3.732749E+01  9.424071E-01 -8.146879E+01
1.711000E+03  9.229899E-01 -1.183267E+02  9.804094E-03 -2.930909E+01  1.118940E-02 1.096158E+02
9.802779E-03 -2.937255E+01  9.367392E-01 -8.427165E+01  3.220284E-02 3.736096E+01
1.120128E-02 1.097040E+02  3.223036E-02 3.727468E+01  9.420672E-01 -8.152828E+01
1.711250E+03  9.212437E-01 -1.183096E+02  1.010711E-02 -3.305839E+01  1.137724E-02 1.074310E+02
1.011664E-02 -3.308116E+01  9.363356E-01 -8.434682E+01  3.204026E-02 3.757672E+01
1.139076E-02 1.075360E+02  3.208412E-02 3.749486E+01  9.417595E-01 -8.158540E+01
1.711500E+03  9.202531E-01 -1.182989E+02  1.034053E-02 -3.709860E+01  1.154919E-02 1.066678E+02
1.035227E-02 -3.711178E+01  9.357509E-01 -8.443300E+01  3.198538E-02 3.785286E+01
1.156279E-02 1.068307E+02  3.202672E-02 3.775378E+01  9.414028E-01 -8.165525E+01
1.711750E+03  9.194432E-01 -1.182410E+02  1.025791E-02 -4.098044E+01  1.165181E-02 1.056950E+02
1.026167E-02 -4.104209E+01  9.350823E-01 -8.449386E+01  3.199212E-02 3.811068E+01
1.166248E-02 1.057842E+02  3.204498E-02 3.800699E+01  9.410308E-01 -8.171622E+01
1.712000E+03  9.210270E-01 -1.182110E+02  9.960719E-03 -4.182986E+01  1.172246E-02 1.071643E+02
9.972153E-03 -4.191025E+01  9.345322E-01 -8.456285E+01  3.209760E-02 3.825392E+01
1.174949E-02 1.072596E+02  3.214406E-02 3.818178E+01  9.406513E-01 -8.178251E+01
1.712250E+03  9.226388E-01 -1.183940E+02  1.023122E-02 -3.996494E+01  1.244711E-02 1.093752E+02
1.024208E-02 -3.996037E+01  9.340723E-01 -8.461926E+01  3.230645E-02 3.823531E+01
1.246936E-02 1.094514E+02  3.236538E-02 3.812166E+01  9.400299E-01 -8.184415E+01
1.712500E+03  9.209474E-01 -1.186175E+02  1.119881E-02 -4.054497E+01  1.340699E-02 1.087876E+02
1.120210E-02 -4.062161E+01  9.336880E-01 -8.469234E+01  3.240944E-02 3.779168E+01
1.343869E-02 1.088649E+02  3.246615E-02 3.766453E+01  9.396398E-01 -8.190931E+01
1.712750E+03  9.180745E-01 -1.187409E+02  1.206221E-02 -4.329909E+01  1.420048E-02 1.072990E+02
1.206908E-02 -4.327497E+01  9.333047E-01 -8.478460E+01  3.237371E-02 3.735966E+01
1.421929E-02 1.073551E+02  3.243360E-02 3.725699E+01  9.393963E-01 -8.198293E+01
1.713000E+03  9.153148E-01 -1.187867E+02  1.290401E-02 -4.684542E+01  1.486876E-02 1.059513E+02
1.292288E-02 -4.687318E+01  9.326791E-01 -8.487503E+01  3.229032E-02 3.688607E+01
1.489530E-02 1.060649E+02  3.233668E-02 3.680019E+01  9.389864E-01 -8.205949E+01
1.713250E+03  9.128336E-01 -1.187992E+02  1.375282E-02 -5.142529E+01  1.559801E-02 1.048236E+02
1.377529E-02 -5.144206E+01  9.317378E-01 -8.496767E+01  3.208552E-02 3.646795E+01
1.562301E-02 1.048647E+02  3.211904E-02 3.635651E+01  9.383895E-01 -8.214328E+01
1.713500E+03  9.101830E-01 -1.187526E+02  1.416828E-02 -5.725746E+01  1.641734E-02 1.022854E+02
1.418354E-02 -5.726673E+01  9.306815E-01 -8.504010E+01  3.175916E-02 3.632409E+01
1.644956E-02 1.023565E+02  3.178184E-02 3.630300E+01  9.376711E-01 -8.221165E+01
1.713750E+03  9.098657E-01 -1.186268E+02  1.393021E-02 -6.155743E+01  1.649084E-02 1.004223E+02
1.394097E-02 -6.151682E+01  9.298791E-01 -8.508322E+01  3.168120E-02 3.645284E+01
1.651344E-02 1.004897E+02  3.171536E-02 3.636013E+01  9.371230E-01 -8.227442E+01
1.714000E+03  9.104863E-01 -1.187097E+02  1.397648E-02 -6.272623E+01  1.701123E-02 1.009527E+02
1.398178E-02 -6.273233E+01  9.292528E-01 -8.514326E+01  3.172580E-02 3.629165E+01
1.702827E-02 1.009940E+02  3.176174E-02 3.622734E+01  9.365243E-01 -8.234692E+01
1.714250E+03  9.087100E-01 -1.188028E+02  1.453339E-02 -6.435950E+01  1.797495E-02 1.001466E+02
1.453773E-02 -6.435974E+01  9.288765E-01 -8.520896E+01  3.169784E-02 3.564977E+01
1.797727E-02 1.002334E+02  3.171734E-02 3.560675E+01  9.360937E-01 -8.241409E+01
1.714500E+03  9.066913E-01 -1.188119E+02  1.521239E-02 -6.693076E+01  1.881269E-02 9.902354E+01
1.522671E-02 -6.682397E+01  9.284143E-01 -8.528060E+01  3.155310E-02 3.519885E+01
1.883446E-02 9.909782E+01  3.157658E-02 3.513622E+01  9.355518E-01 -8.249229E+01
1.714750E+03  9.047526E-01 -1.187751E+02  1.578055E-02 -7.048990E+01  1.995986E-02 9.726065E+01
1.578294E-02 -7.045257E+01  9.278405E-01 -8.535573E+01  3.137010E-02 3.462365E+01
1.998260E-02 9.733919E+01  3.137629E-02 3.457524E+01  9.347445E-01 -8.256112E+01
1.715000E+03  9.034155E-01 -1.187072E+02  1.634318E-02 -7.348322E+01  2.093515E-02 9.427172E+01
1.635183E-02 -7.340367E+01  9.270710E-01 -8.543457E+01  3.105065E-02 3.388754E+01
2.094231E-02 9.435249E+01  3.106884E-02 3.387287E+01  9.340070E-01 -8.260725E+01
1.715250E+03  9.032251E-01 -1.186826E+02  1.686092E-02 -7.681202E+01  2.128115E-02 9.197197E+01
1.687201E-02 -7.673451E+01  9.260093E-01 -8.549126E+01  3.064073E-02 3.357426E+01
2.129762E-02 9.203569E+01  3.063989E-02 3.356263E+01  9.336573E-01 -8.265520E+01
1.715500E+03  9.022214E-01 -1.186813E+02  1.719550E-02 -8.025986E+01  2.181899E-02 9.055398E+01
1.720488E-02 -8.013688E+01  9.253844E-01 -8.551931E+01  3.040210E-02 3.326563E+01
2.184419E-02 9.063436E+01  3.038950E-02 3.325997E+01  9.333331E-01 -8.271654E+01
1.715750E+03  9.007212E-01 -1.187441E+02  1.783781E-02 -8.188070E+01  2.273482E-02 9.009725E+01
1.785019E-02 -8.174703E+01  9.248675E-01 -8.556830E+01  3.016941E-02 3.257724E+01
2.274089E-02 9.020143E+01  3.016831E-02 3.255927E+01  9.326707E-01 -8.279244E+01
1.716000E+03  8.963954E-01 -1.187105E+02  1.920740E-02 -8.563335E+01  2.450050E-02 8.775074E+01
1.921255E-02 -8.547879E+01  9.241994E-01 -8.562079E+01  2.963583E-02 3.167777E+01
2.452075E-02 8.781255E+01  2.963345E-02 3.166199E+01  9.315726E-01 -8.284989E+01
1.716250E+03  8.928934E-01 -1.183767E+02  2.011342E-02 -9.285258E+01  2.566182E-02 8.282453E+01
2.013570E-02 -9.268467E+01  9.235389E-01 -8.563986E+01  2.888581E-02 3.123029E+01
2.567752E-02 8.290239E+01  2.887415E-02 3.125491E+01  9.307141E-01 -8.287293E+01
1.716500E+03  8.951116E-01 -1.180527E+02  1.935280E-02 -9.936078E+01  2.579757E-02 7.847519E+01
1.935952E-02 -9.917527E+01  9.236005E-01 -8.565937E+01  2.824998E-02 3.148903E+01
2.581641E-02 7.853725E+01  2.824699E-02 3.150669E+01  9.298858E-01 -8.289827E+01
1.716750E+03  8.977625E-01 -1.179254E+02  1.861702E-02 -1.024027E+02  2.570551E-02 7.468337E+01
1.862934E-02 -1.022445E+02  9.235228E-01 -8.572040E+01  2.782639E-02 3.169841E+01
2.571582E-02 7.475149E+01  2.782084E-02 3.171429E+01  9.293214E-01 -8.291514E+01
1.717000E+03  9.014723E-01 -1.178805E+02  1.779878E-02 -1.037195E+02  2.440278E-02 7.188188E+01
1.779684E-02 -1.035730E+02  9.234417E-01 -8.577998E+01  2.774841E-02 3.200568E+01
2.441775E-02 7.197399E+01  2.774942E-02 3.204480E+01  9.295530E-01 -8.292628E+01
1.717250E+03  9.029556E-01 -1.180537E+02  1.790151E-02 -1.027321E+02  2.401050E-02 7.415551E+01
1.789747E-02 -1.025740E+02  9.229934E-01 -8.585140E+01  2.774401E-02 3.092521E+01
2.402759E-02 7.424835E+01  2.774383E-02 3.095555E+01  9.294399E-01 -8.301621E+01
1.717500E+03  9.012119E-01 -1.181963E+02  1.882611E-02 -1.022462E+02  2.553507E-02 7.527678E+01
1.882291E-02 -1.020786E+02  9.223876E-01 -8.592403E+01  2.736829E-02 2.920834E+01
2.554523E-02 7.539468E+01  2.737822E-02 2.924254E+01  9.282876E-01 -8.307736E+01
1.717750E+03  8.969743E-01 -1.181071E+02  2.089023E-02 -1.048201E+02  2.779636E-02 7.265145E+01
2.088864E-02 -1.046900E+02  9.213940E-01 -8.597235E+01  2.618535E-02 2.714820E+01
2.783393E-02 7.274115E+01  2.619399E-02 2.718801E+01  9.274691E-01 -8.308063E+01
1.718000E+03  8.962454E-01 -1.176668E+02  2.203720E-02 -1.135438E+02  2.887331E-02 6.596335E+01
2.202059E-02 -1.134043E+02  9.209019E-01 -8.596756E+01  2.436173E-02 2.723377E+01
2.891553E-02 6.603123E+01  2.436428E-02 2.730805E+01  9.274745E-01 -8.306982E+01
1.718250E+03  9.012097E-01 -1.175360E+02  2.076128E-02 -1.182860E+02  2.769954E-02 6.269621E+01
2.074999E-02 -1.181508E+02  9.212685E-01 -8.601751E+01  2.369859E-02 2.859614E+01
2.773279E-02 6.279641E+01  2.372024E-02 2.864941E+01  9.278107E-01 -8.312696E+01
1.718500E+03  9.024265E-01 -1.174877E+02  2.100171E-02 -1.211971E+02  2.807879E-02 6.067060E+01
2.099074E-02 -1.210988E+02  9.208537E-01 -8.607539E+01  2.271043E-02 2.858378E+01
2.812627E-02 6.076586E+01  2.271966E-02 2.861823E+01  9.272987E-01 -8.318850E+01
1.718750E+03  9.061366E-01 -1.173066E+02  2.023204E-02 -1.272511E+02  2.772415E-02 5.573346E+01
