! Matrix data file written by TouchstoneData, EPCOS AG
! FILENAME: "newformat_LY67A_Filter2_1_WB.s3p"
! COMMENT: "(LY67A_Filter2_1_WB.s3p) Epcos AG 17.01.2012"
! INFO: nport=3, nfreq=1601
! DATE: "Wed Feb  8 11:20:32 2012"
! USER: "Michael Schemies"
!
! port | pin | signal
! -----|-----|--------
!   1  |  4  |  in
!   2  |  6  |  out
!   3  |  7  |  out
! --------------------
!
# MHZ S MA R 50
! freq  magS11 angS11  magS12 angS12  magS13 angS13  ...
1.000000E+02  9.984239E-01 -7.506274E+00  1.409669E-03 7.636101E+01  9.529772E-04 8.034777E+01
1.418068E-03 7.627825E+01  9.986103E-01 -4.421640E+00  7.127993E-03 8.290192E+01
9.461288E-04 8.047147E+01  7.124089E-03 8.295688E+01  9.976364E-01 -4.430678E+00
1.036875E+02  9.984162E-01 -7.786059E+00  1.594661E-03 8.315100E+01  9.202055E-04 8.602321E+01
1.589529E-03 8.271656E+01  9.981441E-01 -4.584976E+00  7.387710E-03 8.230929E+01
9.215098E-04 8.578603E+01  7.402273E-03 8.221118E+01  9.988815E-01 -4.618099E+00
1.073750E+02  9.986915E-01 -8.035340E+00  1.605414E-03 8.193600E+01  9.897585E-04 8.388280E+01
1.623232E-03 8.197571E+01  9.985102E-01 -4.821051E+00  7.649365E-03 8.305326E+01
9.838452E-04 8.337147E+01  7.616203E-03 8.319481E+01  9.974668E-01 -4.764118E+00
1.110625E+02  9.998871E-01 -8.288153E+00  1.651461E-03 8.469680E+01  1.049916E-03 8.371441E+01
1.651310E-03 8.493717E+01  9.988849E-01 -4.914072E+00  8.012840E-03 8.276276E+01
1.042704E-03 8.337243E+01  7.997885E-03 8.269124E+01  9.988724E-01 -4.947791E+00
1.147500E+02  9.993836E-01 -8.530534E+00  1.749126E-03 8.363952E+01  1.092555E-03 8.334649E+01
1.743059E-03 8.409605E+01  9.988786E-01 -5.012879E+00  8.140268E-03 8.335439E+01
1.071407E-03 8.354300E+01  8.153951E-03 8.345941E+01  9.987614E-01 -5.028803E+00
1.184375E+02  9.987657E-01 -8.805637E+00  1.779049E-03 8.239128E+01  1.099696E-03 8.345174E+01
1.791161E-03 8.290308E+01  9.981946E-01 -5.250671E+00  8.568132E-03 8.223959E+01
1.080311E-03 8.400255E+01  8.557202E-03 8.222920E+01  9.984396E-01 -5.213651E+00
1.221250E+02  9.987370E-01 -9.084389E+00  1.930146E-03 8.277105E+01  1.191234E-03 8.352545E+01
1.916745E-03 8.259658E+01  9.980561E-01 -5.417898E+00  8.821633E-03 8.239580E+01
1.177170E-03 8.332889E+01  8.802912E-03 8.240809E+01  9.979897E-01 -5.372843E+00
1.258125E+02  9.988125E-01 -9.394264E+00  1.984767E-03 8.553554E+01  1.174274E-03 8.295983E+01
1.983437E-03 8.555599E+01  9.982232E-01 -5.531744E+00  8.875232E-03 8.152393E+01
1.166413E-03 8.359682E+01  8.886350E-03 8.133299E+01  9.981843E-01 -5.474869E+00
1.295000E+02  9.984738E-01 -9.697234E+00  1.976734E-03 7.899412E+01  1.300939E-03 7.960638E+01
1.985420E-03 7.921214E+01  9.980619E-01 -5.761600E+00  9.238840E-03 8.302438E+01
1.296756E-03 7.992660E+01  9.250960E-03 8.287553E+01  9.993878E-01 -5.726855E+00
1.331875E+02  9.990892E-01 -9.913611E+00  2.082023E-03 8.365626E+01  1.204839E-03 8.120203E+01
2.072794E-03 8.356901E+01  9.987727E-01 -5.881485E+00  9.456070E-03 8.249786E+01
1.213132E-03 8.194013E+01  9.472602E-03 8.252297E+01  9.988157E-01 -5.809681E+00
1.368750E+02  9.970447E-01 -1.008724E+01  2.075179E-03 7.696938E+01  1.309619E-03 7.495829E+01
2.060205E-03 7.726166E+01  9.983027E-01 -6.048117E+00  9.681442E-03 8.292259E+01
1.309856E-03 7.491240E+01  9.688334E-03 8.285137E+01  9.980710E-01 -5.950088E+00
1.405625E+02  9.984996E-01 -1.046325E+01  2.118359E-03 8.024943E+01  1.249244E-03 8.044890E+01
2.141739E-03 8.059538E+01  9.982932E-01 -6.214219E+00  1.005377E-02 8.242883E+01
1.241186E-03 8.004479E+01  1.005875E-02 8.230755E+01  9.990990E-01 -6.137746E+00
1.442500E+02  9.983115E-01 -1.071195E+01  2.150629E-03 7.821112E+01  1.294665E-03 7.572264E+01
2.144147E-03 7.836895E+01  9.984181E-01 -6.306748E+00  1.041290E-02 8.280427E+01
1.292844E-03 7.553808E+01  1.043421E-02 8.288109E+01  9.992545E-01 -6.296571E+00
1.479375E+02  9.984088E-01 -1.095832E+01  2.255269E-03 7.995751E+01  1.322623E-03 8.083347E+01
2.257837E-03 8.023088E+01  9.980872E-01 -6.539979E+00  1.051918E-02 8.016866E+01
1.339006E-03 8.106604E+01  1.056060E-02 8.005477E+01  9.983182E-01 -6.410541E+00
1.516250E+02  9.988486E-01 -1.120767E+01  2.318284E-03 8.074669E+01  1.360240E-03 7.970304E+01
2.315579E-03 8.070128E+01  9.997480E-01 -6.674719E+00  1.079372E-02 8.228317E+01
1.371100E-03 7.927430E+01  1.085068E-02 8.217106E+01  9.992880E-01 -6.605289E+00
1.553125E+02  9.979010E-01 -1.152009E+01  2.352125E-03 7.807361E+01  1.399672E-03 7.863098E+01
2.338739E-03 7.801649E+01  9.979460E-01 -6.864319E+00  1.109039E-02 8.169976E+01
1.407654E-03 7.838753E+01  1.112111E-02 8.155358E+01  9.983657E-01 -6.733994E+00
1.590000E+02  9.980875E-01 -1.170648E+01  2.338389E-03 7.937897E+01  1.391039E-03 7.889804E+01
2.351148E-03 7.944560E+01  9.981361E-01 -6.987261E+00  1.133961E-02 8.226680E+01
1.383280E-03 7.934967E+01  1.137801E-02 8.217292E+01  9.982877E-01 -6.894759E+00
1.626875E+02  9.994820E-01 -1.199738E+01  2.394577E-03 8.058210E+01  1.438138E-03 8.064516E+01
2.377919E-03 8.038972E+01  9.996696E-01 -7.091091E+00  1.158601E-02 8.170451E+01
1.445712E-03 8.021952E+01  1.158969E-02 8.150243E+01  9.988674E-01 -7.095139E+00
1.663750E+02  9.989707E-01 -1.225602E+01  2.488364E-03 8.151217E+01  1.516366E-03 8.130890E+01
2.498559E-03 8.169362E+01  9.985077E-01 -7.272435E+00  1.198732E-02 8.173854E+01
1.516195E-03 8.095322E+01  1.195168E-02 8.169217E+01  9.980907E-01 -7.284056E+00
1.700625E+02  9.983341E-01 -1.256938E+01  2.648508E-03 8.020692E+01  1.539396E-03 7.996214E+01
2.649463E-03 8.002541E+01  9.968459E-01 -7.428322E+00  1.208068E-02 8.090223E+01
1.528753E-03 7.999108E+01  1.204749E-02 8.087548E+01  9.979258E-01 -7.441318E+00
1.737500E+02  9.973863E-01 -1.278274E+01  2.603478E-03 8.117656E+01  1.626538E-03 8.001694E+01
2.600863E-03 8.100840E+01  9.967772E-01 -7.533041E+00  1.238207E-02 8.097450E+01
1.628719E-03 7.971903E+01  1.239989E-02 8.091960E+01  9.979315E-01 -7.509476E+00
1.774375E+02  9.982730E-01 -1.312534E+01  2.767352E-03 7.726486E+01  1.644750E-03 7.741689E+01
2.773951E-03 7.703833E+01  9.977323E-01 -7.750254E+00  1.247687E-02 8.128691E+01
1.651118E-03 7.770773E+01  1.247208E-02 8.116961E+01  9.987096E-01 -7.776890E+00
1.811250E+02  9.983933E-01 -1.328521E+01  2.703581E-03 7.786064E+01  1.580435E-03 7.681289E+01
2.702583E-03 7.789977E+01  9.975832E-01 -7.847686E+00  1.296025E-02 8.142304E+01
1.587537E-03 7.658663E+01  1.295058E-02 8.126179E+01  9.980959E-01 -7.937469E+00
1.848125E+02  9.993414E-01 -1.350053E+01  2.794733E-03 7.868987E+01  1.714600E-03 7.914793E+01
2.783921E-03 7.866697E+01  9.979707E-01 -8.000637E+00  1.313525E-02 8.122364E+01
1.699464E-03 7.939275E+01  1.315025E-02 8.110315E+01  9.980341E-01 -8.046108E+00
1.885000E+02  9.996972E-01 -1.378460E+01  2.808361E-03 7.749870E+01  1.622609E-03 7.782059E+01
2.815059E-03 7.762137E+01  9.987217E-01 -8.151964E+00  1.359720E-02 8.098131E+01
1.616452E-03 7.741998E+01  1.359140E-02 8.096409E+01  9.986298E-01 -8.246519E+00
1.921875E+02  9.987487E-01 -1.410972E+01  2.810519E-03 7.816191E+01  1.689912E-03 7.735900E+01
2.807178E-03 7.819941E+01  9.981822E-01 -8.381360E+00  1.374044E-02 7.933774E+01
1.683059E-03 7.755167E+01  1.373139E-02 7.934656E+01  9.977246E-01 -8.482228E+00
1.958750E+02  9.982047E-01 -1.431335E+01  2.907744E-03 7.767993E+01  1.764427E-03 7.894621E+01
2.921247E-03 7.772308E+01  9.975148E-01 -8.479739E+00  1.410076E-02 7.999875E+01
1.754355E-03 7.916690E+01  1.408977E-02 8.006255E+01  9.964750E-01 -8.625068E+00
1.995625E+02  9.989875E-01 -1.447464E+01  2.983316E-03 7.831102E+01  1.797883E-03 7.904733E+01
2.977871E-03 7.852342E+01  9.986565E-01 -8.568235E+00  1.402573E-02 7.964257E+01
1.791758E-03 7.881628E+01  1.400989E-02 7.959321E+01  9.977266E-01 -8.783468E+00
2.032500E+02  9.992155E-01 -1.487631E+01  3.013333E-03 7.746196E+01  1.807641E-03 7.778813E+01
3.011277E-03 7.741811E+01  9.991904E-01 -8.733769E+00  1.452765E-02 8.022377E+01
1.803680E-03 7.780433E+01  1.451992E-02 8.018872E+01  9.983558E-01 -8.920590E+00
2.069375E+02  9.989529E-01 -1.518021E+01  3.015829E-03 7.799169E+01  1.827079E-03 7.800394E+01
3.012676E-03 7.811184E+01  9.982614E-01 -8.920237E+00  1.467839E-02 7.987237E+01
1.831151E-03 7.812543E+01  1.463558E-02 7.978051E+01  9.985161E-01 -9.146113E+00
2.106250E+02  9.995627E-01 -1.534095E+01  3.098990E-03 7.869903E+01  1.911715E-03 7.858258E+01
3.089395E-03 7.877989E+01  9.974772E-01 -8.931174E+00  1.516377E-02 7.966408E+01
1.907019E-03 7.890679E+01  1.515694E-02 7.963286E+01  9.972433E-01 -9.234468E+00
2.143125E+02  9.979472E-01 -1.566364E+01  3.249812E-03 7.889909E+01  1.955963E-03 7.842262E+01
3.243181E-03 7.903061E+01  9.976339E-01 -9.134547E+00  1.522752E-02 7.936521E+01
1.962558E-03 7.831805E+01  1.519186E-02 7.945546E+01  9.968898E-01 -9.553676E+00
2.180000E+02  9.978745E-01 -1.597514E+01  3.317627E-03 7.770939E+01  2.027799E-03 7.879310E+01
3.326618E-03 7.778781E+01  9.976069E-01 -9.372992E+00  1.557786E-02 7.889787E+01
2.026024E-03 7.876200E+01  1.558324E-02 7.891945E+01  9.969279E-01 -9.748984E+00
2.216875E+02  9.971688E-01 -1.617018E+01  3.355483E-03 7.908751E+01  2.051248E-03 7.752180E+01
3.363741E-03 7.922247E+01  9.964096E-01 -9.447952E+00  1.563509E-02 7.836150E+01
2.058125E-03 7.765898E+01  1.564792E-02 7.833397E+01  9.966187E-01 -9.853550E+00
2.253750E+02  9.975139E-01 -1.639296E+01  3.469412E-03 7.500958E+01  2.121363E-03 7.465819E+01
3.471240E-03 7.525249E+01  9.983757E-01 -9.597714E+00  1.596661E-02 7.901936E+01
2.128594E-03 7.488535E+01  1.596795E-02 7.899107E+01  9.981469E-01 -9.984040E+00
2.290625E+02  9.978304E-01 -1.667794E+01  3.559751E-03 7.545239E+01  2.219410E-03 7.559775E+01
3.558254E-03 7.536795E+01  9.985423E-01 -9.817574E+00  1.611378E-02 7.899713E+01
2.211819E-03 7.536983E+01  1.611139E-02 7.898889E+01  9.970368E-01 -1.012399E+01
2.327500E+02  9.975677E-01 -1.651109E+01  3.375646E-03 7.302771E+01  1.982396E-03 7.260783E+01
3.374217E-03 7.311207E+01  9.964391E-01 -9.608917E+00  1.655903E-02 7.949802E+01
1.973168E-03 7.307821E+01  1.655475E-02 7.955092E+01  9.968703E-01 -9.967967E+00
2.364375E+02  9.969996E-01 -1.714314E+01  3.582517E-03 7.480378E+01  2.226082E-03 6.834967E+01
3.572006E-03 7.494016E+01  9.978478E-01 -1.008062E+01  1.667811E-02 7.857407E+01
2.231772E-03 6.780211E+01  1.666849E-02 7.851814E+01  9.982166E-01 -1.051177E+01
2.401250E+02  9.976097E-01 -1.746217E+01  3.357496E-03 7.214228E+01  1.991397E-03 7.761815E+01
3.387927E-03 7.214894E+01  9.985020E-01 -1.027997E+01  1.734516E-02 7.807691E+01
1.974717E-03 7.764372E+01  1.737221E-02 7.813555E+01  9.982703E-01 -1.066900E+01
2.438125E+02  9.973990E-01 -1.777450E+01  3.645119E-03 7.631425E+01  2.128388E-03 7.185217E+01
3.648309E-03 7.633656E+01  9.975599E-01 -1.038522E+01  1.708555E-02 7.792616E+01
2.137520E-03 7.205083E+01  1.711141E-02 7.797209E+01  9.975499E-01 -1.078148E+01
2.475000E+02  9.973723E-01 -1.802723E+01  3.542115E-03 7.423080E+01  2.195730E-03 7.802830E+01
3.535993E-03 7.402003E+01  9.971538E-01 -1.054201E+01  1.755967E-02 7.719271E+01
2.191257E-03 7.779509E+01  1.760968E-02 7.716631E+01  9.960568E-01 -1.097244E+01
2.511875E+02  9.972377E-01 -1.826164E+01  3.690561E-03 7.538877E+01  2.193690E-03 7.413824E+01
3.695031E-03 7.532782E+01  9.976021E-01 -1.071786E+01  1.743437E-02 7.763478E+01
2.191381E-03 7.392943E+01  1.750205E-02 7.762322E+01  9.967853E-01 -1.109223E+01
2.548750E+02  9.978572E-01 -1.851733E+01  3.676623E-03 7.536276E+01  2.297195E-03 7.397742E+01
3.688811E-03 7.536923E+01  9.972374E-01 -1.084766E+01  1.791260E-02 7.657351E+01
2.295767E-03 7.414966E+01  1.793605E-02 7.665093E+01  9.973032E-01 -1.128973E+01
2.585625E+02  9.975516E-01 -1.885054E+01  3.873288E-03 7.343475E+01  2.388723E-03 7.522242E+01
3.876465E-03 7.333355E+01  9.970511E-01 -1.092808E+01  1.794865E-02 7.789139E+01
2.397005E-03 7.491338E+01  1.795371E-02 7.784556E+01  9.980002E-01 -1.144469E+01
2.622500E+02  9.965892E-01 -1.912274E+01  3.788414E-03 7.447214E+01  2.288693E-03 7.180706E+01
3.788275E-03 7.440671E+01  9.975856E-01 -1.109506E+01  1.829412E-02 7.699003E+01
2.295811E-03 7.227682E+01  1.827001E-02 7.682444E+01  9.976444E-01 -1.161489E+01
2.659375E+02  9.961072E-01 -1.938640E+01  3.878619E-03 7.253319E+01  2.451830E-03 7.348653E+01
3.865264E-03 7.267365E+01  9.984642E-01 -1.131514E+01  1.846251E-02 7.773613E+01
2.453159E-03 7.323870E+01  1.848045E-02 7.757384E+01  9.977928E-01 -1.176502E+01
2.696250E+02  9.957553E-01 -1.958791E+01  3.820902E-03 7.515894E+01  2.248392E-03 7.067423E+01
3.820224E-03 7.508700E+01  9.967178E-01 -1.142217E+01  1.883284E-02 7.721910E+01
2.252599E-03 7.037208E+01  1.883444E-02 7.697837E+01  9.964589E-01 -1.184153E+01
2.733125E+02  9.961069E-01 -1.978542E+01  4.003432E-03 7.257445E+01  2.458133E-03 7.271072E+01
3.999014E-03 7.271429E+01  9.970369E-01 -1.154024E+01  1.909153E-02 7.755061E+01
2.447532E-03 7.288698E+01  1.907082E-02 7.741318E+01  9.966785E-01 -1.198272E+01
2.770000E+02  9.968175E-01 -1.999722E+01  3.991375E-03 7.539298E+01  2.259180E-03 7.256811E+01
3.994318E-03 7.539886E+01  9.979333E-01 -1.179671E+01  1.946784E-02 7.695972E+01
2.248398E-03 7.222841E+01  1.946341E-02 7.678234E+01  9.969664E-01 -1.219684E+01
2.806875E+02  9.962723E-01 -2.034832E+01  4.076929E-03 7.355056E+01  2.495134E-03 7.418141E+01
4.081019E-03 7.340287E+01  9.975209E-01 -1.192217E+01  1.949300E-02 7.713410E+01
2.497607E-03 7.413354E+01  1.945600E-02 7.697985E+01  9.960941E-01 -1.226667E+01
2.843750E+02  9.974259E-01 -2.050975E+01  4.064927E-03 7.388794E+01  2.377647E-03 7.353381E+01
4.072099E-03 7.401408E+01  9.969635E-01 -1.208165E+01  1.982210E-02 7.594259E+01
2.375668E-03 7.373675E+01  1.979569E-02 7.589481E+01  9.976382E-01 -1.243064E+01
2.880625E+02  9.968118E-01 -2.087487E+01  4.143260E-03 7.378158E+01  2.498700E-03 7.296026E+01
4.127478E-03 7.380193E+01  9.971091E-01 -1.215659E+01  1.997338E-02 7.715489E+01
2.495011E-03 7.305820E+01  1.994617E-02 7.705469E+01  9.961396E-01 -1.260772E+01
2.917500E+02  9.967505E-01 -2.117026E+01  4.250439E-03 7.431081E+01  2.528938E-03 7.411957E+01
4.237283E-03 7.440465E+01  9.969289E-01 -1.241631E+01  2.027033E-02 7.635867E+01
2.527108E-03 7.426327E+01  2.023071E-02 7.633734E+01  9.960009E-01 -1.275677E+01
2.954375E+02  9.960676E-01 -2.147049E+01  4.404861E-03 7.318094E+01  2.631809E-03 7.380748E+01
4.403638E-03 7.310329E+01  9.963499E-01 -1.259587E+01  2.050549E-02 7.638865E+01
2.619228E-03 7.410020E+01  2.044207E-02 7.645059E+01  9.953873E-01 -1.294523E+01
2.991250E+02  9.960853E-01 -2.161173E+01  4.300186E-03 7.328920E+01  2.557586E-03 7.342362E+01
4.292239E-03 7.317059E+01  9.968661E-01 -1.273565E+01  2.083693E-02 7.570046E+01
2.550414E-03 7.338907E+01  2.078429E-02 7.574904E+01  9.961636E-01 -1.309870E+01
3.028125E+02  9.962001E-01 -2.182867E+01  4.390982E-03 7.307200E+01  2.608249E-03 7.303351E+01
4.391908E-03 7.313043E+01  9.974226E-01 -1.292194E+01  2.115352E-02 7.586963E+01
2.604204E-03 7.315907E+01  2.111114E-02 7.591578E+01  9.970460E-01 -1.322935E+01
3.065000E+02  9.966711E-01 -2.216409E+01  4.458232E-03 7.259175E+01  2.679393E-03 7.315444E+01
4.464548E-03 7.259242E+01  9.967900E-01 -1.307706E+01  2.119933E-02 7.552718E+01
2.666788E-03 7.322798E+01  2.115973E-02 7.554858E+01  9.965833E-01 -1.335161E+01
3.101875E+02  9.971656E-01 -2.244789E+01  4.481263E-03 7.264341E+01  2.713380E-03 7.285262E+01
4.487071E-03 7.251434E+01  9.973366E-01 -1.322608E+01  2.142208E-02 7.579620E+01
2.711636E-03 7.271170E+01  2.140451E-02 7.581752E+01  9.958343E-01 -1.346768E+01
3.138750E+02  9.968978E-01 -2.269597E+01  4.544433E-03 7.253685E+01  2.746835E-03 7.271887E+01
4.549588E-03 7.253445E+01  9.974387E-01 -1.335196E+01  2.171927E-02 7.561113E+01
2.753956E-03 7.279714E+01  2.168733E-02 7.566012E+01  9.960735E-01 -1.366270E+01
3.175625E+02  9.944870E-01 -2.299378E+01  4.621542E-03 7.148532E+01  2.815737E-03 7.254540E+01
4.617337E-03 7.152586E+01  9.964409E-01 -1.353904E+01  2.209310E-02 7.551222E+01
2.814242E-03 7.277734E+01  2.207601E-02 7.552148E+01  9.964517E-01 -1.390927E+01
3.212500E+02  9.951239E-01 -2.323815E+01  4.770681E-03 7.087605E+01  2.837421E-03 7.009628E+01
4.751212E-03 7.101213E+01  9.964502E-01 -1.373205E+01  2.230984E-02 7.514794E+01
2.833693E-03 7.017027E+01  2.233850E-02 7.525166E+01  9.966044E-01 -1.399097E+01
3.249375E+02  9.963598E-01 -2.347233E+01  4.641511E-03 7.134321E+01  2.893890E-03 7.079493E+01
4.643781E-03 7.135219E+01  9.958964E-01 -1.389687E+01  2.240815E-02 7.479627E+01
2.889954E-03 7.078631E+01  2.247197E-02 7.486520E+01  9.960427E-01 -1.410158E+01
3.286250E+02  9.970792E-01 -2.373220E+01  4.834477E-03 7.164871E+01  2.800810E-03 7.083605E+01
4.824328E-03 7.167174E+01  9.967033E-01 -1.398295E+01  2.245556E-02 7.434252E+01
2.799566E-03 7.105307E+01  2.246711E-02 7.442403E+01  9.952420E-01 -1.425911E+01
3.323125E+02  9.964197E-01 -2.394019E+01  4.734736E-03 6.957538E+01  2.895156E-03 6.830371E+01
4.739038E-03 6.973145E+01  9.974208E-01 -1.417613E+01  2.290431E-02 7.523120E+01
2.900488E-03 6.832238E+01  2.283173E-02 7.522508E+01  9.971651E-01 -1.440351E+01
3.360000E+02  9.981288E-01 -2.424002E+01  4.843167E-03 7.122029E+01  2.864881E-03 7.093473E+01
4.846262E-03 7.134660E+01  9.961625E-01 -1.434147E+01  2.282661E-02 7.486524E+01
2.853104E-03 7.123426E+01  2.286332E-02 7.484161E+01  9.954843E-01 -1.458176E+01
3.396875E+02  9.973443E-01 -2.455149E+01  4.853825E-03 7.009384E+01  2.893101E-03 7.013156E+01
4.865317E-03 7.042593E+01  9.966754E-01 -1.453227E+01  2.341326E-02 7.513881E+01
2.892942E-03 7.011824E+01  2.347406E-02 7.517539E+01  9.958198E-01 -1.472180E+01
3.433750E+02  9.950939E-01 -2.477433E+01  4.972912E-03 7.151443E+01  2.970369E-03 7.159434E+01
4.964362E-03 7.148989E+01  9.960682E-01 -1.466249E+01  2.373526E-02 7.433495E+01
2.964284E-03 7.168156E+01  2.380771E-02 7.425427E+01  9.953951E-01 -1.489206E+01
3.470625E+02  9.947662E-01 -2.499107E+01  4.871567E-03 7.084732E+01  3.008068E-03 7.149128E+01
4.872198E-03 7.077658E+01  9.959146E-01 -1.482193E+01  2.413272E-02 7.432733E+01
3.012993E-03 7.161122E+01  2.417779E-02 7.428506E+01  9.954914E-01 -1.499935E+01
3.507500E+02  9.954310E-01 -2.526120E+01  5.194413E-03 7.117156E+01  3.090221E-03 7.155051E+01
5.197452E-03 7.117264E+01  9.957205E-01 -1.495173E+01  2.397822E-02 7.382066E+01
3.094036E-03 7.160854E+01  2.402754E-02 7.377665E+01  9.953940E-01 -1.516078E+01
3.544375E+02  9.930532E-01 -2.544487E+01  5.118581E-03 7.102355E+01  3.258448E-03 6.756602E+01
5.128029E-03 7.110454E+01  9.934664E-01 -1.499268E+01  2.416885E-02 7.405157E+01
3.254113E-03 6.763289E+01  2.419238E-02 7.399301E+01  9.925842E-01 -1.526906E+01
3.581250E+02  9.966136E-01 -2.586229E+01  5.374594E-03 6.924719E+01  3.220510E-03 6.958051E+01
5.368967E-03 6.935553E+01  9.952599E-01 -1.528979E+01  2.423275E-02 7.401601E+01
3.226777E-03 6.950237E+01  2.427031E-02 7.392735E+01  9.959115E-01 -1.550851E+01
3.618125E+02  9.958697E-01 -2.606869E+01  5.214283E-03 6.774171E+01  3.016703E-03 6.409185E+01
5.231323E-03 6.778220E+01  9.961145E-01 -1.549054E+01  2.481346E-02 7.454929E+01
3.017064E-03 6.413678E+01  2.486044E-02 7.441774E+01  9.958620E-01 -1.566646E+01
3.655000E+02  9.942202E-01 -2.631971E+01  5.512832E-03 6.748123E+01  3.263153E-03 6.698416E+01
5.512438E-03 6.749997E+01  9.963905E-01 -1.562229E+01  2.508163E-02 7.437877E+01
3.278260E-03 6.686967E+01  2.505240E-02 7.428431E+01  9.944198E-01 -1.579231E+01
3.691875E+02  9.932959E-01 -2.649770E+01  5.365097E-03 6.375404E+01  3.054307E-03 6.565174E+01
5.355376E-03 6.389507E+01  9.939225E-01 -1.572100E+01  2.556173E-02 7.411732E+01
3.061460E-03 6.528621E+01  2.549105E-02 7.401940E+01  9.939925E-01 -1.590168E+01
3.728750E+02  9.943932E-01 -2.675114E+01  5.175969E-03 6.779124E+01  3.068081E-03 6.640715E+01
5.162688E-03 6.776771E+01  9.947949E-01 -1.580969E+01  2.566532E-02 7.341068E+01
3.052531E-03 6.617997E+01  2.561809E-02 7.325528E+01  9.950868E-01 -1.608603E+01
3.765625E+02  9.947514E-01 -2.696367E+01  5.141028E-03 6.507291E+01  2.871332E-03 6.846349E+01
5.145246E-03 6.514997E+01  9.958944E-01 -1.606476E+01  2.602893E-02 7.294746E+01
2.869384E-03 6.793947E+01  2.604164E-02 7.291704E+01  9.949784E-01 -1.632017E+01
