! Matrix data file written by TouchstoneData, EPCOS AG
! FILENAME: "LY65A_X34Y34_F1_NB.s3p_newformat"
! COMMENT: "(LY65A_X34Y34_F1_NB.s3p) Epcos AG 12/3/2010"
! INFO: nport=3, nfreq=801
! DATE: "Wed Jun 15 09:02:21 2011"
! USER: "Michael Schemies"
!
! port | pin | signal
! -----|-----|--------
!   1  |  1  |  in
!   2  |  8  |  out
!   3  |  9  |  out
! --------------------
!
# MHZ S MA R 50
! freq  magS11 angS11  magS12 angS12  magS13 angS13  ...
7.500000E+02  9.739043E-01 -8.660636E+01  4.961282E-03 2.053657E+01  1.809888E-03 2.212734E+01
4.942714E-03 2.042349E+01  9.805265E-01 -5.541143E+01  2.621605E-03 3.949187E+01
1.782287E-03 2.245432E+01  2.650046E-03 3.943829E+01  9.841264E-01 -5.395338E+01
7.504375E+02  9.739602E-01 -8.665235E+01  4.915275E-03 2.032669E+01  1.809113E-03 2.306567E+01
4.944303E-03 2.018026E+01  9.806592E-01 -5.546686E+01  2.667741E-03 3.922674E+01
1.813553E-03 2.354334E+01  2.681864E-03 3.993944E+01  9.844817E-01 -5.399952E+01
7.508750E+02  9.737208E-01 -8.673146E+01  4.902240E-03 1.994573E+01  1.851340E-03 2.447843E+01
4.904525E-03 2.018988E+01  9.803718E-01 -5.552703E+01  2.613445E-03 3.872922E+01
1.804616E-03 2.457384E+01  2.629260E-03 3.978016E+01  9.843586E-01 -5.405420E+01
7.513125E+02  9.734900E-01 -8.677679E+01  4.842452E-03 1.978332E+01  1.910407E-03 2.403646E+01
4.865099E-03 1.964111E+01  9.803708E-01 -5.555807E+01  2.514777E-03 4.065037E+01
1.926549E-03 2.398005E+01  2.541835E-03 4.140061E+01  9.843506E-01 -5.409475E+01
7.517500E+02  9.732300E-01 -8.682783E+01  4.805508E-03 1.960555E+01  1.959026E-03 2.369034E+01
4.796897E-03 1.983698E+01  9.802981E-01 -5.561464E+01  2.557256E-03 4.332425E+01
1.905568E-03 2.456649E+01  2.566491E-03 4.308648E+01  9.843223E-01 -5.415489E+01
7.521875E+02  9.733704E-01 -8.685779E+01  4.738805E-03 2.037528E+01  1.961844E-03 2.344762E+01
4.766205E-03 2.060629E+01  9.803027E-01 -5.566894E+01  2.618284E-03 4.194637E+01
1.979406E-03 2.281241E+01  2.623060E-03 4.244480E+01  9.842384E-01 -5.419739E+01
7.526250E+02  9.736969E-01 -8.694274E+01  4.779567E-03 2.031522E+01  2.032695E-03 2.189714E+01
4.761444E-03 2.049484E+01  9.804698E-01 -5.572815E+01  2.566331E-03 4.072036E+01
2.018451E-03 2.121541E+01  2.612759E-03 4.123500E+01  9.845863E-01 -5.424772E+01
7.530625E+02  9.738256E-01 -8.698666E+01  4.768278E-03 2.019881E+01  1.956826E-03 1.801920E+01
4.775551E-03 2.011009E+01  9.803471E-01 -5.580592E+01  2.480658E-03 4.142378E+01
1.958193E-03 1.913717E+01  2.459773E-03 4.230814E+01  9.843743E-01 -5.430685E+01
7.535000E+02  9.737597E-01 -8.705121E+01  4.725286E-03 2.003763E+01  1.917721E-03 2.089489E+01
4.765243E-03 1.988720E+01  9.802248E-01 -5.587787E+01  2.397878E-03 4.360089E+01
1.920027E-03 2.199687E+01  2.378382E-03 4.347201E+01  9.844701E-01 -5.435881E+01
7.539375E+02  9.738270E-01 -8.708019E+01  4.710655E-03 2.147791E+01  1.975190E-03 2.038513E+01
4.695045E-03 2.129092E+01  9.804224E-01 -5.592650E+01  2.330045E-03 4.813687E+01
1.978106E-03 1.961830E+01  2.351651E-03 4.796158E+01  9.848177E-01 -5.440650E+01
7.543750E+02  9.740707E-01 -8.715172E+01  4.788280E-03 2.102470E+01  1.994014E-03 1.947103E+01
4.769610E-03 2.088420E+01  9.804106E-01 -5.598168E+01  2.437977E-03 5.383211E+01
1.985412E-03 1.904799E+01  2.425253E-03 5.457548E+01  9.844913E-01 -5.448426E+01
7.548125E+02  9.738399E-01 -8.723521E+01  4.785778E-03 2.007009E+01  1.950768E-03 1.696778E+01
4.782134E-03 2.010051E+01  9.790068E-01 -5.600642E+01  3.490082E-03 6.920774E+01
1.951514E-03 1.694215E+01  3.477934E-03 6.948442E+01  9.831534E-01 -5.450631E+01
7.552500E+02  9.737353E-01 -8.730819E+01  4.796453E-03 2.070261E+01  1.916948E-03 1.742095E+01
4.757482E-03 2.045966E+01  9.803188E-01 -5.603661E+01  3.272648E-03 4.385067E+01
1.895522E-03 1.736979E+01  3.274346E-03 4.344935E+01  9.845318E-01 -5.451966E+01
7.556875E+02  9.739790E-01 -8.736721E+01  4.762464E-03 2.037181E+01  1.880386E-03 1.815924E+01
4.799736E-03 2.029871E+01  9.802363E-01 -5.610089E+01  2.983399E-03 4.149468E+01
1.860733E-03 1.867065E+01  2.981960E-03 4.085458E+01  9.847460E-01 -5.459866E+01
7.561250E+02  9.740168E-01 -8.742904E+01  4.784330E-03 2.004464E+01  1.899777E-03 2.066002E+01
4.797231E-03 2.017975E+01  9.797380E-01 -5.617115E+01  2.880422E-03 3.963078E+01
1.897818E-03 2.099646E+01  2.902601E-03 3.989709E+01  9.845151E-01 -5.464422E+01
7.565625E+02  9.740884E-01 -8.749617E+01  4.808563E-03 1.970102E+01  1.916822E-03 2.002634E+01
4.811343E-03 1.935873E+01  9.796006E-01 -5.622856E+01  2.825146E-03 4.148556E+01
1.902938E-03 1.998738E+01  2.830609E-03 4.156710E+01  9.842351E-01 -5.469845E+01
7.570000E+02  9.740453E-01 -8.755665E+01  4.713793E-03 1.837519E+01  1.905770E-03 1.685241E+01
4.717617E-03 1.833222E+01  9.788344E-01 -5.627742E+01  2.812127E-03 4.041824E+01
1.924858E-03 1.727073E+01  2.828337E-03 4.102475E+01  9.837732E-01 -5.476041E+01
7.574375E+02  9.742131E-01 -8.762484E+01  4.636049E-03 1.896774E+01  1.861030E-03 1.955012E+01
4.650065E-03 1.903730E+01  9.781916E-01 -5.630539E+01  2.615441E-03 3.683681E+01
1.842286E-03 1.975432E+01  2.601103E-03 3.637675E+01  9.837374E-01 -5.478096E+01
7.578750E+02  9.746942E-01 -8.768531E+01  4.659478E-03 1.898977E+01  1.900569E-03 2.009560E+01
4.643662E-03 1.920926E+01  9.783699E-01 -5.634972E+01  2.580136E-03 4.005549E+01
1.853872E-03 2.020866E+01  2.602738E-03 3.992593E+01  9.831496E-01 -5.483700E+01
7.583125E+02  9.746979E-01 -8.774492E+01  4.593875E-03 1.881441E+01  1.826390E-03 2.226299E+01
4.606369E-03 1.854537E+01  9.781726E-01 -5.640843E+01  2.499322E-03 3.990244E+01
1.874740E-03 2.187515E+01  2.512291E-03 4.010825E+01  9.830930E-01 -5.489441E+01
7.587500E+02  9.744512E-01 -8.783998E+01  4.573067E-03 1.868892E+01  1.941068E-03 2.183058E+01
4.582843E-03 1.880870E+01  9.778997E-01 -5.646318E+01  2.686627E-03 3.900799E+01
1.929515E-03 2.267200E+01  2.726765E-03 3.924597E+01  9.827459E-01 -5.496949E+01
7.591875E+02  9.745585E-01 -8.789688E+01  4.485841E-03 1.849584E+01  1.987160E-03 2.174226E+01
4.497423E-03 1.874155E+01  9.772323E-01 -5.648487E+01  2.419761E-03 2.879739E+01
1.991356E-03 2.167246E+01  2.405424E-03 2.832772E+01  9.822233E-01 -5.501949E+01
7.596250E+02  9.744694E-01 -8.798219E+01  4.389890E-03 1.999804E+01  1.972457E-03 2.013709E+01
4.417119E-03 2.020517E+01  9.775333E-01 -5.650384E+01  1.995189E-03 3.116592E+01
1.956729E-03 2.060138E+01  1.982643E-03 3.128632E+01  9.819755E-01 -5.508408E+01
7.600625E+02  9.744523E-01 -8.806503E+01  4.477742E-03 2.037929E+01  1.967098E-03 2.102755E+01
4.476149E-03 2.019366E+01  9.776900E-01 -5.652428E+01  1.644379E-03 5.070406E+01
1.951731E-03 2.121526E+01  1.642790E-03 5.157849E+01  9.813611E-01 -5.512875E+01
7.605000E+02  9.741514E-01 -8.814914E+01  4.428837E-03 2.007257E+01  1.946996E-03 1.991886E+01
4.415291E-03 2.024338E+01  9.782885E-01 -5.657283E+01  1.726284E-03 5.928227E+01
1.920553E-03 2.104862E+01  1.745629E-03 5.970223E+01  9.806491E-01 -5.511337E+01
7.609375E+02  9.738098E-01 -8.823245E+01  4.384009E-03 2.029915E+01  1.973397E-03 2.099068E+01
4.411948E-03 2.016943E+01  9.778287E-01 -5.664987E+01  2.220259E-03 6.716561E+01
1.971415E-03 2.111712E+01  2.246023E-03 6.758721E+01  9.810282E-01 -5.512094E+01
7.613750E+02  9.732975E-01 -8.832529E+01  4.309037E-03 2.062333E+01  1.956234E-03 2.092745E+01
4.332356E-03 2.051035E+01  9.781902E-01 -5.667363E+01  2.682635E-03 6.054118E+01
1.961400E-03 2.049562E+01  2.643323E-03 6.129662E+01  9.821208E-01 -5.516228E+01
7.618125E+02  9.706699E-01 -8.844373E+01  4.223296E-03 2.199872E+01  1.986384E-03 1.996405E+01
4.242220E-03 2.193569E+01  9.779377E-01 -5.673856E+01  2.570597E-03 6.360566E+01
2.007144E-03 2.000512E+01  2.592742E-03 6.406685E+01  9.817964E-01 -5.524977E+01
7.622500E+02  9.694704E-01 -8.820494E+01  4.250350E-03 2.515228E+01  1.852509E-03 2.124457E+01
4.272175E-03 2.551028E+01  9.772983E-01 -5.677000E+01  2.882489E-03 6.370619E+01
1.881187E-03 2.169743E+01  2.903874E-03 6.376674E+01  9.819405E-01 -5.528922E+01
7.626875E+02  9.726144E-01 -8.825584E+01  4.335235E-03 2.609310E+01  1.918818E-03 2.217551E+01
4.352220E-03 2.623298E+01  9.774077E-01 -5.678326E+01  3.171704E-03 5.907017E+01
1.892701E-03 2.202302E+01  3.187754E-03 5.921350E+01  9.821019E-01 -5.531000E+01
7.631250E+02  9.732071E-01 -8.831194E+01  4.518181E-03 2.773448E+01  1.974546E-03 2.406912E+01
4.520830E-03 2.800808E+01  9.773364E-01 -5.681511E+01  3.247478E-03 5.519629E+01
1.956110E-03 2.366851E+01  3.240444E-03 5.532355E+01  9.823371E-01 -5.536985E+01
7.635625E+02  9.737116E-01 -8.839998E+01  4.676351E-03 2.693673E+01  2.026091E-03 2.503452E+01
4.696291E-03 2.750133E+01  9.774297E-01 -5.685410E+01  3.319157E-03 5.600991E+01
2.032190E-03 2.558045E+01  3.298351E-03 5.587733E+01  9.819236E-01 -5.542467E+01
7.640000E+02  9.739403E-01 -8.847302E+01  4.850446E-03 2.533327E+01  2.248223E-03 2.268824E+01
4.860918E-03 2.590274E+01  9.775720E-01 -5.689367E+01  3.701529E-03 5.318349E+01
2.245122E-03 2.382652E+01  3.705149E-03 5.293650E+01  9.818490E-01 -5.545367E+01
7.644375E+02  9.739082E-01 -8.853943E+01  4.887911E-03 2.502988E+01  2.108992E-03 1.925986E+01
4.878508E-03 2.545770E+01  9.777112E-01 -5.692721E+01  3.561641E-03 4.594973E+01
2.092745E-03 2.027344E+01  3.589526E-03 4.640160E+01  9.817186E-01 -5.550925E+01
7.648750E+02  9.742116E-01 -8.862697E+01  4.909772E-03 2.429256E+01  2.176268E-03 2.076398E+01
4.952094E-03 2.423662E+01  9.779318E-01 -5.698468E+01  3.608773E-03 4.741102E+01
2.179054E-03 2.117476E+01  3.589071E-03 4.794188E+01  9.814198E-01 -5.557694E+01
7.653125E+02  9.737557E-01 -8.872235E+01  4.933893E-03 2.316482E+01  2.207706E-03 1.820473E+01
4.922205E-03 2.309642E+01  9.780406E-01 -5.703793E+01  3.936528E-03 4.572162E+01
2.232533E-03 1.846384E+01  3.938890E-03 4.570190E+01  9.802859E-01 -5.563947E+01
7.657500E+02  9.731010E-01 -8.879255E+01  4.829771E-03 2.320809E+01  2.135601E-03 1.294349E+01
4.836544E-03 2.326419E+01  9.779521E-01 -5.709084E+01  4.149999E-03 3.512589E+01
2.132437E-03 1.293545E+01  4.091634E-03 3.551406E+01  9.799350E-01 -5.559006E+01
7.661875E+02  9.724986E-01 -8.878523E+01  4.924904E-03 2.255076E+01  1.993611E-03 1.633062E+01
4.967042E-03 2.276686E+01  9.780760E-01 -5.713411E+01  3.947958E-03 3.538716E+01
1.987486E-03 1.684792E+01  3.902652E-03 3.543606E+01  9.807784E-01 -5.565117E+01
7.666250E+02  9.735815E-01 -8.882685E+01  4.852441E-03 2.178598E+01  2.047649E-03 1.714269E+01
4.909808E-03 2.212006E+01  9.782086E-01 -5.718771E+01  4.146501E-03 3.041594E+01
2.038804E-03 1.734145E+01  4.133754E-03 3.053387E+01  9.804740E-01 -5.570091E+01
7.670625E+02  9.736413E-01 -8.891597E+01  4.871190E-03 2.273029E+01  2.070542E-03 1.455684E+01
4.907739E-03 2.258487E+01  9.779142E-01 -5.726036E+01  4.125549E-03 2.193001E+01
2.049145E-03 1.563752E+01  4.128793E-03 2.191539E+01  9.801055E-01 -5.575158E+01
7.675000E+02  9.740504E-01 -8.899723E+01  4.982402E-03 2.280763E+01  1.922882E-03 1.474920E+01
4.990240E-03 2.306896E+01  9.769362E-01 -5.732016E+01  3.619748E-03 1.468387E+01
1.919542E-03 1.449232E+01  3.607748E-03 1.436306E+01  9.809283E-01 -5.575072E+01
7.679375E+02  9.742703E-01 -8.909879E+01  5.061790E-03 2.121898E+01  1.913855E-03 1.789694E+01
5.072135E-03 2.138605E+01  9.767617E-01 -5.734239E+01  3.560818E-03 1.597698E+01
1.913299E-03 1.806737E+01  3.587055E-03 1.675952E+01  9.811787E-01 -5.582360E+01
7.683750E+02  9.740204E-01 -8.917780E+01  5.034133E-03 2.021304E+01  1.894422E-03 1.881167E+01
5.040192E-03 2.052848E+01  9.765362E-01 -5.739001E+01  3.497876E-03 9.091855E+00
1.930724E-03 1.861500E+01  3.480747E-03 9.355695E+00  9.811491E-01 -5.588096E+01
7.688125E+02  9.737486E-01 -8.924063E+01  5.034463E-03 1.989068E+01  1.918079E-03 2.065162E+01
5.054877E-03 1.955006E+01  9.762370E-01 -5.740900E+01  3.137323E-03 1.993327E+00
1.914565E-03 2.147643E+01  3.114263E-03 2.664680E+00  9.811219E-01 -5.594212E+01
7.692500E+02  9.736958E-01 -8.932324E+01  5.049613E-03 1.924425E+01  1.958822E-03 2.210381E+01
5.062329E-03 1.941890E+01  9.771057E-01 -5.745635E+01  2.722511E-03 1.028407E+01
1.973289E-03 2.223318E+01  2.685890E-03 9.936672E+00  9.814592E-01 -5.597606E+01
7.696875E+02  9.737309E-01 -8.941073E+01  5.060456E-03 1.865976E+01  1.985345E-03 2.160382E+01
5.079002E-03 1.887946E+01  9.766862E-01 -5.750308E+01  2.755501E-03 2.745236E+00
1.938989E-03 2.190022E+01  2.730891E-03 3.305945E+00  9.811539E-01 -5.604323E+01
7.701250E+02  9.732388E-01 -8.946198E+01  5.050561E-03 1.737648E+01  2.000347E-03 2.322963E+01
5.100888E-03 1.729544E+01  9.777022E-01 -5.755003E+01  2.546301E-03 7.832965E+00
1.968000E-03 2.363927E+01  2.567757E-03 8.309618E+00  9.812764E-01 -5.608158E+01
7.705625E+02  9.726808E-01 -8.954160E+01  5.035298E-03 1.589234E+01  2.013542E-03 2.674772E+01
5.068435E-03 1.576044E+01  9.774771E-01 -5.765962E+01  3.067038E-03 4.804969E+00
2.048698E-03 2.618254E+01  3.038242E-03 5.320625E+00  9.808790E-01 -5.615489E+01
7.710000E+02  9.725118E-01 -8.957167E+01  4.973910E-03 1.443329E+01  2.176641E-03 2.580723E+01
4.968913E-03 1.496802E+01  9.766192E-01 -5.772776E+01  3.250079E-03 -6.892002E+00
2.124163E-03 2.654485E+01  3.271088E-03 -6.312965E+00  9.803143E-01 -5.622141E+01
7.714375E+02  9.723597E-01 -8.962361E+01  4.822301E-03 1.394164E+01  2.219607E-03 2.675710E+01
4.812668E-03 1.413476E+01  9.764162E-01 -5.773091E+01  2.704562E-03 -1.770625E+01
2.227319E-03 2.605826E+01  2.686477E-03 -1.726071E+01  9.800525E-01 -5.624665E+01
7.718750E+02  9.723879E-01 -8.968153E+01  4.661733E-03 1.391439E+01  2.336873E-03 2.517047E+01
4.661153E-03 1.406419E+01  9.761946E-01 -5.781494E+01  2.674595E-03 -2.023131E+01
2.322043E-03 2.585443E+01  2.680147E-03 -1.980355E+01  9.800929E-01 -5.630501E+01
7.723125E+02  9.718133E-01 -8.974708E+01  4.545148E-03 1.494098E+01  2.458787E-03 2.409679E+01
4.510676E-03 1.447144E+01  9.760327E-01 -5.781098E+01  2.499828E-03 -3.447995E+01
2.470844E-03 2.577146E+01  2.525383E-03 -3.409710E+01  9.797478E-01 -5.634746E+01
7.727500E+02  9.719484E-01 -8.978440E+01  4.524296E-03 1.598415E+01  2.515515E-03 2.105887E+01
4.538027E-03 1.607497E+01  9.760408E-01 -5.784609E+01  2.182287E-03 -4.532195E+01
2.536845E-03 2.202757E+01  2.185644E-03 -4.647609E+01  9.792402E-01 -5.641478E+01
7.731875E+02  9.719020E-01 -8.986779E+01  4.490977E-03 1.614370E+01  2.555664E-03 2.230519E+01
4.509750E-03 1.615280E+01  9.767769E-01 -5.787722E+01  1.810648E-03 -4.970232E+01
2.524653E-03 2.213797E+01  1.813952E-03 -4.962377E+01  9.790152E-01 -5.645197E+01
7.736250E+02  9.716060E-01 -8.994054E+01  4.463045E-03 1.720591E+01  2.680234E-03 2.022954E+01
4.463106E-03 1.753180E+01  9.772134E-01 -5.794779E+01  1.862436E-03 -5.618390E+01
2.708709E-03 1.980383E+01  1.865505E-03 -5.632184E+01  9.786658E-01 -5.648522E+01
7.740625E+02  9.712236E-01 -8.996873E+01  4.524377E-03 1.812320E+01  2.795368E-03 1.533188E+01
4.489731E-03 1.876953E+01  9.770836E-01 -5.800093E+01  2.110874E-03 -8.448203E+01
2.810986E-03 1.638302E+01  2.097805E-03 -8.408293E+01  9.776138E-01 -5.648715E+01
7.745000E+02  9.714540E-01 -9.002715E+01  4.591411E-03 1.764066E+01  2.677520E-03 1.133480E+01
4.627427E-03 1.811393E+01  9.772372E-01 -5.808026E+01  1.451630E-03 -1.206001E+02
2.693871E-03 1.182189E+01  1.448943E-03 -1.198958E+02  9.787972E-01 -5.647378E+01
7.749375E+02  9.710733E-01 -9.009497E+01  4.573955E-03 1.772672E+01  2.676402E-03 1.255122E+01
4.586423E-03 1.771594E+01  9.769486E-01 -5.813363E+01  1.409115E-03 -1.176646E+02
2.650871E-03 1.299043E+01  1.415098E-03 -1.179285E+02  9.794105E-01 -5.653965E+01
7.753750E+02  9.707417E-01 -9.014739E+01  4.573815E-03 1.760385E+01  2.737403E-03 9.579183E+00
4.593005E-03 1.788736E+01  9.771049E-01 -5.820767E+01  1.480924E-03 -1.516191E+02
2.729836E-03 1.050279E+01  1.493415E-03 -1.511582E+02  9.799372E-01 -5.659188E+01
7.758125E+02  9.705625E-01 -9.014623E+01  4.506815E-03 1.733833E+01  2.614994E-03 8.336170E+00
4.536635E-03 1.753404E+01  9.761418E-01 -5.829198E+01  1.368473E-03 -1.742506E+02
2.616497E-03 8.379140E+00  1.383032E-03 -1.745000E+02  9.802980E-01 -5.661925E+01
7.762500E+02  9.709656E-01 -9.021645E+01  4.467059E-03 1.810277E+01  2.628698E-03 9.021654E+00
4.500972E-03 1.810659E+01  9.754417E-01 -5.832535E+01  1.235276E-03 1.656201E+02
2.646817E-03 9.539068E+00  1.263276E-03 1.662885E+02  9.810676E-01 -5.670462E+01
7.766875E+02  9.709245E-01 -9.027876E+01  4.583673E-03 1.956462E+01  2.616588E-03 7.951414E+00
4.627085E-03 1.967763E+01  9.750623E-01 -5.830868E+01  1.383243E-03 1.728521E+02
2.646781E-03 7.320278E+00  1.385281E-03 1.724585E+02  9.808350E-01 -5.677165E+01
7.771250E+02  9.707263E-01 -9.033579E+01  4.678617E-03 2.034100E+01  2.776519E-03 7.626892E+00
4.688370E-03 2.048154E+01  9.742887E-01 -5.836268E+01  1.797946E-03 1.639287E+02
2.781898E-03 7.697271E+00  1.806051E-03 1.635004E+02  9.810472E-01 -5.685966E+01
7.775625E+02  9.708529E-01 -9.037548E+01  4.906212E-03 2.079830E+01  2.814914E-03 4.439595E+00
4.903477E-03 2.095494E+01  9.741357E-01 -5.828236E+01  1.665605E-03 1.443262E+02
2.850088E-03 4.126507E+00  1.694677E-03 1.448026E+02  9.809194E-01 -5.689841E+01
7.780000E+02  9.709280E-01 -9.044991E+01  5.118723E-03 1.885916E+01  2.999269E-03 1.167406E+00
5.131484E-03 1.855952E+01  9.757153E-01 -5.831470E+01  1.722672E-03 1.518932E+02
3.033396E-03 2.013286E+00  1.719255E-03 1.522885E+02  9.806322E-01 -5.697840E+01
7.784375E+02  9.706912E-01 -9.052890E+01  5.211984E-03 1.435423E+01  2.905705E-03 -4.491076E+00
5.207191E-03 1.473123E+01  9.760135E-01 -5.838543E+01  2.305007E-03 1.420598E+02
2.920835E-03 -4.209646E+00  2.309463E-03 1.425632E+02  9.800958E-01 -5.701584E+01
7.788750E+02  9.701758E-01 -9.057210E+01  5.238037E-03 1.334293E+01  3.136737E-03 -7.322600E+00
5.245498E-03 1.312736E+01  9.764170E-01 -5.847328E+01  2.566830E-03 1.422883E+02
3.108377E-03 -7.048615E+00  2.566901E-03 1.427642E+02  9.796768E-01 -5.710811E+01
7.793125E+02  9.702770E-01 -9.057687E+01  5.338890E-03 9.166270E+00  3.262966E-03 -1.641612E+01
5.351795E-03 9.170137E+00  9.763587E-01 -5.854043E+01  3.087054E-03 1.375308E+02
3.257696E-03 -1.611620E+01  3.095361E-03 1.375278E+02  9.786396E-01 -5.716170E+01
7.797500E+02  9.701087E-01 -9.066358E+01  5.142328E-03 8.087881E-01  3.357500E-03 -3.198899E+01
5.195335E-03 8.748630E-01  9.753922E-01 -5.863179E+01  4.296319E-03 1.278415E+02
3.368309E-03 -3.198607E+01  4.289023E-03 1.279943E+02  9.771770E-01 -5.716753E+01
7.801875E+02  9.700366E-01 -9.066167E+01  4.360979E-03 1.917466E+00  2.291853E-03 -4.683102E+01
4.402784E-03 2.421968E+00  9.754329E-01 -5.863830E+01  3.869462E-03 1.046441E+02
2.298264E-03 -4.726059E+01  3.886089E-03 1.050911E+02  9.782394E-01 -5.707808E+01
7.806250E+02  9.702260E-01 -9.070725E+01  4.170353E-03 -3.368997E-01  1.856101E-03 -5.325875E+01
4.165189E-03 -4.805688E-01  9.752850E-01 -5.869689E+01  3.984357E-03 1.015803E+02
1.868024E-03 -5.365134E+01  3.985407E-03 1.022307E+02  9.791017E-01 -5.714545E+01
7.810625E+02  9.708015E-01 -9.073014E+01  3.792135E-03 2.926323E+00  1.097049E-03 -4.764919E+01
3.791058E-03 3.166990E+00  9.754743E-01 -5.874478E+01  3.761821E-03 9.492605E+01
1.076716E-03 -4.851720E+01  3.757973E-03 9.504134E+01  9.796561E-01 -5.721013E+01
7.815000E+02  9.712916E-01 -9.080013E+01  3.576867E-03 6.542969E+00  7.452112E-04 -3.610947E+01
3.557891E-03 6.594613E+00  9.749921E-01 -5.878980E+01  3.941858E-03 9.141923E+01
7.125139E-04 -3.531107E+01  3.901853E-03 9.141721E+01  9.790813E-01 -5.727407E+01
7.819375E+02  9.714152E-01 -9.086151E+01  3.613477E-03 1.205391E+01  6.310468E-04 -4.869444E-01
3.618245E-03 1.222754E+01  9.754459E-01 -5.882208E+01  3.766617E-03 8.260603E+01
6.295186E-04 -1.749806E+00  3.743121E-03 8.264182E+01  9.798086E-01 -5.729742E+01
7.823750E+02  9.717887E-01 -9.092914E+01  3.700083E-03 1.347478E+01  8.229916E-04 3.289548E+01
3.735674E-03 1.399543E+01  9.751797E-01 -5.889944E+01  3.813933E-03 8.477776E+01
8.209464E-04 3.369743E+01  3.810885E-03 8.466054E+01  9.792824E-01 -5.738778E+01
7.828125E+02  9.722167E-01 -9.100223E+01  3.798325E-03 1.456564E+01  1.247437E-03 4.105046E+01
3.828433E-03 1.488569E+01  9.755972E-01 -5.892750E+01  3.898750E-03 7.943881E+01
