! Matrix data file written by TouchstoneData, EPCOS AG
! FILENAME: "newformat_LY67A_Filter1_1_NB.s3p"
! COMMENT: "(LY67A_Filter1_1_NB.s3p) Epcos AG 17.01.2012"
! INFO: nport=3, nfreq=1601
! DATE: "Wed Feb  8 11:19:37 2012"
! USER: "Michael Schemies"
!
! port | pin | signal
! -----|-----|--------
!   1  |  1  |  in
!   2  |  8  |  out
!   3  |  9  |  out
! --------------------
!
# MHZ S MA R 50
! freq  magS11 angS11  magS12 angS12  magS13 angS13  ...
1.700000E+03  9.632161E-01 -9.239346E+01  8.874555E-03 1.508180E+01  7.603130E-03 1.600556E+01
8.884895E-03 1.508627E+01  9.525244E-01 -7.957761E+01  7.486454E-02 1.240149E+01
7.597242E-03 1.612272E+01  7.476712E-02 1.251351E+01  9.513445E-01 -8.026546E+01
1.700250E+03  9.630874E-01 -9.243096E+01  8.873669E-03 1.492057E+01  7.668253E-03 1.580932E+01
8.885682E-03 1.498000E+01  9.525479E-01 -7.959121E+01  7.464516E-02 1.229315E+01
7.653327E-03 1.593771E+01  7.455597E-02 1.242053E+01  9.513275E-01 -8.028795E+01
1.700500E+03  9.630203E-01 -9.245972E+01  8.864797E-03 1.485354E+01  7.719650E-03 1.543241E+01
8.881662E-03 1.485870E+01  9.527522E-01 -7.961853E+01  7.441475E-02 1.225895E+01
7.712468E-03 1.552913E+01  7.431191E-02 1.234876E+01  9.515378E-01 -8.031793E+01
1.700750E+03  9.631003E-01 -9.248828E+01  8.878128E-03 1.465503E+01  7.740529E-03 1.499571E+01
8.881527E-03 1.477177E+01  9.529528E-01 -7.965088E+01  7.423556E-02 1.221356E+01
7.730953E-03 1.499744E+01  7.412552E-02 1.232011E+01  9.516734E-01 -8.035321E+01
1.701000E+03  9.631168E-01 -9.251961E+01  8.876555E-03 1.433293E+01  7.720206E-03 1.487469E+01
8.874897E-03 1.437551E+01  9.530224E-01 -7.968061E+01  7.394540E-02 1.210240E+01
7.709142E-03 1.488707E+01  7.384510E-02 1.221200E+01  9.515114E-01 -8.037507E+01
1.701250E+03  9.631257E-01 -9.254789E+01  8.827316E-03 1.387176E+01  7.741490E-03 1.477960E+01
8.834037E-03 1.390932E+01  9.531753E-01 -7.971307E+01  7.359619E-02 1.212730E+01
7.734979E-03 1.483012E+01  7.351988E-02 1.224999E+01  9.516784E-01 -8.039642E+01
1.701500E+03  9.631487E-01 -9.257720E+01  8.757158E-03 1.371281E+01  7.738351E-03 1.468057E+01
8.762887E-03 1.368036E+01  9.532173E-01 -7.973578E+01  7.335786E-02 1.221499E+01
7.741982E-03 1.480402E+01  7.326289E-02 1.229834E+01  9.518835E-01 -8.042033E+01
1.701750E+03  9.630170E-01 -9.259977E+01  8.685154E-03 1.360670E+01  7.790681E-03 1.483391E+01
8.690939E-03 1.360957E+01  9.533628E-01 -7.975950E+01  7.312111E-02 1.229037E+01
7.772741E-03 1.486245E+01  7.304565E-02 1.235197E+01  9.520144E-01 -8.044675E+01
1.702000E+03  9.630506E-01 -9.262086E+01  8.652968E-03 1.364615E+01  7.848406E-03 1.449122E+01
8.644888E-03 1.355682E+01  9.535526E-01 -7.978606E+01  7.290647E-02 1.243337E+01
7.841775E-03 1.458901E+01  7.282561E-02 1.250158E+01  9.521941E-01 -8.047230E+01
1.702250E+03  9.630593E-01 -9.264075E+01  8.588851E-03 1.347422E+01  7.833331E-03 1.391552E+01
8.590546E-03 1.346052E+01  9.538127E-01 -7.982153E+01  7.292665E-02 1.257520E+01
7.827204E-03 1.402048E+01  7.279445E-02 1.263776E+01  9.523562E-01 -8.050673E+01
1.702500E+03  9.631815E-01 -9.266250E+01  8.536202E-03 1.356525E+01  7.786264E-03 1.407417E+01
8.536017E-03 1.349197E+01  9.538405E-01 -7.985774E+01  7.294662E-02 1.253930E+01
7.782370E-03 1.410824E+01  7.284099E-02 1.257267E+01  9.524318E-01 -8.053647E+01
1.702750E+03  9.633884E-01 -9.268861E+01  8.495226E-03 1.340583E+01  7.800110E-03 1.450984E+01
8.492579E-03 1.328963E+01  9.537345E-01 -7.988769E+01  7.275321E-02 1.242851E+01
7.781087E-03 1.447832E+01  7.264499E-02 1.247201E+01  9.523696E-01 -8.056460E+01
1.703000E+03  9.634224E-01 -9.271601E+01  8.400926E-03 1.330942E+01  7.856029E-03 1.478921E+01
8.397874E-03 1.323557E+01  9.536400E-01 -7.989856E+01  7.242582E-02 1.243511E+01
7.848278E-03 1.477859E+01  7.232891E-02 1.248065E+01  9.523422E-01 -8.058246E+01
1.703250E+03  9.634605E-01 -9.274289E+01  8.317615E-03 1.337979E+01  7.902376E-03 1.486500E+01
8.315906E-03 1.328984E+01  9.538808E-01 -7.991652E+01  7.220590E-02 1.259805E+01
7.903644E-03 1.490689E+01  7.211332E-02 1.262241E+01  9.525241E-01 -8.059595E+01
1.703500E+03  9.634285E-01 -9.277594E+01  8.220522E-03 1.385113E+01  7.963527E-03 1.497483E+01
8.221345E-03 1.373634E+01  9.541549E-01 -7.993837E+01  7.207583E-02 1.275158E+01
7.961710E-03 1.493840E+01  7.196774E-02 1.278569E+01  9.527343E-01 -8.062741E+01
1.703750E+03  9.633835E-01 -9.279399E+01  8.188424E-03 1.443045E+01  8.031703E-03 1.499778E+01
8.176209E-03 1.427359E+01  9.544818E-01 -7.996118E+01  7.204888E-02 1.288829E+01
8.031232E-03 1.505889E+01  7.195006E-02 1.289103E+01  9.527721E-01 -8.065595E+01
1.704000E+03  9.634651E-01 -9.282827E+01  8.200530E-03 1.479806E+01  8.082440E-03 1.520618E+01
8.190552E-03 1.470689E+01  9.546761E-01 -8.000739E+01  7.206030E-02 1.300689E+01
8.072351E-03 1.529877E+01  7.193156E-02 1.302828E+01  9.528672E-01 -8.067819E+01
1.704250E+03  9.633426E-01 -9.285943E+01  8.221480E-03 1.484731E+01  8.211028E-03 1.566264E+01
8.205812E-03 1.464638E+01  9.547984E-01 -8.003363E+01  7.214837E-02 1.306170E+01
8.207303E-03 1.568028E+01  7.203506E-02 1.305477E+01  9.529617E-01 -8.070604E+01
1.704500E+03  9.631963E-01 -9.289209E+01  8.165114E-03 1.458152E+01  8.397664E-03 1.546722E+01
8.163386E-03 1.441672E+01  9.548055E-01 -8.005718E+01  7.213736E-02 1.299847E+01
8.381464E-03 1.556175E+01  7.205678E-02 1.300680E+01  9.529534E-01 -8.074201E+01
1.704750E+03  9.630645E-01 -9.292671E+01  8.100486E-03 1.476519E+01  8.545304E-03 1.489789E+01
8.088045E-03 1.466046E+01  9.548462E-01 -8.008764E+01  7.203025E-02 1.294506E+01
8.538718E-03 1.492425E+01  7.193952E-02 1.295315E+01  9.530453E-01 -8.077135E+01
1.705000E+03  9.629612E-01 -9.295477E+01  8.036334E-03 1.485090E+01  8.650604E-03 1.428772E+01
8.033218E-03 1.472256E+01  9.549575E-01 -8.010999E+01  7.188708E-02 1.297762E+01
8.635386E-03 1.434350E+01  7.178167E-02 1.300440E+01  9.531289E-01 -8.080209E+01
1.705250E+03  9.627382E-01 -9.298896E+01  7.945253E-03 1.521004E+01  8.762443E-03 1.369596E+01
7.949391E-03 1.503858E+01  9.550209E-01 -8.013905E+01  7.179567E-02 1.302764E+01
8.742176E-03 1.374638E+01  7.169519E-02 1.305349E+01  9.532433E-01 -8.083821E+01
1.705500E+03  9.626452E-01 -9.301736E+01  7.906958E-03 1.581474E+01  8.864140E-03 1.305505E+01
7.901779E-03 1.568781E+01  9.550337E-01 -8.015557E+01  7.168329E-02 1.308839E+01
8.849623E-03 1.301922E+01  7.160589E-02 1.313085E+01  9.532663E-01 -8.087433E+01
1.705750E+03  9.622859E-01 -9.304624E+01  7.913832E-03 1.602794E+01  8.939348E-03 1.246421E+01
7.908899E-03 1.589547E+01  9.551321E-01 -8.017986E+01  7.163303E-02 1.315560E+01
8.927314E-03 1.248351E+01  7.153477E-02 1.318100E+01  9.532409E-01 -8.090896E+01
1.706000E+03  9.620898E-01 -9.306044E+01  7.872559E-03 1.601168E+01  9.091804E-03 1.190293E+01
7.861364E-03 1.587589E+01  9.551741E-01 -8.020270E+01  7.159947E-02 1.324585E+01
9.087842E-03 1.187645E+01  7.149535E-02 1.327214E+01  9.532988E-01 -8.094657E+01
1.706250E+03  9.619640E-01 -9.307580E+01  7.761569E-03 1.622047E+01  9.198627E-03 1.052152E+01
7.745132E-03 1.612784E+01  9.553427E-01 -8.022601E+01  7.157566E-02 1.329951E+01
9.196138E-03 1.050520E+01  7.151183E-02 1.333245E+01  9.533623E-01 -8.097116E+01
1.706500E+03  9.620073E-01 -9.309028E+01  7.670242E-03 1.687572E+01  9.195748E-03 9.460910E+00
7.656619E-03 1.678283E+01  9.554777E-01 -8.025254E+01  7.163128E-02 1.333360E+01
9.194671E-03 9.412744E+00  7.153435E-02 1.336655E+01  9.533744E-01 -8.101055E+01
1.706750E+03  9.620549E-01 -9.311217E+01  7.610396E-03 1.779621E+01  9.204026E-03 8.764731E+00
7.597580E-03 1.768769E+01  9.555345E-01 -8.027974E+01  7.160147E-02 1.334319E+01
9.213945E-03 8.808789E+00  7.153690E-02 1.338730E+01  9.534259E-01 -8.105164E+01
1.707000E+03  9.619233E-01 -9.313603E+01  7.577792E-03 1.860085E+01  9.277248E-03 8.075229E+00
7.560741E-03 1.846170E+01  9.555218E-01 -8.030796E+01  7.157987E-02 1.335265E+01
9.278398E-03 8.172823E+00  7.150503E-02 1.341231E+01  9.533368E-01 -8.109232E+01
1.707250E+03  9.619435E-01 -9.315652E+01  7.533658E-03 1.957869E+01  9.335291E-03 7.192364E+00
7.526840E-03 1.940903E+01  9.553823E-01 -8.033503E+01  7.156737E-02 1.338906E+01
9.332970E-03 7.202997E+00  7.149258E-02 1.345172E+01  9.531556E-01 -8.112704E+01
1.707500E+03  9.618803E-01 -9.318356E+01  7.542647E-03 2.058309E+01  9.371376E-03 6.381882E+00
7.539033E-03 2.048866E+01  9.553658E-01 -8.034965E+01  7.158557E-02 1.341305E+01
9.354671E-03 6.338747E+00  7.153846E-02 1.345746E+01  9.529851E-01 -8.116107E+01
1.707750E+03  9.617068E-01 -9.321036E+01  7.593278E-03 2.165569E+01  9.381423E-03 5.175591E+00
7.578783E-03 2.155843E+01  9.554414E-01 -8.036566E+01  7.163636E-02 1.339548E+01
9.373699E-03 5.232759E+00  7.157219E-02 1.344289E+01  9.529317E-01 -8.119417E+01
1.708000E+03  9.616331E-01 -9.322684E+01  7.642306E-03 2.222409E+01  9.329993E-03 4.495599E+00
7.625905E-03 2.201636E+01  9.554305E-01 -8.038932E+01  7.166508E-02 1.332163E+01
9.329877E-03 4.474025E+00  7.158695E-02 1.340637E+01  9.527228E-01 -8.122580E+01
1.708250E+03  9.615010E-01 -9.324799E+01  7.657076E-03 2.301574E+01  9.302115E-03 4.312502E+00
7.643815E-03 2.288220E+01  9.554252E-01 -8.041151E+01  7.162102E-02 1.329456E+01
9.291916E-03 4.289487E+00  7.155271E-02 1.334517E+01  9.526187E-01 -8.125306E+01
1.708500E+03  9.612877E-01 -9.328306E+01  7.731119E-03 2.367704E+01  9.420477E-03 3.964734E+00
7.716254E-03 2.357764E+01  9.552109E-01 -8.044764E+01  7.157225E-02 1.325703E+01
9.418498E-03 3.931174E+00  7.149579E-02 1.329233E+01  9.523897E-01 -8.128351E+01
1.708750E+03  9.610255E-01 -9.331244E+01  7.749117E-03 2.411046E+01  9.484276E-03 2.976077E+00
7.741355E-03 2.391473E+01  9.550824E-01 -8.048124E+01  7.155211E-02 1.322042E+01
9.486214E-03 3.031766E+00  7.151467E-02 1.325154E+01  9.522141E-01 -8.131427E+01
1.709000E+03  9.607496E-01 -9.333465E+01  7.750939E-03 2.473639E+01  9.514278E-03 2.233516E+00
7.732799E-03 2.457084E+01  9.548823E-01 -8.051662E+01  7.151855E-02 1.312612E+01
9.512552E-03 2.274420E+00  7.149947E-02 1.316755E+01  9.520255E-01 -8.133939E+01
1.709250E+03  9.605793E-01 -9.336803E+01  7.744783E-03 2.606238E+01  9.637461E-03 1.443286E+00
7.735010E-03 2.598078E+01  9.546635E-01 -8.056064E+01  7.146731E-02 1.304102E+01
9.641968E-03 1.539807E+00  7.142595E-02 1.302682E+01  9.518332E-01 -8.137518E+01
1.709500E+03  9.600537E-01 -9.339534E+01  7.895388E-03 2.781253E+01  9.672386E-03 7.062591E-02
7.883135E-03 2.775219E+01  9.542971E-01 -8.059115E+01  7.133618E-02 1.293885E+01
9.672484E-03 1.000453E-01  7.132963E-02 1.292533E+01  9.515956E-01 -8.140047E+01
1.709750E+03  9.594663E-01 -9.340510E+01  8.166383E-03 2.836281E+01  9.674494E-03 -9.104110E-01
8.167543E-03 2.825900E+01  9.538260E-01 -8.062118E+01  7.118042E-02 1.287901E+01
9.670700E-03 -8.846505E-01  7.116859E-02 1.288084E+01  9.513547E-01 -8.143005E+01
1.710000E+03  9.592621E-01 -9.340902E+01  8.361032E-03 2.760744E+01  9.693465E-03 -1.405907E+00
8.357606E-03 2.753312E+01  9.536120E-01 -8.064229E+01  7.099840E-02 1.286968E+01
9.688311E-03 -1.356551E+00  7.100923E-02 1.285435E+01  9.511485E-01 -8.146329E+01
1.710250E+03  9.590506E-01 -9.342649E+01  8.337360E-03 2.731853E+01  9.848208E-03 -2.593908E+00
8.330996E-03 2.723307E+01  9.533993E-01 -8.066661E+01  7.088606E-02 1.285902E+01
9.853446E-03 -2.535741E+00  7.091095E-02 1.283500E+01  9.508832E-01 -8.147922E+01
1.710500E+03  9.586479E-01 -9.343814E+01  8.341770E-03 2.781336E+01  9.858118E-03 -4.458168E+00
8.345132E-03 2.780026E+01  9.532012E-01 -8.069313E+01  7.077158E-02 1.282695E+01
9.870030E-03 -4.332320E+00  7.080423E-02 1.280921E+01  9.507272E-01 -8.150346E+01
1.710750E+03  9.584543E-01 -9.344578E+01  8.392200E-03 2.889613E+01  9.878619E-03 -5.593074E+00
8.397884E-03 2.884571E+01  9.529696E-01 -8.072175E+01  7.068860E-02 1.278663E+01
9.891662E-03 -5.571825E+00  7.072189E-02 1.277387E+01  9.506278E-01 -8.154110E+01
1.711000E+03  9.580265E-01 -9.345963E+01  8.560686E-03 3.027040E+01  9.928671E-03 -7.858397E+00
8.558701E-03 3.029417E+01  9.525880E-01 -8.074875E+01  7.052006E-02 1.266028E+01
9.935784E-03 -7.792555E+00  7.058175E-02 1.263224E+01  9.500876E-01 -8.157028E+01
1.711250E+03  9.575268E-01 -9.345317E+01  8.917955E-03 3.081099E+01  9.718571E-03 -9.729706E+00
8.914118E-03 3.071805E+01  9.523136E-01 -8.077865E+01  7.021271E-02 1.266666E+01
9.734168E-03 -9.655582E+00  7.027681E-02 1.258842E+01  9.497403E-01 -8.159607E+01
1.711500E+03  9.574145E-01 -9.343260E+01  9.173648E-03 3.002865E+01  9.552021E-03 -1.080829E+01
9.197119E-03 2.994441E+01  9.520214E-01 -8.079437E+01  7.003221E-02 1.277831E+01
9.564527E-03 -1.065232E+01  7.010951E-02 1.270114E+01  9.492904E-01 -8.160650E+01
1.711750E+03  9.575529E-01 -9.342306E+01  9.315708E-03 2.913723E+01  9.420432E-03 -1.162166E+01
9.352065E-03 2.910556E+01  9.517371E-01 -8.081152E+01  6.997075E-02 1.283852E+01
9.436771E-03 -1.143633E+01  7.007373E-02 1.273501E+01  9.490700E-01 -8.162064E+01
1.712000E+03  9.576191E-01 -9.343630E+01  9.378193E-03 2.862793E+01  9.317819E-03 -1.257420E+01
9.395481E-03 2.862355E+01  9.514558E-01 -8.083543E+01  6.990955E-02 1.282383E+01
9.333158E-03 -1.241823E+01  7.000213E-02 1.273220E+01  9.488273E-01 -8.163288E+01
1.712250E+03  9.574801E-01 -9.343919E+01  9.500421E-03 2.861373E+01  9.162775E-03 -1.348055E+01
9.531247E-03 2.856604E+01  9.511755E-01 -8.085567E+01  6.978511E-02 1.278623E+01
9.186501E-03 -1.337735E+01  6.987838E-02 1.269256E+01  9.486382E-01 -8.164576E+01
1.712500E+03  9.574827E-01 -9.345868E+01  9.650785E-03 2.832090E+01  9.145728E-03 -1.375897E+01
9.672803E-03 2.832456E+01  9.510714E-01 -8.088964E+01  6.975009E-02 1.275849E+01
9.167600E-03 -1.363787E+01  6.980837E-02 1.265902E+01  9.484513E-01 -8.168474E+01
1.712750E+03  9.572194E-01 -9.347513E+01  9.798144E-03 2.798525E+01  9.118687E-03 -1.551889E+01
9.813570E-03 2.795904E+01  9.506399E-01 -8.092581E+01  6.965873E-02 1.266484E+01
9.127881E-03 -1.540195E+01  6.974277E-02 1.256655E+01  9.479059E-01 -8.171509E+01
1.713000E+03  9.569381E-01 -9.347986E+01  9.989749E-03 2.777120E+01  8.904391E-03 -1.719951E+01
1.001108E-02 2.775596E+01  9.501557E-01 -8.094947E+01  6.950418E-02 1.248719E+01
8.913962E-03 -1.711998E+01  6.956591E-02 1.241121E+01  9.473942E-01 -8.173177E+01
1.713250E+03  9.570960E-01 -9.348799E+01  1.012301E-02 2.640577E+01  8.635300E-03 -1.751991E+01
1.014051E-02 2.642293E+01  9.499558E-01 -8.096732E+01  6.925736E-02 1.247187E+01
8.640009E-03 -1.747844E+01  6.930731E-02 1.239275E+01  9.471136E-01 -8.173912E+01
1.713500E+03  9.570113E-01 -9.351015E+01  1.021694E-02 2.571635E+01  8.419515E-03 -1.765900E+01
1.022924E-02 2.568853E+01  9.497801E-01 -8.099513E+01  6.905022E-02 1.240923E+01
8.430221E-03 -1.765133E+01  6.911279E-02 1.234976E+01  9.471122E-01 -8.173711E+01
1.713750E+03  9.570344E-01 -9.352785E+01  1.022903E-02 2.494440E+01  8.320320E-03 -1.691966E+01
1.024456E-02 2.496934E+01  9.496755E-01 -8.102835E+01  6.886037E-02 1.237037E+01
8.332703E-03 -1.690173E+01  6.888802E-02 1.230083E+01  9.471932E-01 -8.176539E+01
1.714000E+03  9.569310E-01 -9.354153E+01  1.028652E-02 2.436324E+01  8.304875E-03 -1.675469E+01
1.029792E-02 2.440535E+01  9.493926E-01 -8.106220E+01  6.861529E-02 1.233818E+01
8.310657E-03 -1.670808E+01  6.867283E-02 1.227219E+01  9.471168E-01 -8.180030E+01
1.714250E+03  9.569291E-01 -9.357267E+01  1.028965E-02 2.410049E+01  8.403948E-03 -1.657011E+01
1.030533E-02 2.418064E+01  9.491459E-01 -8.110549E+01  6.846403E-02 1.229679E+01
8.410280E-03 -1.655656E+01  6.846527E-02 1.225332E+01  9.470284E-01 -8.183359E+01
1.714500E+03  9.569297E-01 -9.359149E+01  1.036155E-02 2.395295E+01  8.534218E-03 -1.772031E+01
1.037277E-02 2.402454E+01  9.488134E-01 -8.114610E+01  6.827325E-02 1.215553E+01
8.539802E-03 -1.766315E+01  6.831083E-02 1.213176E+01  9.468321E-01 -8.187480E+01
1.714750E+03  9.566180E-01 -9.360826E+01  1.056299E-02 2.397063E+01  8.587098E-03 -2.038992E+01
1.057883E-02 2.400523E+01  9.482903E-01 -8.117227E+01  6.792641E-02 1.195907E+01
8.586402E-03 -2.036022E+01  6.790049E-02 1.191385E+01  9.462790E-01 -8.190784E+01
1.715000E+03  9.568159E-01 -9.359914E+01  1.075100E-02 2.255760E+01  8.229761E-03 -2.134823E+01
1.075381E-02 2.262169E+01  9.479163E-01 -8.118585E+01  6.727268E-02 1.194614E+01
8.224287E-03 -2.132824E+01  6.726778E-02 1.193570E+01  9.461415E-01 -8.190601E+01
1.715250E+03  9.571164E-01 -9.361234E+01  1.079973E-02 2.117912E+01  8.040424E-03 -2.152777E+01
1.080860E-02 2.129717E+01  9.477880E-01 -8.120189E+01  6.680220E-02 1.221122E+01
8.040059E-03 -2.149330E+01  6.680822E-02 1.221859E+01  9.461435E-01 -8.191819E+01
1.715500E+03  9.574417E-01 -9.364317E+01  1.064051E-02 2.006117E+01  8.032661E-03 -2.036944E+01
1.064480E-02 2.019549E+01  9.477303E-01 -8.122499E+01  6.664148E-02 1.249100E+01
8.031232E-03 -2.041194E+01  6.662412E-02 1.247663E+01  9.462464E-01 -8.194728E+01
1.715750E+03  9.575435E-01 -9.366559E+01  1.053412E-02 2.032194E+01  8.112981E-03 -2.090104E+01
1.053434E-02 2.044297E+01  9.474924E-01 -8.125935E+01  6.656262E-02 1.248379E+01
8.103804E-03 -2.089785E+01  6.652664E-02 1.249864E+01  9.461577E-01 -8.197435E+01
1.716000E+03  9.574636E-01 -9.369585E+01  1.063303E-02 2.066324E+01  8.213097E-03 -2.137892E+01
1.063855E-02 2.086871E+01  9.471644E-01 -8.128772E+01  6.621144E-02 1.243353E+01
8.205164E-03 -2.133981E+01  6.617111E-02 1.246107E+01  9.461836E-01 -8.200773E+01
1.716250E+03  9.571920E-01 -9.371705E+01  1.081293E-02 2.044652E+01  8.408508E-03 -2.319449E+01
1.081410E-02 2.064401E+01  9.467307E-01 -8.131745E+01  6.569487E-02 1.251701E+01
8.407473E-03 -2.307853E+01  6.564053E-02 1.256081E+01  9.459282E-01 -8.204975E+01
1.716500E+03  9.570545E-01 -9.373059E+01  1.097884E-02 1.909029E+01  8.378680E-03 -2.627549E+01
1.098698E-02 1.925196E+01  9.461278E-01 -8.133108E+01  6.519550E-02 1.288351E+01
8.378854E-03 -2.626196E+01  6.519000E-02 1.292668E+01  9.450975E-01 -8.208485E+01
1.716750E+03  9.571084E-01 -9.373453E+01  1.094325E-02 1.843400E+01  8.094594E-03 -2.839654E+01
1.095066E-02 1.865248E+01  9.456871E-01 -8.133976E+01  6.492713E-02 1.317781E+01
8.088879E-03 -2.843255E+01  6.491258E-02 1.321013E+01  9.445670E-01 -8.209107E+01
1.717000E+03  9.572011E-01 -9.374147E+01  1.101233E-02 1.749382E+01  7.810085E-03 -2.974118E+01
1.102276E-02 1.765133E+01  9.452129E-01 -8.133721E+01  6.466482E-02 1.359968E+01
7.808163E-03 -2.964103E+01  6.464730E-02 1.364197E+01  9.441701E-01 -8.209471E+01
1.717250E+03  9.574377E-01 -9.376221E+01  1.098505E-02 1.690147E+01  7.632542E-03 -2.960146E+01
1.099603E-02 1.701095E+01  9.449771E-01 -8.133559E+01  6.462776E-02 1.386557E+01
7.638558E-03 -2.951872E+01  6.461612E-02 1.393187E+01  9.438731E-01 -8.210321E+01
1.717500E+03  9.577019E-01 -9.378465E+01  1.099786E-02 1.622688E+01  7.547278E-03 -3.008446E+01
1.100100E-02 1.637778E+01  9.448756E-01 -8.132249E+01  6.451844E-02 1.408276E+01
7.540524E-03 -3.006643E+01  6.452746E-02 1.412600E+01  9.436039E-01 -8.211149E+01
1.717750E+03  9.578315E-01 -9.381643E+01  1.098200E-02 1.548802E+01  7.559178E-03 -2.994184E+01
1.097701E-02 1.559798E+01  9.448689E-01 -8.135761E+01  6.425087E-02 1.419915E+01
7.564096E-03 -2.978621E+01  6.422346E-02 1.426086E+01  9.434728E-01 -8.214023E+01
1.718000E+03  9.576624E-01 -9.384653E+01  1.097133E-02 1.505303E+01  7.721710E-03 -3.250308E+01
1.097452E-02 1.515108E+01  9.443185E-01 -8.138350E+01  6.385493E-02 1.453814E+01
7.731300E-03 -3.234648E+01  6.388681E-02 1.459978E+01  9.427182E-01 -8.215913E+01
1.718250E+03  9.575631E-01 -9.384842E+01  1.094381E-02 1.460023E+01  7.441702E-03 -3.558320E+01
1.095054E-02 1.469302E+01  9.433015E-01 -8.137934E+01  6.368099E-02 1.503643E+01
7.434387E-03 -3.551809E+01  6.370494E-02 1.509577E+01  9.422715E-01 -8.214599E+01
1.718500E+03  9.576211E-01 -9.386560E+01  1.103366E-02 1.376433E+01  7.172871E-03 -3.783677E+01
1.102151E-02 1.386490E+01  9.432982E-01 -8.133295E+01  6.361713E-02 1.540252E+01
7.187816E-03 -3.773607E+01  6.363447E-02 1.545996E+01  9.419796E-01 -8.213885E+01
1.718750E+03  9.578472E-01 -9.386533E+01  1.092886E-02 1.317202E+01  6.633495E-03 -3.929064E+01
1.091608E-02 1.324365E+01  9.433607E-01 -8.132074E+01  6.360647E-02 1.576448E+01
