! Matrix data file written by TouchstoneData, EPCOS AG
! FILENAME: "LY65A_X34Y34_F1_WB.s3p_newformat"
! COMMENT: "(LY65A_X34Y34_F1_WB.s3p) Epcos AG 12/3/2010"
! INFO: nport=3, nfreq=1601
! DATE: "Wed Jun 15 09:22:17 2011"
! USER: "Michael Schemies"
!
! port | pin | signal
! -----|-----|--------
!   1  |  1  |  in
!   2  |  8  |  out
!   3  |  9  |  out
! --------------------
!
# MHZ S MA R 50
! freq  magS11 angS11  magS12 angS12  magS13 angS13  ...
1.000000E+02  9.965582E-01 -1.253602E+01  1.267139E-03 7.841045E+01  7.821436E-04 7.506975E+01
1.260051E-03 7.684718E+01  9.964634E-01 -7.301379E+00  1.829106E-03 8.453159E+01
7.806674E-04 7.379518E+01  1.816484E-03 8.319995E+01  9.984109E-01 -6.897245E+00
1.036875E+02  9.967654E-01 -1.304452E+01  1.242038E-03 7.609877E+01  8.131015E-04 7.512642E+01
1.282553E-03 7.745118E+01  9.957197E-01 -7.575329E+00  2.017983E-03 8.002914E+01
8.202186E-04 7.135203E+01  2.042254E-03 8.113423E+01  9.978488E-01 -7.173457E+00
1.073750E+02  9.968826E-01 -1.350978E+01  1.287627E-03 7.910180E+01  8.480619E-04 7.629917E+01
1.298825E-03 8.001582E+01  9.953001E-01 -7.893557E+00  1.911675E-03 7.951362E+01
8.684931E-04 7.693816E+01  1.944444E-03 8.095349E+01  9.977552E-01 -7.445918E+00
1.110625E+02  9.965885E-01 -1.397011E+01  1.367498E-03 7.677761E+01  8.926741E-04 7.751622E+01
1.326410E-03 7.705289E+01  9.933550E-01 -8.280939E+00  2.036954E-03 8.197874E+01
9.025012E-04 7.864168E+01  2.083937E-03 8.241749E+01  9.983797E-01 -7.693474E+00
1.147500E+02  9.968731E-01 -1.441990E+01  1.374197E-03 7.687376E+01  9.470134E-04 8.149654E+01
1.360202E-03 7.780390E+01  9.936383E-01 -8.621347E+00  2.152252E-03 8.065335E+01
9.240067E-04 7.895362E+01  2.159803E-03 8.175378E+01  9.990123E-01 -7.937024E+00
1.184375E+02  9.963200E-01 -1.492553E+01  1.463549E-03 7.515479E+01  9.711662E-04 7.633544E+01
1.485256E-03 7.720430E+01  9.931430E-01 -8.872222E+00  2.182242E-03 8.190468E+01
9.716182E-04 7.694879E+01  2.204229E-03 8.188940E+01  9.981857E-01 -8.241860E+00
1.221250E+02  9.948321E-01 -1.540343E+01  1.503724E-03 7.804377E+01  9.947431E-04 7.972484E+01
1.463882E-03 7.645616E+01  9.928990E-01 -9.145373E+00  2.212276E-03 7.905752E+01
9.763354E-04 8.086654E+01  2.229043E-03 8.097981E+01  9.976480E-01 -8.474500E+00
1.258125E+02  9.957245E-01 -1.578166E+01  1.551395E-03 7.629576E+01  9.705674E-04 7.651410E+01
1.586663E-03 7.475810E+01  9.929599E-01 -9.390193E+00  2.277998E-03 8.149381E+01
9.440715E-04 7.250701E+01  2.281492E-03 8.119386E+01  9.971300E-01 -8.676613E+00
1.295000E+02  9.954713E-01 -1.622960E+01  1.657032E-03 7.769816E+01  1.006382E-03 7.439721E+01
1.657960E-03 7.653578E+01  9.930096E-01 -9.695203E+00  2.278593E-03 7.989520E+01
1.032619E-03 7.385983E+01  2.265654E-03 8.015206E+01  9.981501E-01 -8.949520E+00
1.331875E+02  9.964528E-01 -1.674649E+01  1.576405E-03 7.467544E+01  1.009091E-03 7.529894E+01
1.631630E-03 7.436109E+01  9.920721E-01 -9.947411E+00  2.433036E-03 7.955625E+01
1.024284E-03 7.528848E+01  2.490608E-03 8.090231E+01  9.975975E-01 -9.229973E+00
1.368750E+02  9.962750E-01 -1.719637E+01  1.660965E-03 7.686986E+01  9.984809E-04 7.482482E+01
1.625954E-03 7.621143E+01  9.921573E-01 -1.024181E+01  2.577202E-03 8.179715E+01
9.952988E-04 7.555103E+01  2.617279E-03 8.185992E+01  9.983553E-01 -9.511652E+00
1.405625E+02  9.958085E-01 -1.761210E+01  1.688708E-03 7.549406E+01  1.095103E-03 7.555365E+01
1.698130E-03 7.521056E+01  9.932803E-01 -1.049861E+01  2.606283E-03 8.039942E+01
1.087499E-03 7.557429E+01  2.600080E-03 8.047605E+01  9.978335E-01 -9.734499E+00
1.442500E+02  9.955228E-01 -1.809225E+01  1.742366E-03 7.493427E+01  1.092121E-03 7.061475E+01
1.775207E-03 7.489707E+01  9.927243E-01 -1.074571E+01  3.075696E-03 7.401008E+01
1.130888E-03 7.345515E+01  3.076936E-03 7.396982E+01  9.967912E-01 -1.001754E+01
1.479375E+02  9.956846E-01 -1.848549E+01  1.838923E-03 7.231595E+01  1.220773E-03 7.323799E+01
1.878980E-03 7.390753E+01  9.920251E-01 -1.097194E+01  2.694326E-03 7.736260E+01
1.237708E-03 7.652275E+01  2.663290E-03 7.755540E+01  9.971756E-01 -1.027361E+01
1.516250E+02  9.953533E-01 -1.891531E+01  1.823659E-03 7.474660E+01  1.172929E-03 7.136430E+01
1.786588E-03 7.519777E+01  9.922244E-01 -1.118523E+01  2.526614E-03 7.046729E+01
1.154907E-03 7.090909E+01  2.535913E-03 7.089165E+01  9.963359E-01 -1.041113E+01
1.553125E+02  9.957209E-01 -1.940510E+01  1.789958E-03 7.000444E+01  1.206981E-03 7.368730E+01
1.789383E-03 7.013368E+01  9.922697E-01 -1.143452E+01  2.837264E-03 7.992722E+01
1.221890E-03 7.554470E+01  2.858981E-03 8.128152E+01  9.981228E-01 -1.072393E+01
1.590000E+02  9.963115E-01 -1.985256E+01  1.703076E-03 7.204179E+01  1.015930E-03 6.815514E+01
1.709454E-03 7.099901E+01  9.925016E-01 -1.165820E+01  3.129112E-03 8.053441E+01
9.841620E-04 6.733785E+01  3.166749E-03 8.004827E+01  9.980565E-01 -1.099448E+01
1.626875E+02  9.960865E-01 -2.030667E+01  1.962387E-03 7.342693E+01  1.248448E-03 7.480871E+01
1.919580E-03 7.422055E+01  9.934509E-01 -1.194161E+01  3.023825E-03 7.808691E+01
1.260734E-03 7.409422E+01  2.979944E-03 7.881869E+01  9.990317E-01 -1.122363E+01
1.663750E+02  9.960387E-01 -2.079222E+01  1.908901E-03 7.406300E+01  1.284495E-03 7.403380E+01
1.946786E-03 7.188954E+01  9.930688E-01 -1.221845E+01  3.098394E-03 7.746601E+01
1.292623E-03 7.259552E+01  3.107404E-03 7.721448E+01  9.979148E-01 -1.153576E+01
1.700625E+02  9.951791E-01 -2.120274E+01  2.073720E-03 7.235736E+01  1.316871E-03 7.440676E+01
2.112114E-03 7.195956E+01  9.927161E-01 -1.245472E+01  3.043492E-03 7.763669E+01
1.305929E-03 7.289466E+01  3.053452E-03 7.723060E+01  9.976676E-01 -1.176120E+01
1.737500E+02  9.955795E-01 -2.159610E+01  2.083519E-03 7.067817E+01  1.391734E-03 6.842716E+01
2.075952E-03 6.907391E+01  9.917541E-01 -1.260935E+01  3.179537E-03 7.753635E+01
1.412693E-03 6.926866E+01  3.154355E-03 7.781217E+01  9.966862E-01 -1.196615E+01
1.774375E+02  9.961210E-01 -2.203895E+01  2.116357E-03 7.101826E+01  1.327932E-03 7.383583E+01
2.090844E-03 7.215639E+01  9.927599E-01 -1.285849E+01  3.159301E-03 7.677332E+01
1.337884E-03 7.386378E+01  3.179113E-03 7.733258E+01  9.974889E-01 -1.222056E+01
1.811250E+02  9.963282E-01 -2.247631E+01  2.176559E-03 6.772986E+01  1.393727E-03 6.915000E+01
2.197577E-03 6.944697E+01  9.932457E-01 -1.314384E+01  3.236918E-03 7.800543E+01
1.457280E-03 6.933568E+01  3.273483E-03 7.892603E+01  9.979209E-01 -1.252505E+01
1.848125E+02  9.954459E-01 -2.291387E+01  2.086293E-03 7.090740E+01  1.338753E-03 7.128699E+01
2.109294E-03 7.058936E+01  9.934965E-01 -1.337119E+01  3.332431E-03 7.643310E+01
1.389642E-03 6.861180E+01  3.362109E-03 7.619750E+01  9.975549E-01 -1.277429E+01
1.885000E+02  9.964566E-01 -2.336830E+01  2.237672E-03 7.117943E+01  1.476162E-03 7.097449E+01
2.240188E-03 7.095216E+01  9.934865E-01 -1.364643E+01  3.594985E-03 7.676244E+01
1.507819E-03 6.998892E+01  3.631159E-03 7.683267E+01  9.983709E-01 -1.304103E+01
1.921875E+02  9.964297E-01 -2.382991E+01  2.353256E-03 7.017537E+01  1.423350E-03 6.843028E+01
2.406488E-03 7.001246E+01  9.935806E-01 -1.392862E+01  3.294236E-03 7.407565E+01
1.480756E-03 7.016618E+01  3.297747E-03 7.442817E+01  9.982638E-01 -1.328623E+01
1.958750E+02  9.953815E-01 -2.421565E+01  2.409247E-03 7.089472E+01  1.619627E-03 7.127023E+01
2.406061E-03 7.170703E+01  9.922194E-01 -1.417956E+01  3.294079E-03 7.401246E+01
1.588693E-03 7.197085E+01  3.307517E-03 7.476417E+01  9.976088E-01 -1.355137E+01
1.995625E+02  9.948719E-01 -2.467598E+01  2.295534E-03 6.921465E+01  1.462010E-03 6.863640E+01
2.277368E-03 6.873596E+01  9.924090E-01 -1.437473E+01  3.562018E-03 7.620409E+01
1.407825E-03 6.822002E+01  3.576673E-03 7.681059E+01  9.967228E-01 -1.377622E+01
2.032500E+02  9.956350E-01 -2.508861E+01  2.627230E-03 6.713652E+01  1.733367E-03 6.644867E+01
2.592006E-03 6.800834E+01  9.930248E-01 -1.462790E+01  3.250410E-03 7.948604E+01
1.744618E-03 6.559026E+01  3.255001E-03 8.006168E+01  9.969476E-01 -1.408056E+01
2.069375E+02  9.954247E-01 -2.553011E+01  2.488160E-03 6.876554E+01  1.435586E-03 6.866850E+01
2.472597E-03 6.783439E+01  9.931297E-01 -1.488070E+01  4.104148E-03 7.329711E+01
1.449015E-03 6.892881E+01  4.100611E-03 7.419138E+01  9.968319E-01 -1.427009E+01
2.106250E+02  9.954930E-01 -2.598289E+01  2.347179E-03 6.759158E+01  1.730227E-03 5.842057E+01
2.361613E-03 6.737326E+01  9.939101E-01 -1.510554E+01  3.902497E-03 7.711550E+01
1.690712E-03 5.959841E+01  3.870601E-03 7.782271E+01  9.967680E-01 -1.454766E+01
2.143125E+02  9.955872E-01 -2.644801E+01  2.549140E-03 7.194147E+01  1.560067E-03 6.509194E+01
2.500601E-03 7.138046E+01  9.937812E-01 -1.535447E+01  3.577263E-03 6.343410E+01
1.629316E-03 6.490091E+01  3.554210E-03 6.333073E+01  9.973433E-01 -1.479786E+01
2.180000E+02  9.944495E-01 -2.694672E+01  2.475735E-03 6.600171E+01  1.780626E-03 6.949837E+01
2.472504E-03 6.537525E+01  9.934675E-01 -1.557816E+01  3.444174E-03 7.197376E+01
1.745171E-03 6.826037E+01  3.443757E-03 7.273270E+01  9.979971E-01 -1.506891E+01
2.216875E+02  9.947161E-01 -2.728717E+01  2.441683E-03 6.507506E+01  1.472592E-03 6.299891E+01
2.462765E-03 6.515594E+01  9.929673E-01 -1.579951E+01  3.959777E-03 7.493601E+01
1.496982E-03 6.387672E+01  3.979931E-03 7.525958E+01  9.967291E-01 -1.532541E+01
2.253750E+02  9.951963E-01 -2.774560E+01  2.464635E-03 6.701359E+01  1.568212E-03 6.544667E+01
2.479259E-03 6.774082E+01  9.942019E-01 -1.605964E+01  3.881625E-03 7.448114E+01
1.561096E-03 6.667405E+01  3.876674E-03 7.476433E+01  9.971919E-01 -1.546828E+01
2.290625E+02  9.957771E-01 -2.818953E+01  2.623704E-03 6.738873E+01  1.709631E-03 6.938772E+01
2.630258E-03 6.755086E+01  9.945967E-01 -1.638473E+01  4.010487E-03 7.345881E+01
1.711041E-03 6.979349E+01  3.980662E-03 7.360147E+01  9.977690E-01 -1.575969E+01
2.327500E+02  9.961332E-01 -2.853374E+01  2.686307E-03 6.733837E+01  1.721466E-03 6.937945E+01
2.685787E-03 6.732240E+01  9.948176E-01 -1.667320E+01  4.040328E-03 7.259558E+01
1.686807E-03 6.830167E+01  4.041884E-03 7.255994E+01  9.978673E-01 -1.597984E+01
2.364375E+02  9.952069E-01 -2.903152E+01  2.734000E-03 6.622337E+01  1.749949E-03 6.687341E+01
2.730525E-03 6.703224E+01  9.945743E-01 -1.681863E+01  4.144868E-03 7.274865E+01
1.765589E-03 6.716283E+01  4.154081E-03 7.254297E+01  9.972606E-01 -1.624378E+01
2.401250E+02  9.953764E-01 -2.954704E+01  2.855446E-03 6.525564E+01  1.802137E-03 6.683674E+01
2.857494E-03 6.565907E+01  9.945850E-01 -1.714153E+01  4.165165E-03 7.111293E+01
1.798568E-03 6.704987E+01  4.196177E-03 7.148846E+01  9.979374E-01 -1.655326E+01
2.438125E+02  9.946339E-01 -2.997978E+01  2.828280E-03 6.339092E+01  1.729416E-03 6.350335E+01
2.806731E-03 6.425692E+01  9.945856E-01 -1.741479E+01  4.270180E-03 7.552873E+01
1.770493E-03 6.258534E+01  4.289744E-03 7.542220E+01  9.971399E-01 -1.678886E+01
2.475000E+02  9.946720E-01 -3.039123E+01  2.881574E-03 6.388086E+01  1.841143E-03 6.418786E+01
2.871204E-03 6.415913E+01  9.934666E-01 -1.763113E+01  4.145202E-03 7.269094E+01
1.832136E-03 6.488038E+01  4.140170E-03 7.309299E+01  9.971833E-01 -1.702486E+01
2.511875E+02  9.944193E-01 -3.083183E+01  2.844626E-03 6.613578E+01  1.727746E-03 6.518126E+01
2.854360E-03 6.573018E+01  9.939601E-01 -1.790216E+01  4.687770E-03 7.271766E+01
1.769051E-03 6.553069E+01  4.687271E-03 7.294810E+01  9.973709E-01 -1.723227E+01
2.548750E+02  9.944413E-01 -3.127830E+01  2.863509E-03 6.374348E+01  1.939118E-03 6.363031E+01
2.871596E-03 6.380355E+01  9.948565E-01 -1.814748E+01  4.601585E-03 7.121032E+01
1.927058E-03 6.430700E+01  4.569309E-03 7.172230E+01  9.976995E-01 -1.750862E+01
2.585625E+02  9.940927E-01 -3.171148E+01  2.961789E-03 6.616189E+01  1.965778E-03 6.636702E+01
2.964157E-03 6.564478E+01  9.950423E-01 -1.845363E+01  4.469381E-03 6.772056E+01
1.965503E-03 6.617572E+01  4.496096E-03 6.788707E+01  9.973239E-01 -1.775233E+01
2.622500E+02  9.949031E-01 -3.215018E+01  3.078259E-03 6.440610E+01  2.034282E-03 6.291002E+01
3.075002E-03 6.451469E+01  9.944531E-01 -1.871067E+01  4.636372E-03 6.882155E+01
2.047953E-03 6.332057E+01  4.654169E-03 6.934749E+01  9.975810E-01 -1.799397E+01
2.659375E+02  9.941055E-01 -3.258986E+01  3.477424E-03 6.117611E+01  2.336833E-03 5.867258E+01
3.478113E-03 6.041503E+01  9.939980E-01 -1.898369E+01  3.641695E-03 7.478069E+01
2.329788E-03 5.830563E+01  3.646424E-03 7.524569E+01  9.975109E-01 -1.824481E+01
2.696250E+02  9.936705E-01 -3.299639E+01  2.987949E-03 6.112823E+01  2.043143E-03 5.762632E+01
2.989597E-03 6.147969E+01  9.942370E-01 -1.919924E+01  4.479714E-03 7.161743E+01
2.043989E-03 5.554158E+01  4.434544E-03 7.194029E+01  9.972084E-01 -1.852453E+01
2.733125E+02  9.946564E-01 -3.343798E+01  2.817305E-03 6.010970E+01  1.576589E-03 5.927887E+01
2.770372E-03 6.038953E+01  9.946670E-01 -1.936609E+01  5.394064E-03 7.911856E+01
1.601032E-03 5.855926E+01  5.386507E-03 7.901565E+01  9.950599E-01 -1.863804E+01
2.770000E+02  9.942422E-01 -3.387467E+01  3.123915E-03 6.236757E+01  1.910403E-03 6.251457E+01
3.132805E-03 6.294732E+01  9.950028E-01 -1.964095E+01  4.898136E-03 6.962365E+01
1.871011E-03 6.317575E+01  4.882315E-03 6.979807E+01  9.974759E-01 -1.899750E+01
2.806875E+02  9.943308E-01 -3.430688E+01  3.147309E-03 6.283784E+01  1.975726E-03 6.386566E+01
3.135988E-03 6.275552E+01  9.957767E-01 -1.992459E+01  4.553662E-03 6.801130E+01
1.950172E-03 6.267359E+01  4.568212E-03 6.821663E+01  9.975103E-01 -1.923921E+01
2.843750E+02  9.949061E-01 -3.474869E+01  3.223193E-03 6.146530E+01  2.005713E-03 6.192622E+01
3.216035E-03 6.145968E+01  9.970995E-01 -2.016456E+01  4.824939E-03 6.860877E+01
2.015196E-03 6.223938E+01  4.787093E-03 6.901047E+01  9.972226E-01 -1.949253E+01
2.880625E+02  9.947533E-01 -3.519686E+01  3.199608E-03 6.117459E+01  1.973372E-03 6.188924E+01
3.167676E-03 6.185747E+01  9.972162E-01 -2.032304E+01  4.726404E-03 7.058701E+01
2.016493E-03 6.210926E+01  4.784836E-03 7.040319E+01  9.979191E-01 -1.972305E+01
2.917500E+02  9.935403E-01 -3.562893E+01  3.321029E-03 6.129797E+01  2.039434E-03 6.083484E+01
3.312168E-03 6.115213E+01  9.967167E-01 -2.060473E+01  4.867225E-03 6.938487E+01
2.044830E-03 6.164367E+01  4.810445E-03 6.904784E+01  9.975671E-01 -1.996162E+01
2.954375E+02  9.938713E-01 -3.606858E+01  3.248039E-03 6.135265E+01  2.059827E-03 5.898058E+01
3.278116E-03 6.128158E+01  9.958842E-01 -2.085034E+01  4.931271E-03 6.863109E+01
2.034401E-03 6.135224E+01  4.917403E-03 6.885724E+01  9.968178E-01 -2.023702E+01
2.991250E+02  9.936196E-01 -3.645663E+01  3.352782E-03 6.198588E+01  2.156055E-03 6.015670E+01
3.305157E-03 6.155993E+01  9.960073E-01 -2.106120E+01  4.963271E-03 6.851102E+01
2.161831E-03 6.122364E+01  4.943259E-03 6.810662E+01  9.970435E-01 -2.044902E+01
3.028125E+02  9.935160E-01 -3.686696E+01  3.372909E-03 5.955673E+01  2.219365E-03 6.058776E+01
3.359050E-03 6.001953E+01  9.953820E-01 -2.137394E+01  4.964940E-03 6.545476E+01
2.174302E-03 6.137756E+01  5.004760E-03 6.584263E+01  9.972863E-01 -2.071281E+01
3.065000E+02  9.935783E-01 -3.735101E+01  3.512638E-03 6.033242E+01  2.344839E-03 5.916764E+01
3.495600E-03 5.986547E+01  9.963846E-01 -2.163872E+01  4.959176E-03 6.714706E+01
2.283256E-03 6.037280E+01  4.919394E-03 6.767918E+01  9.978064E-01 -2.099094E+01
3.101875E+02  9.934479E-01 -3.777781E+01  3.702529E-03 6.055293E+01  2.334800E-03 5.875291E+01
3.688707E-03 6.054474E+01  9.967108E-01 -2.190867E+01  4.557721E-03 6.634733E+01
2.374878E-03 5.759569E+01  4.534960E-03 6.673665E+01  9.975880E-01 -2.124110E+01
3.138750E+02  9.929273E-01 -3.818427E+01  3.444322E-03 5.823604E+01  2.293933E-03 5.737152E+01
3.487860E-03 5.838941E+01  9.959760E-01 -2.217522E+01  5.114932E-03 7.003627E+01
2.293085E-03 5.741060E+01  5.113226E-03 7.042063E+01  9.974711E-01 -2.143437E+01
3.175625E+02  9.923952E-01 -3.857885E+01  3.483245E-03 5.537805E+01  2.168058E-03 5.357453E+01
3.486518E-03 5.520210E+01  9.946144E-01 -2.250204E+01  5.129868E-03 7.276104E+01
2.171577E-03 5.448990E+01  5.143099E-03 7.287173E+01  9.976627E-01 -2.174525E+01
3.212500E+02  9.932875E-01 -3.898964E+01  3.331345E-03 5.846532E+01  1.995633E-03 5.600309E+01
3.371005E-03 5.811879E+01  9.936873E-01 -2.266765E+01  5.473759E-03 6.757256E+01
2.037922E-03 5.682270E+01  5.470366E-03 6.813575E+01  9.966057E-01 -2.187326E+01
3.249375E+02  9.918854E-01 -3.941222E+01  3.450528E-03 6.025583E+01  2.290997E-03 5.768046E+01
3.414709E-03 5.974564E+01  9.945607E-01 -2.291935E+01  5.926662E-03 5.839419E+01
2.260867E-03 5.620561E+01  5.903251E-03 5.853510E+01  9.963811E-01 -2.220222E+01
3.286250E+02  9.921769E-01 -3.984629E+01  3.695917E-03 5.808365E+01  2.207987E-03 5.232302E+01
3.679233E-03 5.719919E+01  9.950938E-01 -2.316345E+01  5.003049E-03 6.541724E+01
2.211009E-03 5.311523E+01  5.008765E-03 6.576803E+01  9.972801E-01 -2.237780E+01
3.323125E+02  9.924463E-01 -4.029262E+01  3.733998E-03 5.767322E+01  2.242902E-03 5.621424E+01
3.778096E-03 5.805794E+01  9.949558E-01 -2.342032E+01  4.591331E-03 6.337942E+01
2.262370E-03 5.574436E+01  4.565147E-03 6.356386E+01  9.968849E-01 -2.267527E+01
3.360000E+02  9.927067E-01 -4.072911E+01  3.642792E-03 5.717628E+01  2.221508E-03 5.851966E+01
3.670406E-03 5.636505E+01  9.947095E-01 -2.373643E+01  5.451811E-03 6.808728E+01
2.213160E-03 5.755503E+01  5.421360E-03 6.843838E+01  9.976054E-01 -2.290458E+01
3.396875E+02  9.922041E-01 -4.119980E+01  3.651745E-03 5.661936E+01  2.252832E-03 5.675890E+01
3.702145E-03 5.640081E+01  9.950727E-01 -2.400876E+01  5.457893E-03 6.735289E+01
2.241331E-03 5.684580E+01  5.459029E-03 6.769938E+01  9.969968E-01 -2.316563E+01
3.433750E+02  9.917515E-01 -4.158848E+01  3.729455E-03 5.429527E+01  2.318270E-03 5.797093E+01
3.776098E-03 5.482559E+01  9.932949E-01 -2.428651E+01  5.480678E-03 6.648846E+01
2.323571E-03 5.782825E+01  5.470222E-03 6.668212E+01  9.972847E-01 -2.345879E+01
3.470625E+02  9.911216E-01 -4.200705E+01  3.668827E-03 5.649201E+01  2.231677E-03 5.769262E+01
3.661046E-03 5.695252E+01  9.941873E-01 -2.448781E+01  5.542392E-03 6.449963E+01
2.256209E-03 5.766262E+01  5.579118E-03 6.519462E+01  9.961329E-01 -2.366690E+01
3.507500E+02  9.916296E-01 -4.239481E+01  3.805971E-03 5.631211E+01  2.359965E-03 5.736599E+01
3.822744E-03 5.594445E+01  9.938043E-01 -2.478535E+01  5.497773E-03 6.559889E+01
2.290889E-03 5.724426E+01  5.501482E-03 6.572352E+01  9.972206E-01 -2.393624E+01
3.544375E+02  9.913871E-01 -4.283552E+01  3.851515E-03 5.581550E+01  2.335837E-03 5.491620E+01
3.819274E-03 5.519360E+01  9.937045E-01 -2.505971E+01  5.452686E-03 6.512844E+01
2.338775E-03 5.500065E+01  5.428927E-03 6.513540E+01  9.966357E-01 -2.420016E+01
3.581250E+02  9.919081E-01 -4.330609E+01  3.893211E-03 5.563946E+01  2.495990E-03 5.407805E+01
3.899403E-03 5.500545E+01  9.934512E-01 -2.535706E+01  5.550298E-03 6.563676E+01
2.465495E-03 5.492789E+01  5.513838E-03 6.634905E+01  9.972056E-01 -2.447657E+01
3.618125E+02  9.911623E-01 -4.379095E+01  3.801323E-03 4.956688E+01  2.295053E-03 5.045849E+01
3.803259E-03 4.966009E+01  9.931057E-01 -2.565726E+01  5.732888E-03 6.701693E+01
2.319294E-03 5.045444E+01  5.763352E-03 6.672862E+01  9.965128E-01 -2.474402E+01
3.655000E+02  9.897986E-01 -4.414443E+01  3.929220E-03 5.364587E+01  2.469857E-03 5.522986E+01
3.898771E-03 5.368408E+01  9.941086E-01 -2.596977E+01  5.748280E-03 6.442505E+01
2.465118E-03 5.549272E+01  5.769779E-03 6.465715E+01  9.971386E-01 -2.498185E+01
3.691875E+02  9.904904E-01 -4.456345E+01  3.766158E-03 5.517604E+01  2.578461E-03 5.254572E+01
3.741312E-03 5.592235E+01  9.921415E-01 -2.615269E+01  6.277582E-03 6.057670E+01
2.577598E-03 5.334038E+01  6.304080E-03 6.062622E+01  9.946571E-01 -2.530097E+01
3.728750E+02  9.904765E-01 -4.499355E+01  4.048695E-03 5.545895E+01  2.465589E-03 5.092207E+01
4.052103E-03 5.617675E+01  9.926529E-01 -2.643373E+01  5.282996E-03 6.109855E+01
2.475978E-03 5.201331E+01  5.289703E-03 6.190921E+01  9.961438E-01 -2.548929E+01
3.765625E+02  9.904018E-01 -4.542369E+01  3.896252E-03 5.591945E+01  2.660885E-03 4.660713E+01
3.918507E-03 5.605783E+01  9.921315E-01 -2.672691E+01  5.523114E-03 5.650768E+01
2.658557E-03 4.706969E+01  5.499464E-03 5.691359E+01  9.957846E-01 -2.581976E+01
