! Matrix data file written by TouchstoneData, EPCOS AG
! FILENAME: "ptable_B4406_02_WB.s4p"
! COMMENT: "(B4406_02_WB.s4p) Epcos AG 1/21/2013 4:23:00"
! INFO: nport=4, nfreq=1601
! DATE: "Wed Feb 13 20:40:10 2013"
! USER: "Michael Schemies"
!
! port | pin | signal
! -----|-----|--------
!   1  |  3  |  Tx
!   2  |  6  |  Ant
!   3  |  8  |  Rx
!   4  |  1  |  Rx
! --------------------
!
# MHZ S RI R 50
! freq  reS11 imS11  reS12 imS12  reS13 imS13  reS14 imS14  ...
50  0.994620740413664 -0.0615297630429267  0.000155456655193121 0.00169192638713866  -6.3905870774761e-05 4.73123327537906e-05  -2.77741273748689e-05 1.1550034287211e-05
0.000149408224388026 0.00170077965594828  0.994716882705687 -0.0792058408260344  2.50481684815896e-06 0.000246371346293018  -6.3810803112574e-05 8.41456785565244e-05
-3.11984003928956e-05 8.80976585904138e-05  -3.55228803528008e-06 0.000206087715923787  0.995580554008482 -0.0454186163842677  0.00106510263867676 0.0235022138804197
-1.87363402801566e-05 -5.57823223061861e-05  -3.29323956975714e-05 0.000136015587486327  0.000975414877757432 0.023733178153634  0.99563705921173 -0.0421307459473609
53.71875  0.994197905063628 -0.0665599703788756  0.000114940157800447 0.00186668895184993  3.81699937861413e-05 -1.62938358698739e-05  -1.09290431282716e-05 3.17605758937134e-06
9.39542369451376e-05 0.00187205779366195  0.994077742099761 -0.0843348950147627  2.62364083027933e-05 0.000117822855827399  -2.16478765651118e-05 0.000101970777905081
5.7110646594083e-05 2.95186168841611e-06  1.95879929378862e-05 0.000126224738778547  0.995951592922209 -0.0494176670908927  0.00118209526408463 0.0253098402172327
3.61405545845628e-06 6.27539247943788e-06  -9.78023422248949e-07 9.07554494915532e-05  0.00120723701547831 0.0253801625221967  0.995270073413848 -0.0440567657351493
57.4375  0.994550824165343 -0.071070410311222  0.000147697195643559 0.00196022586897015  6.35694050288294e-06 -1.00662089153048e-06  -2.82904670712015e-06 -1.11967701741378e-05
0.000148482969962061 0.00194614729844033  0.99279224872589 -0.0896917954087256  2.55635768553475e-05 0.000174844462890178  6.23005098532304e-06 5.8327008446213e-05
-1.4068667042011e-05 2.40532153839013e-05  7.17524380888791e-05 0.000141460201120936  0.994950890541075 -0.0526850260794162  0.00126036978326738 0.0270305387675762
1.33611129058409e-05 -1.58552047651029e-05  1.04301352621406e-05 7.90060512372294e-05  0.00124265754129737 0.0271049980074167  0.995907902717589 -0.0473051033914088
61.15625  0.99324584007263 -0.0759510099887846  0.000249412580160425 0.00204981188289821  -3.16106561513153e-05 1.50152909554891e-05  3.02483726954961e-06 2.12618328987446e-06
0.000257618899922818 0.0020407810807228  0.992644608020781 -0.0953423157334326  2.32453585340409e-05 0.000146955251693726  2.53296184382635e-05 0.000121252378448844
-9.42660881264602e-06 5.80956520934706e-06  4.34893700003159e-05 0.000133023946546018  0.995616376399992 -0.0564320273697375  0.0012978398008272 0.0289006996899843
8.50472588354024e-06 -1.04781238405849e-05  2.91934557026253e-05 8.75410260050559e-05  0.0013737102271989 0.0289862547069787  0.995583713054656 -0.0507988892495631
64.875  0.993944406509398 -0.080702520906925  0.000210249316296541 0.00220208475366234  -1.61526031661197e-06 -5.55661836187938e-06  8.57301802170697e-06 -6.84917085891358e-06
0.000201480463147164 0.00217620795592665  0.992796957492827 -0.102836720645428  4.01345023419709e-05 0.000195837608771399  -2.00491126634006e-06 0.000110693988972344
-8.63244895299432e-06 -9.72660291154172e-06  2.79286505247001e-05 0.000205049524083734  0.994771301746367 -0.059132870286703  0.00164918322116136 0.0306984838098287
2.10875550692436e-05 -6.91722243573168e-06  -1.00226425274741e-05 8.07415053714068e-05  0.00166283268481493 0.030738579109311  0.995270192623137 -0.0546406917273997
68.59375  0.990791022777556 -0.0866663902997969  0.000182698378921487 0.00231440481729805  3.08146809402388e-05 4.47144020654378e-06  4.1298037103843e-05 1.94179301615805e-05
0.000187229219591245 0.00231594918295741  0.992235898971556 -0.108799517154693  1.29227169054502e-06 0.000240564579144121  2.50275934376987e-05 0.00016740664432291
1.62218493642286e-05 1.04149478374893e-06  2.40514327742858e-05 0.000244688155362383  0.994663417339324 -0.0624990686774253  0.00193837215192616 0.0324259288609027
3.67301327059977e-05 3.9163282053778e-05  3.41194972861559e-05 0.000161111864144914  0.00195575389079749 0.0324716046452522  0.99478906393051 -0.0583960190415381
72.3125  0.992053627967833 -0.0893232375383376  0.000190201695659198 0.00241258693858981  1.42808148666518e-05 5.73308943785378e-06  5.62174682272599e-06 1.43114066304406e-05
0.000198842390091159 0.00238637370057404  0.991999387741088 -0.113125510513782  0.000182199044502341 0.000172730156918988  1.38024279294769e-05 9.71382323768923e-05
3.10523428197485e-05 1.33867151816958e-05  0.000187982019269839 0.000200034512090497  0.994624614715575 -0.0652570575475692  0.00210632849484682 0.034335259348154
3.22001073982392e-06 2.59445369010792e-06  -2.48760734393728e-05 0.000121516663057264  0.00218085316009819 0.0343788042664527  0.994863033294676 -0.0601594038307666
76.03125  0.992165148258208 -0.0947154909372328  0.000262541288975627 0.00257654325105249  9.66731204243844e-06 -1.74407450685976e-05  -1.61412153829588e-05 3.42224939231528e-06
0.000249465578235686 0.00258058356121182  0.990578472614287 -0.119700446724892  6.18697958998383e-05 0.000210912519833073  2.19096491491655e-05 8.68160786922091e-05
-1.64670182130067e-05 -3.02219214063371e-05  5.01333961437923e-05 0.000238876207731665  0.994078814983366 -0.0682765915989875  0.00224472233094274 0.0360367558896541
-3.21511579386425e-05 -1.43486677188776e-05  1.82705716724741e-05 0.000114103022497148  0.00239189295098185 0.0360252484679221  0.9927020072937 -0.0639022588729857
79.75  0.991918563842772 -0.0995337665081022  0.00032008407288231 0.00272203353233635  -9.81609173322796e-06 -5.17200442118338e-06  1.03977090475382e-05 6.18995454715333e-06
0.000274346006335691 0.00268064835108816  0.988820016384123 -0.126562520861626  3.31146402459127e-05 0.000153128596139141  2.22180351556745e-05 0.000129037987790071
2.20646088564536e-05 1.81364350737568e-06  3.97867406718434e-05 0.00013711590145249  0.994512259960173 -0.0740543976426123  0.00263718399219214 0.0377386473119258
-9.7418815130368e-06 -5.39604116056581e-06  -7.30818555894076e-06 0.000149279381730594  0.00275036785751581 0.0378756970167159  0.993183314800261 -0.0655772387981414
83.46875  0.991584181785582 -0.104162022471428  0.000348571978975088 0.00279546901583671  -1.97601480067533e-06 1.82531493919669e-05  -1.00608554021164e-06 5.05833804709255e-06
0.000370809226296843 0.00280482601374387  0.989632606506346 -0.132063522934913  -1.69895029102918e-05 0.000223878247197718  -6.56145584798652e-06 9.75206858129242e-05
-2.41056545746688e-06 -3.24554230246577e-06  1.57916599619057e-06 0.000214748710277491  0.993755102157591 -0.0771996825933455  0.00297262473031878 0.0395178534090518
2.43603572016582e-05 6.03410441613051e-08  -1.93565956578823e-05 8.32576624816285e-05  0.00310637173242866 0.0395035371184348  0.993810832500456 -0.070879429578781
87.1875  0.989688634872435 -0.108971811830997  0.000398958014557139 0.00291910953819751  6.39370637145476e-06 7.51615061744816e-06  2.53580401476939e-05 -3.9482148395109e-07
0.000378325290512294 0.00291543826460838  0.988062322139739 -0.138466507196426  -1.17384588520508e-05 0.000250707700615749  1.78772461367771e-05 0.000151643398567103
7.19003855920165e-06 -2.86056892946363e-05  -2.06920703931246e-05 0.000229326673434116  0.99347811937332 -0.0792919397354124  0.00310731213539838 0.0412288978695869
-1.94266576727387e-05 -1.14475924419821e-05  1.88514859473799e-05 0.000148263905430213  0.00313394772820174 0.0412302650511264  0.99207830429077 -0.0728873461484908
90.90625  0.989019989967345 -0.114012949168682  0.000393890339182691 0.00302501209080219  -2.16135085793212e-05 -1.33338953673956e-05  1.21772245620378e-05 2.65100588876522e-05
0.000407504499889911 0.00303990184329449  0.987158119678496 -0.143137276172638  7.64794312999585e-05 0.000197567627765239  2.44633902184433e-05 0.000130697371787392
-2.55259601544822e-06 7.66613356972813e-06  6.90594606567176e-05 0.000213370338315145  0.9935245513916 -0.0837401226162909  0.00353687210008501 0.0429088063538074
3.01991531159729e-05 4.30717300332618e-05  2.82258133665892e-05 0.000132422079332173  0.00359966023825108 0.0430181138217448  0.993315577507018 -0.0773005411028861
94.625  0.988781750202178 -0.118222162127495  0.000510023732203991 0.00317210517823695  7.23089615348728e-05 -6.57125783618541e-05  -1.03562422282266e-06 0.000100883131381124
0.000473099702503533 0.00315667269751429  0.98519068956375 -0.1490598320961  7.89131081546658e-05 0.00021711336739827  5.14771054440645e-05 3.72769354726189e-05
0.000101969053503126 -4.48201099061408e-05  7.22816330380739e-05 0.000210853220778518  0.99216455221176 -0.0870780423283575  0.00352711207233369 0.0448764599859714
-3.38909230777063e-05 7.89622281445192e-05  4.79868103866466e-05 1.12922998596332e-05  0.00371411652304231 0.0447117425501346  0.992171466350554 -0.079142965376377
98.34375  0.988947153091429 -0.122271090745926  0.000484165473608301 0.00326749915257096  3.31465207636939e-06 -1.31820161186625e-05  -3.13630735035986e-05 -5.40404334969936e-06
0.000491840881295503 0.0032296497374773  0.985156297683714 -0.155351981520653  2.4485516405548e-05 0.000312955235131086  0.000104719132650644 0.000205595963052474
1.94648982869694e-05 7.6072774390923e-06  2.44478833337781e-05 0.000312814227072523  0.992602169513701 -0.0898693501949309  0.00393471587449311 0.0464519411325454
-2.47671960096341e-06 -2.13000612347969e-06  8.46994007588366e-05 0.000193599014892243  0.00413409713655709 0.0463463030755519  0.991971373558043 -0.0830556675791739
102.0625  0.986903727054595 -0.127621665596962  0.000494430598337204 0.00344436801970004  -1.24748621601612e-05 9.76817591435976e-06  3.130405821139e-05 1.09554025584657e-06
0.000491020211484284 0.00341801811009645  0.984979808330534 -0.160781815648079  -4.16662805946545e-05 0.000304394052363933  -4.72217743663351e-06 0.000167108155437746
9.37903951125919e-06 -5.82441134611145e-06  -5.09807978232858e-05 0.000296095560770482  0.992240667343138 -0.0930414274334906  0.00426146527752279 0.0482342839241027
1.36500575536047e-05 2.71802509814734e-05  5.2304636710687e-07 0.000173736247234047  0.00441618263721465 0.0481322780251502  0.992665171623229 -0.0859821662306784
105.78125  0.987464129924773 -0.132237032055855  0.000584593217354269 0.00353622925467788  -1.06634424810182e-05 -2.54213464359055e-05  -9.27687415241964e-06 1.1269894457655e-06
0.000571311626117678 0.00352831021882593  0.98393940925598 -0.167266264557838  8.53456440381707e-05 0.000319401355227456  6.49467765470037e-05 0.000191791797988117
-2.28335229621735e-05 7.91444108472207e-06  0.00010557210771367 0.000354529940523208  0.991677224636076 -0.0971911847591398  0.00478486903011798 0.0499402061104774
-1.70703951880569e-05 -2.37092626775848e-05  6.49944850010799e-05 0.000206321637961083  0.00490570766851305 0.0499101057648658  0.991470396518706 -0.089627407491207
109.5  0.986507177352904 -0.137450873851776  0.000576736230868847 0.00366777135059237  -6.16639817963006e-06 2.37199174080161e-06  -1.98597354028607e-05 -2.19350731640589e-05
0.000589089700952174 0.00365297589451074  0.983220517635344 -0.172848880290985  6.2501389948011e-06 0.000252981641096995  -1.44761952469708e-06 0.000157234419020824
1.41570108098677e-05 2.01586444745772e-05  -3.19801938530873e-06 0.000269954936811701  0.990951120853423 -0.10109943151474  0.00502172159031032 0.0514895729720592
-8.50430751597743e-06 9.62589729169851e-06  -8.33401190902806e-06 0.000170707819052041  0.0051371888257563 0.0516081191599368  0.991869807243346 -0.0925226807594298
113.21875  0.985478579998015 -0.141735062003136  0.000641390797682108 0.00376778421923517  3.41697477779235e-06 -2.17776232602774e-05  2.14067495107884e-05 -9.78618118097076e-06
0.000595512858126314 0.0037567380350083  0.980889379978179 -0.178699895739555  9.01662060641685e-05 0.000217409164179117  3.23117419611663e-05 0.00018214448937215
-4.03765312739777e-07 2.32768161367858e-06  0.000108338055724744 0.000240456429310144  0.989174425601958 -0.105640776455402  0.0054892562329769 0.0531453229486941
1.80156530404929e-05 -2.81792963505723e-05  2.62990652117879e-05 0.000136659451527521  0.00564037682488559 0.0532634370028972  0.990051507949828 -0.0963631421327589
116.9375  0.98489612340927 -0.145889654755592  0.000633105111774058 0.00391661748290061  -2.05037140403875e-05 9.39580877457048e-06  -1.78675672941609e-05 3.34975557052531e-05
0.000651844893582167 0.00389912002719938  0.979074180126189 -0.185136780142784  4.34018729720266e-05 0.000372503593098373  2.88282790279482e-05 0.000196377499378287
1.48166936924099e-05 1.81837076524971e-05  3.56903838110157e-05 0.00033613998675719  0.989256143569945 -0.107977487146854  0.00566936004906892 0.0547655150294303
-1.8076829292113e-05 -9.775530998013e-06  8.17775435280056e-06 0.000204368290724233  0.00589661905542015 0.0549372434616088  0.988902211189269 -0.100574649870396
120.65625  0.98362499475479 -0.150541692972183  0.000710905645973982 0.00395851302891969  4.34319053965738e-06 -2.8189269869472e-05  2.67650284513366e-06 5.5201668146765e-05
0.000701110751833768 0.0039450111798942  0.97823143005371 -0.189362332224846  3.60710910172202e-05 0.00025563599774614  1.6876112567843e-05 0.000202805473236368
2.11478600249393e-05 -1.35872778628255e-05  5.10799472976943e-05 0.000266267335973681  0.989202618598937 -0.110598869621754  0.00624332530423997 0.0565686151385306
2.98276900139172e-05 2.61166842392413e-05  4.04676466132515e-05 0.000183925410965458  0.00647656805813311 0.0566918849945067  0.989117801189421 -0.10201545804739
124.375  0.983707726001738 -0.154465734958648  0.000699035183060916 0.00409632083028554  1.3916680472903e-05 -1.24620728456648e-05  3.44299660355319e-05 5.51887978872401e-06
0.000714335183147343 0.00411862088367342  0.976856112480162 -0.196200087666511  6.94754562573509e-05 0.000365194020560012  5.29564313183074e-05 0.000230009609367699
3.07515474560205e-05 -8.15589555713815e-06  6.2691018683836e-05 0.000410955719416962  0.987864911556242 -0.114029236137867  0.00659691961482166 0.058066502213478
1.02923540907796e-05 2.03654180950253e-05  3.63549042958767e-05 0.000253530481131748  0.00666367169469594 0.0581005290150641  0.988273501396178 -0.105527870357036
128.09375  0.982320845127104 -0.159357964992523  0.000764012278523298 0.00422883359715342  -1.28220290207537e-05 2.94821393254097e-06  -1.3839962775819e-05 -2.17364504351281e-05
0.000777426408603789 0.004217023961246  0.97727859020233 -0.201684221625328  4.70276972919235e-07 0.000282781635178254  -1.15172369987704e-05 0.000177061097929255
3.28804162563757e-05 -2.53334801527672e-05  -1.98016387003009e-05 0.000288847862975672  0.988009035587309 -0.117516450583935  0.00671148253604768 0.059960551559925
5.53623658561265e-06 -1.50592268255423e-05  5.08570246893215e-06 0.000208920289878734  0.00709769222885369 0.0599611252546309  0.98858469724655 -0.107954725623131
131.8125  0.979959070682524 -0.164279237389564  0.000884725537616762 0.0043655834160745  -1.29722438941826e-05 5.54034568267526e-06  -2.4336966816918e-05 2.63894180534408e-05
0.000861030595842751 0.00433316826820373  0.974724233150481 -0.208221957087516  0.000123417150462047 0.000349520094459877  3.60258272849024e-05 0.000215186475543306
-4.06089056923521e-05 -2.64188274741173e-05  0.000134563524625264 0.000348686531651766  0.987528443336486 -0.120771124958992  0.00711039174348114 0.0616541206836699
-2.88402789010434e-05 2.52898207691033e-05  6.30633949185723e-05 0.000213929466553964  0.00719255208969115 0.0617004819214343  0.987715363502501 -0.111652866005897
135.53125  0.979635655879973 -0.169179007411003  0.000910096568986776 0.00444991653785108  2.14653682633071e-05 -4.96342227052083e-06  -1.79694234248018e-05 1.68543720064918e-05
0.000926173117477449 0.00441301381215452  0.973652660846709 -0.213936045765876  6.76858544466087e-05 0.000290715775918216  2.56340736086714e-05 0.00023770215921104
3.90821878681891e-05 -8.43684847495752e-06  4.0478160372004e-05 0.000318598205922172  0.986487090587615 -0.124007858335972  0.00754850078374146 0.0635413900017737
2.15857508010231e-05 3.11766707454809e-05  4.12010085710791e-05 0.00020618447160814  0.00769685627892612 0.0635244771838187  0.986692488193511 -0.115275599062443
139.25  0.979897558689116 -0.17206896841526  0.000909865484572949 0.00459209829568862  -1.98798697965686e-05 -1.24781408885611e-05  -4.52849344583229e-05 -4.59025432064664e-06
0.000873677083291115 0.0045862616971135  0.971972405910491 -0.219700381159782  3.467579062999e-06 0.000401970697566868  -6.56616657579435e-06 0.000223692215513438
-1.174177032226e-05 -7.7015129136271e-06  1.67156231327681e-05 0.000399756943807007  0.98600935935974 -0.12774483859539  0.00818489026278256 0.0650535896420478
-3.76457537640818e-05 -1.3564562323154e-05  1.88174135473673e-06 0.000218476416193881  0.00840989034622906 0.0651783943176268  0.9861062169075 -0.118608519434929
142.96875  0.977620601654051 -0.177538588643074  0.00101969391107559 0.00465712649747728  -1.72571144503309e-05 1.71055216924288e-05  -3.96786599594635e-05 -1.76308167283424e-05
0.000999828218482437 0.00462471041828393  0.970338344573973 -0.223160102963447  5.39083193871194e-05 0.000187853525858373  3.33496718667448e-05 0.000221044596401044
-7.89575187809534e-06 -5.92351489103749e-06  5.78989565838129e-05 0.000187976867891848  0.984721124172209 -0.129379659891128  0.00854285899549721 0.0669232755899428
1.27435459944536e-05 3.84361555916258e-06  1.14906806629733e-05 0.000263183697825298  0.0085471738129854 0.0669613033533095  0.985756039619444 -0.120870716869831
146.6875  0.976251244544982 -0.182623624801636  0.00100381765514612 0.00477214436978101  3.87284126190935e-06 -1.11005956568988e-05  -2.880716749587e-07 4.06040053348989e-05
0.000969668268226089 0.004757238086313  0.970137834548949 -0.23069529235363  3.52717106579804e-05 0.000399112730519847  3.30078837578186e-05 0.000230464109336026
1.47753680721508e-05 -1.39674730235129e-05  3.97892836190295e-05 0.000392348039895297  0.984654963016509 -0.13398702442646  0.00903137773275373 0.0684643685817717
-1.84709347195167e-06 7.16334670869402e-06  2.53259850069299e-06 0.000221962633077056  0.00915532745420931 0.068598911166191  0.985086560249327 -0.123070560395717
150.40625  0.975829541683196 -0.18634769320488  0.00108958757482469 0.00490332162007688  2.6879124561674e-05 4.36558912042529e-05  2.17790038732347e-05 2.3259133740794e-05
0.00106427329592407 0.00484984135255216  0.968102335929869 -0.235167294740677  0.000104972597910092 0.000287609669612721  4.26232109020931e-05 0.000241574380197563
3.49174661096186e-05 5.22154914506246e-05  9.46083746384831e-05 0.0002952944196295  0.984401166439055 -0.136980831623077  0.00953078456223009 0.0701532289385794
9.56506028160221e-06 2.97959504678147e-05  4.76083550893237e-05 0.000242798298131675  0.00968261435627935 0.0702468752861022  0.984882593154906 -0.126712962985039
154.125  0.975404739379882 -0.190714344382286  0.00112260109744966 0.00503707258030771  4.38674251199701e-05 -1.92588449863252e-05  5.69269559491659e-06 1.55821544467472e-05
0.00110108079388737 0.00496882060542702  0.966107666492461 -0.241149961948394  8.52938828757034e-05 0.000431120424764232  3.35272125084885e-05 0.000280115200439469
1.57053673319752e-05 2.6137746317545e-05  2.19900921365479e-05 0.000442809017840774  0.98360228538513 -0.139365598559379  0.00989664997905491 0.0716656446456908
1.64762041094946e-05 3.76797725039069e-05  7.54999782657252e-05 0.000302903092233465  0.0100970389321446 0.0718003138899802  0.984057903289794 -0.129763916134834
