! Matrix data file written by TouchstoneData, EPCOS AG
! FILENAME: "ptable_B4402_02_WB_matched.s4p"
! COMMENT: "S4P matched (B4402_02_WB_matched.s4p)"
! INFO: nport=4, nfreq=1601
! DATE: "Tue Feb 12 13:03:39 2013"
! USER: "Michael Schemies"
!
! port | pin | signal
! -----|-----|--------
!   1  |  3  |  Tx
!   2  |  6  |  Ant
!   3  |  8  |  Rx
!   4  |  1  |  Rx
! --------------------
!
# MHZ S RI R 50
! freq  reS11 imS11  reS12 imS12  reS13 imS13  reS14 imS14  ...
100  0.908322593335714 -0.410570434263225  -0.000416712910268904 0.000177409681954567  -2.77677545789384e-05 8.0594061122109e-05  -1.12627177836238e-05 1.2476029497963e-05
-0.000416712910268904 0.000177409681954567  -0.928757528578054 0.370581778632025  -4.0135282294094e-05 7.68605657183762e-06  -2.69049306643634e-05 8.2486718291977e-06
-2.77677545789384e-05 8.0594061122109e-05  -4.0135282294094e-05 7.68605657183762e-06  0.990559554544377 -0.127575678442463  0.00125715254188667 0.00835087638856886
-1.12627177836238e-05 1.2476029497963e-05  -2.69049306643634e-05 8.2486718291977e-06  0.00125715254188667 0.00835087638856886  0.990856338052503 -0.127547852035205
102.4375  0.904754238899913 -0.419123932520201  -0.000438245282812217 0.000200528716025735  -8.28704882708066e-06 4.50852111228015e-05  1.73099987853995e-05 1.92425174487739e-05
-0.000438245282812217 0.000200528716025735  -0.925223567166547 0.379309046304737  -4.14909747942828e-05 9.45843173513932e-06  -3.2259711098972e-05 5.17074899809153e-06
-8.28704882708066e-06 4.50852111228015e-05  -4.14909747942828e-05 9.45843173513932e-06  0.98956300637374 -0.130856325497912  0.00136359748209412 0.00849108275321561
1.73099987853995e-05 1.92425174487739e-05  -3.2259711098972e-05 5.17074899809153e-06  0.00136359748209412 0.00849108275321561  0.989266199501893 -0.130389147445218
104.875  0.900347966434915 -0.428090070482047  -0.000453097895649906 0.000192225992295207  -1.40601250264176e-05 -1.62649793832518e-05  9.68457221261592e-07 -2.27116011330814e-05
-0.000453097895649906 0.000192225992295207  -0.921614981659408 0.387994365214934  -4.4517918942294e-05 1.9424607874123e-05  -3.33698566939267e-05 1.23584532593239e-05
-1.40601250264176e-05 -1.62649793832518e-05  -4.4517918942294e-05 1.9424607874123e-05  0.989766057124304 -0.133750081545579  0.0012815806773084 0.00849030277886712
9.68457221261592e-07 -2.27116011330814e-05  -3.33698566939267e-05 1.23584532593239e-05  0.0012815806773084 0.00849030277886712  0.989400320469515 -0.133196130331597
107.3125  0.894707851222027 -0.435882269479527  -0.000478596586407368 0.000226005759585136  8.60188181790342e-07 3.15124820174532e-05  -1.07031720034625e-05 -7.81639597044553e-06
-0.000478596586407368 0.000226005759585136  -0.917914394490929 0.396644635922333  -5.47322626683735e-05 1.1905147169463e-05  -3.44427093485516e-05 1.13081353503925e-05
8.60188181790342e-07 3.15124820174532e-05  -5.47322626683735e-05 1.1905147169463e-05  0.989536532594603 -0.136646998519035  0.00128452000370555 0.00882988796161318
-1.07031720034625e-05 -7.81639597044553e-06  -3.44427093485516e-05 1.13081353503925e-05  0.00128452000370555 0.00882988796161318  0.989386537213217 -0.136521846627854
109.75  0.89125964610815 -0.445003870532173  -0.000489669121420269 0.000224882064095809  3.07600331029687e-06 3.70480338497452e-06  1.81565152847373e-05 -1.09745007128343e-05
-0.000489669121420269 0.000224882064095809  -0.914132974685369 0.405280776166991  -4.66384885192865e-05 1.95533129317766e-05  -2.91330477200782e-05 1.39332809725401e-05
3.07600331029687e-06 3.70480338497452e-06  -4.66384885192865e-05 1.95533129317766e-05  0.988411990822544 -0.140235481005005  0.00139627223508914 0.00928114579026147
1.81565152847373e-05 -1.09745007128343e-05  -2.91330477200782e-05 1.39332809725401e-05  0.00139627223508914 0.00928114579026147  0.987934919008846 -0.139705388224595
112.1875  0.885150988556514 -0.455228877995922  -0.000503518908473515 0.000251353673447694  1.4222545474105e-05 1.07303522113402e-05  -2.25556049101505e-05 1.42282247192437e-05
-0.000503518908473515 0.000251353673447694  -0.91023547475567 0.413876537607244  -5.32215026058497e-05 2.61310219353767e-05  -3.55298434388002e-05 1.53180376664882e-05
1.4222545474105e-05 1.07303522113402e-05  -5.32215026058497e-05 2.61310219353767e-05  0.988656098065188 -0.141542627617118  0.00129595320728154 0.0094736253000402
-2.25556049101505e-05 1.42282247192437e-05  -3.55298434388002e-05 1.53180376664882e-05  0.00129595320728154 0.0094736253000402  0.987683417674702 -0.142324064207114
114.625  0.880347679621494 -0.461778598394958  -0.00052406926352819 0.000255289833282547  -1.07178355940369e-05 -2.09011105778903e-05  2.93616576447149e-05 -2.08044418473594e-05
-0.00052406926352819 0.000255289833282547  -0.906321919309829 0.422399556006761  -5.54568017948883e-05 2.00923805889341e-05  -3.05115137024154e-05 1.63084015150999e-05
-1.07178355940369e-05 -2.09011105778903e-05  -5.54568017948883e-05 2.00923805889341e-05  0.987714277023844 -0.146022976867598  0.00160284742549252 0.00944718998654076
2.93616576447149e-05 -2.08044418473594e-05  -3.05115137024154e-05 1.63084015150999e-05  0.00160284742549252 0.00944718998654076  0.987223655365577 -0.145035183686164
117.0625  0.87627843389049 -0.470833897100326  -0.000552710168601831 0.000274300380945589  -1.52201067790647e-06 -1.6907542808594e-05  4.31193556689669e-05 -4.10262833086745e-06
-0.000552710168601831 0.000274300380945589  -0.902223065376349 0.430951225957409  -5.68721394422206e-05 2.05039390630561e-05  -3.826131459388e-05 9.58843152601333e-06
-1.52201067790647e-06 -1.6907542808594e-05  -5.68721394422206e-05 2.05039390630561e-05  0.987106029496711 -0.148268006811577  0.00179817070565875 0.00962602834843689
4.31193556689669e-05 -4.10262833086745e-06  -3.826131459388e-05 9.58843152601333e-06  0.00179817070565875 0.00962602834843689  0.985615945562338 -0.148275598193021
119.5  0.871174626086021 -0.479390582772796  -0.000563361262802639 0.00030511423057841  1.35731105280987e-05 -2.26934660231621e-05  1.8513769308947e-05 -1.12303949371335e-05
-0.000563361262802639 0.00030511423057841  -0.898182743339558 0.439488524337628  -5.44452435479335e-05 1.50433477552241e-05  -3.75399395093774e-05 1.24533195703749e-05
1.35731105280987e-05 -2.26934660231621e-05  -5.44452435479335e-05 1.50433477552241e-05  0.986618086971771 -0.151573792672258  0.00164597798867237 0.00983553370168117
1.8513769308947e-05 -1.12303949371335e-05  -3.75399395093774e-05 1.24533195703749e-05  0.00164597798867237 0.00983553370168117  0.98637758887649 -0.150253413096051
121.9375  0.867864411838837 -0.487783515552002  -0.000570854782751288 0.000310179815806864  8.03081325331293e-06 4.78660938577874e-05  1.4570176731424e-05 1.05830985910162e-05
-0.000570854782751288 0.000310179815806864  -0.893943878502473 0.447989452215078  -6.06140857136969e-05 1.65071131098297e-05  -4.45153905111745e-05 1.08885648544947e-05
8.03081325331293e-06 4.78660938577874e-05  -6.06140857136969e-05 1.65071131098297e-05  0.985189831999639 -0.154915816902644  0.00175887362443101 0.0100463336751713
1.4570176731424e-05 1.05830985910162e-05  -4.45153905111745e-05 1.08885648544947e-05  0.00175887362443101 0.0100463336751713  0.986702920646268 -0.154405983210934
124.375  0.862706021564623 -0.496374337270876  -0.000603543550443585 0.000318194915017433  9.87182604571463e-06 6.43681353031532e-06  9.28658294561154e-06 -2.8416518149048e-05
-0.000603543550443585 0.000318194915017433  -0.889609367171974 0.456451518911745  -5.67690158697403e-05 2.53846149646055e-05  -3.96782906315442e-05 1.69063845798329e-05
9.87182604571463e-06 6.43681353031532e-06  -5.67690158697403e-05 2.53846149646055e-05  0.986076461403765 -0.157495534731842  0.00181433383313468 0.0102394813238925
9.28658294561154e-06 -2.8416518149048e-05  -3.96782906315442e-05 1.69063845798329e-05  0.00181433383313468 0.0102394813238925  0.985190000154451 -0.157678862763
126.8125  0.857665573233488 -0.505021173737658  -0.000647538032178244 0.00034691733624552  5.20347043979823e-05 -1.28162475886899e-05  1.19003410132977e-05 1.18541593024231e-05
-0.000647538032178244 0.00034691733624552  -0.885260619891981 0.464823462021255  -5.98054310754315e-05 2.61442627735382e-05  -4.41378622653355e-05 1.02284154782974e-05
5.20347043979823e-05 -1.28162475886899e-05  -5.98054310754315e-05 2.61442627735382e-05  0.985965610773542 -0.160197488045121  0.00190590455824225 0.0104077611090845
1.19003410132977e-05 1.18541593024231e-05  -4.41378622653355e-05 1.02284154782974e-05  0.00190590455824225 0.0104077611090845  0.983970254422974 -0.16080546621007
129.25  0.85239178494738 -0.512988649061467  -0.000606392987892142 0.000352106434655276  3.4260359919381e-05 -2.41232236528303e-05  -1.65819910894867e-05 -2.35859981069338e-05
-0.000606392987892142 0.000352106434655276  -0.880745976753195 0.4731804749106  -7.68827894749959e-05 1.30280440582406e-05  -5.45026048529297e-05 1.4312522332779e-05
3.4260359919381e-05 -2.41232236528303e-05  -7.68827894749959e-05 1.30280440582406e-05  0.984993719844927 -0.16280009718567  0.0019985946364676 0.0106487617531421
-1.65819910894867e-05 -2.35859981069338e-05  -5.45026048529297e-05 1.4312522332779e-05  0.0019985946364676 0.0106487617531421  0.983983195060939 -0.162177642293616
131.6875  0.845986652434952 -0.52036185698369  -0.000681824389662709 0.000383359345262853  -3.16581814233127e-06 -1.72170287110926e-05  2.16008366618619e-05 -4.43914886759575e-05
-0.000681824389662709 0.000383359345262853  -0.876231857111773 0.481591064378965  -7.26506104687029e-05 2.69755158865535e-05  -5.20563839119839e-05 1.82065321684347e-05
-3.16581814233127e-06 -1.72170287110926e-05  -7.26506104687029e-05 2.69755158865535e-05  0.985236947309899 -0.165958843917282  0.00202882516881578 0.0108230865742809
2.16008366618619e-05 -4.43914886759575e-05  -5.20563839119839e-05 1.82065321684347e-05  0.00202882516881578 0.0108230865742809  0.982705235763376 -0.166480215446423
134.125  0.842147232069516 -0.529329077984483  -0.000692349277593777 0.000429505636488027  -3.62798936865444e-05 -3.22394561897162e-05  2.45026777157686e-05 2.84231815845813e-05
-0.000692349277593777 0.000429505636488027  -0.871602678992437 0.489965085220832  -7.59805664413984e-05 3.09078252773605e-05  -4.63362732093274e-05 1.87969358974561e-05
-3.62798936865444e-05 -3.22394561897162e-05  -7.59805664413984e-05 3.09078252773605e-05  0.984591669556934 -0.169700435891893  0.00211186707566535 0.0108749500516931
2.45026777157686e-05 2.84231815845813e-05  -4.63362732093274e-05 1.87969358974561e-05  0.00211186707566535 0.0108749500516931  0.982748920275669 -0.170240994925124
136.5625  0.835035917320106 -0.539707762747823  -0.000699606342101 0.000430176862469494  1.323974618969e-05 1.67892636409162e-05  2.18719694491467e-05 7.52689174709557e-06
-0.000699606342101 0.000430176862469494  -0.86685981944166 0.498218908707381  -7.57786530813444e-05 2.4487961289247e-05  -5.90596237200724e-05 1.12319371684432e-05
1.323974618969e-05 1.67892636409162e-05  -7.57786530813444e-05 2.4487961289247e-05  0.98271026782057 -0.17294771858531  0.00220636568362094 0.0109348880258437
2.18719694491467e-05 7.52689174709557e-06  -5.90596237200724e-05 1.12319371684432e-05  0.00220636568362094 0.0109348880258437  0.982903009143361 -0.171800741666545
139  0.831235610404903 -0.545900539971227  -0.000756209972237221 0.000434796115209453  -1.57420614784581e-05 2.01889089642146e-05  -9.33048293071309e-06 2.49330701038916e-06
-0.000756209972237221 0.000434796115209453  -0.86207396357237 0.506441419307765  -9.29167238727489e-05 2.68193856375372e-05  -3.90066967177798e-05 2.76113311202058e-05
-1.57420614784581e-05 2.01889089642146e-05  -9.29167238727489e-05 2.68193856375372e-05  0.981484294955161 -0.175458586310307  0.00214586155987566 0.0112785789431048
-9.33048293071309e-06 2.49330701038916e-06  -3.90066967177798e-05 2.76113311202058e-05  0.00214586155987566 0.0112785789431048  0.981778839604509 -0.176696066372694
141.4375  0.824961840284496 -0.553980456609236  -0.000733730854961921 0.000484037901541489  -1.65558288832375e-05 6.25295950700863e-05  -3.56816700294874e-05 -7.20330661271457e-06
-0.000733730854961921 0.000484037901541489  -0.857128932553321 0.514662845075506  -6.76814096847882e-05 3.82913635638738e-05  -4.18914855209557e-05 3.09449214954241e-05
-1.65558288832375e-05 6.25295950700863e-05  -6.76814096847882e-05 3.82913635638738e-05  0.981312092106955 -0.178711690021752  0.0021539730545678 0.0118311019950213
-3.56816700294874e-05 -7.20330661271457e-06  -4.18914855209557e-05 3.09449214954241e-05  0.0021539730545678 0.0118311019950213  0.980554568842224 -0.177835982222075
143.875  0.819477313910297 -0.562833025134786  -0.000757819498225858 0.000503055694285781  3.80474341698945e-05 8.28044097146713e-05  4.91975652582195e-05 -1.6210634316526e-05
-0.000757819498225858 0.000503055694285781  -0.852157250374397 0.522896416250902  -8.12760438712849e-05 2.77449413555943e-05  -5.16428589963056e-05 2.19138600135301e-05
3.80474341698945e-05 8.28044097146713e-05  -8.12760438712849e-05 2.77449413555943e-05  0.981404481617413 -0.181818689915029  0.00236218542299051 0.0117327087702291
4.91975652582195e-05 -1.6210634316526e-05  -5.16428589963056e-05 2.19138600135301e-05  0.00236218542299051 0.0117327087702291  0.979869133000355 -0.181474811300143
146.3125  0.814262745894042 -0.569033459505902  -0.000765818272058843 0.000492007179767794  -1.33754099348825e-05 -1.83598274273983e-05  2.61645271860353e-05 4.06600137497667e-05
-0.000765818272058843 0.000492007179767794  -0.847085596164584 0.530986492408782  -9.36924325465714e-05 3.11054039474538e-05  -6.80326033764708e-05 2.6961014532779e-05
-1.33754099348825e-05 -1.83598274273983e-05  -9.36924325465714e-05 3.11054039474538e-05  0.980758687509828 -0.185337374976014  0.00259341464757479 0.0117938969986449
2.61645271860353e-05 4.06600137497667e-05  -6.80326033764708e-05 2.6961014532779e-05  0.00259341464757479 0.0117938969986449  0.9804142761455 -0.18430428300486
148.75  0.808790394641668 -0.576541313080845  -0.000818694227839582 0.000548602043884263  -4.06230890700547e-05 -6.42439924108867e-06  1.07436712960488e-06 7.53579075179941e-06
-0.000818694227839582 0.000548602043884263  -0.841936892392913 0.539099745154248  -8.46064951444157e-05 2.42077942374529e-05  -5.40974424266652e-05 2.62115069897658e-05
-4.06230890700547e-05 -6.42439924108867e-06  -8.46064951444157e-05 2.42077942374529e-05  0.980268110829062 -0.18807833882843  0.00261722679535654 0.0120800203967447
1.07436712960488e-06 7.53579075179941e-06  -5.40974424266652e-05 2.62115069897658e-05  0.00261722679535654 0.0120800203967447  0.979216524889995 -0.187736772511011
151.1875  0.802250126587326 -0.584994983382105  -0.000838184389498855 0.000573611756122058  -3.12449158671448e-06 2.04205985560426e-05  8.68492723244409e-06 -2.57384084419588e-06
-0.000838184389498855 0.000573611756122058  -0.836766780587693 0.547226998629369  -0.0001011685427894 4.28320556811061e-05  -5.88343082118165e-05 1.62299757330867e-05
-3.12449158671448e-06 2.04205985560426e-05  -0.0001011685427894 4.28320556811061e-05  0.98087809920004 -0.189523388819735  0.00260749740710205 0.0122772990747785
8.68492723244409e-06 -2.57384084419588e-06  -5.88343082118165e-05 1.62299757330867e-05  0.00260749740710205 0.0122772990747785  0.978680315913004 -0.191029744946993
153.625  0.796715259109868 -0.592274613560557  -0.0008109458727598 0.000595180498684934  4.25089733789716e-05 -5.9524837194222e-06  1.99105770351486e-05 -2.07395545306309e-05
-0.0008109458727598 0.000595180498684934  -0.831379811745274 0.55527728657055  -9.5604233407225e-05 2.82769793189751e-05  -6.75078131576228e-05 2.20700406191265e-05
4.25089733789716e-05 -5.9524837194222e-06  -9.5604233407225e-05 2.82769793189751e-05  0.979837717414751 -0.193508598518127  0.00267916353593811 0.0124031501309869
1.99105770351486e-05 -2.07395545306309e-05  -6.75078131576228e-05 2.20700406191265e-05  0.00267916353593811 0.0124031501309869  0.978666131688242 -0.193554269373274
156.0625  0.789677196187053 -0.601025426078959  -0.000890819273451355 0.000611174676413053  -1.36392119465319e-05 -4.66331010818547e-05  -2.83025788958884e-06 -2.6712907404579e-06
-0.000890819273451355 0.000611174676413053  -0.825943591797022 0.563276890259732  -9.33246079665839e-05 4.47945976963007e-05  -6.44567862977491e-05 3.33477373682714e-05
-1.36392119465319e-05 -4.66331010818547e-05  -9.33246079665839e-05 4.47945976963007e-05  0.978432946646563 -0.197810281540377  0.00273895445080802 0.0125858391811114
-2.83025788958884e-06 -2.6712907404579e-06  -6.44567862977491e-05 3.33477373682714e-05  0.00273895445080802 0.0125858391811114  0.977306327184781 -0.197054552078463
158.5  0.782604483095306 -0.60530480351992  -0.000879250103780321 0.000646121521563316  -6.0936865276848e-05 1.33533586064059e-05  -2.24518043513118e-05 1.85086290324383e-05
-0.000879250103780321 0.000646121521563316  -0.820420070742063 0.571243726461156  -9.48243682500862e-05 4.04743870513446e-05  -5.70497159855823e-05 2.68557752563949e-05
-6.0936865276848e-05 1.33533586064059e-05  -9.48243682500862e-05 4.04743870513446e-05  0.977954969911698 -0.200657099899929  0.00281668784509984 0.0127993776955314
-2.24518043513118e-05 1.85086290324383e-05  -5.70497159855823e-05 2.68557752563949e-05  0.00281668784509984 0.0127993776955314  0.977296392421673 -0.200907189605407
160.9375  0.77942989341227 -0.613880343646852  -0.000899037362056703 0.000666000858952993  -1.65229982214362e-06 -2.29028457034196e-05  2.35083822933498e-05 -2.10433108595064e-05
-0.000899037362056703 0.000666000858952993  -0.814909203615326 0.579005961831823  -0.000105449784711471 4.25479699435173e-05  -6.52544233757345e-05 4.19081975004938e-05
-1.65229982214362e-06 -2.29028457034196e-05  -0.000105449784711471 4.25479699435173e-05  0.977641254838535 -0.203163835158092  0.00297413338903082 0.0129787114614145
2.35083822933498e-05 -2.10433108595064e-05  -6.52544233757345e-05 4.19081975004938e-05  0.00297413338903082 0.0129787114614145  0.97639477268795 -0.203407061794955
163.375  0.773238701808352 -0.622084595346762  -0.000935592427845286 0.000697773069932168  2.02822338341169e-05 1.50083812882604e-05  -3.83716142972854e-06 5.03486118399302e-06
-0.000935592427845286 0.000697773069932168  -0.809310568775148 0.586870593136968  -0.000108794909138994 4.2219518300522e-05  -6.93669451212561e-05 3.07549881174021e-05
2.02822338341169e-05 1.50083812882604e-05  -0.000108794909138994 4.2219518300522e-05  0.977213247279325 -0.205857385911115  0.00319720164033206 0.0131104957822028
-3.83716142972854e-06 5.03486118399302e-06  -6.93669451212561e-05 3.07549881174021e-05  0.00319720164033206 0.0131104957822028  0.974482248175917 -0.205435021725728
165.8125  0.767163875905311 -0.629509977910359  -0.000925928905619828 0.000728731026057398  1.01316167280476e-05 2.62635781949951e-06  -7.04090885739734e-07 1.09167479017113e-05
-0.000925928905619828 0.000728731026057398  -0.803539711029541 0.594727021481429  -0.000112298673435803 4.01349058999634e-05  -7.44628474019451e-05 3.2444920893273e-05
1.01316167280476e-05 2.62635781949951e-06  -0.000112298673435803 4.01349058999634e-05  0.975858247069131 -0.208821648417504  0.00317827711675422 0.0131580200529569
-7.04090885739734e-07 1.09167479017113e-05  -7.44628474019451e-05 3.2444920893273e-05  0.00317827711675422 0.0131580200529569  0.97453185223363 -0.209072038880813
168.25  0.760730966679034 -0.636527686924789  -0.000997582626117164 0.000751860736217275  -1.47958710699252e-06 1.39594609974114e-06  -2.25412703943411e-06 -1.63338348326317e-05
-0.000997582626117164 0.000751860736217275  -0.797650461930896 0.602518939051038  -0.000105877657739103 6.62818156905906e-05  -7.46081697846432e-05 4.31959720595596e-05
-1.47958710699252e-06 1.39594609974114e-06  -0.000105877657739103 6.62818156905906e-05  0.974959238478749 -0.211556646642331  0.0029558191517318 0.0133754316790844
