! Matrix data file written by TouchstoneData, EPCOS AG
! FILENAME: "newformat_AA36A_x6y6_NB.s4p"
! COMMENT: "(AA36A_x6y6_NB.s4p) EPCOS AG 15.06.2012 10:1"
! INFO: nport=4, nfreq=1601
! DATE: "Mon Aug  6 18:24:58 2012"
! USER: "Michael Schemies"
!
! port | pin | signal
! -----|-----|--------
!   1  |  3  |  Tx
!   2  |  6  |  Ant
!   3  |  8  |  Rx
!   4  |  1  |  Rx
! --------------------
!
# MHZ S MA R 50
! freq  magS11 angS11  magS12 angS12  magS13 angS13  magS14 angS14  ...
1.500000E+03  9.562272E-01 -1.261997E+02  4.689505E-03 -2.098885E+01  9.516562E-04 1.649518E+02  1.216070E-03 1.662219E+02
4.695561E-03 -2.087953E+01  9.605827E-01 -1.145742E+02  8.793963E-04 1.712997E+02  6.623390E-04 1.547467E+02
9.527617E-04 1.651701E+02  8.811116E-04 1.721036E+02  9.654161E-01 -7.622222E+01  1.178987E-02 1.797679E+01
1.219294E-03 1.655718E+02  6.611179E-04 1.546279E+02  1.179057E-02 1.802920E+01  9.685473E-01 -7.372482E+01
1.500500E+03  9.555939E-01 -1.262563E+02  4.668481E-03 -2.071255E+01  9.421788E-04 1.650471E+02  1.205615E-03 1.664462E+02
4.670107E-03 -2.069330E+01  9.605584E-01 -1.146076E+02  8.919705E-04 1.707012E+02  6.531417E-04 1.565839E+02
9.470414E-04 1.660412E+02  8.887538E-04 1.706269E+02  9.655937E-01 -7.625215E+01  1.169358E-02 1.874107E+01
1.211182E-03 1.668478E+02  6.659297E-04 1.565376E+02  1.169500E-02 1.872470E+01  9.684857E-01 -7.375745E+01
1.501000E+03  9.560096E-01 -1.262966E+02  4.651245E-03 -2.089454E+01  9.429811E-04 1.650413E+02  1.212637E-03 1.665447E+02
4.652627E-03 -2.078061E+01  9.603627E-01 -1.146311E+02  8.905893E-04 1.693306E+02  6.597428E-04 1.568391E+02
9.455589E-04 1.652551E+02  8.883801E-04 1.696305E+02  9.655868E-01 -7.628449E+01  1.163875E-02 1.935803E+01
1.220696E-03 1.662801E+02  6.518814E-04 1.570762E+02  1.163355E-02 1.939109E+01  9.685450E-01 -7.377990E+01
1.501500E+03  9.560004E-01 -1.263799E+02  4.630791E-03 -2.080472E+01  9.536818E-04 1.655483E+02  1.221015E-03 1.663506E+02
4.629212E-03 -2.077964E+01  9.604501E-01 -1.146555E+02  9.018734E-04 1.704879E+02  6.586385E-04 1.581762E+02
9.485691E-04 1.653809E+02  8.996323E-04 1.697875E+02  9.653150E-01 -7.631786E+01  1.161413E-02 1.966846E+01
1.241192E-03 1.669690E+02  6.629803E-04 1.588710E+02  1.160349E-02 1.967631E+01  9.684995E-01 -7.380477E+01
1.502000E+03  9.557253E-01 -1.264258E+02  4.603737E-03 -2.074476E+01  9.541455E-04 1.655153E+02  1.218000E-03 1.665040E+02
4.607894E-03 -2.057873E+01  9.603861E-01 -1.146799E+02  9.153932E-04 1.701897E+02  6.675693E-04 1.588899E+02
9.593092E-04 1.644688E+02  9.168360E-04 1.701145E+02  9.650758E-01 -7.632738E+01  1.152852E-02 2.003826E+01
1.227847E-03 1.663860E+02  6.622228E-04 1.580194E+02  1.152994E-02 2.012884E+01  9.687119E-01 -7.383846E+01
1.502500E+03  9.559739E-01 -1.264801E+02  4.595947E-03 -2.043906E+01  9.460227E-04 1.655810E+02  1.226242E-03 1.659447E+02
4.594966E-03 -2.051900E+01  9.604861E-01 -1.147098E+02  9.317109E-04 1.691184E+02  6.620432E-04 1.597238E+02
9.455142E-04 1.654818E+02  9.115935E-04 1.694707E+02  9.650090E-01 -7.635067E+01  1.150125E-02 2.097725E+01
1.217436E-03 1.665555E+02  6.780896E-04 1.595116E+02  1.149480E-02 2.095737E+01  9.686481E-01 -7.386275E+01
1.503000E+03  9.558635E-01 -1.265661E+02  4.585481E-03 -2.059405E+01  9.471200E-04 1.656882E+02  1.215327E-03 1.665462E+02
4.590133E-03 -2.037409E+01  9.605316E-01 -1.147430E+02  9.384155E-04 1.689550E+02  6.868932E-04 1.600645E+02
9.609825E-04 1.657451E+02  9.304973E-04 1.684673E+02  9.649262E-01 -7.636216E+01  1.158549E-02 2.124477E+01
1.221960E-03 1.664130E+02  6.912034E-04 1.605736E+02  1.159359E-02 2.126032E+01  9.686955E-01 -7.389288E+01
1.503500E+03  9.552746E-01 -1.266138E+02  4.579378E-03 -2.053122E+01  9.595350E-04 1.645655E+02  1.214223E-03 1.661848E+02
4.573315E-03 -2.041746E+01  9.606833E-01 -1.147682E+02  9.500103E-04 1.668755E+02  7.036054E-04 1.589039E+02
9.565161E-04 1.654017E+02  9.426262E-04 1.670297E+02  9.650956E-01 -7.637564E+01  1.157118E-02 2.137320E+01
1.216997E-03 1.664519E+02  7.063841E-04 1.599054E+02  1.156467E-02 2.135138E+01  9.686721E-01 -7.391980E+01
1.504000E+03  9.553460E-01 -1.266505E+02  4.553116E-03 -2.047608E+01  9.659257E-04 1.654187E+02  1.218024E-03 1.661521E+02
4.568199E-03 -2.035753E+01  9.605909E-01 -1.148083E+02  9.543179E-04 1.660245E+02  7.114169E-04 1.595339E+02
9.564912E-04 1.651078E+02  9.527300E-04 1.653091E+02  9.651951E-01 -7.640261E+01  1.157139E-02 2.193781E+01
1.222544E-03 1.669964E+02  7.111813E-04 1.596271E+02  1.156103E-02 2.194845E+01  9.687068E-01 -7.394430E+01
1.504500E+03  9.554174E-01 -1.266961E+02  4.562344E-03 -2.039129E+01  9.582553E-04 1.645917E+02  1.225506E-03 1.668115E+02
4.562125E-03 -2.038852E+01  9.604798E-01 -1.148424E+02  9.371091E-04 1.649116E+02  7.203343E-04 1.595918E+02
9.490512E-04 1.646939E+02  9.391555E-04 1.644768E+02  9.651440E-01 -7.643002E+01  1.163783E-02 2.219344E+01
1.219928E-03 1.670170E+02  7.249531E-04 1.598298E+02  1.162806E-02 2.222642E+01  9.687095E-01 -7.397573E+01
1.505000E+03  9.557458E-01 -1.267534E+02  4.534245E-03 -2.041559E+01  9.593513E-04 1.645632E+02  1.233826E-03 1.659471E+02
4.541003E-03 -2.047714E+01  9.605619E-01 -1.148752E+02  9.310297E-04 1.631262E+02  7.389548E-04 1.597649E+02
9.674773E-04 1.650571E+02  9.398938E-04 1.640307E+02  9.651323E-01 -7.644974E+01  1.169108E-02 2.230362E+01
1.228369E-03 1.665144E+02  7.435265E-04 1.585069E+02  1.169120E-02 2.236478E+01  9.687218E-01 -7.400583E+01
1.505500E+03  9.554976E-01 -1.268278E+02  4.532154E-03 -2.065263E+01  9.472231E-04 1.652003E+02  1.235344E-03 1.661922E+02
4.516338E-03 -2.051293E+01  9.607754E-01 -1.149134E+02  9.268176E-04 1.620880E+02  7.561305E-04 1.586864E+02
9.543563E-04 1.646834E+02  9.407167E-04 1.623872E+02  9.651851E-01 -7.647914E+01  1.174044E-02 2.237110E+01
1.234624E-03 1.664153E+02  7.562352E-04 1.584120E+02  1.173581E-02 2.238654E+01  9.686945E-01 -7.404184E+01
1.506000E+03  9.553405E-01 -1.268683E+02  4.515458E-03 -2.055130E+01  9.512849E-04 1.644698E+02  1.231330E-03 1.662992E+02
4.516465E-03 -2.076639E+01  9.606171E-01 -1.149446E+02  9.268585E-04 1.615019E+02  7.591276E-04 1.586288E+02
9.476163E-04 1.655188E+02  9.175123E-04 1.621082E+02  9.652121E-01 -7.650907E+01  1.174957E-02 2.256440E+01
1.234931E-03 1.660964E+02  7.643378E-04 1.579586E+02  1.174149E-02 2.257024E+01  9.687278E-01 -7.407522E+01
1.506500E+03  9.557186E-01 -1.269302E+02  4.485390E-03 -2.052253E+01  9.570892E-04 1.651616E+02  1.232040E-03 1.657721E+02
4.492399E-03 -2.058092E+01  9.607028E-01 -1.149689E+02  8.989617E-04 1.601182E+02  7.815298E-04 1.575868E+02
9.585833E-04 1.648510E+02  8.902026E-04 1.602565E+02  9.650596E-01 -7.652403E+01  1.186720E-02 2.290507E+01
1.233593E-03 1.657065E+02  7.745601E-04 1.573953E+02  1.187263E-02 2.291332E+01  9.685494E-01 -7.410185E+01
1.507000E+03  9.552498E-01 -1.270175E+02  4.475454E-03 -2.055182E+01  9.557665E-04 1.652125E+02  1.226830E-03 1.661355E+02
4.466932E-03 -2.045902E+01  9.607531E-01 -1.150066E+02  8.905837E-04 1.597234E+02  7.870032E-04 1.563091E+02
9.602251E-04 1.645891E+02  8.728243E-04 1.603154E+02  9.649607E-01 -7.652761E+01  1.201783E-02 2.254935E+01
1.225227E-03 1.661277E+02  7.850624E-04 1.561471E+02  1.202020E-02 2.246867E+01  9.684687E-01 -7.412532E+01
1.507500E+03  9.551296E-01 -1.270233E+02  4.458664E-03 -2.071857E+01  9.540113E-04 1.647328E+02  1.226128E-03 1.659977E+02
4.461215E-03 -2.047893E+01  9.604251E-01 -1.150409E+02  8.645732E-04 1.597582E+02  7.999793E-04 1.554478E+02
9.656753E-04 1.650376E+02  8.703731E-04 1.592426E+02  9.650998E-01 -7.654256E+01  1.205988E-02 2.223733E+01
1.221763E-03 1.663375E+02  7.874541E-04 1.554041E+02  1.205884E-02 2.216740E+01  9.683297E-01 -7.414899E+01
1.508000E+03  9.554656E-01 -1.270915E+02  4.465072E-03 -2.065012E+01  9.598188E-04 1.646532E+02  1.233352E-03 1.660012E+02
4.454735E-03 -2.062081E+01  9.604828E-01 -1.150647E+02  8.533439E-04 1.600132E+02  7.869331E-04 1.542724E+02
9.604513E-04 1.649217E+02  8.539408E-04 1.600047E+02  9.651037E-01 -7.656076E+01  1.213997E-02 2.167506E+01
1.233997E-03 1.661779E+02  7.880882E-04 1.542556E+02  1.214307E-02 2.167670E+01  9.681177E-01 -7.416897E+01
1.508500E+03  9.555724E-01 -1.271509E+02  4.431754E-03 -2.092045E+01  9.719494E-04 1.644849E+02  1.226042E-03 1.662633E+02
4.427131E-03 -2.075405E+01  9.603951E-01 -1.151038E+02  8.300358E-04 1.603685E+02  7.786388E-04 1.537442E+02
9.636193E-04 1.648297E+02  8.409652E-04 1.602298E+02  9.650478E-01 -7.657766E+01  1.216126E-02 2.101931E+01
1.227981E-03 1.660921E+02  7.739765E-04 1.531545E+02  1.216827E-02 2.101223E+01  9.679686E-01 -7.419472E+01
1.509000E+03  9.557433E-01 -1.272204E+02  4.389336E-03 -2.107307E+01  9.671113E-04 1.643046E+02  1.237952E-03 1.661313E+02
4.395340E-03 -2.083447E+01  9.602645E-01 -1.151173E+02  8.255509E-04 1.603140E+02  7.829739E-04 1.529232E+02
9.633810E-04 1.648133E+02  8.265248E-04 1.606269E+02  9.650275E-01 -7.660153E+01  1.216042E-02 2.054228E+01
1.234789E-03 1.661596E+02  7.815083E-04 1.533700E+02  1.217887E-02 2.053108E+01  9.681401E-01 -7.422462E+01
1.509500E+03  9.558690E-01 -1.272721E+02  4.371844E-03 -2.083859E+01  9.650627E-04 1.641987E+02  1.239073E-03 1.660852E+02
4.367138E-03 -2.080616E+01  9.601703E-01 -1.151473E+02  8.002434E-04 1.610661E+02  7.761992E-04 1.526388E+02
9.647971E-04 1.645924E+02  8.145566E-04 1.621324E+02  9.649904E-01 -7.662634E+01  1.218426E-02 1.972218E+01
1.243746E-03 1.662615E+02  7.857328E-04 1.530053E+02  1.217629E-02 1.968116E+01  9.680187E-01 -7.424787E+01
1.510000E+03  9.562685E-01 -1.273362E+02  4.352060E-03 -2.069003E+01  9.516457E-04 1.653214E+02  1.248906E-03 1.654465E+02
4.366045E-03 -2.074210E+01  9.602245E-01 -1.151771E+02  8.125355E-04 1.617623E+02  7.792547E-04 1.535408E+02
9.649858E-04 1.649972E+02  7.925230E-04 1.618906E+02  9.650337E-01 -7.664189E+01  1.206907E-02 1.889780E+01
1.237217E-03 1.656552E+02  7.828404E-04 1.524638E+02  1.208009E-02 1.892027E+01  9.681873E-01 -7.428429E+01
1.510500E+03  9.563830E-01 -1.274287E+02  4.349172E-03 -2.087481E+01  9.548118E-04 1.638954E+02  1.238935E-03 1.660108E+02
4.336459E-03 -2.078361E+01  9.603916E-01 -1.152013E+02  8.191000E-04 1.620270E+02  7.726563E-04 1.530100E+02
9.760717E-04 1.645732E+02  8.074683E-04 1.613651E+02  9.652114E-01 -7.666356E+01  1.196945E-02 1.867483E+01
1.233080E-03 1.655907E+02  7.750105E-04 1.534292E+02  1.197556E-02 1.862045E+01  9.679601E-01 -7.431461E+01
1.511000E+03  9.559884E-01 -1.275078E+02  4.321909E-03 -2.093418E+01  9.628053E-04 1.648249E+02  1.238646E-03 1.660254E+02
4.335551E-03 -2.100108E+01  9.604029E-01 -1.152264E+02  7.809912E-04 1.625958E+02  7.926262E-04 1.539311E+02
9.589202E-04 1.648444E+02  7.995475E-04 1.627605E+02  9.651834E-01 -7.669471E+01  1.186724E-02 1.819994E+01
1.232052E-03 1.658672E+02  7.857618E-04 1.531623E+02  1.186534E-02 1.819992E+01  9.679037E-01 -7.432747E+01
1.511500E+03  9.558699E-01 -1.275532E+02  4.284682E-03 -2.102407E+01  9.583844E-04 1.650492E+02  1.232522E-03 1.661593E+02
4.295388E-03 -2.103088E+01  9.606270E-01 -1.152720E+02  7.785483E-04 1.630722E+02  8.084166E-04 1.540937E+02
9.602788E-04 1.645285E+02  7.826330E-04 1.634957E+02  9.651171E-01 -7.671548E+01  1.178661E-02 1.803765E+01
1.240164E-03 1.659865E+02  8.031719E-04 1.543647E+02  1.179926E-02 1.800176E+01  9.679973E-01 -7.436511E+01
1.512000E+03  9.561957E-01 -1.276316E+02  4.269422E-03 -2.081767E+01  9.630746E-04 1.645127E+02  1.251200E-03 1.658492E+02
4.272579E-03 -2.074370E+01  9.603807E-01 -1.153011E+02  7.757568E-04 1.632516E+02  8.154469E-04 1.535975E+02
9.657139E-04 1.644376E+02  7.697146E-04 1.630900E+02  9.653441E-01 -7.673239E+01  1.171677E-02 1.790402E+01
1.252272E-03 1.657296E+02  8.247632E-04 1.538802E+02  1.171989E-02 1.785154E+01  9.677878E-01 -7.440019E+01
1.512500E+03  9.557779E-01 -1.277112E+02  4.249582E-03 -2.077783E+01  9.855772E-04 1.644769E+02  1.259401E-03 1.657648E+02
4.239581E-03 -2.054981E+01  9.604374E-01 -1.153284E+02  7.667942E-04 1.649966E+02  8.319266E-04 1.524509E+02
9.698450E-04 1.644637E+02  7.548912E-04 1.651571E+02  9.653904E-01 -7.676029E+01  1.168454E-02 1.762083E+01
1.257703E-03 1.658917E+02  8.286104E-04 1.536606E+02  1.167503E-02 1.760451E+01  9.676671E-01 -7.443313E+01
1.513000E+03  9.554972E-01 -1.277512E+02  4.229399E-03 -2.067263E+01  9.707270E-04 1.647316E+02  1.247541E-03 1.653166E+02
4.220199E-03 -2.064139E+01  9.604872E-01 -1.153573E+02  7.729393E-04 1.663840E+02  8.622227E-04 1.519424E+02
9.666186E-04 1.641225E+02  7.576945E-04 1.652524E+02  9.656053E-01 -7.678565E+01  1.162851E-02 1.745215E+01
1.257271E-03 1.652564E+02  8.508236E-04 1.511831E+02  1.164465E-02 1.735426E+01  9.673027E-01 -7.446463E+01
1.513500E+03  9.556985E-01 -1.278212E+02  4.204917E-03 -2.042442E+01  9.604966E-04 1.644804E+02  1.243902E-03 1.654005E+02
4.199535E-03 -2.037783E+01  9.604815E-01 -1.153985E+02  7.653852E-04 1.665980E+02  8.593815E-04 1.505458E+02
9.696177E-04 1.649495E+02  7.525998E-04 1.668794E+02  9.656906E-01 -7.681673E+01  1.161827E-02 1.696037E+01
1.251604E-03 1.653355E+02  8.697473E-04 1.510696E+02  1.162907E-02 1.700088E+01  9.668581E-01 -7.448738E+01
1.514000E+03  9.554354E-01 -1.278873E+02  4.190055E-03 -2.039475E+01  9.544176E-04 1.638953E+02  1.246568E-03 1.657669E+02
4.190450E-03 -2.044406E+01  9.602941E-01 -1.154159E+02  7.574421E-04 1.676625E+02  8.893724E-04 1.501194E+02
9.659237E-04 1.641533E+02  7.604645E-04 1.686922E+02  9.656874E-01 -7.684736E+01  1.163456E-02 1.631144E+01
1.237071E-03 1.650222E+02  8.881719E-04 1.493695E+02  1.164094E-02 1.624919E+01  9.665965E-01 -7.451607E+01
1.514500E+03  9.552531E-01 -1.279544E+02  4.170335E-03 -2.055757E+01  9.753329E-04 1.647986E+02  1.249876E-03 1.656160E+02
4.169969E-03 -2.058739E+01  9.604177E-01 -1.154468E+02  7.546457E-04 1.706848E+02  9.168473E-04 1.465863E+02
9.597001E-04 1.641769E+02  7.556556E-04 1.707770E+02  9.654826E-01 -7.687433E+01  1.150744E-02 1.488425E+01
1.253918E-03 1.650084E+02  9.097099E-04 1.465241E+02  1.150857E-02 1.487569E+01  9.660777E-01 -7.453937E+01
1.515000E+03  9.548871E-01 -1.280023E+02  4.148172E-03 -2.040161E+01  9.632071E-04 1.641175E+02  1.252945E-03 1.659152E+02
4.166312E-03 -2.046251E+01  9.604084E-01 -1.154832E+02  7.753336E-04 1.720662E+02  8.903203E-04 1.445228E+02
9.720765E-04 1.648740E+02  7.772582E-04 1.716665E+02  9.655547E-01 -7.689506E+01  1.124205E-02 1.433622E+01
1.264543E-03 1.662045E+02  9.100772E-04 1.441626E+02  1.124665E-02 1.431003E+01  9.656858E-01 -7.454486E+01
1.515500E+03  9.550330E-01 -1.280591E+02  4.130486E-03 -2.046141E+01  9.821294E-04 1.650601E+02  1.261317E-03 1.655010E+02
4.140100E-03 -2.026328E+01  9.602903E-01 -1.155069E+02  7.859174E-04 1.727716E+02  8.971420E-04 1.431701E+02
9.852626E-04 1.641316E+02  7.870809E-04 1.714342E+02  9.655036E-01 -7.691825E+01  1.110764E-02 1.412200E+01
1.265908E-03 1.651767E+02  8.933609E-04 1.431995E+02  1.110342E-02 1.418161E+01  9.653035E-01 -7.455988E+01
1.516000E+03  9.548093E-01 -1.281295E+02  4.115425E-03 -2.036357E+01  9.842336E-04 1.642246E+02  1.255677E-03 1.655977E+02
4.122030E-03 -2.041508E+01  9.603392E-01 -1.155314E+02  7.783658E-04 1.740661E+02  8.951559E-04 1.402166E+02
9.736323E-04 1.641814E+02  7.854468E-04 1.737568E+02  9.653711E-01 -7.694788E+01  1.094096E-02 1.336773E+01
1.255737E-03 1.654633E+02  9.050600E-04 1.394700E+02  1.094847E-02 1.336085E+01  9.650127E-01 -7.455368E+01
1.516500E+03  9.544644E-01 -1.281814E+02  4.103704E-03 -2.029243E+01  9.764187E-04 1.642108E+02  1.262083E-03 1.653428E+02
4.098691E-03 -2.044509E+01  9.605276E-01 -1.155646E+02  8.316226E-04 1.749302E+02  8.724444E-04 1.385068E+02
9.738909E-04 1.634209E+02  8.246529E-04 1.747504E+02  9.653503E-01 -7.696663E+01  1.064573E-02 1.277850E+01
1.263759E-03 1.658784E+02  8.782744E-04 1.382746E+02  1.063920E-02 1.279474E+01  9.650584E-01 -7.456760E+01
1.517000E+03  9.544807E-01 -1.282334E+02  4.088691E-03 -2.019749E+01  9.774923E-04 1.645090E+02  1.265914E-03 1.648192E+02
4.084438E-03 -2.020164E+01  9.604120E-01 -1.156054E+02  8.339620E-04 1.740055E+02  8.706032E-04 1.363116E+02
9.675265E-04 1.636270E+02  8.520113E-04 1.750816E+02  9.654585E-01 -7.698724E+01  1.040099E-02 1.301531E+01
1.259694E-03 1.650416E+02  8.637121E-04 1.362987E+02  1.040741E-02 1.305417E+01  9.649174E-01 -7.458437E+01
1.517500E+03  9.542185E-01 -1.282871E+02  4.081863E-03 -2.016215E+01  9.778316E-04 1.637350E+02  1.250110E-03 1.651210E+02
4.078407E-03 -2.014409E+01  9.603724E-01 -1.156352E+02  8.633826E-04 1.740567E+02  8.272023E-04 1.323994E+02
9.835789E-04 1.640785E+02  8.714466E-04 1.749406E+02  9.656169E-01 -7.700946E+01  1.012862E-02 1.288523E+01
1.262782E-03 1.652593E+02  8.268953E-04 1.326684E+02  1.012971E-02 1.284929E+01  9.648953E-01 -7.457726E+01
1.518000E+03  9.542435E-01 -1.283287E+02  4.074695E-03 -2.036565E+01  9.747156E-04 1.638217E+02  1.267263E-03 1.652655E+02
4.074496E-03 -2.004945E+01  9.604371E-01 -1.156694E+02  8.699094E-04 1.735960E+02  7.921024E-04 1.323496E+02
9.691510E-04 1.638133E+02  8.907765E-04 1.737080E+02  9.655891E-01 -7.702893E+01  9.870348E-03 1.372370E+01
1.253622E-03 1.651832E+02  7.869174E-04 1.316342E+02  9.863921E-03 1.377730E+01  9.650918E-01 -7.459617E+01
1.518500E+03  9.541539E-01 -1.283789E+02  4.066162E-03 -2.027455E+01  9.767412E-04 1.640316E+02  1.267465E-03 1.650307E+02
4.052225E-03 -2.027167E+01  9.604426E-01 -1.157083E+02  8.746694E-04 1.728126E+02  7.711827E-04 1.322226E+02
9.746295E-04 1.638942E+02  8.756802E-04 1.729364E+02  9.657166E-01 -7.705844E+01  9.745764E-03 1.459748E+01
1.262086E-03 1.653765E+02  7.725056E-04 1.317729E+02  9.736922E-03 1.458781E+01  9.650418E-01 -7.460762E+01
1.519000E+03  9.544410E-01 -1.284150E+02  4.034416E-03 -2.044533E+01  9.692462E-04 1.639075E+02  1.259066E-03 1.649577E+02
4.036211E-03 -2.039394E+01  9.603378E-01 -1.157449E+02  8.815629E-04 1.740460E+02  7.496028E-04 1.310942E+02
9.764898E-04 1.634727E+02  8.819728E-04 1.739595E+02  9.655520E-01 -7.708509E+01  9.630097E-03 1.493761E+01
1.268570E-03 1.652952E+02  7.512694E-04 1.314308E+02  9.618535E-03 1.494228E+01  9.650640E-01 -7.462572E+01
1.519500E+03  9.549342E-01 -1.284836E+02  3.997972E-03 -2.056597E+01  9.773021E-04 1.639658E+02  1.259129E-03 1.649585E+02
4.011574E-03 -2.069060E+01  9.604879E-01 -1.157654E+02  8.970362E-04 1.742344E+02  7.171898E-04 1.314234E+02
9.773148E-04 1.643905E+02  9.102647E-04 1.731880E+02  9.654734E-01 -7.710557E+01  9.471591E-03 1.534815E+01
1.256235E-03 1.653959E+02  7.098291E-04 1.319564E+02  9.473330E-03 1.538885E+01  9.651601E-01 -7.465115E+01
1.520000E+03  9.552476E-01 -1.285575E+02  3.983653E-03 -2.051286E+01  9.808618E-04 1.640970E+02  1.269040E-03 1.651321E+02
3.985467E-03 -2.062868E+01  9.604634E-01 -1.158024E+02  9.120212E-04 1.737980E+02  7.080356E-04 1.330546E+02
9.869691E-04 1.640290E+02  9.021766E-04 1.738618E+02  9.654517E-01 -7.713099E+01  9.411410E-03 1.594237E+01
1.270297E-03 1.656660E+02  7.131660E-04 1.322341E+02  9.408206E-03 1.599119E+01  9.652079E-01 -7.466990E+01
1.520500E+03  9.552860E-01 -1.286425E+02  3.945786E-03 -2.081730E+01  9.744683E-04 1.640114E+02  1.266492E-03 1.651297E+02
3.953629E-03 -2.065469E+01  9.602649E-01 -1.158363E+02  9.066662E-04 1.752024E+02  7.147202E-04 1.303278E+02
9.854125E-04 1.634941E+02  9.174487E-04 1.752356E+02  9.653779E-01 -7.714887E+01  9.279316E-03 1.599520E+01
1.272035E-03 1.653079E+02  7.103647E-04 1.309294E+02  9.309578E-03 1.590651E+01  9.652823E-01 -7.470378E+01
1.521000E+03  9.550652E-01 -1.287160E+02  3.943494E-03 -2.054982E+01  9.780121E-04 1.639168E+02  1.270390E-03 1.645515E+02
3.945973E-03 -2.058731E+01  9.603016E-01 -1.158617E+02  9.281045E-04 1.764593E+02  7.134823E-04 1.286720E+02
9.843854E-04 1.639555E+02  9.354546E-04 1.764050E+02  9.650237E-01 -7.717027E+01  9.064101E-03 1.565911E+01
1.267591E-03 1.649442E+02  7.091766E-04 1.285553E+02  9.053978E-03 1.565231E+01  9.649061E-01 -7.472614E+01
1.521500E+03  9.553045E-01 -1.287851E+02  3.908109E-03 -2.068643E+01  9.765272E-04 1.639271E+02  1.270644E-03 1.648436E+02
3.915653E-03 -2.041339E+01  9.603967E-01 -1.158984E+02  9.722054E-04 1.751923E+02  6.736158E-04 1.268049E+02
