! Matrix data file written by TouchstoneData, EPCOS AG
! FILENAME: "ansys_B4404_02_WB_DOWN25.s4p"
! COMMENT: "(B4404_02_WB_DOWN25.s4p) EPCOS AG 4/20/2013"
! INFO: nport=4, nfreq=1601
! DATE: "Fri Jun 21 16:19:05 2013"
! USER: "Sergey Rostovtsev"
!
! port | pin | signal
! -----|-----|--------
!   1  |  3  |  TX in
!   2  |  6  |  Ant in/out
!   3  |  8  |  RX out1
!   4  |  1  |  RX out2
! --------------------
! 
# MHZ S MA R 50
! freq  magS11 angS11  magS12 angS12  magS13 angS13  magS14 angS14  ...
9.834375000E+01  1.000922E+00 -1.528955E+01  2.146791E-03 7.563430E+01  6.050725E-06 8.622755E+01  2.072893E-05 -1.324005E+02 
 2.141141E-03 7.628087E+01  9.994814E-01 -1.466749E+01  8.994421E-05 7.057507E+01  1.564605E-04 7.595412E+01 
 1.777517E-05 -1.501834E+02  7.308884E-05 9.041010E+01  9.995398E-01 -7.862800E+00  7.694733E-03 8.221542E+01 
 7.097247E-05 -1.126164E+02  1.558555E-04 7.866790E+01  7.692662E-03 8.168667E+01  1.001783E+00 -7.399272E+00 
1.020625000E+02  1.000266E+00 -1.583887E+01  2.227277E-03 7.465016E+01  1.945367E-05 8.832447E+01  2.381431E-06 2.571483E+01 
 2.214376E-03 7.502257E+01  1.000216E+00 -1.520788E+01  7.658071E-05 7.273527E+01  1.406806E-04 8.898725E+01 
 2.597200E-05 2.723645E+01  1.344180E-04 7.580458E+01  9.996921E-01 -8.039052E+00  8.112939E-03 8.152055E+01 
 2.224394E-05 -3.496459E+01  1.215793E-04 8.129458E+01  8.129325E-03 8.098295E+01  1.000433E+00 -7.635396E+00 
1.057812500E+02  9.990512E-01 -1.645989E+01  2.228158E-03 7.362123E+01  1.498083E-05 -1.013984E+02  1.942025E-05 1.465661E+02 
 2.227886E-03 7.398085E+01  9.985282E-01 -1.574491E+01  1.324130E-04 1.028134E+02  1.791239E-04 8.293398E+01 
 3.712976E-05 -1.713785E+02  9.812817E-05 1.041368E+02  9.996017E-01 -8.350919E+00  8.378760E-03 8.062162E+01 
 1.114257E-05 1.159534E+02  1.831082E-04 7.129435E+01  8.349842E-03 8.030300E+01  1.001646E+00 -7.895935E+00 
1.095000000E+02  9.993302E-01 -1.699610E+01  2.367408E-03 7.354286E+01  2.065249E-05 -1.352787E+01  2.546168E-05 1.066818E+02 
 2.319103E-03 7.397181E+01  9.984612E-01 -1.626721E+01  1.559775E-04 8.441682E+01  1.881296E-04 7.722284E+01 
 2.099414E-05 1.159790E+02  1.878212E-04 9.600036E+01  9.989993E-01 -8.705235E+00  8.580015E-03 8.110255E+01 
 4.608446E-06 -9.624103E+01  2.097741E-04 8.357114E+01  8.547239E-03 8.089124E+01  1.001354E+00 -8.183230E+00 
1.132187500E+02  9.987392E-01 -1.761595E+01  2.508392E-03 7.315048E+01  2.758840E-05 -5.088944E+01  1.353323E-05 1.325490E+02 
 2.517716E-03 7.345422E+01  9.976773E-01 -1.689677E+01  1.393513E-04 7.418973E+01  1.671451E-04 8.632930E+01 
 3.279061E-05 5.161940E+01  1.722654E-04 6.407901E+01  9.998050E-01 -8.927560E+00  9.015582E-03 8.106873E+01 
 5.091083E-06 -9.901916E+01  1.733172E-04 7.855204E+01  8.988531E-03 8.082514E+01  1.001964E+00 -8.493195E+00 
1.169375000E+02  9.997685E-01 -1.814377E+01  2.511002E-03 7.183791E+01  4.516144E-07 -9.387941E+01  2.272245E-05 -1.303895E+02 
 2.516323E-03 7.207241E+01  9.952442E-01 -1.744685E+01  1.295799E-04 7.893624E+01  1.998851E-04 8.190455E+01 
 2.596834E-05 1.418191E+02  1.338749E-04 8.563152E+01  9.988486E-01 -9.268749E+00  9.348521E-03 7.990821E+01 
 1.760821E-05 1.603379E+02  1.910162E-04 7.475960E+01  9.331591E-03 7.980335E+01  1.000860E+00 -8.821849E+00 
1.206562500E+02  9.987763E-01 -1.868840E+01  2.672869E-03 7.179568E+01  2.736246E-05 -1.699129E+01  3.047498E-05 -6.624060E+01 
 2.648874E-03 7.169850E+01  9.971584E-01 -1.805213E+01  8.468497E-05 7.298117E+01  1.595227E-04 8.329121E+01 
 4.403233E-05 -3.032672E+00  8.318186E-05 7.220929E+01  9.984437E-01 -9.575073E+00  9.447508E-03 7.944954E+01 
 4.072575E-05 -2.967955E+01  1.494646E-04 8.628099E+01  9.464857E-03 7.944473E+01  9.999709E-01 -9.046952E+00 
1.243750000E+02  9.986356E-01 -1.920825E+01  2.695506E-03 7.194952E+01  1.876437E-05 -2.285647E+01  2.698675E-05 3.111523E+01 
 2.652531E-03 7.128175E+01  9.948221E-01 -1.854205E+01  1.527056E-04 1.047557E+02  2.149466E-04 7.905346E+01 
 3.709201E-05 5.699445E+01  1.589770E-04 9.368473E+01  9.998108E-01 -9.870350E+00  9.580214E-03 7.976923E+01 
 2.350442E-05 9.598367E+01  1.837033E-04 7.901802E+01  9.577306E-03 7.965663E+01  9.997388E-01 -9.381726E+00 
1.280937500E+02  9.985627E-01 -1.984777E+01  2.720723E-03 6.944225E+01  3.714816E-05 -1.259365E+02  1.407151E-05 9.414363E+01 
 2.692412E-03 6.940225E+01  9.950364E-01 -1.907648E+01  1.494382E-04 8.093208E+01  2.215748E-04 7.400446E+01 
 1.590119E-05 -1.226837E+02  1.716512E-04 8.701283E+01  9.996245E-01 -1.014086E+01  1.010085E-02 8.017607E+01 
 1.360681E-05 -7.036126E+01  2.261721E-04 6.596369E+01  1.004713E-02 8.003162E+01  9.995505E-01 -9.557402E+00 
1.318125000E+02  9.983603E-01 -2.046952E+01  2.830625E-03 7.073919E+01  6.353614E-06 -8.746277E+01  2.820228E-05 1.157443E+02 
 2.824307E-03 7.089611E+01  9.950482E-01 -1.963884E+01  1.381721E-04 7.816702E+01  1.932267E-04 7.369483E+01 
 4.610747E-05 1.448953E+02  1.460519E-04 7.711480E+01  9.987286E-01 -1.054894E+01  1.043328E-02 7.885460E+01 
 6.585345E-06 -1.358659E+02  2.277282E-04 7.969140E+01  1.040246E-02 7.873665E+01  9.984657E-01 -9.937644E+00 
1.355312500E+02  9.978989E-01 -2.090595E+01  2.956804E-03 6.873986E+01  1.481323E-05 -3.762939E+01  3.920300E-05 3.219542E+01 
 2.971798E-03 6.896057E+01  9.943090E-01 -2.009637E+01  2.007621E-04 6.247245E+01  2.270865E-04 7.050283E+01 
 3.724036E-05 -1.302878E+01  2.070250E-04 5.277064E+01  9.983153E-01 -1.077650E+01  1.063305E-02 7.817164E+01 
 4.971095E-05 -3.191538E+01  2.513932E-04 7.814479E+01  1.066465E-02 7.783271E+01  9.978192E-01 -1.009764E+01 
1.392500000E+02  9.971078E-01 -2.144232E+01  3.055821E-03 7.034371E+01  4.772594E-05 -1.225942E+02  3.218560E-05 -7.448598E+01 
 3.036313E-03 7.063240E+01  9.924296E-01 -2.064894E+01  1.621053E-04 9.179026E+01  2.380929E-04 7.658759E+01 
 3.755260E-05 -1.758670E+02  1.758408E-04 7.985933E+01  9.981319E-01 -1.103103E+01  1.081470E-02 7.820146E+01 
 3.369917E-05 -1.431942E+02  2.247566E-04 8.140023E+01  1.080071E-02 7.802975E+01  9.968929E-01 -1.039813E+01 
1.429687500E+02  9.971179E-01 -2.200717E+01  3.095664E-03 6.858410E+01  2.716187E-05 9.180736E+01  5.770450E-06 1.767290E+01 
 3.094426E-03 6.868275E+01  9.935503E-01 -2.115688E+01  1.883457E-04 5.488557E+01  2.494139E-04 6.499956E+01 
 2.498203E-05 1.447754E+02  1.524618E-04 4.806437E+01  9.977690E-01 -1.133630E+01  1.089874E-02 7.797865E+01 
 3.799187E-05 -8.178582E+01  2.653044E-04 6.257339E+01  1.090958E-02 7.781666E+01  9.966596E-01 -1.070987E+01 
1.466875000E+02  9.971266E-01 -2.261120E+01  3.170283E-03 6.958980E+01  2.330385E-05 -4.421133E+01  3.601023E-05 -1.711279E+02 
 3.125078E-03 6.919150E+01  9.927797E-01 -2.171201E+01  2.026015E-04 6.647091E+01  2.514999E-04 7.935593E+01 
 1.220526E-05 6.040412E+01  1.767258E-04 7.598698E+01  9.980973E-01 -1.159716E+01  1.139214E-02 7.806400E+01 
 3.770916E-05 1.329636E+02  2.284793E-04 7.943572E+01  1.137319E-02 7.799779E+01  9.969551E-01 -1.095040E+01 
1.504062500E+02  9.967453E-01 -2.315822E+01  3.128874E-03 6.678877E+01  5.908172E-05 -7.252101E+01  5.541491E-05 -9.730351E+01 
 3.154434E-03 6.592004E+01  9.931909E-01 -2.225470E+01  1.191656E-04 9.887499E+01  2.015833E-04 6.900298E+01 
 2.073867E-05 5.813179E+01  1.202696E-04 1.033825E+02  9.971611E-01 -1.189769E+01  1.177330E-02 7.790603E+01 
 4.594162E-05 -4.412623E+01  2.017242E-04 7.033003E+01  1.174877E-02 7.761075E+01  9.956307E-01 -1.122247E+01 
1.541250000E+02  9.957443E-01 -2.369243E+01  3.264164E-03 6.862656E+01  3.091004E-05 -1.220581E+02  1.996520E-05 -1.678340E+02 
 3.225252E-03 6.831951E+01  9.932191E-01 -2.270856E+01  1.218772E-04 8.774127E+01  2.498803E-04 8.090018E+01 
 2.857303E-05 1.208658E+02  1.474547E-04 9.358071E+01  9.986861E-01 -1.221228E+01  1.202025E-02 7.694493E+01 
 3.490633E-05 -1.482356E+02  2.328260E-04 7.568109E+01  1.203482E-02 7.694223E+01  9.948208E-01 -1.155305E+01 
1.578437500E+02  9.956209E-01 -2.426106E+01  3.322524E-03 6.518549E+01  2.512112E-05 9.846980E+01  3.713546E-05 3.907729E+01 
 3.308457E-03 6.510918E+01  9.915730E-01 -2.325194E+01  2.064528E-04 7.714576E+01  2.064285E-04 6.376102E+01 
 1.434404E-05 1.001539E+02  1.794997E-04 9.109002E+01  9.971965E-01 -1.248416E+01  1.213926E-02 7.657915E+01 
 2.792043E-05 8.359308E+01  2.371324E-04 6.788846E+01  1.210256E-02 7.643976E+01  9.944512E-01 -1.178997E+01 
1.615625000E+02  9.948594E-01 -2.466793E+01  3.347336E-03 6.573191E+01  2.940242E-05 1.300128E+02  3.398519E-06 -1.426627E+02 
 3.364761E-03 6.610786E+01  9.907373E-01 -2.376047E+01  1.598990E-04 6.819653E+01  2.375545E-04 6.687567E+01 
 4.097156E-05 1.162450E+02  1.449890E-04 6.922832E+01  9.970327E-01 -1.275656E+01  1.235095E-02 7.708019E+01 
 1.731954E-05 -2.639485E+01  2.632285E-04 6.529061E+01  1.235563E-02 7.668370E+01  9.934308E-01 -1.207884E+01 
1.652812500E+02  9.967747E-01 -2.523794E+01  3.506260E-03 6.529761E+01  4.469594E-05 -1.153927E+02  3.991414E-05 -1.208538E+02 
 3.455628E-03 6.538210E+01  9.913719E-01 -2.426853E+01  1.928188E-04 7.419830E+01  1.922666E-04 6.579686E+01 
 3.120168E-05 7.809767E+01  1.547161E-04 8.142602E+01  9.962400E-01 -1.294014E+01  1.276344E-02 7.657182E+01 
 3.860613E-05 -1.437352E+02  2.021527E-04 7.126172E+01  1.277964E-02 7.639338E+01  9.935533E-01 -1.230296E+01 
1.690000000E+02  9.967948E-01 -2.571278E+01  3.606061E-03 6.495283E+01  2.344637E-05 -1.506183E+02  3.908477E-05 1.769013E+02 
 3.563469E-03 6.512733E+01  9.917940E-01 -2.486812E+01  1.854244E-04 6.556715E+01  2.431455E-04 8.319686E+01 
 3.139655E-05 -5.884304E+01  2.306516E-04 6.984375E+01  9.968930E-01 -1.320083E+01  1.286143E-02 7.594009E+01 
 8.219252E-06 1.511585E+02  2.561565E-04 7.716874E+01  1.286506E-02 7.559069E+01  9.932876E-01 -1.256219E+01 
1.727187500E+02  9.971483E-01 -2.630241E+01  3.676033E-03 6.494635E+01  2.874039E-05 1.667587E+02  2.605553E-05 -8.859983E+01 
 3.631519E-03 6.497538E+01  9.923567E-01 -2.529283E+01  1.493194E-04 6.977676E+01  2.435364E-04 6.914413E+01 
 1.928798E-05 4.731212E+01  1.727988E-04 7.627972E+01  9.975497E-01 -1.343527E+01  1.308266E-02 7.646225E+01 
 3.146010E-05 -4.231305E+01  2.328777E-04 6.928901E+01  1.306584E-02 7.643830E+01  9.925787E-01 -1.282706E+01 
1.764375000E+02  9.966638E-01 -2.677994E+01  3.676973E-03 6.439851E+01  1.937830E-05 -4.807608E+01  1.753587E-05 1.370300E+02 
 3.705131E-03 6.403691E+01  9.924771E-01 -2.580275E+01  1.725776E-04 7.542599E+01  2.193236E-04 7.333412E+01 
 1.643362E-05 9.272995E+01  1.779461E-04 6.898411E+01  9.979975E-01 -1.373271E+01  1.359891E-02 7.653275E+01 
 2.121692E-05 1.758500E+02  2.617741E-04 7.695175E+01  1.359256E-02 7.650006E+01  9.925674E-01 -1.302909E+01 
1.801562500E+02  9.972931E-01 -2.737663E+01  3.758693E-03 6.509123E+01  2.652786E-05 -3.113905E+00  2.030756E-05 6.721987E+01 
 3.733571E-03 6.479325E+01  9.926618E-01 -2.630320E+01  1.417391E-04 7.253127E+01  2.338658E-04 6.217768E+01 
 2.603093E-05 2.260241E+01  1.556970E-04 8.213060E+01  9.978350E-01 -1.399846E+01  1.392955E-02 7.551252E+01 
 8.223042E-06 3.841382E+01  2.248307E-04 7.247394E+01  1.387579E-02 7.550755E+01  9.924745E-01 -1.328443E+01 
1.838750000E+02  9.951026E-01 -2.790707E+01  3.803445E-03 6.356781E+01  1.317641E-05 3.780991E+01  1.065502E-05 -8.144209E+01 
 3.774146E-03 6.349903E+01  9.924352E-01 -2.688554E+01  1.872562E-04 8.328064E+01  2.722484E-04 6.311687E+01 
 3.452285E-05 9.072001E+01  1.731139E-04 7.412185E+01  9.992455E-01 -1.425679E+01  1.401078E-02 7.499961E+01 
 2.170954E-05 -1.179400E+01  2.676123E-04 5.993145E+01  1.400655E-02 7.497840E+01  9.941347E-01 -1.363419E+01 
1.875937500E+02  9.980771E-01 -2.834729E+01  3.892713E-03 6.278794E+01  4.099760E-05 -9.804514E+01  1.596870E-05 -2.650664E+01 
 3.823960E-03 6.317000E+01  9.929479E-01 -2.732975E+01  9.537585E-05 7.538517E+01  2.941115E-04 7.754626E+01 
 3.155464E-05 6.209203E+01  1.234278E-04 7.466057E+01  9.973067E-01 -1.448253E+01  1.451112E-02 7.489414E+01 
 1.150523E-05 -1.181811E+02  2.877485E-04 6.825348E+01  1.457133E-02 7.475669E+01  9.916737E-01 -1.383136E+01 
1.913125000E+02  9.972271E-01 -2.890591E+01  3.965177E-03 6.177991E+01  1.382701E-05 1.740350E+02  2.288557E-05 1.770320E+02 
 3.912906E-03 6.193195E+01  9.931492E-01 -2.787927E+01  1.561712E-04 6.918787E+01  2.863707E-04 7.504708E+01 
 1.066698E-05 1.236431E+02  1.847466E-04 7.443297E+01  9.990552E-01 -1.470798E+01  1.460123E-02 7.450569E+01 
 3.756342E-05 -1.372463E+02  2.919794E-04 8.020733E+01  1.461462E-02 7.484633E+01  9.928787E-01 -1.406543E+01 
1.950312500E+02  9.977118E-01 -2.946307E+01  4.099722E-03 6.137805E+01  4.367114E-05 -1.731008E+02  3.158407E-05 1.322785E+02 
 4.097716E-03 6.195744E+01  9.934340E-01 -2.841721E+01  2.189589E-04 9.112555E+01  2.506851E-04 7.348327E+01 
 3.143173E-05 1.518534E+02  2.122915E-04 9.232959E+01  9.977503E-01 -1.501992E+01  1.480170E-02 7.494769E+01 
 5.489564E-06 1.067694E+02  3.205071E-04 7.906734E+01  1.481309E-02 7.477537E+01  9.944400E-01 -1.444372E+01 
1.987500000E+02  9.983237E-01 -2.996217E+01  4.103482E-03 5.955396E+01  4.580735E-05 -1.684051E+02  2.672199E-05 1.261000E+02 
 4.091897E-03 5.991218E+01  9.941996E-01 -2.897927E+01  1.625091E-04 7.954307E+01  2.784865E-04 7.226304E+01 
 3.839226E-05 -1.525523E+02  1.918422E-04 6.142701E+01  9.981378E-01 -1.531381E+01  1.517704E-02 7.466487E+01 
 2.600052E-05 -4.061760E+01  2.551115E-04 7.406261E+01  1.517979E-02 7.461942E+01  9.925986E-01 -1.472877E+01 
2.024687500E+02  9.976133E-01 -3.050289E+01  4.221918E-03 6.133957E+01  2.907238E-05 -1.552752E+01  1.761869E-05 1.349476E+02 
 4.197316E-03 6.120375E+01  9.936724E-01 -2.946570E+01  1.829221E-04 8.140991E+01  3.014814E-04 6.868223E+01 
 7.548891E-06 -3.257758E+01  2.022590E-04 8.468089E+01  9.979569E-01 -1.557652E+01  1.551116E-02 7.312266E+01 
 2.903292E-05 -1.725677E+02  3.094610E-04 6.765254E+01  1.553564E-02 7.292168E+01  9.934348E-01 -1.500900E+01 
2.061875000E+02  9.962012E-01 -3.101191E+01  4.285309E-03 5.995792E+01  1.647124E-05 -4.979890E+01  2.833604E-05 -1.048488E+02 
 4.253125E-03 5.980877E+01  9.952368E-01 -3.000165E+01  1.872037E-04 6.068471E+01  2.890141E-04 7.146351E+01 
 1.710132E-05 -1.603770E+02  2.265348E-04 7.370306E+01  9.989913E-01 -1.591672E+01  1.540252E-02 7.296959E+01 
 3.435640E-05 1.766584E+02  2.644279E-04 7.695022E+01  1.538028E-02 7.293775E+01  9.944057E-01 -1.521506E+01 
2.099062500E+02  9.988139E-01 -3.148094E+01  4.359162E-03 6.031754E+01  2.441735E-05 3.805101E+01  1.856805E-05 -2.284954E+01 
 4.315081E-03 6.065896E+01  9.954559E-01 -3.043546E+01  2.253857E-04 5.408071E+01  3.041539E-04 6.908178E+01 
 1.707254E-05 -5.331008E+01  2.097396E-04 6.004723E+01  9.984945E-01 -1.604550E+01  1.560950E-02 7.417132E+01 
 2.471367E-05 -1.777612E+02  2.907957E-04 6.782677E+01  1.565824E-02 7.400320E+01  9.941580E-01 -1.536937E+01 
2.136250000E+02  9.984457E-01 -3.201222E+01  4.361531E-03 5.888027E+01  4.144571E-05 -1.179191E+02  5.148748E-05 -1.414569E+02 
 4.340035E-03 5.902230E+01  9.954989E-01 -3.104254E+01  1.756319E-04 6.567393E+01  3.104732E-04 6.760216E+01 
 6.854367E-05 -1.691873E+02  1.799845E-04 7.940374E+01  9.992989E-01 -1.635759E+01  1.638854E-02 7.409530E+01 
 4.672916E-05 -1.737851E+02  2.963324E-04 6.753535E+01  1.634085E-02 7.401582E+01  9.953476E-01 -1.568692E+01 
2.173437500E+02  9.990679E-01 -3.258565E+01  4.361105E-03 5.896140E+01  5.077228E-05 1.086658E+02  4.556049E-05 8.132882E+01 
 4.357118E-03 5.890866E+01  9.948920E-01 -3.158166E+01  2.166558E-04 5.186850E+01  3.274355E-04 6.940826E+01 
 2.695517E-05 1.251861E+02  2.449648E-04 4.775804E+01  9.979870E-01 -1.665861E+01  1.656531E-02 7.218356E+01 
 3.806153E-05 1.030323E+02  3.222002E-04 6.642284E+01  1.656659E-02 7.193335E+01  9.964425E-01 -1.608334E+01 
2.210625000E+02  9.975458E-01 -3.313634E+01  4.508271E-03 5.876741E+01  4.833904E-05 -1.567459E+02  3.945920E-05 -1.699033E+02 
 4.469695E-03 5.837573E+01  9.953994E-01 -3.208021E+01  2.226613E-04 7.638761E+01  3.056362E-04 6.864868E+01 
 5.881083E-05 1.725028E+02  2.152171E-04 7.436714E+01  9.988618E-01 -1.698783E+01  1.649430E-02 7.219791E+01 
 3.221320E-05 -8.009471E+01  3.057636E-04 6.958259E+01  1.646823E-02 7.223020E+01  9.955179E-01 -1.634830E+01 
2.247812500E+02  9.972487E-01 -3.367237E+01  4.533728E-03 5.624738E+01  5.492797E-05 1.606753E+02  2.294234E-05 1.684372E+02 
 4.502930E-03 5.668789E+01  9.967518E-01 -3.262178E+01  2.096363E-04 5.815610E+01  3.100247E-04 6.561619E+01 
 4.202373E-05 1.477540E+02  2.067055E-04 5.390022E+01  1.000129E+00 -1.721650E+01  1.686150E-02 7.253008E+01 
 1.535228E-06 1.121126E+02  3.105198E-04 6.569290E+01  1.684463E-02 7.256052E+01  9.968024E-01 -1.654132E+01 
2.285000000E+02  9.979739E-01 -3.423755E+01  4.620638E-03 5.729425E+01  1.731578E-05 -1.067740E+02  1.707776E-05 -6.162770E+00 
 4.619325E-03 5.743131E+01  9.953806E-01 -3.312370E+01  1.727695E-04 6.672524E+01  2.988692E-04 7.025227E+01 
 2.470062E-05 1.701694E+02  1.753578E-04 6.408941E+01  9.993862E-01 -1.745472E+01  1.715617E-02 7.213074E+01 
 3.193516E-05 -3.917050E+01  3.255633E-04 6.243259E+01  1.715399E-02 7.211995E+01  9.972501E-01 -1.683581E+01 
2.322187500E+02  9.965974E-01 -3.480956E+01  4.751593E-03 5.634721E+01  2.059385E-05 -3.002300E+01  2.614500E-05 -1.143118E+02 
 4.696099E-03 5.648560E+01  9.952810E-01 -3.376735E+01  1.927069E-04 6.569917E+01  3.303163E-04 6.825791E+01 
 2.400864E-05 1.546975E+00  2.091585E-04 6.074263E+01  9.984730E-01 -1.794004E+01  1.742028E-02 7.175518E+01 
 2.350753E-05 5.357952E+01  3.498068E-04 6.399596E+01  1.743204E-02 7.178618E+01  9.970341E-01 -1.723093E+01 
2.359375000E+02  9.979399E-01 -3.529057E+01  4.766372E-03 5.590447E+01  4.352005E-06 1.150088E+02  1.626217E-05 5.837272E+01 
 4.751278E-03 5.594676E+01  9.953867E-01 -3.420427E+01  1.546373E-04 7.631180E+01  3.046835E-04 6.360209E+01 
 1.664147E-05 -1.220139E+02  1.814787E-04 7.003083E+01  9.987706E-01 -1.805273E+01  1.758533E-02 7.172703E+01 
 1.731175E-05 -1.147957E+02  3.301963E-04 6.680261E+01  1.762506E-02 7.167531E+01  9.984621E-01 -1.743003E+01 
2.396562500E+02  9.968148E-01 -3.580995E+01  4.844991E-03 5.545713E+01  5.938234E-05 -1.190894E+02  2.271820E-05 -1.084631E+02 
 4.820541E-03 5.526011E+01  9.958692E-01 -3.466405E+01  1.848234E-04 5.925910E+01  3.111372E-04 6.617916E+01 
 6.677607E-05 -1.118157E+02  1.798186E-04 5.593224E+01  9.990615E-01 -1.832322E+01  1.788563E-02 7.134527E+01 
 1.180294E-05 -4.440503E+00  3.201506E-04 6.432752E+01  1.789161E-02 7.119971E+01  9.993794E-01 -1.770796E+01 
2.433750000E+02  9.972220E-01 -3.631067E+01  4.823058E-03 5.427398E+01  1.167250E-05 4.192316E+00  1.260693E-05 -1.488253E+01 
 4.812490E-03 5.421292E+01  9.960526E-01 -3.524521E+01  2.096229E-04 7.088366E+01  3.407122E-04 6.583550E+01 
 2.360032E-05 2.799347E+01  2.441280E-04 7.019773E+01  9.998935E-01 -1.864469E+01  1.820057E-02 7.118527E+01 
 9.705020E-06 -4.600544E+01  3.214974E-04 6.413956E+01  1.814467E-02 7.108098E+01  9.991772E-01 -1.801759E+01 
2.470937500E+02  9.971172E-01 -3.691609E+01  4.942746E-03 5.418656E+01  1.813972E-05 -1.189866E+02  3.402075E-05 -1.331188E+02 
 4.910289E-03 5.431046E+01  9.958427E-01 -3.575333E+01  2.121116E-04 6.708960E+01  3.246297E-04 6.754876E+01 
 1.423285E-05 -1.398742E+02  2.263409E-04 6.738387E+01  9.995629E-01 -1.892019E+01  1.867556E-02 7.064186E+01 
 2.732216E-05 1.428584E+02  3.276561E-04 6.710522E+01  1.866806E-02 7.075520E+01  9.998841E-01 -1.825114E+01 
2.508125000E+02  9.959861E-01 -3.756082E+01  4.999858E-03 5.345758E+01  3.748215E-05 1.737949E+02  1.438860E-05 -8.649097E+01 
 4.966073E-03 5.370343E+01  9.955493E-01 -3.626355E+01  2.232070E-04 7.483767E+01  3.164151E-04 6.856379E+01 
 2.751197E-05 -1.662816E+02  2.351639E-04 7.347940E+01  9.988605E-01 -1.924986E+01  1.872856E-02 6.917274E+01 
 3.054784E-05 -9.603167E+01  3.488385E-04 6.880199E+01  1.870930E-02 6.907657E+01  1.000081E+00 -1.863161E+01 
2.545312500E+02  9.954669E-01 -3.795876E+01  5.016345E-03 5.251429E+01  1.704961E-05 9.247993E+01  1.512692E-05 -8.296456E+01 
 4.993347E-03 5.274095E+01  9.918317E-01 -3.681341E+01  2.492386E-04 4.748972E+01  3.839893E-04 6.620503E+01 
