! Matrix data file written by TouchstoneData, EPCOS AG
! FILENAME: "newformat_AA06A_x18y17_NB.s4p"
! COMMENT: "(AA06A_x18y17_NB.s4p) EPCOS AG 03.05.2012 14"
! INFO: nport=4, nfreq=1601
! DATE: "Mon Jun 25 17:54:25 2012"
! USER: "Sergey Rostovtsev"
!
!
! port | pin | signal
! -----|-----|--------
!   1  |  3  |  TX in
!   2  |  6  |  Ant in/out
!   3  |  8  |  RX out1
!   4  |  1  |  RX out2
! --------------------
!
! 
# MHZ S MA R 50
! freq  magS11 angS11  magS12 angS12  magS13 angS13  magS14 angS14  ...
8.000000E+02  9.727403E-01 -1.136430E+02  8.799864E-03 -1.158743E+01  4.151528E-05 -6.736244E+01  1.460186E-04 -1.721288E+02 
8.805825E-03 -1.136449E+01  9.798023E-01 -1.040115E+02  3.088323E-04 8.481228E+01  3.342511E-04 4.863657E+01 
5.248181E-05 -3.253076E+01  3.268246E-04 8.106807E+01  8.806523E-01 -4.317859E+01  4.465463E-01 4.658401E+01 
1.608948E-04 -1.758970E+02  3.629860E-04 5.222348E+01  4.475538E-01 4.662163E+01  8.808032E-01 -4.201942E+01 
8.001562E+02  9.719674E-01 -1.136748E+02  8.771811E-03 -1.145690E+01  5.153594E-05 -4.475842E+01  1.482652E-04 -1.718418E+02 
8.772046E-03 -1.141903E+01  9.797020E-01 -1.040349E+02  3.253132E-04 8.342593E+01  3.498959E-04 4.852472E+01 
4.994198E-05 -7.557949E+01  3.102984E-04 8.589480E+01  8.802173E-01 -4.317342E+01  4.465919E-01 4.655692E+01 
1.569982E-04 -1.677450E+02  3.530678E-04 5.165059E+01  4.476217E-01 4.658884E+01  8.807578E-01 -4.203349E+01 
8.003125E+02  9.717356E-01 -1.137197E+02  8.730992E-03 -1.153793E+01  3.190770E-05 -2.982441E+01  1.780164E-04 -1.708332E+02 
8.709286E-03 -1.144838E+01  9.795816E-01 -1.040719E+02  3.231879E-04 8.347975E+01  3.416034E-04 4.899780E+01 
4.345425E-05 -3.281147E+01  2.975769E-04 7.804711E+01  8.801986E-01 -4.316590E+01  4.467729E-01 4.654466E+01 
1.580592E-04 -1.705929E+02  3.488784E-04 4.953920E+01  4.476659E-01 4.657489E+01  8.807364E-01 -4.204376E+01 
8.004688E+02  9.715773E-01 -1.137639E+02  8.713613E-03 -1.155514E+01  4.486171E-05 -6.132187E+01  1.438341E-04 -1.649474E+02 
8.733867E-03 -1.150570E+01  9.792124E-01 -1.041120E+02  3.063266E-04 8.375579E+01  3.286992E-04 5.124490E+01 
2.998576E-05 -4.268606E+01  3.041197E-04 8.245431E+01  8.802216E-01 -4.317681E+01  4.467827E-01 4.652035E+01 
1.435217E-04 -1.639059E+02  3.399702E-04 4.987167E+01  4.477726E-01 4.653984E+01  8.806006E-01 -4.206720E+01 
8.006250E+02  9.712930E-01 -1.138195E+02  8.675340E-03 -1.153312E+01  5.297083E-05 -4.741136E+01  1.730451E-04 -1.705393E+02 
8.684411E-03 -1.150382E+01  9.786941E-01 -1.041627E+02  3.109713E-04 8.800844E+01  3.361639E-04 4.971746E+01 
2.486982E-05 -2.901208E+01  3.228423E-04 8.453578E+01  8.800444E-01 -4.320093E+01  4.468133E-01 4.649657E+01 
1.765812E-04 -1.698897E+02  3.476262E-04 5.067100E+01  4.477786E-01 4.651115E+01  8.805352E-01 -4.208950E+01 
8.007812E+02  9.711168E-01 -1.138606E+02  8.660674E-03 -1.162665E+01  3.930774E-05 -5.835285E+01  1.661428E-04 -1.665629E+02 
8.678861E-03 -1.144231E+01  9.782300E-01 -1.041822E+02  3.343136E-04 8.268743E+01  3.572523E-04 5.542893E+01 
3.744745E-05 -6.770462E+01  3.331477E-04 8.465908E+01  8.801076E-01 -4.322257E+01  4.469293E-01 4.647439E+01 
1.777705E-04 -1.718400E+02  3.432054E-04 5.509193E+01  4.477333E-01 4.649547E+01  8.804881E-01 -4.209715E+01 
8.009375E+02  9.707648E-01 -1.139122E+02  8.651769E-03 -1.150417E+01  3.816924E-05 -5.746809E+01  1.524492E-04 -1.717750E+02 
8.650644E-03 -1.143599E+01  9.778913E-01 -1.041987E+02  3.261877E-04 8.516766E+01  3.501014E-04 5.167568E+01 
2.473586E-05 -5.380586E+01  3.453747E-04 8.717999E+01  8.798143E-01 -4.323894E+01  4.470086E-01 4.646309E+01 
1.652146E-04 -1.757550E+02  3.761545E-04 5.625357E+01  4.478814E-01 4.648765E+01  8.805503E-01 -4.211510E+01 
8.010938E+02  9.704114E-01 -1.139533E+02  8.647263E-03 -1.161222E+01  2.357452E-05 -6.789201E+01  1.502803E-04 1.770888E+02 
8.617980E-03 -1.155137E+01  9.777206E-01 -1.042050E+02  3.495890E-04 8.041952E+01  3.714219E-04 5.158426E+01 
4.018519E-05 -3.336001E+01  3.393902E-04 8.260322E+01  8.795796E-01 -4.325745E+01  4.470569E-01 4.644790E+01 
1.588655E-04 -1.773903E+02  3.748347E-04 5.032894E+01  4.479413E-01 4.646446E+01  8.804482E-01 -4.213566E+01 
8.012500E+02  9.702595E-01 -1.139822E+02  8.625010E-03 -1.170937E+01  5.557764E-05 -4.770937E+01  1.752392E-04 -1.767449E+02 
8.632869E-03 -1.154924E+01  9.779256E-01 -1.042240E+02  3.464394E-04 7.810407E+01  3.940573E-04 4.869013E+01 
3.534513E-05 -3.908383E+01  3.613977E-04 8.063773E+01  8.794932E-01 -4.326839E+01  4.471751E-01 4.642960E+01 
1.795070E-04 -1.761445E+02  4.000709E-04 4.826680E+01  4.478961E-01 4.644625E+01  8.804263E-01 -4.215078E+01 
8.014062E+02  9.701864E-01 -1.140342E+02  8.616143E-03 -1.164103E+01  5.109351E-05 -5.631840E+01  1.703094E-04 -1.758848E+02 
8.610617E-03 -1.158608E+01  9.776245E-01 -1.042708E+02  3.421745E-04 7.888120E+01  3.860671E-04 4.986377E+01 
3.891173E-05 -7.049213E+01  3.448937E-04 7.801728E+01  8.794819E-01 -4.328071E+01  4.472912E-01 4.641268E+01 
1.736171E-04 -1.779097E+02  3.800668E-04 5.041640E+01  4.480349E-01 4.642825E+01  8.803807E-01 -4.218611E+01 
8.015625E+02  9.701915E-01 -1.140854E+02  8.586185E-03 -1.173571E+01  3.809347E-05 -3.055442E+01  1.743617E-04 -1.753562E+02 
8.605821E-03 -1.174588E+01  9.774523E-01 -1.043032E+02  3.335575E-04 8.046004E+01  3.872352E-04 4.982534E+01 
2.668123E-05 -5.707653E+01  3.434870E-04 7.776723E+01  8.794163E-01 -4.331444E+01  4.473890E-01 4.638552E+01 
1.784948E-04 -1.756017E+02  3.933924E-04 4.886570E+01  4.480000E-01 4.639884E+01  8.802238E-01 -4.220416E+01 
8.017188E+02  9.701398E-01 -1.141444E+02  8.578157E-03 -1.198317E+01  2.658636E-05 -1.761519E+01  1.684925E-04 -1.738271E+02 
8.575212E-03 -1.173551E+01  9.773787E-01 -1.043314E+02  3.402025E-04 7.641903E+01  3.849114E-04 4.796561E+01 
4.195577E-05 -1.787026E+01  3.370553E-04 7.724764E+01  8.794775E-01 -4.333560E+01  4.475059E-01 4.637387E+01 
1.869712E-04 -1.727482E+02  3.842531E-04 4.511202E+01  4.481557E-01 4.639436E+01  8.801407E-01 -4.221195E+01 
8.018750E+02  9.700169E-01 -1.142076E+02  8.556633E-03 -1.187313E+01  3.551857E-05 -5.214874E+01  1.485230E-04 -1.719653E+02 
8.556409E-03 -1.183419E+01  9.771898E-01 -1.043694E+02  3.292600E-04 7.589127E+01  3.689023E-04 4.682719E+01 
4.013286E-05 -7.115840E+01  3.410195E-04 7.661115E+01  8.793420E-01 -4.334871E+01  4.476322E-01 4.637001E+01 
1.689593E-04 -1.726074E+02  3.663120E-04 4.729945E+01  4.483174E-01 4.638416E+01  8.802221E-01 -4.224053E+01 
8.020312E+02  9.695888E-01 -1.142532E+02  8.491839E-03 -1.179433E+01  5.285349E-05 -4.572467E+01  1.828077E-04 -1.775155E+02 
8.518300E-03 -1.178976E+01  9.768235E-01 -1.043817E+02  3.331983E-04 7.899857E+01  3.632390E-04 4.359340E+01 
3.927786E-05 -3.780415E+01  3.297833E-04 7.804851E+01  8.792311E-01 -4.337977E+01  4.477302E-01 4.634694E+01 
1.641454E-04 -1.736516E+02  3.506057E-04 4.870800E+01  4.484934E-01 4.635864E+01  8.802789E-01 -4.226157E+01 
8.021875E+02  9.691839E-01 -1.143103E+02  8.484647E-03 -1.197084E+01  5.080577E-05 -4.440943E+01  1.622387E-04 -1.745303E+02 
8.488669E-03 -1.179658E+01  9.767549E-01 -1.043906E+02  3.324837E-04 7.612933E+01  3.610183E-04 4.901601E+01 
6.123826E-05 -3.943469E+01  3.501432E-04 7.856295E+01  8.792481E-01 -4.340157E+01  4.479535E-01 4.632644E+01 
1.746230E-04 -1.791629E+02  3.702028E-04 4.778941E+01  4.486502E-01 4.633009E+01  8.801822E-01 -4.229666E+01 
8.023438E+02  9.687521E-01 -1.143595E+02  8.463933E-03 -1.167454E+01  4.523047E-05 -5.978513E+01  1.518975E-04 -1.761239E+02 
8.460303E-03 -1.173838E+01  9.769935E-01 -1.044037E+02  3.350399E-04 7.523904E+01  3.868223E-04 5.010091E+01 
5.055526E-05 -5.332788E+01  3.340449E-04 7.843453E+01  8.791565E-01 -4.341773E+01  4.480850E-01 4.631119E+01 
1.735255E-04 -1.725360E+02  3.763913E-04 4.879396E+01  4.489195E-01 4.631752E+01  8.801722E-01 -4.231835E+01 
8.025000E+02  9.680650E-01 -1.143865E+02  8.443409E-03 -1.171811E+01  4.321873E-05 -6.467802E+01  1.857201E-04 -1.753628E+02 
8.448443E-03 -1.173361E+01  9.772030E-01 -1.044227E+02  3.179213E-04 7.415383E+01  3.607249E-04 4.694697E+01 
4.133271E-05 -5.381177E+01  3.554554E-04 7.877263E+01  8.791142E-01 -4.342793E+01  4.482424E-01 4.630163E+01 
1.794900E-04 -1.784137E+02  3.826528E-04 4.447744E+01  4.490741E-01 4.631349E+01  8.799717E-01 -4.232752E+01 
8.026562E+02  9.679074E-01 -1.143994E+02  8.433794E-03 -1.166690E+01  5.083795E-05 -6.566351E+01  1.637525E-04 1.792004E+02 
8.424877E-03 -1.156360E+01  9.772825E-01 -1.044358E+02  3.468401E-04 7.442990E+01  3.796611E-04 4.935698E+01 
5.029203E-05 -8.025886E+01  3.309357E-04 7.753733E+01  8.791162E-01 -4.343046E+01  4.484526E-01 4.629627E+01 
1.753770E-04 -1.792477E+02  3.907297E-04 4.802293E+01  4.492462E-01 4.630197E+01  8.798719E-01 -4.233322E+01 
8.028125E+02  9.679970E-01 -1.144254E+02  8.417295E-03 -1.159779E+01  4.420031E-05 -5.366947E+01  1.607042E-04 1.774911E+02 
8.414239E-03 -1.152868E+01  9.775236E-01 -1.044550E+02  3.452563E-04 7.594578E+01  3.937121E-04 4.516846E+01 
4.589884E-05 -3.694949E+01  3.151883E-04 7.642543E+01  8.790139E-01 -4.344318E+01  4.485064E-01 4.627044E+01 
1.636585E-04 1.793828E+02  3.827719E-04 4.567502E+01  4.493165E-01 4.628440E+01  8.799376E-01 -4.235270E+01 
8.029688E+02  9.677023E-01 -1.144819E+02  8.400647E-03 -1.160248E+01  4.114178E-05 -5.298902E+01  1.647053E-04 -1.747862E+02 
8.393376E-03 -1.159229E+01  9.775530E-01 -1.044742E+02  3.243898E-04 7.843961E+01  3.893907E-04 4.528178E+01 
4.427932E-05 -6.581560E+01  3.178923E-04 7.694039E+01  8.791223E-01 -4.347203E+01  4.486611E-01 4.625932E+01 
1.595991E-04 -1.768473E+02  3.611649E-04 4.495944E+01  4.495338E-01 4.626924E+01  8.799551E-01 -4.238027E+01 
8.031250E+02  9.670687E-01 -1.145339E+02  8.384864E-03 -1.153740E+01  4.715648E-05 -4.005360E+01  1.735594E-04 -1.737090E+02 
8.369979E-03 -1.147929E+01  9.778423E-01 -1.044953E+02  3.252227E-04 7.680609E+01  3.764703E-04 4.067308E+01 
4.850872E-05 -6.950199E+01  3.242424E-04 7.545846E+01  8.788919E-01 -4.349215E+01  4.487672E-01 4.624903E+01 
1.662789E-04 -1.789467E+02  3.586402E-04 4.203352E+01  4.495515E-01 4.624237E+01  8.797547E-01 -4.240101E+01 
8.032812E+02  9.667068E-01 -1.145553E+02  8.396534E-03 -1.141964E+01  4.311745E-05 -5.235328E+01  1.584669E-04 -1.707204E+02 
8.404222E-03 -1.127347E+01  9.782110E-01 -1.045296E+02  3.302532E-04 8.146388E+01  3.538237E-04 4.666158E+01 
3.598654E-05 -4.242132E+01  3.212948E-04 7.816649E+01  8.787637E-01 -4.349965E+01  4.488368E-01 4.622948E+01 
1.593875E-04 -1.770272E+02  3.625628E-04 4.191668E+01  4.496087E-01 4.623763E+01  8.795590E-01 -4.240638E+01 
8.034375E+02  9.664184E-01 -1.145731E+02  8.412213E-03 -1.146717E+01  3.804223E-05 -3.903980E+01  1.600954E-04 -1.796884E+02 
8.422208E-03 -1.140909E+01  9.785360E-01 -1.045551E+02  3.453952E-04 7.846517E+01  3.495951E-04 4.703881E+01 
4.670522E-05 -4.241393E+01  3.400301E-04 7.671003E+01  8.788091E-01 -4.351880E+01  4.489539E-01 4.622578E+01 
1.761087E-04 -1.756961E+02  3.634970E-04 4.589989E+01  4.498694E-01 4.625292E+01  8.797170E-01 -4.241237E+01 
8.035938E+02  9.661835E-01 -1.145693E+02  8.375488E-03 -1.148688E+01  3.784354E-05 -5.806466E+01  1.715528E-04 -1.758349E+02 
8.367899E-03 -1.139581E+01  9.785020E-01 -1.046018E+02  3.479070E-04 7.542415E+01  3.574260E-04 4.651301E+01 
4.365670E-05 -3.769981E+01  3.504974E-04 7.980903E+01  8.787809E-01 -4.352378E+01  4.491063E-01 4.621869E+01 
1.836203E-04 -1.774348E+02  3.584088E-04 4.697349E+01  4.500035E-01 4.623336E+01  8.795517E-01 -4.244228E+01 
8.037500E+02  9.662631E-01 -1.145826E+02  8.394359E-03 -1.146288E+01  3.608635E-05 -6.135965E+01  1.747343E-04 -1.701227E+02 
8.397522E-03 -1.163968E+01  9.784117E-01 -1.046340E+02  3.266242E-04 7.773216E+01  3.613676E-04 4.641007E+01 
3.762510E-05 -4.044351E+01  3.221202E-04 7.711164E+01  8.786545E-01 -4.354885E+01  4.492089E-01 4.619181E+01 
1.652617E-04 -1.760368E+02  3.626838E-04 4.801309E+01  4.500723E-01 4.620633E+01  8.793843E-01 -4.246150E+01 
8.039062E+02  9.666597E-01 -1.146350E+02  8.358987E-03 -1.178722E+01  2.976988E-05 -6.401540E+01  1.838165E-04 -1.771112E+02 
8.370932E-03 -1.167476E+01  9.781106E-01 -1.046721E+02  3.538769E-04 7.675415E+01  3.891119E-04 5.090193E+01 
4.421741E-05 -4.535747E+01  3.514858E-04 7.540253E+01  8.784416E-01 -4.356891E+01  4.492143E-01 4.618403E+01 
1.540392E-04 -1.778220E+02  3.730298E-04 4.939358E+01  4.502262E-01 4.619103E+01  8.793261E-01 -4.248521E+01 
8.040625E+02  9.665279E-01 -1.146989E+02  8.334562E-03 -1.160350E+01  4.889266E-05 -5.375759E+01  1.651798E-04 -1.748718E+02 
8.332811E-03 -1.149588E+01  9.781954E-01 -1.046995E+02  3.574150E-04 7.773845E+01  3.764598E-04 4.903279E+01 
3.237172E-05 -4.881634E+01  3.621477E-04 7.447493E+01  8.784887E-01 -4.358602E+01  4.493531E-01 4.617170E+01 
1.714926E-04 1.793969E+02  3.811606E-04 4.878076E+01  4.503691E-01 4.619587E+01  8.792695E-01 -4.249806E+01 
8.042188E+02  9.663951E-01 -1.147560E+02  8.337591E-03 -1.172256E+01  4.916027E-05 -3.702275E+01  1.628599E-04 -1.750149E+02 
8.356880E-03 -1.170603E+01  9.783248E-01 -1.047024E+02  3.512182E-04 7.171849E+01  4.039097E-04 4.927148E+01 
3.606976E-05 -4.779194E+01  3.692611E-04 7.520466E+01  8.784329E-01 -4.359693E+01  4.494201E-01 4.615481E+01 
1.729698E-04 -1.780404E+02  4.038096E-04 5.031766E+01  4.505039E-01 4.618661E+01  8.791539E-01 -4.251633E+01 
8.043750E+02  9.655543E-01 -1.148116E+02  8.285058E-03 -1.176884E+01  4.591587E-05 -4.668073E+01  1.536211E-04 -1.790902E+02 
8.282693E-03 -1.177472E+01  9.784291E-01 -1.047339E+02  3.628874E-04 7.006859E+01  4.129146E-04 5.043425E+01 
5.501294E-05 -4.378114E+01  3.490440E-04 7.130635E+01  8.782794E-01 -4.362115E+01  4.495553E-01 4.615246E+01 
1.755181E-04 -1.713970E+02  3.998174E-04 4.650020E+01  4.505886E-01 4.617276E+01  8.790079E-01 -4.254946E+01 
8.045312E+02  9.640985E-01 -1.148316E+02  8.273981E-03 -1.175446E+01  2.493601E-05 -4.704983E+01  1.665014E-04 -1.775932E+02 
8.277510E-03 -1.157810E+01  9.783988E-01 -1.047720E+02  3.516789E-04 6.684250E+01  4.225842E-04 4.456388E+01 
5.676922E-05 -3.766991E+01  3.559414E-04 6.793912E+01  8.779958E-01 -4.365494E+01  4.496068E-01 4.613346E+01 
1.658107E-04 -1.764106E+02  4.103421E-04 4.665110E+01  4.506506E-01 4.614998E+01  8.787998E-01 -4.259156E+01 
8.046875E+02  9.633436E-01 -1.147929E+02  8.256878E-03 -1.159266E+01  3.114297E-05 -4.394192E+01  1.717506E-04 -1.752308E+02 
8.260220E-03 -1.165079E+01  9.781768E-01 -1.048055E+02  3.506392E-04 6.936714E+01  3.991654E-04 4.071844E+01 
4.727607E-05 -5.380127E+01  3.529660E-04 6.730224E+01  8.776827E-01 -4.368870E+01  4.496914E-01 4.612578E+01 
1.700401E-04 -1.720155E+02  4.253166E-04 4.511447E+01  4.506936E-01 4.613633E+01  8.784422E-01 -4.261659E+01 
8.048438E+02  9.636885E-01 -1.147634E+02  8.261004E-03 -1.155370E+01  3.965316E-05 -5.977479E+01  1.867297E-04 -1.747660E+02 
8.258008E-03 -1.147314E+01  9.782849E-01 -1.048323E+02  3.473972E-04 6.535831E+01  4.150533E-04 4.101113E+01 
5.009928E-05 -4.312511E+01  3.203632E-04 6.794618E+01  8.773451E-01 -4.369636E+01  4.498236E-01 4.612728E+01 
1.782257E-04 -1.756425E+02  4.075067E-04 4.165397E+01  4.508466E-01 4.613759E+01  8.780977E-01 -4.262989E+01 
8.050000E+02  9.640666E-01 -1.147648E+02  8.253364E-03 -1.189148E+01  3.821017E-05 -4.634298E+01  1.671956E-04 -1.727942E+02 
8.249837E-03 -1.184434E+01  9.783598E-01 -1.048626E+02  3.323944E-04 6.971622E+01  3.912397E-04 4.225615E+01 
4.255811E-05 -5.312664E+01  3.210656E-04 6.894436E+01  8.770866E-01 -4.371096E+01  4.500086E-01 4.611823E+01 
1.768773E-04 -1.727467E+02  3.905858E-04 4.419496E+01  4.511162E-01 4.613516E+01  8.777871E-01 -4.263448E+01 
8.051562E+02  9.643155E-01 -1.147558E+02  8.201361E-03 -1.171203E+01  3.539862E-05 -4.483727E+01  1.726335E-04 -1.730551E+02 
8.200911E-03 -1.170564E+01  9.782678E-01 -1.049035E+02  3.287367E-04 6.877953E+01  3.837400E-04 4.287079E+01 
2.918028E-05 -6.303556E+01  3.200186E-04 6.705058E+01  8.768306E-01 -4.372223E+01  4.501720E-01 4.609560E+01 
1.830791E-04 -1.771762E+02  3.929971E-04 4.622660E+01  4.512033E-01 4.611710E+01  8.774960E-01 -4.264949E+01 
8.053125E+02  9.650887E-01 -1.147610E+02  8.217296E-03 -1.177698E+01  5.116573E-05 -4.574450E+01  1.847764E-04 1.795522E+02 
8.222025E-03 -1.162171E+01  9.779192E-01 -1.049310E+02  3.173452E-04 7.091392E+01  4.067771E-04 4.018728E+01 
3.762001E-05 -4.839323E+01  3.439999E-04 6.900449E+01  8.765976E-01 -4.374751E+01  4.502746E-01 4.607814E+01 
1.725540E-04 -1.746247E+02  3.955679E-04 4.306910E+01  4.513185E-01 4.608109E+01  8.773602E-01 -4.267294E+01 
8.054688E+02  9.660083E-01 -1.148044E+02  8.182959E-03 -1.184713E+01  4.295210E-05 -3.015913E+01  1.860910E-04 -1.739183E+02 
8.181609E-03 -1.180270E+01  9.776588E-01 -1.049563E+02  3.327116E-04 6.700358E+01  3.886160E-04 4.258669E+01 
5.225262E-05 -3.010069E+01  3.227660E-04 6.811190E+01  8.762360E-01 -4.376693E+01  4.503445E-01 4.606433E+01 
1.735858E-04 -1.787761E+02  3.718898E-04 4.347211E+01  4.513413E-01 4.607194E+01  8.771062E-01 -4.269991E+01 
8.056250E+02  9.664320E-01 -1.148629E+02  8.138845E-03 -1.191745E+01  4.488496E-05 -4.807413E+01  1.592211E-04 1.793911E+02 
8.175123E-03 -1.184905E+01  9.773117E-01 -1.049813E+02  2.989309E-04 6.938492E+01  3.772535E-04 4.106359E+01 
5.328791E-05 -5.711657E+01  3.102297E-04 6.919365E+01  8.761417E-01 -4.377554E+01  4.505510E-01 4.605719E+01 
1.736263E-04 -1.749711E+02  3.892652E-04 4.373414E+01  4.515421E-01 4.606982E+01  8.767701E-01 -4.270609E+01 
8.057812E+02  9.667468E-01 -1.149242E+02  8.119749E-03 -1.204720E+01  4.607293E-05 -4.583434E+01  1.643875E-04 -1.779764E+02 
8.131918E-03 -1.195942E+01  9.774389E-01 -1.049781E+02  3.068366E-04 7.144493E+01  3.892372E-04 4.127581E+01 
4.082209E-05 -7.534893E+01  2.908379E-04 6.911134E+01  8.758435E-01 -4.380367E+01  4.507381E-01 4.602570E+01 
1.705559E-04 -1.794758E+02  3.885227E-04 4.356742E+01  4.518172E-01 4.604300E+01  8.764719E-01 -4.272433E+01 
8.059375E+02  9.667644E-01 -1.149754E+02  8.081599E-03 -1.182841E+01  5.848392E-05 -7.200747E+01  1.762437E-04 -1.759295E+02 
8.057357E-03 -1.180112E+01  9.775704E-01 -1.049963E+02  3.003110E-04 7.247705E+01  3.773333E-04 4.164266E+01 
4.208396E-05 -6.074922E+01  2.920265E-04 6.952611E+01  8.754190E-01 -4.382116E+01  4.507468E-01 4.600511E+01 
1.729807E-04 -1.750393E+02  3.631798E-04 4.433742E+01  4.517822E-01 4.601373E+01  8.760755E-01 -4.274473E+01 
8.060938E+02  9.665684E-01 -1.150399E+02  8.038263E-03 -1.155735E+01  3.340017E-05 -5.179796E+01  1.610484E-04 1.788931E+02 
8.036471E-03 -1.136528E+01  9.777703E-01 -1.050058E+02  3.180961E-04 7.156230E+01  3.770154E-04 4.310189E+01 
2.315685E-05 -5.329412E+01  3.169474E-04 7.223519E+01  8.750581E-01 -4.384592E+01  4.508213E-01 4.598148E+01 
1.550900E-04 -1.786641E+02  3.763918E-04 4.524302E+01  4.517957E-01 4.599987E+01  8.758179E-01 -4.275781E+01 
8.062500E+02  9.658301E-01 -1.150824E+02  8.016082E-03 -1.131487E+01  2.162112E-05 -4.863222E+01  2.011139E-04 -1.739984E+02 
8.013313E-03 -1.125064E+01  9.777946E-01 -1.050523E+02  3.232033E-04 7.047605E+01  4.269132E-04 4.634096E+01 
1.141417E-05 -4.802897E+01  3.189954E-04 6.901230E+01  8.743497E-01 -4.387685E+01  4.508898E-01 4.595443E+01 
1.837988E-04 -1.739859E+02  3.840635E-04 4.504784E+01  4.519642E-01 4.598595E+01  8.756262E-01 -4.276515E+01 
8.064062E+02  9.656434E-01 -1.150912E+02  8.048682E-03 -1.114256E+01  4.473002E-05 -5.125022E+01  1.673282E-04 -1.790680E+02 
8.032407E-03 -1.101437E+01  9.779429E-01 -1.050780E+02  3.067111E-04 6.998935E+01  3.894463E-04 4.515323E+01 
1.565702E-05 -7.481660E+01  3.245943E-04 6.944388E+01  8.735657E-01 -4.386545E+01  4.508673E-01 4.593645E+01 
1.622707E-04 -1.749735E+02  4.050975E-04 4.569794E+01  4.518533E-01 4.594638E+01  8.751339E-01 -4.279378E+01 
8.065625E+02  9.659966E-01 -1.151077E+02  8.035124E-03 -1.136376E+01  2.380921E-05 -3.840184E+01  1.597576E-04 -1.768284E+02 
8.058694E-03 -1.120090E+01  9.779015E-01 -1.051146E+02  3.160257E-04 7.115458E+01  3.833470E-04 4.451910E+01 
4.531315E-05 -4.962498E+01  3.062126E-04 7.158007E+01  8.733524E-01 -4.384397E+01  4.509743E-01 4.593065E+01 
