! Matrix data file written by TouchstoneData, EPCOS AG
! FILENAME: "newformat_LZ54B_1_WB.s4p"
! COMMENT: "(LZ54B_1_WB.s4p) EPCOS AG 31.05.2012 14:23:2"
! INFO: nport=4, nfreq=1601
! DATE: "Fri Jun  1 15:25:38 2012"
! USER: "Sergey Rostovtsev"
!
!
! port | pin | signal
! -----|-----|--------
!   1  |  3  |  TX in
!   2  |  6  |  Ant in/out
!   3  |  8  |  RX out1
!   4  |  1  |  RX out2
! --------------------
! 
# MHZ S MA R 50
! freq  magS11 angS11  magS12 angS12  magS13 angS13  magS14 angS14  ...
5.000000E+01  9.982588E-01 -5.124332E+00  1.119190E-03 8.462915E+01  1.599820E-04 1.301604E+01  1.786932E-04 -4.288914E+01 
1.063424E-03 7.297044E+01  9.974288E-01 -3.863693E+00  4.805510E-05 7.502852E+01  3.003127E-04 1.093673E+02 
1.406830E-04 6.155002E+01  1.639852E-04 8.548534E+01  9.965920E-01 -2.914546E+00  3.635950E-03 8.620670E+01 
6.934540E-05 8.005212E+01  2.483768E-04 7.857745E+01  3.490762E-03 8.582246E+01  9.970927E-01 -2.821369E+00 
5.371875E+01  9.998499E-01 -5.642551E+00  1.135308E-03 8.526871E+01  3.207303E-05 -3.626992E+01  2.245923E-05 -1.309944E+02 
1.148468E-03 8.669966E+01  9.995334E-01 -4.349369E+00  1.306073E-04 6.036325E+01  1.958130E-04 7.840355E+01 
2.846703E-05 -1.568917E+02  6.604528E-05 1.124930E+02  9.982252E-01 -3.355404E+00  3.737422E-03 8.447968E+01 
6.076862E-05 -1.695425E+02  2.159063E-04 8.056532E+01  3.771033E-03 8.589637E+01  9.975137E-01 -3.132025E+00 
5.743750E+01  9.987574E-01 -6.090984E+00  1.220140E-03 8.346816E+01  3.591660E-05 -1.037820E+02  5.802141E-05 -1.648190E+02 
1.207745E-03 8.424662E+01  9.983374E-01 -4.686260E+00  1.096340E-04 7.002827E+01  1.822799E-04 7.954448E+01 
9.849131E-05 -9.904273E+01  1.387447E-04 4.410467E+01  9.977688E-01 -3.639033E+00  3.475723E-03 8.506588E+01 
1.267010E-05 7.140199E+01  1.305467E-04 7.277383E+01  3.562015E-03 8.419001E+01  9.982523E-01 -3.508559E+00 
6.115625E+01  9.986988E-01 -6.512072E+00  1.305018E-03 8.240452E+01  1.635693E-05 1.635452E+02  1.484699E-05 4.650565E+01 
1.271124E-03 8.367471E+01  9.984151E-01 -4.963254E+00  1.711523E-04 1.074737E+02  1.647411E-04 8.480891E+01 
2.215629E-05 5.869345E+00  1.302942E-04 8.405678E+01  9.971207E-01 -3.825558E+00  3.758556E-03 8.655851E+01 
6.147081E-05 -1.281519E+02  2.114046E-04 8.751976E+01  3.779533E-03 8.558405E+01  9.978749E-01 -3.666296E+00 
6.487500E+01  9.991862E-01 -6.897059E+00  1.345551E-03 8.757129E+01  3.366959E-05 -3.014127E+01  2.144965E-05 -1.358443E+02 
1.397871E-03 8.435801E+01  9.988607E-01 -5.231371E+00  1.710290E-04 8.646257E+01  2.542644E-04 9.088861E+01 
5.756818E-05 -4.621600E+01  8.854412E-05 1.051500E+02  9.975590E-01 -4.114140E+00  4.126155E-03 8.534223E+01 
1.985463E-05 -1.011132E+01  2.305346E-04 9.668797E+01  4.153846E-03 8.618382E+01  9.985086E-01 -3.823153E+00 
6.859375E+01  9.989601E-01 -7.376433E+00  1.391870E-03 8.463555E+01  3.816778E-05 -1.589570E+02  5.544700E-05 -1.621162E+02 
1.409933E-03 8.367806E+01  9.993473E-01 -5.681913E+00  1.063017E-04 9.894789E+01  2.297170E-04 8.401225E+01 
1.568929E-05 -1.260095E+02  1.436841E-04 8.858980E+01  9.970753E-01 -4.361054E+00  4.426957E-03 8.552056E+01 
3.033846E-05 1.362918E+02  2.071630E-04 9.441366E+01  4.422716E-03 8.605572E+01  9.991041E-01 -4.145998E+00 
7.231250E+01  9.982695E-01 -7.641468E+00  1.468188E-03 8.399352E+01  3.837420E-05 -1.179506E+01  5.355110E-05 -6.972821E+01 
1.470048E-03 8.510770E+01  9.974090E-01 -5.782521E+00  9.610188E-05 1.272121E+02  1.748100E-04 8.159331E+01 
1.629014E-05 -1.181734E+02  9.131416E-05 8.224637E+01  9.965123E-01 -4.512868E+00  4.779424E-03 8.488524E+01 
4.354071E-05 -1.624833E+02  2.305610E-04 6.916897E+01  4.759586E-03 8.475999E+01  9.973825E-01 -4.394100E+00 
7.603125E+01  9.989755E-01 -8.095237E+00  1.502082E-03 8.169192E+01  6.043778E-06 7.256481E+01  5.815065E-05 -1.093414E+02 
1.480205E-03 8.142024E+01  9.993172E-01 -6.208749E+00  2.287980E-04 8.144520E+01  2.535990E-04 8.908245E+01 
2.982592E-05 5.090068E+01  2.438539E-04 8.437589E+01  9.977775E-01 -4.753393E+00  5.080958E-03 8.336430E+01 
4.592328E-05 1.577795E+02  3.156838E-04 8.703544E+01  5.100816E-03 8.340339E+01  9.988966E-01 -4.572268E+00 
7.975000E+01  9.994671E-01 -8.493446E+00  1.697269E-03 8.410455E+01  4.087116E-05 -1.377527E+02  1.825783E-05 1.393531E+02 
1.666752E-03 8.216676E+01  9.995249E-01 -6.420523E+00  2.195476E-04 7.861557E+01  3.434606E-04 8.659998E+01 
2.876095E-05 -1.711166E+02  2.232729E-04 6.909473E+01  9.971564E-01 -4.978189E+00  5.217714E-03 8.241961E+01 
5.684850E-05 1.797364E+02  3.138143E-04 9.281822E+01  5.186870E-03 8.261484E+01  9.975794E-01 -4.763902E+00 
8.346875E+01  9.994121E-01 -8.863618E+00  1.702160E-03 8.331943E+01  3.988843E-05 -1.046542E+02  3.224213E-05 -6.985332E+01 
1.784595E-03 8.152087E+01  9.985451E-01 -6.772591E+00  2.202186E-04 8.747802E+01  2.852548E-04 8.207708E+01 
4.174023E-05 -3.926434E+01  2.461171E-04 7.776377E+01  9.974416E-01 -5.284929E+00  5.135533E-03 8.354631E+01 
4.156673E-05 8.094982E+01  2.817356E-04 8.121290E+01  5.171254E-03 8.371882E+01  9.987169E-01 -4.936712E+00 
8.718750E+01  9.989162E-01 -9.353301E+00  1.870677E-03 8.273322E+01  4.176701E-05 -8.280449E+01  1.513506E-05 -1.318360E+02 
1.859329E-03 8.115972E+01  9.992433E-01 -7.091281E+00  1.484904E-04 8.312945E+01  3.411410E-04 8.967271E+01 
8.726189E-06 -1.169932E+02  1.989679E-04 9.544071E+01  9.979339E-01 -5.459815E+00  5.359326E-03 8.422219E+01 
5.206309E-05 -5.956863E+01  2.823704E-04 8.324859E+01  5.370480E-03 8.392095E+01  9.991720E-01 -5.207548E+00 
9.090625E+01  9.980668E-01 -9.759196E+00  1.885049E-03 8.187874E+01  5.508597E-05 1.483013E+02  2.409338E-05 1.020747E+02 
1.914014E-03 8.081044E+01  1.000147E+00 -7.379752E+00  2.908567E-04 8.688194E+01  2.814210E-04 8.399093E+01 
3.161298E-05 -1.431553E+02  2.712242E-04 8.981167E+01  9.988628E-01 -5.673465E+00  5.701977E-03 8.418667E+01 
4.607977E-05 1.438917E+02  2.928632E-04 8.307349E+01  5.766426E-03 8.461275E+01  9.978873E-01 -5.374479E+00 
9.462500E+01  9.979135E-01 -1.011816E+01  1.923988E-03 8.363594E+01  9.589019E-05 -3.354028E+01  2.527571E-05 -1.284911E+01 
1.878731E-03 8.382260E+01  9.992846E-01 -7.709255E+00  2.516449E-04 7.410155E+01  3.460225E-04 7.197752E+01 
1.026792E-04 -7.452147E+01  2.424704E-04 9.588610E+01  9.971429E-01 -5.953067E+00  6.068678E-03 8.402950E+01 
1.114355E-04 -5.407510E+01  3.066960E-04 7.966410E+01  6.110927E-03 8.412681E+01  9.986727E-01 -5.587948E+00 
9.834375E+01  1.000028E+00 -1.048443E+01  2.166545E-03 8.304611E+01  4.186964E-05 5.089145E+01  7.417872E-05 1.189354E+02 
2.172348E-03 8.183679E+01  1.000467E+00 -7.981920E+00  3.050748E-04 6.471791E+01  3.094965E-04 8.008270E+01 
7.143720E-05 -2.861761E+01  2.547990E-04 7.678939E+01  9.988418E-01 -6.238317E+00  6.266984E-03 8.297723E+01 
4.104493E-05 1.549589E+02  3.265775E-04 8.309613E+01  6.189209E-03 8.326184E+01  9.989612E-01 -5.858601E+00 
1.020625E+02  1.000030E+00 -1.088191E+01  2.114195E-03 8.286892E+01  4.514607E-05 -7.628559E+01  6.392303E-05 5.070479E+01 
2.084782E-03 8.216700E+01  9.996022E-01 -8.240752E+00  2.600631E-04 8.909775E+01  3.162198E-04 7.962833E+01 
1.558857E-05 -1.226206E+01  2.416203E-04 8.292825E+01  9.992949E-01 -6.363208E+00  6.409859E-03 8.252657E+01 
3.024508E-05 2.571903E+01  3.194724E-04 9.263592E+01  6.502559E-03 8.248432E+01  9.987129E-01 -6.043693E+00 
1.057812E+02  9.997561E-01 -1.125706E+01  2.166327E-03 8.048507E+01  1.182548E-05 -7.803769E+01  1.635033E-05 -3.677769E+01 
2.210853E-03 8.000686E+01  9.994583E-01 -8.584269E+00  3.402873E-04 8.228334E+01  3.925641E-04 8.788553E+01 
7.790957E-06 -1.731263E+02  3.122389E-04 8.998598E+01  9.973465E-01 -6.597987E+00  6.582892E-03 8.160345E+01 
2.055592E-05 1.642527E+02  3.219698E-04 8.382959E+01  6.577264E-03 8.195911E+01  9.982854E-01 -6.306565E+00 
1.095000E+02  9.996962E-01 -1.169485E+01  2.264925E-03 7.969750E+01  7.428425E-05 6.524376E+01  7.378823E-05 9.541746E+01 
2.218063E-03 8.006290E+01  1.000129E+00 -8.879499E+00  3.013475E-04 8.083452E+01  3.521304E-04 7.795798E+01 
3.229503E-05 7.475089E+00  2.386562E-04 8.675296E+01  9.995297E-01 -6.865650E+00  6.841693E-03 8.285823E+01 
1.863136E-05 1.044608E+02  3.006512E-04 7.461721E+01  6.902359E-03 8.353183E+01  9.987792E-01 -6.537171E+00 
1.132188E+02  1.000025E+00 -1.214001E+01  2.357981E-03 7.999253E+01  6.727835E-05 -8.040660E+00  4.401723E-05 -1.591418E+02 
2.364722E-03 8.161425E+01  1.000396E+00 -9.245814E+00  2.910389E-04 8.701911E+01  3.550389E-04 7.638965E+01 
2.998268E-05 1.696954E+02  2.839755E-04 9.032855E+01  9.981773E-01 -7.084125E+00  7.210161E-03 8.277997E+01 
2.771543E-05 8.012519E+01  3.826265E-04 7.189796E+01  7.138737E-03 8.212071E+01  9.999205E-01 -6.767073E+00 
1.169375E+02  9.973157E-01 -1.252291E+01  2.348483E-03 7.878961E+01  6.953229E-05 8.252329E+01  2.441933E-05 -5.097256E+01 
2.373537E-03 7.963635E+01  1.000641E+00 -9.558118E+00  2.796420E-04 7.784788E+01  3.945830E-04 7.965105E+01 
5.120968E-05 8.406237E+01  3.121296E-04 8.288290E+01  9.987152E-01 -7.298483E+00  7.371565E-03 8.189959E+01 
1.647201E-05 -3.979444E+01  3.947973E-04 8.414983E+01  7.397944E-03 8.206636E+01  9.985915E-01 -6.951858E+00 
1.206562E+02  1.000400E+00 -1.280246E+01  2.474527E-03 7.782512E+01  1.180488E-04 6.608440E+01  2.763910E-05 -1.520152E+02 
2.488534E-03 7.928395E+01  9.992636E-01 -9.725627E+00  2.649152E-04 8.911102E+01  4.201625E-04 8.159239E+01 
4.025895E-05 1.633178E+02  2.971269E-04 8.197139E+01  9.979187E-01 -7.487527E+00  7.549195E-03 8.177371E+01 
3.386071E-05 -9.843642E+01  4.125410E-04 6.629188E+01  7.614658E-03 8.206460E+01  9.990563E-01 -7.163531E+00 
1.243750E+02  9.997457E-01 -1.318152E+01  2.618236E-03 7.811496E+01  9.180272E-05 -6.699149E+00  5.838054E-05 -1.755152E+02 
2.547139E-03 8.001343E+01  1.000828E+00 -1.009043E+01  2.570258E-04 8.336724E+01  4.020622E-04 7.391014E+01 
1.100702E-05 -9.197891E+01  3.245541E-04 7.701143E+01  9.986100E-01 -7.681777E+00  7.743918E-03 8.146534E+01 
8.223138E-05 -1.262726E+01  3.521754E-04 7.818729E+01  7.703377E-03 8.115500E+01  9.989410E-01 -7.341428E+00 
1.280938E+02  9.989052E-01 -1.359290E+01  2.684839E-03 8.086593E+01  6.938593E-05 -1.291989E+02  3.318883E-05 -1.747400E+02 
2.671850E-03 7.940599E+01  1.001436E+00 -1.037661E+01  2.974821E-04 8.372407E+01  4.970213E-04 7.629487E+01 
4.327707E-05 1.859050E+01  4.109067E-04 7.924048E+01  9.982238E-01 -7.925921E+00  7.830047E-03 8.158847E+01 
5.020460E-05 -5.826503E+00  4.254892E-04 8.029674E+01  7.792065E-03 8.151712E+01  9.994596E-01 -7.606246E+00 
1.318125E+02  9.997911E-01 -1.402957E+01  2.715701E-03 7.866699E+01  4.925136E-05 -1.821197E+00  2.859620E-05 -1.024755E+02 
2.718301E-03 7.854038E+01  1.000561E+00 -1.066765E+01  3.801631E-04 7.539599E+01  4.542356E-04 8.094673E+01 
5.083890E-05 3.357125E+01  3.577011E-04 6.386654E+01  9.986560E-01 -8.161122E+00  8.266462E-03 8.355651E+01 
3.164817E-05 8.227714E+00  4.882715E-04 7.286034E+01  8.283758E-03 8.402263E+01  9.989624E-01 -7.793104E+00 
1.355312E+02  9.985432E-01 -1.437564E+01  2.878964E-03 7.731369E+01  1.785381E-05 7.091836E+00  9.511012E-06 -1.765792E+02 
2.790960E-03 7.549920E+01  9.998962E-01 -1.094515E+01  3.794666E-04 6.249901E+01  5.160261E-04 8.055817E+01 
4.177056E-05 -1.577252E+02  3.920314E-04 7.908818E+01  9.981140E-01 -8.384030E+00  8.373396E-03 8.358385E+01 
6.185601E-06 -1.199553E+01  4.953866E-04 7.659444E+01  8.361229E-03 8.361345E+01  9.997555E-01 -8.084914E+00 
1.392500E+02  9.993678E-01 -1.484195E+01  2.837106E-03 7.899447E+01  8.522436E-06 -1.671750E+02  5.337715E-05 3.670921E+01 
2.850785E-03 7.739429E+01  1.000153E+00 -1.127782E+01  2.866169E-04 8.519651E+01  3.632285E-04 8.846830E+01 
5.647937E-05 1.748639E+02  3.048614E-04 7.217922E+01  9.976902E-01 -8.588897E+00  9.181236E-03 8.172324E+01 
4.652447E-05 -1.845007E+01  4.052570E-04 8.012224E+01  9.187708E-03 8.141397E+01  9.985701E-01 -8.215245E+00 
1.429688E+02  9.982741E-01 -1.510407E+01  2.966902E-03 8.037458E+01  5.630562E-06 9.618243E+01  3.986184E-05 8.884733E+01 
3.029159E-03 7.910739E+01  9.990433E-01 -1.156811E+01  3.374041E-04 7.562767E+01  4.664132E-04 7.766214E+01 
8.157735E-05 -1.629132E+02  3.297988E-04 9.491069E+01  9.980959E-01 -8.793600E+00  9.521468E-03 7.959687E+01 
1.545822E-05 9.221074E+01  4.846322E-04 8.041713E+01  9.589851E-03 8.004469E+01  9.982557E-01 -8.547548E+00 
1.466875E+02  9.989756E-01 -1.550478E+01  3.023049E-03 7.451694E+01  4.892836E-05 1.462107E+02  4.032016E-05 -1.469725E+02 
3.000521E-03 7.486020E+01  9.996466E-01 -1.179618E+01  3.970433E-04 7.897118E+01  4.229239E-04 7.910536E+01 
2.011898E-05 1.050033E+01  4.071945E-04 7.860006E+01  9.984065E-01 -8.954864E+00  9.247052E-03 8.011050E+01 
8.046795E-05 -1.575526E+02  4.837083E-04 8.400014E+01  9.278504E-03 7.945642E+01  9.991272E-01 -8.644406E+00 
1.504062E+02  9.984309E-01 -1.590428E+01  3.093329E-03 7.530422E+01  2.947780E-05 -2.309756E+01  1.575497E-05 -6.132663E+01 
3.122255E-03 7.642164E+01  1.000270E+00 -1.216294E+01  4.115743E-04 7.937817E+01  5.207341E-04 7.519041E+01 
2.884453E-05 2.487768E+01  3.903183E-04 7.751894E+01  9.989469E-01 -9.186568E+00  9.065418E-03 7.844445E+01 
1.604526E-05 3.592790E+01  5.653822E-04 7.946131E+01  9.172767E-03 7.798681E+01  9.981477E-01 -8.936118E+00 
1.541250E+02  9.980010E-01 -1.629433E+01  3.199905E-03 7.597114E+01  5.207116E-05 1.331320E+02  6.990946E-05 -7.002447E+01 
3.195851E-03 7.579834E+01  9.991437E-01 -1.243968E+01  3.699048E-04 8.169939E+01  5.084726E-04 8.176488E+01 
1.551605E-05 -1.411801E+02  3.710051E-04 8.335646E+01  9.975949E-01 -9.349509E+00  9.621660E-03 8.063619E+01 
5.109754E-05 -1.044238E+02  5.232979E-04 8.037280E+01  9.715904E-03 8.074264E+01  9.984549E-01 -9.133029E+00 
1.578438E+02  9.991028E-01 -1.669933E+01  3.186836E-03 7.578713E+01  2.219089E-05 2.182310E+01  4.434803E-05 -2.901952E+01 
3.208276E-03 7.515167E+01  9.993410E-01 -1.276899E+01  3.987212E-04 9.017053E+01  5.011596E-04 7.566264E+01 
1.649472E-05 1.013876E+02  4.078167E-04 8.361157E+01  9.970087E-01 -9.583518E+00  9.996089E-03 7.894692E+01 
3.049509E-05 -2.833996E+01  5.515411E-04 8.022505E+01  9.961214E-03 7.898752E+01  9.988837E-01 -9.352382E+00 
1.615625E+02  9.984940E-01 -1.706496E+01  3.339502E-03 7.477312E+01  5.302478E-05 -1.138284E+02  4.199300E-05 -7.469060E+01 
3.317326E-03 7.453001E+01  9.995406E-01 -1.297681E+01  4.055929E-04 7.917790E+01  5.589272E-04 8.383796E+01 
2.884462E-05 5.645040E+01  3.757849E-04 8.173832E+01  9.989932E-01 -9.803565E+00  1.012678E-02 7.938355E+01 
3.995438E-05 -7.912807E+01  5.552301E-04 8.068007E+01  1.013735E-02 7.931586E+01  9.996499E-01 -9.416850E+00 
1.652812E+02  9.951716E-01 -1.734356E+01  3.443599E-03 7.568276E+01  5.555013E-05 -1.880772E+00  3.541524E-05 -1.405495E+02 
3.358856E-03 7.500543E+01  9.982017E-01 -1.336950E+01  4.054221E-04 7.851244E+01  5.909707E-04 7.962575E+01 
3.769584E-05 4.248338E+00  4.216111E-04 7.297583E+01  9.970149E-01 -1.006144E+01  1.049945E-02 7.800593E+01 
3.206567E-05 4.528706E+01  5.961163E-04 8.116260E+01  1.046600E-02 7.825310E+01  9.985104E-01 -9.814047E+00 
1.690000E+02  9.974511E-01 -1.778789E+01  3.435887E-03 7.458823E+01  2.195578E-05 -1.213221E+02  1.470405E-05 1.322797E+02 
3.416886E-03 7.363889E+01  9.977126E-01 -1.356576E+01  4.157949E-04 7.601071E+01  5.119093E-04 7.649202E+01 
2.615981E-05 -1.511577E+02  4.106882E-04 7.143716E+01  9.966291E-01 -1.019569E+01  1.050054E-02 7.781133E+01 
1.416977E-05 -6.818381E-01  6.099072E-04 7.752838E+01  1.053205E-02 7.773253E+01  9.973263E-01 -1.000838E+01 
1.727188E+02  9.978654E-01 -1.816264E+01  3.495358E-03 7.410475E+01  2.276872E-05 -1.712535E+02  1.647841E-05 1.516221E+02 
3.543279E-03 7.398855E+01  9.982178E-01 -1.388745E+01  4.582810E-04 7.860924E+01  5.517465E-04 7.401932E+01 
1.498830E-05 2.482309E+01  4.827977E-04 7.643253E+01  9.973334E-01 -1.041033E+01  9.822494E-03 7.840726E+01 
2.932962E-05 -1.171890E+02  5.911934E-04 7.435331E+01  9.861462E-03 7.826562E+01  9.973371E-01 -1.024813E+01 
1.764375E+02  9.984570E-01 -1.853534E+01  3.585917E-03 7.341340E+01  1.535262E-05 3.099351E+00  4.129675E-05 1.490815E+02 
3.578141E-03 7.365497E+01  9.984352E-01 -1.426674E+01  4.313942E-04 7.955915E+01  5.964985E-04 7.550132E+01 
3.661947E-05 5.609228E+01  4.399837E-04 7.477165E+01  9.969952E-01 -1.056521E+01  1.062044E-02 8.006554E+01 
9.877629E-06 -1.356415E+02  6.195531E-04 8.073911E+01  1.061139E-02 8.003768E+01  9.971342E-01 -1.050785E+01 
1.801562E+02  9.981729E-01 -1.891752E+01  3.683181E-03 7.298529E+01  1.063019E-05 -1.605621E+02  2.491991E-05 1.545019E+02 
3.703954E-03 7.331612E+01  9.977641E-01 -1.450393E+01  3.995799E-04 7.373584E+01  5.677967E-04 7.144626E+01 
5.964019E-06 -3.531368E+01  4.655752E-04 7.263480E+01  9.974375E-01 -1.078722E+01  1.141513E-02 8.043186E+01 
1.399108E-05 9.132270E+01  5.889817E-04 7.361043E+01  1.140939E-02 8.051711E+01  9.981423E-01 -1.049201E+01 
1.838750E+02  9.983070E-01 -1.932033E+01  3.723312E-03 7.304200E+01  4.998471E-05 1.225254E+02  2.859108E-05 5.846266E+01 
3.736828E-03 7.286273E+01  9.975652E-01 -1.482130E+01  4.120269E-04 6.878250E+01  6.282888E-04 7.209394E+01 
1.853704E-05 -7.554233E+01  4.333021E-04 7.104630E+01  9.975771E-01 -1.105226E+01  1.158595E-02 8.050620E+01 
2.544613E-05 8.165067E+01  6.202968E-04 7.011985E+01  1.166477E-02 8.052642E+01  9.982518E-01 -1.078688E+01 
1.875938E+02  9.980683E-01 -1.972565E+01  3.833639E-03 7.319827E+01  4.144410E-05 1.564461E+02  1.262573E-05 -5.697034E+00 
3.793932E-03 7.251089E+01  9.982282E-01 -1.514877E+01  4.783148E-04 7.704583E+01  6.422014E-04 7.452157E+01 
1.843173E-05 1.093690E+01  4.455350E-04 6.931042E+01  9.966697E-01 -1.127882E+01  1.176361E-02 7.697130E+01 
1.456225E-05 1.498017E+02  5.967607E-04 7.516725E+01  1.177418E-02 7.706062E+01  9.984557E-01 -1.103290E+01 
1.913125E+02  9.983052E-01 -1.997905E+01  3.803416E-03 7.254329E+01  5.410186E-05 -4.281049E+01  8.262467E-06 -1.428817E+02 
3.810814E-03 7.214827E+01  9.977611E-01 -1.533693E+01  4.370764E-04 7.649297E+01  6.172492E-04 7.858878E+01 
2.321070E-05 -1.232346E+02  4.301609E-04 7.931803E+01  9.970251E-01 -1.150470E+01  1.203863E-02 7.667326E+01 
1.344389E-05 4.872093E+01  6.477855E-04 7.817278E+01  1.206893E-02 7.697427E+01  9.977175E-01 -1.130730E+01 
1.950312E+02  9.978661E-01 -2.032713E+01  3.925498E-03 7.193679E+01  1.580658E-05 1.515915E+02  4.655921E-05 -4.326102E+01 
3.930288E-03 7.212388E+01  9.976936E-01 -1.566073E+01  4.301678E-04 7.338227E+01  6.373105E-04 7.623754E+01 
4.576898E-05 2.645353E+01  4.241271E-04 7.062521E+01  9.970899E-01 -1.170239E+01  1.212839E-02 7.792801E+01 
3.692645E-06 -2.560702E+00  6.266363E-04 7.864542E+01  1.216072E-02 7.793477E+01  9.980897E-01 -1.142320E+01 
1.987500E+02  9.986055E-01 -2.081173E+01  3.971801E-03 7.216946E+01  1.624075E-05 9.949687E+01  2.148290E-05 -8.513813E+01 
4.009186E-03 7.210062E+01  9.989502E-01 -1.598674E+01  4.227362E-04 6.806375E+01  6.383921E-04 7.057945E+01 
1.583298E-05 1.653691E+02  4.326297E-04 7.036044E+01  9.970634E-01 -1.194109E+01  1.203478E-02 7.830221E+01 
5.475363E-05 1.499498E+01  6.593057E-04 7.595995E+01  1.201022E-02 7.825652E+01  9.977514E-01 -1.171270E+01 
2.024688E+02  9.974809E-01 -2.115032E+01  4.120266E-03 7.080042E+01  1.608962E-05 -1.790405E+00  3.447700E-05 -1.355251E+02 
4.140457E-03 7.144844E+01  9.990595E-01 -1.631402E+01  5.122352E-04 7.866332E+01  6.394557E-04 7.665689E+01 
2.550717E-05 1.568810E+02  4.851403E-04 8.208481E+01  9.982137E-01 -1.217143E+01  1.267513E-02 7.661389E+01 
3.889942E-05 -9.584208E+01  6.358461E-04 7.781386E+01  1.276719E-02 7.670720E+01  9.970557E-01 -1.197812E+01 
2.061875E+02  9.986779E-01 -2.159473E+01  4.122100E-03 7.058199E+01  8.648439E-05 -1.454683E+02  2.001058E-05 -7.922033E+01 
4.116710E-03 7.128368E+01  9.988317E-01 -1.663162E+01  4.314762E-04 7.474833E+01  6.633377E-04 7.739884E+01 
4.868144E-05 9.707998E+01  5.235655E-04 7.066559E+01  9.971645E-01 -1.238869E+01  1.271844E-02 7.681585E+01 
3.089086E-05 -8.225618E+01  6.529003E-04 7.410715E+01  1.270899E-02 7.700239E+01  9.991742E-01 -1.212777E+01 
