! Matrix data file written by TouchstoneData, EPCOS AG
! FILENAME: "ptable_B4402_02_NB_matched.s4p"
! COMMENT: "S4P matched (B4402_02_NB_matched.s4p)"
! INFO: nport=4, nfreq=1601
! DATE: "Tue Feb 12 13:03:31 2013"
! USER: "Michael Schemies"
!
! port | pin | signal
! -----|-----|--------
!   1  |  3  |  Tx
!   2  |  6  |  Ant
!   3  |  8  |  Rx
!   4  |  1  |  Rx
! --------------------
!
# MHZ S RI R 50
! freq  reS11 imS11  reS12 imS12  reS13 imS13  reS14 imS14  ...
707  -0.674858189447617 -0.657941343655903  0.00577241639477021 0.00122618262781571  -0.000159224031009884 7.8338271378512e-05  -0.000343142742824191 9.83310835432082e-05
0.00577241639477021 0.00122618262781571  0.787027973939893 -0.516990581151753  0.000865392340018123 -0.000313614315819874  -0.00155977220199869 0.000354225548193749
-0.000159224031009884 7.8338271378512e-05  0.000865392340018123 -0.000313614315819874  0.341655023878518 -0.911655229467159  0.0194012250964218 0.00590371321579676
-0.000343142742824191 9.83310835432082e-05  -0.00155977220199869 0.000354225548193749  0.0194012250964218 0.00590371321579676  0.349829069227802 -0.911545108206088
707.075  -0.675253621857023 -0.657796064524152  0.00576681536034319 0.00120883093202064  -0.000175828243172989 5.42087532387566e-05  -0.00032559122779124 9.0670299269125e-05
0.00576681536034319 0.00120883093202064  0.787536620004642 -0.519004727644001  0.000930719869641915 -0.000347671254327974  -0.0015846079838523 0.000355747016869497
-0.000175828243172989 5.42087532387566e-05  0.000930719869641915 -0.000347671254327974  0.340645107221555 -0.91173652113651  0.0192453531529526 0.00578536265695916
-0.00032559122779124 9.0670299269125e-05  -0.0015846079838523 0.000355747016869497  0.0192453531529526 0.00578536265695916  0.348665998326125 -0.91162532124785
707.15  -0.675925810939831 -0.657655814274414  0.00574959961800183 0.0012595213044142  -0.000171367615010918 5.06007251517185e-05  -0.000321340940166763 0.000104444104799173
0.00574959961800183 0.0012595213044142  0.786738728419569 -0.521509181847501  0.000966573410592828 -0.000344324833723837  -0.00168803929643595 0.000354089019057377
-0.000171367615010918 5.06007251517185e-05  0.000966573410592828 -0.000344324833723837  0.339561548118689 -0.911923589548449  0.0191587562716087 0.00569612255250851
-0.000321340940166763 0.000104444104799173  -0.00168803929643595 0.000354089019057377  0.0191587562716087 0.00569612255250851  0.347506295649207 -0.911964220451749
707.225  -0.676459583528955 -0.657265633084732  0.00573260414490301 0.00126406009234758  -0.000173024216490702 5.56342889748648e-05  -0.000330981594033161 0.000118253803653657
0.00573260414490301 0.00126406009234758  0.786217331692323 -0.523722858700251  0.00106223305271145 -0.000400144001489866  -0.00176998710923292 0.000351876432536017
-0.000173024216490702 5.56342889748648e-05  0.00106223305271145 -0.000400144001489866  0.338550611523477 -0.91247985418711  0.019087514478015 0.00561607414627573
-0.000330981594033161 0.000118253803653657  -0.00176998710923292 0.000351876432536017  0.019087514478015 0.00561607414627573  0.346216589190249 -0.912315577730355
707.3  -0.676829901753309 -0.657063035744285  0.00574946633932693 0.00129532809771216  -0.000150551090547562 6.08794734397387e-05  -0.000330752655983476 9.30513585856567e-05
0.00574946633932693 0.00129532809771216  0.785577188815102 -0.525527072741426  0.00114407605394051 -0.000454585469631299  -0.00186856771120417 0.000395022589988504
-0.000150551090547562 6.08794734397387e-05  0.00114407605394051 -0.000454585469631299  0.337256379969686 -0.912613271566978  0.0190646923450426 0.00549184196729797
-0.000330752655983476 9.30513585856567e-05  -0.00186856771120417 0.000395022589988504  0.0190646923450426 0.00549184196729797  0.345018996025415 -0.912486813367966
707.375  -0.677451307734845 -0.656828517140774  0.0057634042735635 0.00129372227280588  -0.000144079814350505 5.10153952521603e-05  -0.000328080521773381 9.62271800199721e-05
0.0057634042735635 0.00129372227280588  0.78457907711604 -0.527419617693296  0.00121858539217086 -0.000488696555608686  -0.0019725364030957 0.000414395152586616
-0.000144079814350505 5.10153952521603e-05  0.00121858539217086 -0.000488696555608686  0.335847684464178 -0.912726656719902  0.0190799011350565 0.00533813627897123
-0.000328080521773381 9.62271800199721e-05  -0.0019725364030957 0.000414395152586616  0.0190799011350565 0.00533813627897123  0.343861235789591 -0.912690030151034
707.45  -0.677959525095937 -0.656428869931923  0.00574692189383302 0.00128290642168775  -0.000167821671524418 5.16851228772871e-05  -0.000339957618560211 0.000112936640019395
0.00574692189383302 0.00128290642168775  0.783886807239875 -0.52917537566587  0.00131977952368515 -0.000545561488639373  -0.00210654459523019 0.000464306448108892
-0.000167821671524418 5.16851228772871e-05  0.00131977952368515 -0.000545561488639373  0.334799391561521 -0.912701523360209  0.0191138765582907 0.00512876385833136
-0.000339957618560211 0.000112936640019395  -0.00210654459523019 0.000464306448108892  0.0191138765582907 0.00512876385833136  0.342423271110632 -0.912846441193509
707.525  -0.678372627767642 -0.656347292688577  0.00575629797711583 0.00127334656114046  -0.000168675625358514 5.00302902562467e-05  -0.000334790890304378 0.000110482354877565
0.00575629797711583 0.00127334656114046  0.78277448208241 -0.531025857056231  0.00145667211639099 -0.000626551428339274  -0.00221325612335918 0.000543685187906668
-0.000168675625358514 5.00302902562467e-05  0.00145667211639099 -0.000626551428339274  0.33327631543023 -0.912909295494624  0.0191505562375447 0.00488487562330287
-0.000334790890304378 0.000110482354877565  -0.00221325612335918 0.000543685187906668  0.0191505562375447 0.00488487562330287  0.340932765312019 -0.912874295750592
707.6  -0.679016260318292 -0.656158257414971  0.00575895374515967 0.0012943671931691  -0.000179717965454757 7.18034787458999e-05  -0.000331863002684627 0.000142507560751643
0.00575895374515967 0.0012943671931691  0.782045995060188 -0.532197133109228  0.00157349124737287 -0.000668021172845567  -0.00234176362191745 0.000665451930306062
-0.000179717965454757 7.18034787458999e-05  0.00157349124737287 -0.000668021172845567  0.331787193638715 -0.912669532275284  0.0191790138394557 0.00459534438378315
-0.000331863002684627 0.000142507560751643  -0.00234176362191745 0.000665451930306062  0.0191790138394557 0.00459534438378315  0.339812474720967 -0.91279574913474
707.675  -0.679454798715102 -0.655367697059834  0.00574627710716858 0.00129557912843263  -0.000176541445056275 6.70787285866569e-05  -0.000350090430226523 0.000121414469629317
0.00574627710716858 0.00129557912843263  0.780615678990616 -0.533669430078003  0.00174516706243113 -0.000739572309842985  -0.00248360907932272 0.000747046594896681
-0.000176541445056275 6.70787285866569e-05  0.00174516706243113 -0.000739572309842985  0.330175714829628 -0.912637304284213  0.0192168693192964 0.00420066877556254
-0.000350090430226523 0.000121414469629317  -0.00248360907932272 0.000747046594896681  0.0192168693192964 0.00420066877556254  0.338292074528183 -0.913006801911962
707.75  -0.679882871685294 -0.655180722597795  0.00577144144681857 0.0012874705883805  -0.000172043840825774 3.85105857603566e-05  -0.000335876712271036 0.000106209669411452
0.00577144144681857 0.0012874705883805  0.77926361569089 -0.535615298791139  0.00190773082591199 -0.000935461069711693  -0.00267202360199999 0.000896126530059232
-0.000172043840825774 3.85105857603566e-05  0.00190773082591199 -0.000935461069711693  0.328897978573587 -0.912192811479683  0.0192457633553364 0.0037844087578498
-0.000335876712271036 0.000106209669411452  -0.00267202360199999 0.000896126530059232  0.0192457633553364 0.0037844087578498  0.33723658470627 -0.912757151640096
707.825  -0.680509857526185 -0.654640545723301  0.00579440069291725 0.00127046855767314  -0.000160682177962339 6.06311806739682e-05  -0.000328899370494906 0.000108269569698114
0.00579440069291725 0.00127046855767314  0.778356309980757 -0.536505059056659  0.00210902760898501 -0.00111454566420358  -0.00281240051681681 0.00109690499045704
-0.000160682177962339 6.06311806739682e-05  0.00210902760898501 -0.00111454566420358  0.327572584898278 -0.911652234368627  0.0192613787866332 0.00324300203333846
-0.000328899370494906 0.000108269569698114  -0.00281240051681681 0.00109690499045704  0.0192613787866332 0.00324300203333846  0.335786280624164 -0.912430544058998
707.9  -0.681114686496196 -0.65419545122301  0.00575443074298434 0.00127410608907647  -0.000175374244273382 4.98669996288136e-05  -0.00032500389885065 0.000122706977723831
0.00575443074298434 0.00127410608907647  0.777046565862064 -0.537983331481917  0.00230133543381657 -0.00138643670524885  -0.00293336942935088 0.00136754722739132
-0.000175374244273382 4.98669996288136e-05  0.00230133543381657 -0.00138643670524885  0.326005260396034 -0.910903126557926  0.0192743766970438 0.00259701752842675
-0.00032500389885065 0.000122706977723831  -0.00293336942935088 0.00136754722739132  0.0192743766970438 0.00259701752842675  0.334264990631003 -0.912050072796831
707.975  -0.681149223822693 -0.653662043737727  0.00577835458221648 0.00127015550536689  -0.000170253969326941 4.48711590190297e-05  -0.00034191752294973 0.000123316338314438
0.00577835458221648 0.00127015550536689  0.775216039115215 -0.538932264235978  0.00251490003824838 -0.00170210598998838  -0.00307827664274703 0.00168376432075337
-0.000170253969326941 4.48711590190297e-05  0.00251490003824838 -0.00170210598998838  0.324791021274742 -0.910276694818861  0.0191847758502968 0.00178135478326732
-0.00034191752294973 0.000123316338314438  -0.00307827664274703 0.00168376432075337  0.0191847758502968 0.00178135478326732  0.333256851973945 -0.911231360163392
708.05  -0.681788795432974 -0.6533301440124  0.00582382935009689 0.00131559926036733  -0.000161094190178168 5.4368854623675e-05  -0.000352383742243139 0.000110569524371233
0.00582382935009689 0.00131559926036733  0.774589941059899 -0.53971893197207  0.00260687749597036 -0.00214803324743993  -0.00308927970255434 0.00205823752838849
-0.000161094190178168 5.4368854623675e-05  0.00260687749597036 -0.00214803324743993  0.323810179410366 -0.908814474989168  0.0188495045122546 0.000767910712317639
-0.000352383742243139 0.000110569524371233  -0.00308927970255434 0.00205823752838849  0.0188495045122546 0.000767910712317639  0.332397219439026 -0.910856582001587
708.125  -0.682285738012758 -0.652947990453203  0.00580570447699628 0.00128001003668342  -0.000174317205392412 3.64821753927809e-05  -0.000330310607348953 0.00011911584318119
0.00580570447699628 0.00128001003668342  0.773660239709099 -0.540627346047968  0.00257332716060327 -0.00268698701658298  -0.00302367550661583 0.00244973895441035
-0.000174317205392412 3.64821753927809e-05  0.00257332716060327 -0.00268698701658298  0.323288822584655 -0.907709983432548  0.0181736394084044 -0.000277636868752206
-0.000330310607348953 0.00011911584318119  -0.00302367550661583 0.00244973895441035  0.0181736394084044 -0.000277636868752206  0.331847058680847 -0.910325229003476
708.2  -0.682706876801649 -0.65240430289371  0.00578706763625279 0.00131239559343232  -0.000174606388356681 4.40197911975516e-05  -0.000332375864315668 0.000121790846092894
0.00578706763625279 0.00131239559343232  0.773573743838979 -0.542027041793299  0.00231564553670704 -0.00324593835058058  -0.00280343139859602 0.0028013086791473
-0.000174606388356681 4.40197911975516e-05  0.00231564553670704 -0.00324593835058058  0.323160150350206 -0.906867931915845  0.0171087032093608 -0.00116790953605498
-0.000332375864315668 0.000121790846092894  -0.00280343139859602 0.0028013086791473  0.0171087032093608 -0.00116790953605498  0.3312785327408 -0.910225269103156
708.275  -0.682914746354245 -0.651839451124406  0.00577595646337352 0.00130706194696872  -0.000171801382993337 5.78242294702379e-05  -0.000334202005308369 0.000108430842253782
0.00577595646337352 0.00130706194696872  0.772337884556062 -0.542815003633575  0.0019285596466067 -0.00365603212193236  -0.00253216491353998 0.00305550474460081
-0.000171801382993337 5.78242294702379e-05  0.0019285596466067 -0.00365603212193236  0.323601799160473 -0.906604251606948  0.0158156148170518 -0.00169889714775523
-0.000334202005308369 0.000108430842253782  -0.00253216491353998 0.00305550474460081  0.0158156148170518 -0.00169889714775523  0.330869389271406 -0.910158717568214
708.35  -0.683473733869982 -0.65132970425328  0.00582381394716995 0.00126796976708939  -0.000170773964501988 4.91900012615736e-05  -0.000312405436199595 0.000127715517628754
0.00582381394716995 0.00126796976708939  0.772018065933919 -0.543983800839704  0.00146910192546948 -0.00384170612581934  -0.00223930943665588 0.00322737386877085
-0.000170773964501988 4.91900012615736e-05  0.00146910192546948 -0.00384170612581934  0.323955531465916 -0.906753906957712  0.0145628381102704 -0.001813171048869
-0.000312405436199595 0.000127715517628754  -0.00223930943665588 0.00322737386877085  0.0145628381102704 -0.001813171048869  0.330513205225365 -0.91005289554257
708.425  -0.683592093913166 -0.651342334609822  0.00582008102050723 0.00125787077929831  -0.000171606073109515 5.43638096496343e-05  -0.000331783498207046 0.000128527814070517
0.00582008102050723 0.00125787077929831  0.771247423197885 -0.545384374778296  0.00112313898479617 -0.00388642475052741  -0.00194795221915834 0.00327638623442965
-0.000171606073109515 5.43638096496343e-05  0.00112313898479617 -0.00388642475052741  0.323808566813364 -0.907045523040732  0.0135840346771272 -0.00173628960519393
-0.000331783498207046 0.000128527814070517  -0.00194795221915834 0.00327638623442965  0.0135840346771272 -0.00173628960519393  0.330084535048221 -0.91068521329511
708.5  -0.683996048370344 -0.650941905320862  0.00582802424475244 0.001218112022772  -0.000176569343853247 7.80247578874407e-05  -0.000326972382964976 0.000115125268089223
0.00582802424475244 0.001218112022772  0.770208288982732 -0.547220975978893  0.000846249738287997 -0.00389565851335092  -0.00174708659915715 0.00330474759184639
-0.000176569343853247 7.80247578874407e-05  0.000846249738287997 -0.00389565851335092  0.323401846789035 -0.907700506666341  0.0127331706420309 -0.00165356481851237
-0.000326972382964976 0.000115125268089223  -0.00174708659915715 0.00330474759184639  0.0127331706420309 -0.00165356481851237  0.329083602599265 -0.910861742909586
708.575  -0.684198503886529 -0.650452213971385  0.00583026324677367 0.00127571691598142  -0.000162796237771482 4.72846629795645e-05  -0.000344063059914472 0.000122065561697559
0.00583026324677367 0.00127571691598142  0.76879270458969 -0.547249469264686  0.00061714134880988 -0.00397064732941999  -0.00162773596304286 0.00338632881594404
-0.000162796237771482 4.72846629795645e-05  0.00061714134880988 -0.00397064732941999  0.322708620199196 -0.907760832041315  0.011938089981177 -0.00162878430659845
-0.000344063059914472 0.000122065561697559  -0.00162773596304286 0.00338632881594404  0.011938089981177 -0.00162878430659845  0.328299887525719 -0.911506642040249
708.65  -0.684574409883311 -0.650307063646864  0.00579557801701666 0.00124948378193445  -0.000163259150540434 5.35310430732101e-05  -0.000346030557220123 0.000105763762030912
0.00579557801701666 0.00124948378193445  0.768602037899267 -0.548885628075051  0.000446042283589162 -0.00400584557411473  -0.00141838102726891 0.00341096480408529
-0.000163259150540434 5.35310430732101e-05  0.000446042283589162 -0.00400584557411473  0.322216291339889 -0.908140283080967  0.0111036684811614 -0.00162350560619988
-0.000346030557220123 0.000105763762030912  -0.00141838102726891 0.00341096480408529  0.0111036684811614 -0.00162350560619988  0.327459754987657 -0.911640703213538
708.725  -0.685057694464775 -0.649975052870622  0.0058314547077128 0.00121443412487264  -0.000175695406225925 5.76369563036346e-05  -0.000330346468510244 0.000135352964292995
0.0058314547077128 0.00121443412487264  0.76739722475938 -0.549921845514299  0.000260113248443135 -0.00409931883328845  -0.00124197066850221 0.00344214553999162
-0.000175695406225925 5.76369563036346e-05  0.000260113248443135 -0.00409931883328845  0.321618999551338 -0.908298096003292  0.0102457973302545 -0.00163549528505879
-0.000330346468510244 0.000135352964292995  -0.00124197066850221 0.00344214553999162  0.0102457973302545 -0.00163549528505879  0.32676381387792 -0.912533134520011
708.8  -0.685080699325067 -0.649792425328302  0.00580918374588037 0.00118557298115312  -0.000176671843531572 5.22564560103885e-05  -0.00032131951410712 0.00012509961130317
0.00580918374588037 0.00118557298115312  0.76670027597777 -0.551329664110777  1.48382151604795e-05 -0.00418387568804032  -0.00105082272078105 0.00345723300873781
-0.000176671843531572 5.22564560103885e-05  1.48382151604795e-05 -0.00418387568804032  0.321052153553627 -0.908506035553198  0.00927357117430825 -0.00155092968174834
-0.00032131951410712 0.00012509961130317  -0.00105082272078105 0.00345723300873781  0.00927357117430825 -0.00155092968174834  0.325405424549841 -0.912495762676862
708.875  -0.685798282523469 -0.649387050234312  0.00579142636834613 0.00120423352022322  -0.000179766066110987 6.13076666561385e-05  -0.00034768746546766 0.000122746425020181
0.00579142636834613 0.00120423352022322  0.765751076717526 -0.552763624974465  -0.000263608046057425 -0.00426953494543361  -0.000924729577104045 0.00342055305055162
-0.000179766066110987 6.13076666561385e-05  -0.000263608046057425 -0.00426953494543361  0.320618210877488 -0.908991704247997  0.00830207140646534 -0.00132377045697493
-0.00034768746546766 0.000122746425020181  -0.000924729577104045 0.00342055305055162  0.00830207140646534 -0.00132377045697493  0.32436294097203 -0.913363290468138
708.95  -0.685965951836197 -0.649075939646287  0.00580445746124236 0.00121502303240386  -0.000166398441311022 5.96254706895655e-05  -0.000336312221052611 0.000129613633219272
0.00580445746124236 0.00121502303240386  0.764722774713823 -0.553372941736405  -0.000555170440095681 -0.00426050314856449  -0.000740741601930645 0.00336928228895609
-0.000166398441311022 5.96254706895655e-05  -0.000555170440095681 -0.00426050314856449  0.319841236368284 -0.909385700558799  0.00738535957494122 -0.00101064954604655
-0.000336312221052611 0.000129613633219272  -0.000740741601930645 0.00336928228895609  0.00738535957494122 -0.00101064954604655  0.322705315530893 -0.913845598089889
709.025  -0.686746781753042 -0.648605000820839  0.00578846615065834 0.00119274730278782  -0.00016370393324733 3.18531422337542e-05  -0.000343059641468763 0.00011157275834326
0.00578846615065834 0.00119274730278782  0.763975265976937 -0.555000017440998  -0.000795388873030956 -0.00425431141282988  -0.000673035688942877 0.00328833015547545
-0.00016370393324733 3.18531422337542e-05  -0.000795388873030956 -0.00425431141282988  0.319156549909402 -0.909585421828476  0.00654958177765827 -0.000603530004777494
-0.000343059641468763 0.00011157275834326  -0.000673035688942877 0.00328833015547545  0.00654958177765827 -0.000603530004777494  0.321032892397938 -0.913973417663651
709.1  -0.687155409975431 -0.648219870197711  0.00578670872336687 0.00122196360091074  -0.000155840980183921 3.737239938196e-05  -0.000340996003164172 0.000120216118394124
0.00578670872336687 0.00122196360091074  0.763291984700823 -0.555731432721092  -0.00103535278540193 -0.00414582180510263  -0.000613884337977693 0.00323696723685639
-0.000155840980183921 3.737239938196e-05  -0.00103535278540193 -0.00414582180510263  0.31850047301909 -0.910267121831068  0.00575942413891883 -0.000230731059840365
-0.000340996003164172 0.000120216118394124  -0.000613884337977693 0.00323696723685639  0.00575942413891883 -0.000230731059840365  0.319593312323168 -0.914059253063168
709.175  -0.687814871855904 -0.647683613865239  0.00581066073789165 0.00121414418453511  -0.000174424431012421 5.37546161188329e-05  -0.000318446256023263 0.000125945513143647
