! Matrix data file written by TouchstoneData, EPCOS AG
! FILENAME: "ptable_B4406_02_NB.s4p"
! COMMENT: "(B4406_02_NB.s4p) Epcos AG 1/21/2013 4:22:54"
! INFO: nport=4, nfreq=1601
! DATE: "Wed Feb 13 20:40:06 2013"
! USER: "Michael Schemies"
!
! port | pin | signal
! -----|-----|--------
!   1  |  3  |  Tx
!   2  |  6  |  Ant
!   3  |  8  |  Rx
!   4  |  1  |  Rx
! --------------------
!
# MHZ S RI R 50
! freq  reS11 imS11  reS12 imS12  reS13 imS13  reS14 imS14  ...
1600  -0.786187410354613 -0.467085123062133  -0.00173344567883759 0.00555987702682613  -0.000239938395679929 -3.53054892912042e-05  -0.000461207033367829 0.000115709626697935
-0.00169698242098093 0.00552626140415667  -0.534681797027587 -0.796637833118438  0.000278211839031429 0.000518193177413196  0.000632411974947901 0.000125652368296869
-0.000231811471167021 -7.69815669627862e-05  0.000283690926153213 0.000502506678458304  0.228594541549682 -0.765845358371734  0.511696398258208 0.174479186534881
-0.000432534550782294 0.000109121720015537  0.000626170134637506 0.000114608214062173  0.513194799423217 0.171091690659523  0.304613023996353 -0.74017584323883
1600.25  -0.786655247211455 -0.465685129165649  -0.00175689195748418 0.00559019856154917  -0.000218651490285993 -6.46194821456448e-05  -0.000456469802884386 8.99173246580178e-05
-0.00173073750920593 0.00555509142577647  -0.535161137580871 -0.795947074890136  0.000263178342720494 0.000528138945810498  0.000624612031970174 0.000133985464344733
-0.000224797520786524 -5.98498663748616e-05  0.000280069099972025 0.000528362230397762  0.228314042091369 -0.7658132314682  0.511843085289001 0.174437955021858
-0.000437003618571908 8.96304118214177e-05  0.000653197406791152 0.000110401779238601  0.513488411903381 0.170832365751266  0.304318904876709 -0.740030825138091
1600.5  -0.787012815475463 -0.4639393389225  -0.00175655994098633 0.00562373502179979  -0.000230473873671145 -4.64485674456228e-05  -0.000447052967501805 0.000117161980597303
-0.00173003482632339 0.00563235813751816  -0.535708189010619 -0.795592486858367  0.000273697165539489 0.00052606815006584  0.000633183983154596 0.000132834684336558
-0.000217455133679323 -5.5150372645585e-05  0.000288642768282444 0.000520646863151343  0.227829024195671 -0.765739023685454  0.512058317661285 0.174001350998878
-0.000467168836621569 0.000109048771264497  0.000634987605735661 0.000128179191960953  0.513567447662353 0.170599997043609  0.304114371538162 -0.7398122549057
1600.75  -0.787310540676116 -0.462602704763412  -0.00178383919410407 0.00562441628426312  -0.00026363431243226 -6.80722150718794e-05  -0.000441649579443038 8.85459448909389e-05
-0.00173767679370939 0.00564688351005314  -0.536460757255553 -0.795063316822051  0.000289005023660139 0.000521442212630064  0.000627416360657664 0.000120734788652044
-0.000242881404119544 -7.86299642641099e-05  0.000288342795101926 0.000535004364792259  0.227555140852928 -0.765565276145934  0.512184977531432 0.173746138811111
-0.000449723273050041 0.000102535675978288  0.000640194921288641 0.000127782783238218  0.514006972312927 0.170327201485634  0.303829103708267 -0.739705204963683
1601  -0.787512242794036 -0.461788177490234  -0.00174963660538196 0.00567366555333136  -0.000210998550755904 -8.2672188000288e-05  -0.000440328905824573 9.76681549218485e-05
-0.00174312689341604 0.00570131838321684  -0.536943793296813 -0.794648766517638  0.000294007943011821 0.00053262378787622  0.000640794984064998 0.000143410841701553
-0.000239296481595375 -5.1540195272537e-05  0.000274361897027121 0.000518625252880157  0.227441534399986 -0.765447258949279  0.512335419654846 0.173348978161812
-0.000434877292718739 0.000109147731564008  0.000598233134951444 0.000133532215841115  0.514137804508208 0.169874727725982  0.303696185350418 -0.739306867122649
1601.25  -0.787835955619811 -0.460946083068847  -0.0017568381736055 0.00568141834810375  -0.000226765332627111 -5.05039315612522e-05  -0.000434938381658868 9.8182135843672e-05
-0.00174744892865419 0.00568955484777688  -0.537550330162048 -0.79412668943405  0.000287346600089223 0.00051726563833654  0.000651711074169727 0.000155035420903005
-0.000237322572502308 -6.04655760980678e-05  0.00031692726770416 0.000526531308423729  0.227401673793792 -0.765353739261626  0.512267768383025 0.173004165291786
-0.000446268997620792 8.42752415337601e-05  0.000654166738968344 0.000129176463815384  0.514360904693603 0.169398009777069  0.3035928606987 -0.738966166973113
1601.5  -0.788677752017974 -0.459815919399261  -0.00182467512786388 0.00570855336263774  -0.000247383635723964 -4.83158582937905e-05  -0.000451316765975208 0.000116443741717376
-0.00179843755904585 0.00570823252201079  -0.538177132606506 -0.793694972991942  0.000298282189760358 0.000519017456099392  0.000639926234725864 0.000132268047309481
-0.000239343746216037 -3.97001094825101e-05  0.000304403831250966 0.000530182092916222  0.227256745100021 -0.765146613121032  0.512117087841033 0.172656193375587
-0.000455411965958775 9.29166271816941e-05  0.000644876738078894 0.000156116089783609  0.514155030250549 0.169173702597618  0.30372479557991 -0.738638222217559
1601.75  -0.789068579673766 -0.458840101957321  -0.00185047485865652 0.00575869763270019  -0.000221319380216301 -4.37121234426741e-05  -0.000456173351267354 0.000113983485789504
-0.00183239358011633 0.00574285816401242  -0.538533151149749 -0.793404579162597  0.000322306907037274 0.000518307730089874  0.000679051852785052 0.000132044893689454
-0.000230779609410093 -4.50130246463233e-05  0.000311138574033976 0.000505760137457402  0.227250605821609 -0.765140175819396  0.51201045513153 0.172443851828575
-0.000467699341243134 0.000118845120596234  0.000657010707072915 0.000124307669466362  0.514153003692626 0.168855294585228  0.303955256938934 -0.738271474838256
1602  -0.789863467216491 -0.457835882902145  -0.00185891764704138 0.00577264791354536  -0.000241211484535598 -3.74194423784503e-05  -0.000440391595475377 9.53183989622632e-05
-0.0018375173676759 0.00577053381130098  -0.539122164249419 -0.792964100837706  0.000301820691674948 0.000517361739184708  0.000671961228363217 0.000111006498627831
-0.000248328229645268 -5.32268604729326e-05  0.000318872014759109 0.000516845495440067  0.227303877472877 -0.765225291252135  0.511961817741393 0.172285065054893
-0.000453841930720956 0.000110060231236276  0.000681079225614668 0.000109520267869812  0.514201521873473 0.16871103644371  0.304408073425293 -0.738256454467772
1602.25  -0.790604948997496 -0.456776648759841  -0.00188903766684234 0.00582011137157677  -0.000222603717702441 -5.47013078175952e-05  -0.000445225654402749 8.11192949186081e-05
-0.0018963977927342 0.00578925292938946  -0.539527714252471 -0.792643845081328  0.000305976311210544 0.000497500877827407  0.000674644135870041 0.000103991573269014
-0.000245744595304132 -6.85306513332763e-05  0.000297135557048023 0.00049842632142827  0.227077171206474 -0.765290141105651  0.51172649860382 0.17199245095253
-0.000431957712862642 0.000122500758152455  0.000672156224027278 0.000115676870336756  0.514069080352782 0.168660670518875  0.304671943187713 -0.738469421863555
1602.5  -0.791152238845824 -0.455547720193862  -0.00193464907351881 0.0058178431354463  -0.000214447718462907 -8.97889040061274e-05  -0.00044987743603997 0.000109981287096162
-0.00191288674250245 0.00582664366811513  -0.539882779121398 -0.792101562023162  0.00030647881794721 0.000517789274454118  0.00067737902281806 0.000122609155368991
-0.000252444704528899 -3.38624886353501e-05  0.000292849261313678 0.000507917196955533  0.227052450180053 -0.765333771705626  0.511578738689422 0.171973764896393
-0.000443723925855012 0.000118970892799553  0.000686876825056972 0.000127417617477477  0.514098405838012 0.168761491775512  0.304693192243576 -0.738950133323668
1602.75  -0.791729688644408 -0.454114854335784  -0.00197498709894716 0.00588155956938862  -0.000241226691287011 -6.65201732772404e-05  -0.000448407023213805 0.000121934703201987
-0.00196764967404306 0.00589136593043803  -0.540525496006011 -0.791824936866759  0.000327255227603019 0.000498394947499038  0.000688964442815633 0.000107445768662729
-0.000252895872108639 -5.30983161297628e-05  0.000342091283528135 0.000465410761535169  0.226539596915245 -0.765551924705504  0.511874258518218 0.171788200736046
-0.000437151640653611 9.41973557928579e-05  0.00066346349194646 0.000114136513730046  0.514201521873473 0.168784409761429  0.304433792829513 -0.739303946495055
1603  -0.791931211948394 -0.452944666147231  -0.00198953179642558 0.00587725872173904  -0.000228644217713736 -4.03676604037174e-05  -0.000450567255029456 0.000104670296423137
-0.0019714836962521 0.00590560724958776  -0.540978133678436 -0.791386485099791  0.00034154998138547 0.000482043367810548  0.00069994857767597 9.82119163381869e-05
-0.000225094408961013 -4.14230562455487e-05  0.000313060882035644 0.000484399148263038  0.226339638233184 -0.76510053873062  0.512098193168639 0.171594932675361
-0.000468452839413659 0.000116863200673834  0.000670335371978582 7.39336683182047e-05  0.514391064643859 0.168730050325393  0.304492175579071 -0.739340484142302
1603.25  -0.792321741580962 -0.451822340488433  -0.00203257426619529 0.00592195289209484  -0.0002277635212522 -5.04986346641091e-05  -0.000445157260401175 0.000123802150483243
-0.00204077223315835 0.00593032920733093  -0.541696786880492 -0.791020870208739  0.000337161298375577 0.000477470457553865  0.000680678349453957 8.40602297103034e-05
-0.000232960679568351 -5.27352494827938e-05  0.000331307441229001 0.000475934386486189  0.226311489939689 -0.764620780944823  0.5119189620018 0.171305313706398
-0.000440305651864038 0.000120007643999998  0.000685646198689939 9.86454469966704e-05  0.514262974262237 0.168477311730385  0.304336637258529 -0.739421546459197
1603.5  -0.792647540569304 -0.451070100069045  -0.00210340740159153 0.00598745467141269  -0.000249461823841557 -7.41958428989166e-05  -0.000427015591412784 0.000113588794192765
-0.00206843623891472 0.00597714632749556  -0.542175352573394 -0.790516614913939  0.00028854311676696 0.000454325432656334  0.000655985495541246 7.220555562526e-05
-0.000234808714594692 -6.2366802012548e-05  0.00028647150611505 0.000497607281431557  0.226748362183571 -0.764297783374785  0.511520683765411 0.171273916959762
-0.000456867448519916 0.000126491999253631  0.000669140601530673 8.6004765762482e-05  0.513875544071197 0.168569251894951  0.304469168186187 -0.739422559738158
1603.75  -0.793380141258239 -0.450281828641891  -0.0020909325685352 0.0060607031919062  -0.000227643657126464 -5.48426869499964e-05  -0.000441565003711731 0.00012520665768534
-0.00207801954820752 0.00603282963857053  -0.542823910713195 -0.789834201335906  0.000280434032902122 0.000445351441157983  0.000685202365275474 5.8872530644294e-05
-0.000243866306846031 -3.44155123457313e-05  0.000302512344205753 0.000476221350254492  0.226881891489029 -0.764615952968596  0.511301577091216 0.17143814265728
-0.000443905126303435 0.000129046820802614  0.000645059102680536 7.38188682589681e-05  0.513710498809814 0.168777108192444  0.304220169782638 -0.739815950393676
1604  -0.794094681739806 -0.449016034603118  -0.00214626430533826 0.00611031567677854  -0.000247400515945629 -5.60439912078438e-05  -0.000446798338089139 9.31425311136992e-05
-0.0021437017712742 0.00609321612864731  -0.543355286121368 -0.789508521556853  0.000290197902359069 0.000481229799333961  0.000642751925624908 7.4303141445853e-05
-0.000234617589740083 -3.10158575302922e-05  0.000300388288451359 0.000452941370895133  0.226775288581848 -0.764658331871032  0.511231422424316 0.171839609742164
-0.000445298734121026 0.000146133956150152  0.000648574670776726 9.93146459222773e-05  0.513717353343963 0.169375211000442  0.304291784763336 -0.740038037300109
1604.25  -0.794687628746032 -0.447900474071502  -0.00215500849299132 0.0061446651816368  -0.000237934771575966 -3.32283925672528e-05  -0.000442588439909742 0.00013016423326917
-0.00216154102236032 0.00614116806536912  -0.543888092041015 -0.789116501808165  0.000255677470704541 0.000466583005618305  0.000669298111461104 6.5083513618447e-05
-0.00022338614508044 -6.41651349724272e-05  0.000276702543487773 0.0004590081225615  0.226662501692772 -0.764851987361907  0.5113787651062 0.17214423418045
-0.000462125637568534 0.000123971025459469  0.00067112472606823 8.83692991919817e-05  0.513953864574432 0.16964390873909  0.304020583629608 -0.740478515624999
1604.5  -0.7953582406044 -0.4468854367733  -0.00219743186607956 0.00620872387662528  -0.000235881379921921 -5.35798862983939e-05  -0.000445936544565485 0.000113410562335048
-0.00215788115747272 0.0061989016830921  -0.544468164443969 -0.78833770751953  0.000289198331302032 0.000453390559414403  0.000651637441478671 6.92525791237132e-05
-0.000253910082392395 -7.74757863837296e-05  0.000249597622314469 0.000462422147393228  0.226332977414131 -0.764887511730193  0.511510491371154 0.172365307807922
-0.000435461115557701 0.000122294237371534  0.000659009674564005 7.24112105672249e-05  0.514064371585845 0.169896572828293  0.303607791662216 -0.740628540515899
1604.75  -0.795664072036742 -0.445929557085037  -0.00221041846089065 0.00623998604714869  -0.000257660867646337 -4.71248968096916e-05  -0.000449228769866751 0.00011259678285569
-0.00218674424104392 0.00625120755285023  -0.545356094837188 -0.787910878658294  0.000266476679826156 0.000453617132734508  0.000668577034957708 4.3853942770511e-05
-0.000254909449722618 -6.26718683633954e-05  0.000276154052698985 0.000473762047477068  0.225962191820144 -0.764724373817443  0.51162713766098 0.172562718391418
-0.000450677587650717 0.000145188692840748  0.000643713632598521 7.04437261447312e-05  0.514353871345519 0.170292034745216  0.303191632032394 -0.740831315517424
1605  -0.7964448928833 -0.444781213998794  -0.00222743977792561 0.00629382906481622  -0.000257484411122278 -6.14680102444255e-05  -0.000437724025687204 0.000100905570434407
-0.0022036675363779 0.00630572624504565  -0.545585930347442 -0.787254214286803  0.000233884260524065 0.00048510462511331  0.000639103411231191 8.22664005681874e-05
-0.000250786455580965 -4.06348153774162e-05  0.000261300592683256 0.000464792887214572  0.225980311632156 -0.764837563037871  0.512093484401702 0.172877192497253
-0.000428926112363116 0.000114243550342508  0.000648967397864909 7.19126546755434e-05  0.514903426170348 0.170666128396988  0.302920579910278 -0.74092000722885
1605.25  -0.797072589397429 -0.444176405668258  -0.00222601555287837 0.00634842412546276  -0.000235992265515961 -5.36951083631721e-05  -0.000442948163254188 0.000106548526673578
-0.00221725972369313 0.00632569659501313  -0.545987248420715 -0.786742150783538  0.0002608681388665 0.000474748929264025  0.000654923147521914 7.29232269804926e-05
-0.000230087316595018 -5.33982092747466e-05  0.000274902471574024 0.000468036014353857  0.225704878568649 -0.764878213405608  0.512503623962402 0.172866642475128
-0.000429718900704757 0.000137653914862313  0.000669318367727102 6.67184649500997e-05  0.515379846096038 0.17069336771965  0.302717626094818 -0.740884125232696
1605.5  -0.798082351684569 -0.44309976696968  -0.00222358666360378 0.0063792411237955  -0.000244986702455208 -6.11745199421422e-05  -0.000458286318462343 9.7287993412465e-05
-0.00219990499317646 0.00638205790892242  -0.546128153800964 -0.78640180826187  0.000260368309682236 0.000477140943985433  0.000648788001853974 6.9583154981956e-05
-0.000240065695834347 -5.40995206392837e-05  0.000262440007645637 0.000475417618872599  0.225594222545623 -0.765254974365233  0.512828648090362 0.173018038272857
-0.000462672760477291 0.000137925875606016  0.000678345852065833 0.000102678583061788  0.515626728534698 0.170577853918075  0.302352607250213 -0.741087019443511
1605.75  -0.799266934394835 -0.441931307315826  -0.00223952694796025 0.00641646748408674  -0.000234719220316038 -6.32117735221983e-05  -0.000445898331236095 0.000122422832646407
-0.00221552839502692 0.0064050769433379  -0.546200692653655 -0.786320328712462  0.000252500525675715 0.000516484084073455  0.000650767527986319 7.23197881598027e-05
-0.000250933720963076 -3.75100789824501e-05  0.000263492082012818 0.000485412718262524  0.225180178880691 -0.765403687953948  0.513002455234527 0.173052728176117
-0.000453752640169115 0.000130034590256401  0.000646154163405301 8.40863358462231e-05  0.515781760215759 0.170450299978256  0.301859617233276 -0.741222441196441
1606  -0.800281286239623 -0.440335839986801  -0.00227623572573065 0.00646169343963264  -0.000229306970140897 -4.14993919548579e-05  -0.000441782380221413 0.000129234555060976
-0.00224718893878161 0.00641116499900816  -0.546817243099212 -0.785855948925017  0.000256100116530434 0.000461204501334579  0.000652512651868166 7.53001149860212e-05
-0.000237085710978136 -4.14495116274339e-05  0.000261606212006882 0.000470247061457486  0.224730029702186 -0.765721023082732  0.51344758272171 0.173104286193847
-0.000465387565782295 0.000124001919175498  0.000644582672975959 9.96152157313192e-05  0.515931248664855 0.170442923903465  0.301385283470153 -0.741169989109038
1606.25  -0.801001846790313 -0.438773036003112  -0.00230016093701124 0.00647509749978779  -0.000259529828326777 -4.11056134907995e-05  -0.000451723753940315 0.000128589890664444
-0.00226585264317691 0.0064992345869541  -0.547131538391112 -0.785689055919646  0.000274860096396879 0.0004968696157448  0.000654655159451069 6.239512731554e-05
-0.000255705526797101 -4.77256398880855e-05  0.000240909081185237 0.000502114358823748  0.224260866641998 -0.765804648399352  0.513607442378997 0.173234283924103
-0.00044433237053454 0.000118769145046827  0.000665087834931912 9.35807620408015e-05  0.516291916370391 0.170375302433967  0.30104061961174 -0.741312086582183
1606.5  -0.801498413085936 -0.43711569905281  -0.00229404494166374 0.00654172850772737  -0.000233715589274653 -6.14377349847929e-05  -0.000430068030254916 0.000138742587296292
-0.00228978064842522 0.00656427675858138  -0.547805607318877 -0.785258471965789  0.000285108224488795 0.000468749669380487  0.000659010955132546 7.37976879463532e-05
-0.000231745900237002 -4.52132444479504e-05  0.000259030755842105 0.000486918492242695  0.22379583120346 -0.765855610370635  0.513969898223876 0.173104420304298
-0.000451768108177931 0.00015679796342738  0.000662938749883325 9.48378510656768e-05  0.51653641462326 0.170332491397857  0.300743460655212 -0.741174399852752
1606.75  -0.80167257785797 -0.435617506504058  -0.00228883163072168 0.00657230848446487  -0.000219383626244963 -8.22019210318105e-05  -0.000465590826934204 0.000122398560051807
-0.0022739463020116 0.00656700180843471  -0.547706007957458 -0.784419000148772  0.00024945114273578 0.000488226476591082  0.000641601625829936 6.42971062916332e-05
-0.00024291935551446 -5.51795892533847e-05  0.000266644230578095 0.000488100369693712  0.223413899540901 -0.765986442565917  0.514182031154632 0.173085361719131
-0.000465838151285426 0.000157975358888507  0.000662360398564489 6.63060927763582e-05  0.516655623912811 0.170008525252342  0.300287872552871 -0.741155624389647
1607  -0.801870524883269 -0.434722274541854  -0.00230464828200638 0.00657548895105718  -0.000228184595471249 -3.38445825036616e-05  -0.000454032357083634 0.000124854079331272
-0.00227801408618688 0.00655407644808291  -0.548053801059722 -0.784562826156615  0.000266057089902461 0.000478826841572301  0.0006526907091029 9.19735903153198e-05
-0.000231385216466152 -3.91476387449075e-05  0.000260522647295148 0.000482343690237031  0.223102271556854 -0.766056299209594  0.514501988887786 0.173232868313789
-0.000450591149274261 0.000107696228951682  0.000655987591017039 6.3580861024093e-05  0.516739547252654 0.169860586524009  0.300038933753967 -0.741007387638091
1607.25  -0.802683949470519 -0.433516651391982  -0.00234726257622241 0.00659058336168526  -0.000241284506046214 -5.74488221900539e-05  -0.000455142173450441 0.000135700902319514
