! Matrix data file written by TouchstoneData, EPCOS AG
! FILENAME: "ptable_B4402_02_WB.s4p"
! COMMENT: "(B4402_02_WB.s4p) Epcos AG 1/18/2013 10:00:5"
! INFO: nport=4, nfreq=1601
! DATE: "Mon Feb 11 14:00:04 2013"
! USER: "Michael Schemies"
!
! port | pin | signal
! -----|-----|--------
!   1  |  3  |  Tx
!   2  |  6  |  Ant
!   3  |  8  |  Rx
!   4  |  1  |  Rx
! --------------------
!
# MHZ S RI R 50
! freq  reS11 imS11  reS12 imS12  reS13 imS13  reS14 imS14  ...
100  0.908320426940917 -0.410568594932556  0.000741473806556316 0.00226260791532695  -3.16606528940611e-05 6.94727859809065e-05  -9.66945935942932e-06 8.94824643182802e-06
0.000727480743080379 0.00227973819710314  0.978891611099242 -0.198970362544059  2.26724641834153e-05 0.000193958301679232  2.93167704512599e-05 0.00015826131857466
-2.43283793679439e-05 9.19643716770226e-05  2.01131297217217e-05 0.000234654726227746  0.990559518337248 -0.127575665712356  0.00128200463950634 0.00835858751088379
-1.31480110212579e-05 1.62080395966769e-05  3.18710553983693e-05 0.000131986191263423  0.00123227061703801 0.00834317691624163  0.990856289863585 -0.127547845244407
102.4375  0.904752016067504 -0.419121831655502  0.000828698452096434 0.00233248528093099  -2.69153933913913e-05 4.41937663708814e-05  1.16617939056596e-05 2.54585143011355e-06
0.000812700309325011 0.00234497687779366  0.977718234062194 -0.204430788755417  3.70566049241462e-05 0.000213745050132275  2.82440614682856e-05 0.000161167845362798
9.87888142844896e-06 4.6267559810076e-05  2.07667762879283e-05 0.000220127578359098  0.989562988281249 -0.130856320261955  0.00138168933335691 0.00848412141203878
2.25894418690587e-05 3.61389247700573e-05  -5.64785477763508e-06 0.000174118016730063  0.00134546880144626 0.00849805492907761  0.989266216754912 -0.130389153957367
104.875  0.900345623493193 -0.428088039159774  0.000759036513045432 0.00234409142285585  -3.16129262500909e-06 -1.95351294678403e-05  -7.3048454396485e-06 -2.60968845395837e-05
0.000736797635909172 0.00236745853908359  0.976721704006194 -0.209376394748687  9.08783840714024e-05 0.000231519283261151  3.56284181179945e-05 0.000177709720446729
-2.54159785981756e-05 -1.25949172797846e-05  6.14700256846846e-05 0.000231907557463274  0.989766001701354 -0.133750051259994  0.00129451253451407 0.00849311985075472
8.89085094968324e-06 -1.90527898666915e-05  5.65521004318726e-05 0.000167595149832778  0.00126861315220594 0.00848751422017811  0.989400327205657 -0.133196130394935
107.3125  0.894705474376677 -0.43587988615036  0.000892971293069424 0.00243584462441503  -3.19412976068632e-07 3.28810201608576e-05  3.47549348589383e-06 1.12990928755608e-05
0.000863583933096381 0.00245105451904237  0.975505232810973 -0.214083790779113  3.49601068592165e-05 0.000270859280135483  4.07479165005498e-05 0.000165276404004544
1.43033389576886e-06 3.05253852275201e-05  2.97696151392302e-05 0.000274878781056032  0.989536464214324 -0.13664698600769  0.00130349828395992 0.008843882009387
-2.52487989200745e-05 -2.66457427642309e-05  3.72570393665229e-05 0.000181747149326839  0.00126549613196402 0.00881591439247129  0.989386498928069 -0.136521831154823
109.75  0.891257166862487 -0.445001542568206  0.0008367404807359 0.00243575684726238  1.29992295114789e-05 1.22708252092707e-05  2.39893906837097e-05 4.14710348195513e-06
0.000848719791974874 0.00244936440140008  0.97443515062332 -0.219049006700515  7.46123623684981e-05 0.000223045659367927  5.83289365749807e-05 0.000141681681270711
-7.31823092792184e-06 -4.4403645915736e-06  6.81137607898564e-05 0.000240481589571573  0.988411962985991 -0.14023545384407  0.00139614706858992 0.0092935813590884
1.20364256872563e-05 -2.5812916646828e-05  4.72340798296501e-05 0.000149481711559929  0.00139637116808444 0.00926873646676538  0.987934887409209 -0.139705374836922
112.1875  0.885148584842681 -0.455226272344589  0.000919131794944408 0.00245452299714088  1.28827159642242e-05 1.34088577397051e-06  -2.63878609985114e-05 9.05488195712679e-06
0.000951496709603818 0.00247904798015952  0.972621381282805 -0.223845541477203  9.52483896980995e-05 0.00026003597304225  5.74429250264076e-05 0.000169957813341171
1.50571158883395e-05 2.066003253276e-05  9.84006910584869e-05 0.00026102681295015  0.988656044006346 -0.141542598605156  0.00129758089315146 0.00948106404393909
-1.90700229723007e-05 1.97374338313239e-05  5.19966524734628e-05 0.000175893364939839  0.0012942892499268 0.00946622248739002  0.987683355808257 -0.142324045300484
114.625  0.880345225334166 -0.461775958538055  0.000928318244405093 0.00251680426299571  -6.68127313474543e-06 -3.5830271372106e-05  3.49546062352602e-05 -2.67550367425429e-05
0.000905187276657673 0.002508474746719  0.972082853317259 -0.227383464574814  7.45181241654792e-05 0.000267479510512204  5.25665454915726e-05 0.00013903969374951
-1.5314091797336e-05 -5.50297454537941e-06  5.63204266654794e-05 0.000257733860053123  0.98771423101425 -0.146022945642471  0.00159580644685775 0.0094533050432801
2.34830768022221e-05 -1.45347303259769e-05  6.73730464768597e-05 0.000154903449583799  0.00160985719412565 0.00944110378623007  0.987223625183104 -0.145035177469253
117.0625  0.876275837421416 -0.470831036567687  0.000940435274969788 0.00259827496483921  -1.75643208422116e-06 -1.02961494121701e-05  6.48497079964728e-05 7.2329780778091e-06
0.00098522088956088 0.00259510846808552  0.969737768173216 -0.232546523213386  4.47986858489458e-05 0.000261371926171706  3.12079428113066e-05 0.000177291949512437
-1.86738918728224e-06 -2.30294845096069e-05  8.44256719574334e-05 0.000265706068603322  0.987106025218962 -0.148267984390259  0.00179015728645026 0.00964154582470653
2.09805839403998e-05 -1.51584472405375e-05  1.81852356035961e-05 0.000173325955984183  0.00180614273995161 0.00961053278297184  0.985615909099578 -0.148275583982467
119.5  0.871172010898589 -0.479387521743774  0.00108074268791824 0.00261640222743153  2.44411221501651e-05 -3.20197832479608e-05  3.07196787616704e-05 -2.10068465094082e-05
0.00105494016315788 0.0025999778881669  0.970252037048338 -0.237347558140754  4.62355492345524e-05 0.000261371838860214  3.53344876202755e-05 0.000178452930413187
2.14599617720524e-06 -1.29348627524451e-05  3.38249665219337e-05 0.000229089317144827  0.986618041992186 -0.151573777198791  0.00165543600451201 0.00984156504273412
5.93221602684935e-06 -1.13177918592555e-06  3.80687051801943e-05 0.000161688760272228  0.00163648091256618 0.00982952211052177  0.986377537250518 -0.150253400206566
121.9375  0.867861926555632 -0.487780421972274  0.00105200218968093 0.00261291023343801  6.99115162205996e-07 4.2224051867379e-05  2.11244114325382e-05 1.47633727465291e-05
0.00106500799302011 0.00256938440725207  0.968538880348204 -0.24245099723339  2.12346294574673e-05 0.000266336923232303  2.30853074754123e-05 0.000195960266864859
1.4755209122086e-05 5.39733773621266e-05  6.2851504480932e-05 0.000268398638581858  0.985189795494078 -0.154915794730186  0.00177032314240932 0.0100380070507526
7.5642401498044e-06 6.73057502353914e-06  2.80963831755799e-05 0.000195586399058812  0.00174737465567886 0.0100546879693866  0.986702919006346 -0.154405981302261
124.375  0.862703323364257 -0.496371120214462  0.00104571180418134 0.00268835062161087  3.62491373380181e-05 1.18628577183699e-06  2.15751042560442e-05 -2.00504491658649e-05
0.0010533636668697 0.00267510814592242  0.966632366180419 -0.247421190142631  7.14396155672149e-05 0.000263107038335875  4.09931453759783e-05 0.000175611668964848
-1.70412076840876e-05 1.22318551802892e-05  8.78754581208342e-05 0.000237084183027037  0.986076414585112 -0.157495513558388  0.00180757977068424 0.0102191045880318
-3.38012341671857e-06 -3.6411569453776e-05  6.33460804237985e-05 0.000173203559825197  0.00182105065323412 0.0102598890662193  0.985189974308012 -0.157678857445717
126.8125  0.857662498950957 -0.505017638206481  0.00112065335270017 0.00282290019094943  6.0510908951983e-05 -9.45185547607254e-06  3.9892223867355e-05 3.17726880894043e-05
0.0011173760285601 0.00283156358636915  0.965721487998961 -0.251100957393646  6.82461031829008e-05 0.000257792038610206  3.27805246342906e-05 0.000180637478479185
4.29735264333432e-05 -1.55914331116947e-05  8.99651204235853e-05 0.000258845073403791  0.98596554994583 -0.160197466611862  0.00191825930960476 0.0104306917637586
-1.65657002071385e-05 -7.7367585618049e-06  9.42351198318648e-06 0.000192044142750092  0.00189350766595453 0.0103848585858941  0.983970224857329 -0.160805463790893
129.25  0.852389395236968 -0.512985348701476  0.00114824215415865 0.00261228228919207  3.66425338143018e-05 -2.05268988793251e-05  -4.02636533181067e-06 -1.14260201371508e-05
0.00111252767965197 0.00260995817370712  0.963527619838713 -0.255433201789856  4.21359663960175e-06 0.000308062240947039  1.73496737261303e-05 0.000241407047724352
3.11146395688411e-05 -2.72231973212911e-05  2.76265145657817e-05 0.000323967600706965  0.984993636608122 -0.162800088524818  0.00201260251924395 0.0106603065505624
-2.96553535008571e-05 -3.53396899299697e-05  4.61393137811684e-05 0.00021147303050384  0.00198451802134513 0.0106372376903891  0.98398321866989 -0.162177637219429
131.6875  0.845983624458312 -0.520358085632324  0.00119246810209006 0.00289571890607476  -1.29239629131917e-06 -1.0970444236591e-05  2.01174207177246e-05 -4.91837527079043e-05
0.00119187124073505 0.00286033749580383  0.963035702705382 -0.260764390230178  7.89903715485708e-05 0.000317121710395441  4.06482758990024e-05 0.000209733698284254
-5.75203921471258e-06 -2.28019125643187e-05  6.53589377179743e-05 0.000283033208688722  0.985236883163451 -0.165958806872368  0.00204221368767321 0.0108367232605815
2.25681251322385e-05 -3.91381181543694e-05  5.39075699634851e-05 0.000219230059883558  0.0020153799559921 0.010809488594532  0.982705235481261 -0.166480213403702
134.125  0.842144370079039 -0.529324829578399  0.00134768395218998 0.00287447124719619  -4.38590686826502e-05 -2.35632305702894e-05  2.34598774113693e-05 2.58992276940262e-05
0.00132961326744407 0.00290539115667342  0.962007701396941 -0.26613450050354  8.55566031532364e-05 0.000313110096612946  4.62215102743358e-05 0.000213699255255051
-2.94056244456443e-05 -4.0160015487345e-05  8.23248992674054e-05 0.000305817287880928  0.984591603279112 -0.169700399041176  0.00210532965138554 0.0108573734760284
2.51153396675364e-05 3.14073404297233e-05  5.57563835172915e-05 0.000163700489792973  0.00211835536174476 0.0108925690874457  0.982748866081236 -0.170240968465805
136.5625  0.835033059120177 -0.539703607559203  0.00129042565822601 0.00284966942854225  2.03245581360534e-05 3.98996417061426e-05  2.48618744080887e-05 3.57508201886958e-06
0.00132076372392475 0.00288661336526274  0.960242748260497 -0.270272076129913  6.66135092615151e-05 0.000308052229229362  8.09999073680957e-06 0.00023149659682531
5.43480337000802e-06 -5.66391281608958e-06  4.78722577099689e-05 0.000292276701657102  0.982710242271422 -0.172947689890861  0.00222105695866048 0.010948627255857
1.82809890247882e-05 1.19034011731856e-05  2.13226758205565e-05 0.000228920980589465  0.00219160737469792 0.0109211709350347  0.982903003692626 -0.17180073261261
139  0.83123230934143 -0.545896112918853  0.00126997544430196 0.00304066855460405  -1.30436574181658e-05 3.63590734195896e-05  -4.94813184559462e-06 7.87091812526342e-06
0.00126050459221005 0.00302787823602556  0.959067881107329 -0.274370521306991  4.8590354708722e-05 0.000383299862733112  7.69588514231147e-05 0.00015347803127952
-1.93870127986884e-05 4.77803496323759e-06  6.34076423011721e-05 0.000337002478772775  0.981484293937682 -0.175458505749702  0.00213994807563722 0.011311518959701
-1.4031232240086e-05 -2.37619315157645e-06  9.23276238609107e-05 0.000164487835718319  0.00215172674506902 0.0112456856295466  0.981778860092162 -0.176696106791496
141.4375  0.824959099292754 -0.553975820541381  0.00141858763527125 0.00293472036719322  -4.2294996092096e-06 6.76217750879006e-05  -1.27279472508235e-05 -8.26326413516655e-06
0.00143541046418249 0.00291241868399083  0.957004368305205 -0.279193103313446  0.000118608426419087 0.000272389210294933  6.75422197673471e-05 0.000156089387019165
-2.94192886940437e-05 5.82196116738488e-05  9.79845208348708e-05 0.000260909786447883  0.981312096118926 -0.178711727261543  0.00216145510785281 0.0118445549160242
-5.89291266805959e-05 -5.57981638849015e-06  0.000119695672765374 0.000180899136466906  0.00214645965024828 0.011817691847682  0.980554580688475 -0.177836030721664
143.875  0.819474518299102 -0.562828183174132  0.00144495978020131 0.00297385640442371  3.00083902402549e-05 0.000104280901723542  4.77094290545211e-05 -3.33869029418566e-05
0.00146224244963377 0.00297005008906125  0.955881774425505 -0.284432202577591  5.4415886552306e-05 0.000297535356367008  5.47941672266462e-05 0.000190318984095939
4.53445099992678e-05 6.20676000835375e-05  6.83708931319417e-05 0.000315019075060264  0.981404423713683 -0.181818664073944  0.00234644836746156 0.011747308075428
5.02372276969255e-05 1.48258425269887e-06  5.4126274335431e-05 0.000202974115381949  0.00237786793150007 0.011718139052391  0.979869127273558 -0.181474775075912
146.3125  0.814259886741637 -0.569028913974761  0.00139619025867432 0.00295112864114343  -2.79284795396962e-05 -2.66508923232323e-05  2.74873891612515e-05 2.80339190794621e-05
0.00135908380616456 0.00294484081678092  0.95418620109558 -0.28835180401802  8.00299603724854e-05 0.00033424107823521  7.00627060723492e-05 0.000256278173765168
3.3157525081151e-07 -9.2682876129402e-06  5.09485653310549e-05 0.000359325174940751  0.980758607387541 -0.185337379574775  0.00258691632188856 0.0117854150012135
2.42491369135678e-05 5.39141328772531e-05  5.60404732823373e-05 0.00025151445879601  0.00259983353316783 0.0118024265393615  0.980414271354674 -0.18430432677269
148.75  0.808787405490874 -0.576535999774932  0.00150825083255768 0.00308619416318833  -2.01229595404584e-05 -1.56305322889239e-05  -2.44584884967481e-06 7.90034300734988e-06
0.00153067801147699 0.0031396229751408  0.952788054943083 -0.292997568845748  4.2150710214628e-05 0.000324218650348485  7.27813530829736e-05 0.000204602009034716
-6.19313359493391e-05 3.50892537426262e-06  4.5646243961528e-05 0.00028815187397413  0.98026806116104 -0.188078254461288  0.00260515720583498 0.0121107324957847
4.13602811022429e-06 7.75540684117005e-06  5.81075291847811e-05 0.000197198314708658  0.00262924213893711 0.0120493480935693  0.979216516017912 -0.187736704945564
151.1875  0.802247047424315 -0.584989488124847  0.00157014024443924 0.0031427873764187  -4.60984438177548e-06 3.06068504869473e-05  -3.45820058100799e-06 -1.20898939712788e-05
0.00155961303971707 0.00314653012901544  0.952270209789275 -0.298039317131042  8.82280219229871e-05 0.000346878165146337  2.26326592382975e-05 0.000198969879420475
-2.52029349212535e-06 1.12625102701714e-05  0.000108660628029611 0.000387047446565703  0.980878055095671 -0.189523369073868  0.00260046613402664 0.0122664691880345
2.02679639187409e-05 7.44437147659483e-06  3.2412433938589e-05 0.000219561465200969  0.00261445948854088 0.0122881783172488  0.978680312633513 -0.191029742360115
153.625  0.796712696552276 -0.592269241809844  0.00158994190860539 0.00300751579925417  3.51421367668082e-05 -1.25803835544503e-05  7.57691714170506e-06 -3.18636411975604e-05
0.00164492730982601 0.00302115990780293  0.950094580650328 -0.303035825490951  4.3889151129406e-05 0.000331541057676078  4.6991313865874e-05 0.000240747598581948
4.90385646116921e-05 1.50376524743479e-06  5.53765930817464e-05 0.000339249440003187  0.979837656021117 -0.193508595228195  0.00270395423285663 0.0124123711138963
3.16647820000072e-05 -9.00865961739329e-06  3.72651338693686e-05 0.00023491466708947  0.00265430146828293 0.0123939728364348  0.978666067123412 -0.193554282188415
156.0625  0.789673924446105 -0.601019620895385  0.00160756043624132 0.00325932423584162  -2.697947093111e-05 -5.20761641382706e-05  2.81996517514927e-06 -1.88322810572572e-05
0.00159064528997987 0.00322348973713814  0.948297917842864 -0.307777017354965  0.000135173133458011 0.000353466137312353  6.58717181067915e-05 0.000240050270804205
-1.08376582375058e-06 -4.01891484216322e-05  7.2493770858273e-05 0.00030734672327526  0.97843289375305 -0.197810173034668  0.00273080496117472 0.0125730028375983
-9.0094363258686e-06 1.42075332405512e-05  9.35155694605784e-05 0.00021865320741199  0.00274704350158572 0.0125987399369478  0.977306306362151 -0.197054460644722
158.5  0.78260165452957 -0.605298936367034  0.00168594298884272 0.00317035615444183  -6.77306743455121e-05 1.34117844936555e-05  -3.2260093576042e-05 6.66169080432156e-06
0.00168511597439646 0.00317428656853735  0.946502625942229 -0.312603831291198  9.12747636903079e-05 0.000316651305183769  8.43682064441966e-05 0.000186681543709711
-5.49215837963858e-05 1.42596227306058e-05  8.19895940367134e-05 0.000339743855874986  0.977954924106596 -0.200656995177269  0.00281963660381734 0.0127844950184226
-1.30977896333207e-05 3.09625538648107e-05  3.6193960113451e-05 0.000210617916309275  0.00281368289142846 0.0128142992034554  0.977296352386473 -0.200907155871391
160.9375  0.779426991939544 -0.613874375820159  0.00170217105187475 0.00321758817881345  -2.19539401768998e-06 -2.26299052883406e-05  1.48537337736343e-05 7.65294953453123e-06
0.00170518120285123 0.00318658840842544  0.945190131664275 -0.315470069646835  8.0659126979299e-05 0.000345288077369333  0.00010128426947631 0.000217896566027776
-1.9833232727251e-06 -2.21344707824756e-05  9.09250593394974e-05 0.000371720991097391  0.977641165256499 -0.203163787722587  0.00296861329115927 0.0129642859101295
3.17095982609317e-05 -4.89307349198499e-05  0.000104788261523936 0.000240759676671587  0.00297958706505596 0.0129931978881359  0.976394772529601 -0.203407019376754
163.375  0.77323567867279 -0.62207818031311  0.00175633723847568 0.00331164803355932  1.88758785952814e-05 1.45149269883405e-05  -7.8273023973452e-06 1.12237339635613e-05
0.00174949585925787 0.00326597224920987  0.944241583347319 -0.319838970899582  0.000101295983768068 0.00036702142097056  8.06166935944931e-05 0.00024331855820492
2.07670327654342e-05 1.65719920914853e-05  6.06567919021474e-05 0.000360434583853931  0.977213203907012 -0.205857276916504  0.00320017803460359 0.0131003130227327
-4.12762432233647e-07 -4.30716283972286e-07  4.68618709419389e-05 0.000224191069719382  0.00319414772093295 0.013120723888278  0.974482178688048 -0.205435022711754
165.8125  0.767161190509795 -0.629503548145293  0.00182977551594376 0.00323751824907958  3.25454166159034e-05 -8.96695382834874e-07  1.48827630255255e-05 2.63074143731501e-05
0.00180969748180359 0.0032173884101212  0.942519307136534 -0.324793517589569  6.57125710858965e-05 0.000375241477740929  4.84203592350242e-05 0.000265381269855425
-1.32081377159921e-05 7.21768174116734e-06  7.58303795009853e-05 0.000361266371328384  0.975858211517333 -0.208821564912796  0.00321617210283875 0.0131748467683792
-1.68709611898521e-05 -3.70535030924657e-06  8.16818792372944e-05 0.000228585398872383  0.00314030284062027 0.0131412521004677  0.974531829357146 -0.209072038531303
168.25  0.760727703571318 -0.6365208029747  0.00182674697134643 0.00341941555961966  -1.006507591228e-05 -1.66589632044634e-06  -1.24120660984772e-05 -6.20478795099189e-06
0.001815180410631 0.00340644898824393  0.940418660640715 -0.329641938209533  0.000158611393999309 0.000368685694411398  8.71351803652944e-05 0.000259202439337969
6.34707748758957e-06 5.77900345888339e-06  0.000145223064464517 0.000342788145644591  0.97495925426483 -0.211556524038315  0.00297021376900374 0.0133780278265476
7.3489400165272e-06 -2.55696522799554e-05  0.00010548817954259 0.00023877521743998  0.00294136372394859 0.0133729269728064  0.973005115985869 -0.21118389070034
170.6875  0.754220008850097 -0.643570184707641  0.00190189981367439 0.0032725604251027  1.91576200450072e-05 1.12739951418917e-06  -1.15842858576798e-05 4.23149458583794e-06
