! Matrix data file written by TouchstoneData, EPCOS AG
! FILENAME: "ptable_B4406_02_WB_matched.s4p"
! COMMENT: "S4P matched (B4406_02_WB_matched.s4p)"
! INFO: nport=4, nfreq=1601
! DATE: "Wed Feb 13 20:40:24 2013"
! USER: "Michael Schemies"
!
! port | pin | signal
! -----|-----|--------
!   1  |  3  |  Tx
!   2  |  6  |  Ant
!   3  |  8  |  Rx
!   4  |  1  |  Rx
! --------------------
!
# MHZ S RI R 50
! freq  reS11 imS11  reS12 imS12  reS13 imS13  reS14 imS14  ...
50  0.99462221141774 -0.0615300082191092  -4.17253749176041e-05 3.11354593506773e-06  -3.69947520089303e-05 2.23447630737461e-05  -3.35975958391335e-05 2.3245951285984e-05
-4.17253749176041e-05 3.11354593506773e-06  -0.998796126666465 0.0490275163327315  -4.14352639253735e-06 -7.18400154506829e-07  -4.10029512073262e-06 -6.10057216821715e-07
-3.69947520089303e-05 2.23447630737461e-05  -4.14352639253735e-06 -7.18400154506829e-07  -0.00019758260781384 0.0276135631302081  0.996890119576562 -0.0477718981561088
-3.35975958391335e-05 2.3245951285984e-05  -4.10029512073262e-06 -6.10057216821715e-07  0.996890119576562 -0.0477718981561088  -0.000321856105204378 0.0276161945092448
53.71875  0.994199641344068 -0.0665601408229097  -4.93923922406632e-05 1.9731830499407e-06  2.23338602711055e-05 9.44535565039317e-08  2.18603011311501e-05 -1.98788447990295e-06
-4.93923922406632e-05 1.9731830499407e-06  -0.998610067162543 0.0526757417050919  -2.90370747574913e-06 9.27999535485452e-08  -2.86732330571083e-06 1.20732924355773e-07
2.23338602711055e-05 9.44535565039317e-08  -2.90370747574913e-06 9.27999535485452e-08  0.000158512841676475 0.0298133186087464  0.996759432149029 -0.0511912821245497
2.18603011311501e-05 -1.98788447990295e-06  -2.86732330571083e-06 1.20732924355773e-07  0.996759432149029 -0.0511912821245497  -5.93489437821929e-05 0.0297866108745485
57.4375  0.994552781395193 -0.0710706656947535  -5.52345939802766e-05 3.25822510058581e-06  2.52796220989951e-07 -1.23250893325047e-06  1.34068016560887e-06 -8.45236344287194e-07
-5.52345939802766e-05 3.25822510058581e-06  -0.998409984764863 0.0563249707330302  -3.24167842947918e-06 6.943283740842e-07  -3.19351959219325e-06 8.04699154918685e-07
2.52796220989951e-07 -1.23250893325047e-06  -3.24167842947918e-06 6.943283740842e-07  0.000339862153046014 0.0318121946114541  0.9964612634291 -0.0547621412774493
1.34068016560887e-06 -8.45236344287194e-07  -3.19351959219325e-06 8.04699154918685e-07  0.9964612634291 -0.0547621412774493  0.000106396868137307 0.0318548823151185
61.15625  0.993247910557894 -0.0759514921389832  -6.16438768351625e-05 6.53135908503824e-06  -7.60485315553894e-06 2.44995542534827e-06  -6.92484086961703e-06 3.66043528500458e-06
-6.16438768351625e-05 6.53135908503824e-06  -0.998197360721017 0.0599752370220077  -3.69496534402502e-06 8.20805127712441e-07  -3.68711373621291e-06 8.70414537924363e-07
-7.60485315553894e-06 2.44995542534827e-06  -3.69496534402502e-06 8.20805127712441e-07  0.000732417295348782 0.0337645371692827  0.996337689580027 -0.05843638603083
-6.92484086961703e-06 3.66043528500458e-06  -3.68711373621291e-06 8.70414537924363e-07  0.996337689580027 -0.05843638603083  0.000471922940752748 0.0337642921315714
64.875  0.993946769347093 -0.0807029175294577  -6.99566273057458e-05 5.19130918414474e-06  5.03154225026277e-06 -7.78812092744101e-06  4.99673534087404e-06 -6.8141384384168e-06
-6.99566273057458e-05 5.19130918414474e-06  -0.997971767744153 0.0636282232128123  -4.76318986048909e-06 2.69572795878767e-07  -4.70288482363714e-06 4.34435624767836e-07
5.03154225026277e-06 -7.78812092744101e-06  -4.76318986048909e-06 2.69572795878767e-07  0.000850339634436948 0.0358050640040163  0.995939055276776 -0.0619867024194995
4.99673534087404e-06 -6.8141384384168e-06  -4.70288482363714e-06 4.34435624767836e-07  0.995939055276776 -0.0619867024194995  0.000630012195248481 0.035830681664214
68.59375  0.990793662672648 -0.0866667642255565  -7.82288165796216e-05 4.60996948718905e-06  3.22009382877809e-05 1.55731984925713e-05  3.08286686938529e-05 1.63799902126423e-05
-7.82288165796216e-05 4.60996948718905e-06  -0.997731890782563 0.0672820490165302  -6.86153029075062e-06 4.99605206274626e-07  -6.8932638051527e-06 6.36374566075465e-07
3.22009382877809e-05 1.55731984925713e-05  -6.86153029075062e-06 4.99605206274626e-07  0.0011286071064572 0.0377009809333412  0.995653341743106 -0.0657037310431876
3.08286686938529e-05 1.63799902126423e-05  -6.8932638051527e-06 6.36374566075465e-07  0.995653341743106 -0.0657037310431876  0.000915678730320999 0.0377086339254731
72.3125  0.992056516741643 -0.0893236522346025  -8.54862907377963e-05 5.10846831810375e-06  1.36948139976745e-05 9.40076595800575e-06  1.37364753616438e-05 8.39768876790231e-06
-8.54862907377963e-05 5.10846831810375e-06  -0.997479059340536 0.0709332515899179  -5.51509115540948e-06 3.00203223466374e-06  -5.14630730545509e-06 3.15766556944281e-06
1.36948139976745e-05 9.40076595800575e-06  -5.51509115540948e-06 3.00203223466374e-06  0.00156839680863625 0.0403212681664188  0.995461677034308 -0.0686801769483212
1.37364753616438e-05 8.39768876790231e-06  -5.14630730545509e-06 3.15766556944281e-06  0.995461677034308 -0.0686801769483212  0.00128951886046379 0.0403359926699283
76.03125  0.992168479771375 -0.0947160781536013  -9.67049769751173e-05 7.38960079111365e-06  -1.30247772988794e-05 -1.40996499999467e-05  -1.40934104429848e-05 -1.52966497818302e-05
-9.67049769751173e-05 7.38960079111365e-06  -0.997211409347339 0.0745868961487479  -6.15592287446006e-06 1.14799118733526e-06  -6.08293193173262e-06 1.41741173356639e-06
-1.30247772988794e-05 -1.40996499999467e-05  -6.15592287446006e-06 1.14799118733526e-06  0.00128254546660601 0.0423158181970831  0.994554548620916 -0.0723339046346618
-1.40934104429848e-05 -1.52966497818302e-05  -6.08293193173262e-06 1.41741173356639e-06  0.994554548620916 -0.0723339046346618  0.00103016776655958 0.0422381192151727
79.75  0.991922211134998 -0.099534490253461  -0.000106395454660094 9.09287559366525e-06  3.48334362703519e-06 -5.0623478738857e-07  3.3533059671586e-06 -8.5577921434652e-07
-0.000106395454660094 9.09287559366525e-06  -0.996929505284009 0.0782429646499996  -5.63984068251861e-06 7.18318596869815e-07  -5.57129679722521e-06 7.33702661865895e-07
3.48334362703519e-06 -5.0623478738857e-07  -5.63984068251861e-06 7.18318596869815e-07  0.00216298771791063 0.0441425985624518  0.994643688274694 -0.0761099797482173
3.3533059671586e-06 -8.5577921434652e-07  -5.57129679722521e-06 7.33702661865895e-07  0.994643688274694 -0.0761099797482173  0.00165049923851507 0.0440655906868813
83.46875  0.991588129071255 -0.104162947489875  -0.000115442640379096 1.1875060654271e-05  4.79970094722726e-06 4.58108444339435e-06  5.116013024967e-06 5.44465370563859e-06
-0.000115442640379096 1.1875060654271e-05  -0.996637984307756 0.0818982798492288  -6.35650067614828e-06 -7.57145437384073e-07  -6.34923491971633e-06 -4.21871543813785e-07
4.79970094722726e-06 4.58108444339435e-06  -6.35650067614828e-06 -7.57145437384073e-07  0.0025924833993382 0.0456418520176445  0.994434826895048 -0.080173833889035
5.116013024967e-06 5.44465370563859e-06  -6.34923491971633e-06 -4.21871543813785e-07  0.994434826895048 -0.080173833889035  0.00219291079663276 0.0456478469205078
87.1875  0.989692898529663 -0.108972836732801  -0.00012575846416017 1.33531303159702e-05  5.32103827194313e-06 -8.13117268657581e-06  5.01609952365749e-06 -8.39094998976803e-06
-0.00012575846416017 1.33531303159702e-05  -0.996329026101989 0.0855574179384974  -8.3234372385927e-06 -3.06864920889101e-07  -8.42660173741842e-06 -5.30936747446599e-08
5.32103827194313e-06 -8.13117268657581e-06  -8.3234372385927e-06 -3.06864920889101e-07  0.00250753155565284 0.0483227441616782  0.993608150654282 -0.0831358452737893
5.01609952365749e-06 -8.39094998976803e-06  -8.42660173741842e-06 -5.30936747446599e-08  0.993608150654282 -0.0831358452737893  0.00208368527682981 0.0482332531886947
90.90625  0.989024560589697 -0.114014046132556  -0.000136363175107564 1.42594410645641e-05  6.12472581710181e-06 1.46984134052022e-05  3.54273187012477e-06 1.70008760204527e-05
-0.000136363175107564 1.42594410645641e-05  -0.9960075425257 0.0892119681316732  -7.6818630725461e-06 1.89687204193868e-06  -7.54318195747288e-06 2.12796584552869e-06
6.12472581710181e-06 1.46984134052022e-05  -7.6818630725461e-06 1.89687204193868e-06  0.00344034214592204 0.0497368161421154  0.993775029396111 -0.0872877177497983
3.54273187012477e-06 1.70008760204527e-05  -7.54318195747288e-06 2.12796584552869e-06  0.993775029396111 -0.0872877177497983  0.0029966265868892 0.0497254483170775
94.625  0.988786721237393 -0.118223579048752  -0.000148373879428311 1.87571348140682e-05  4.04012393849659e-05 2.10319483632586e-05  2.99218748504965e-05 1.35825857767703e-05
-0.000148373879428311 1.87571348140682e-05  -0.995670213493903 0.0928720949577671  -5.68221819236918e-06 2.44007539859688e-06  -5.6088584086411e-06 3.07744349500036e-06
4.04012393849659e-05 2.10319483632586e-05  -5.68221819236918e-06 2.44007539859688e-06  0.00330217711525536 0.05214689020541  0.992779031773824 -0.0904657497040671
2.99218748504965e-05 1.35825857767703e-05  -5.6088584086411e-06 3.07744349500036e-06  0.992779031773824 -0.0904657497040671  0.00273282238506408 0.0521516271186633
98.34375  0.988952375856705 -0.12227252795959  -0.000158306823160644 1.89946510911504e-05  -2.390720253815e-06 -2.33771113627299e-06  -2.32722694947277e-06 -4.46466187145809e-06
-0.000158306823160644 1.89946510911504e-05  -0.995323446221773 0.0965330898754556  -1.23822616123069e-05 2.31510764615644e-06  -1.26454817987877e-05 2.719545169441e-06
-2.390720253815e-06 -2.33771113627299e-06  -1.23822616123069e-05 2.31510764615644e-06  0.00394808765908625 0.0540968620123549  0.992633254616429 -0.0941377013528843
-2.32722694947277e-06 -4.46466187145809e-06  -1.26454817987877e-05 2.719545169441e-06  0.992633254616429 -0.0941377013528843  0.00343953339179541 0.0540537588437023
102.0625  0.986909553837046 -0.127623182553183  -0.000173523268227547 1.95223284377307e-05  1.13481816441133e-05 7.10448105805837e-06  1.04254265002928e-05 8.95375965162637e-06
-0.000173523268227547 1.95223284377307e-05  -0.994963018813841 0.100192770287326  -1.17183256943063e-05 -1.83868698047269e-06  -1.19020928549833e-05 -1.33644294433182e-06
1.13481816441133e-05 7.10448105805837e-06  -1.17183256943063e-05 -1.83868698047269e-06  0.00462892138543091 0.0562214336262995  0.992442192409226 -0.0975693874338119
1.04254265002928e-05 8.95375965162637e-06  -1.19020928549833e-05 -1.33644294433182e-06  0.992442192409226 -0.0975693874338119  0.00408274757173717 0.0562587402011596
105.7812  0.987470339050816 -0.132238901254954  -0.000185380563777969 2.42636320498892e-05  -1.46024003072037e-05 -1.03647329514357e-05  -1.44034461077618e-05 -1.00985570676657e-05
-0.000185380563777969 2.42636320498892e-05  -0.994586818855817 0.103857882639477  -1.41847725826749e-05 3.44187970187731e-06  -1.40707651785364e-05 4.02314178657534e-06
-1.46024003072037e-05 -1.03647329514357e-05  -1.41847725826749e-05 3.44187970187731e-06  0.00492015260237665 0.0579689440863487  0.991809864968646 -0.101446953567052
-1.44034461077618e-05 -1.00985570676657e-05  -1.40707651785364e-05 4.02314178657534e-06  0.991809864968646 -0.101446953567052  0.00431275737542227 0.0579572795666872
109.5  0.986513851581932 -0.137452805493168  -0.000198919793808829 2.49749369028858e-05  -5.43130357903856e-06 3.29997367155374e-06  -3.99905373593141e-06 1.76192559923312e-06
-0.000198919793808829 2.49749369028858e-05  -0.994197714416696 0.107521647465141  -1.15064392232589e-05 -6.96003593632574e-07  -1.14883744929697e-05 -2.57056553665289e-07
-5.43130357903856e-06 3.29997367155374e-06  -1.15064392232589e-05 -6.96003593632574e-07  0.00546844138818798 0.0598298221876687  0.991386757152567 -0.105135271290505
-3.99905373593141e-06 1.76192559923312e-06  -1.14883744929697e-05 -2.57056553665289e-07  0.991386757152567 -0.105135271290505  0.0047561546303887 0.0599122018591199
113.2188  0.985485619146829 -0.141737170340039  -0.000211708414582031 2.74089566611494e-05  1.05523342457448e-05 -1.53194524149032e-05  1.13489260395522e-05 -1.37694877788236e-05
-0.000211708414582031 2.74089566611494e-05  -0.993790154201066 0.111186912447063  -1.11570320453305e-05 3.04935135349618e-06  -1.08288110341454e-05 3.3929210062821e-06
1.05523342457448e-05 -1.53194524149032e-05  -1.11570320453305e-05 3.04935135349618e-06  0.00533835763470612 0.0613628282180994  0.99024906538808 -0.109203634341191
1.13489260395522e-05 -1.37694877788236e-05  -1.08288110341454e-05 3.3929210062821e-06  0.99024906538808 -0.109203634341191  0.00454068924208032 0.061444943365642
116.9375  0.984903685252924 -0.145891911343188  -0.000227363982585804 2.91082512496427e-05  -9.94354570017453e-06 1.33982756021117e-05  -9.79116880399601e-06 1.20251571478819e-05
-0.000227363982585804 2.91082512496427e-05  -0.993370069560872 0.114856018756649  -1.61461813309143e-05 7.01428269557613e-07  -1.60592750339791e-05 1.49627622848053e-06
-9.94354570017453e-06 1.33982756021117e-05  -1.61461813309143e-05 7.01428269557613e-07  0.0056023991686377 0.0634016070015402  0.989595987938081 -0.112812839194405
-9.79116880399601e-06 1.20251571478819e-05  -1.60592750339791e-05 1.49627622848053e-06  0.989595987938081 -0.112812839194405  0.0049439835751842 0.0633758511182951
120.6562  0.983632743111515 -0.150544246465537  -0.000237458150847311 3.36731082410838e-05  1.78356580762301e-05 9.56268255973229e-06  1.21869275571663e-05 9.92654052930729e-06
-0.000237458150847311 3.36731082410838e-05  -0.992938846429238 0.118518553054719  -1.36769573573727e-05 1.47869259828031e-06  -1.36050534038615e-05 1.85120373121816e-06
1.78356580762301e-05 9.56268255973229e-06  -1.36769573573727e-05 1.47869259828031e-06  0.00650561086134849 0.0660543483689326  0.989417727408927 -0.115731075010972
1.21869275571663e-05 9.92654052930729e-06  -1.36050534038615e-05 1.85120373121816e-06  0.989417727408927 -0.115731075010972  0.00571797921275326 0.0660541132634609
124.375  0.983716127198375 -0.1544683591867  -0.000254579313852193 3.40129050877224e-05  2.41193543211835e-05 1.11385346110191e-06  2.1910380574937e-05 1.11001250976072e-06
-0.000254579313852193 3.40129050877224e-05  -0.992492626892626 0.122191594449921  -1.95738011555052e-05 2.24302740392127e-06  -1.94724385762355e-05 3.09953173094484e-06
2.41193543211835e-05 1.11385346110191e-06  -1.95738011555052e-05 2.24302740392127e-06  0.00663200762181776 0.0678169906082108  0.988478791269578 -0.1195363501966
2.1910380574937e-05 1.11001250976072e-06  -1.94724385762355e-05 3.09953173094484e-06  0.988478791269578 -0.1195363501966  0.00582776310708623 0.0678636512520811
128.0938  0.982329682697868 -0.159360920896923  -0.000269634818442259 3.8558145915615e-05  3.10411101525831e-06 -1.41323837033196e-05  3.79054496565151e-06 -1.55415654630727e-05
-0.000269634818442259 3.8558145915615e-05  -0.992039311071808 0.125860261250854  -1.51352350511845e-05 -1.28634520459992e-06  -1.51912819527661e-05 -7.13532839091957e-07
3.10411101525831e-06 -1.41323837033196e-05  -1.51352350511845e-05 -1.28634520459992e-06  0.00748659655425966 0.0700621797399663  0.988192121380817 -0.122871302441911
3.79054496565151e-06 -1.55415654630727e-05  -1.51912819527661e-05 -7.13532839091957e-07  0.988192121380817 -0.122871302441911  0.0065551263388198 0.0701279198678138
131.8125  0.979968368360121 -0.164282701219097  -0.000286391834769422 4.5649041915618e-05  -2.42228014500814e-05 7.3856413057725e-06  -2.78860217456085e-05 7.41739516360341e-06
-0.000286391834769422 4.5649041915618e-05  -0.991560341069246 0.129537987535092  -1.8896489863437e-05 4.63540862642381e-06  -1.84014793799615e-05 5.53310331110424e-06
-2.42228014500814e-05 7.3856413057725e-06  -1.8896489863437e-05 4.63540862642381e-06  0.00782292208314621 0.0719972942073765  0.987418457828803 -0.126546784507698
-2.78860217456085e-05 7.41739516360341e-06  -1.84014793799615e-05 5.53310331110424e-06  0.987418457828803 -0.126546784507698  0.0069080723547063 0.0720256975601802
135.5312  0.979645374281534 -0.169182743206962  -0.000300309659773374 4.94596490574957e-05  1.82606736242634e-05 9.95312370814976e-06  1.50492109783484e-05 7.0292502542773e-06
-0.000300309659773374 4.94596490574957e-05  -0.991073454742961 0.133211138808519  -1.78778889338372e-05 1.91744377904074e-06  -1.77518781946294e-05 2.49596960781605e-06
1.82606736242634e-05 9.95312370814976e-06  -1.78778889338372e-05 1.91744377904074e-06  0.00811401374122223 0.0740049827129779  0.98655887293009 -0.130129781678599
1.50492109783484e-05 7.0292502542773e-06  -1.77518781946294e-05 2.49596960781605e-06  0.98655887293009 -0.130129781678599  0.00721252482445015 0.074035849858378
139.25  0.979907952296972 -0.172072664205691  -0.000319674337874776 4.82343470585382e-05  -2.78353582252997e-05 -8.28930014520785e-06  -2.79830292249038e-05 -1.10557131393989e-05
-0.000319674337874776 4.82343470585382e-05  -0.990569768393658 0.136887304829283  -2.15227648899066e-05 -1.31435264423315e-06  -2.14727085986317e-05 7.75772824993283e-09
-2.78353582252997e-05 -8.28930014520785e-06  -2.15227648899066e-05 -1.31435264423315e-06  0.0088137557782814 0.0758288069295364  0.98603694139735 -0.133900290398337
-2.79830292249038e-05 -1.10557131393989e-05  -2.14727085986317e-05 7.75772824993283e-09  0.98603694139735 -0.133900290398337  0.0078439533437976 0.0758497298209949
142.9688  0.977631227608398 -0.177542851841849  -0.000332507781795531 5.78052771848339e-05  -1.32183425162106e-05 -7.81424814387455e-07  -1.18640763111522e-05 -8.79217137717853e-07
-0.000332507781795531 5.78052771848339e-05  -0.990050952309557 0.140554303762563  -1.55205750133308e-05 2.3474879479077e-06  -1.52485136750358e-05 1.93550196120945e-06
-1.32183425162106e-05 -7.81424814387455e-07  -1.55205750133308e-05 2.3474879479077e-06  0.00911490170603692 0.0785014200985032  0.985141061997757 -0.13674863662041
-1.18640763111522e-05 -8.79217137717853e-07  -1.52485136750358e-05 1.93550196120945e-06  0.985141061997757 -0.13674863662041  0.00818833083924205 0.0786253284532454
146.6875  0.976262417049005 -0.18262794710527  -0.00035022009067884 5.65614497738089e-05  6.97814407719195e-06 6.07674171174651e-06  2.8739632837343e-06 4.91811792450854e-06
-0.00035022009067884 5.65614497738089e-05  -0.989527415214639 0.144241792697699  -2.28000181864608e-05 3.03642649602341e-07  -2.26829049970839e-05 1.69168191551119e-06
6.97814407719195e-06 6.07674171174651e-06  -2.28000181864608e-05 3.03642649602341e-07  0.00998074242484785 0.0804176250531763  0.984609182770323 -0.140447784727443
2.8739632837343e-06 4.91811792450854e-06  -2.26829049970839e-05 1.69168191551119e-06  0.984609182770323 -0.140447784727443  0.00875936360032437 0.080480858183137
150.4062  0.975841225522755 -0.186352550225123  -0.000368154989194258 6.42566420817772e-05  2.26845510759615e-05 3.7851051731973e-05  2.51024134725237e-05 3.60608154423407e-05
-0.000368154989194258 6.42566420817772e-05  -0.988978676635871 0.147916792813969  -2.04218746114011e-05 4.30341507330057e-06  -1.99658529068972e-05 4.74155196350761e-06
2.26845510759615e-05 3.7851051731973e-05  -2.04218746114011e-05 4.30341507330057e-06  0.0107409935710264 0.0823812269742766  0.984110042125687 -0.144064554240033
2.51024134725237e-05 3.60608154423407e-05  -1.99658529068972e-05 4.74155196350761e-06  0.984110042125687 -0.144064554240033  0.0095627468305514 0.0824512759683904
154.125  0.975417075663906 -0.190719404255372  -0.000387511892812812 6.76762567895253e-05  2.27588746945455e-05 1.58595264345432e-05  1.99914734505246e-05 1.36500443736777e-05
-0.000387511892812812 6.76762567895253e-05  -0.988416580168771 0.151600345225437  -2.80930112473942e-05 2.19651328616151e-06  -2.81436673961678e-05 3.51006832098468e-06
2.27588746945455e-05 1.58595264345432e-05  -2.80930112473942e-05 2.19651328616151e-06  0.0111650072589967 0.0845756552432877  0.983238538057538 -0.147443026111396
