! Matrix data file written by TouchstoneData, EPCOS AG
! FILENAME: "newformat_AA36A_x6y6_WB.s4p"
! COMMENT: "(AA36A_x6y6_WB.s4p) EPCOS AG 15.06.2012 10:1"
! INFO: nport=4, nfreq=1601
! DATE: "Mon Aug  6 18:25:02 2012"
! USER: "Michael Schemies"
!
! port | pin | signal
! -----|-----|--------
!   1  |  3  |  Tx
!   2  |  6  |  Ant
!   3  |  8  |  Rx
!   4  |  1  |  Rx
! --------------------
!
# MHZ S MA R 50
! freq  magS11 angS11  magS12 angS12  magS13 angS13  magS14 angS14  ...
1.000000E+02  9.984778E-01 -9.920713E+00  2.763399E-03 7.897347E+01  4.069644E-05 -1.346328E+02  1.545141E-05 -6.156185E+01
2.749672E-03 7.900589E+01  9.985395E-01 -1.014215E+01  3.125286E-04 6.861622E+01  2.535502E-04 8.376642E+01
2.665019E-05 -1.275555E+02  3.007416E-04 7.084406E+01  9.979750E-01 -5.724229E+00  6.014371E-03 8.350313E+01
6.759588E-06 -5.670848E+01  2.582913E-04 8.258212E+01  6.000644E-03 8.327995E+01  9.989159E-01 -5.463074E+00
1.036875E+02  9.990484E-01 -1.027695E+01  2.855940E-03 7.956585E+01  4.664787E-05 -1.785608E+02  1.579042E-05 -1.704508E+02
2.853852E-03 7.947160E+01  9.984720E-01 -1.053516E+01  2.364353E-04 8.507820E+01  2.581289E-04 8.529517E+01
4.358145E-05 1.791919E+02  2.459840E-04 8.388466E+01  9.981456E-01 -5.953195E+00  6.278698E-03 8.283699E+01
2.173607E-05 1.701520E+02  2.707453E-04 8.213359E+01  6.283397E-03 8.279062E+01  9.987506E-01 -5.673422E+00
1.073750E+02  9.984478E-01 -1.066328E+01  2.907464E-03 7.965962E+01  1.524231E-05 9.176575E+01  1.151369E-05 1.787177E+02
2.931933E-03 7.968685E+01  9.984800E-01 -1.090621E+01  2.893525E-04 8.173147E+01  2.718109E-04 8.379582E+01
2.029211E-05 1.487709E+02  2.828039E-04 8.274024E+01  9.984949E-01 -6.188967E+00  6.327533E-03 8.249055E+01
1.915939E-05 1.028973E+02  2.742770E-04 8.196932E+01  6.335201E-03 8.248086E+01  9.988289E-01 -5.899166E+00
1.110625E+02  9.989428E-01 -1.101384E+01  3.033104E-03 7.702087E+01  7.916077E-06 -2.760955E+01  3.726002E-06 1.581940E+02
3.028826E-03 7.708927E+01  9.982998E-01 -1.130441E+01  2.740130E-04 7.186184E+01  2.516514E-04 7.577112E+01
6.961617E-06 -2.938337E+01  2.743605E-04 7.484299E+01  9.982154E-01 -6.385522E+00  6.579061E-03 8.343511E+01
1.659050E-05 -1.382629E+02  2.674525E-04 7.333547E+01  6.566654E-03 8.339539E+01  9.986335E-01 -6.111890E+00
1.147500E+02  9.987470E-01 -1.134226E+01  3.165900E-03 7.827257E+01  9.630678E-06 1.063857E+02  2.846385E-06 -5.572673E+01
3.165655E-03 7.848033E+01  9.982579E-01 -1.164236E+01  3.032794E-04 7.868977E+01  2.795079E-04 7.908728E+01
1.518396E-05 1.340038E+02  2.807587E-04 7.903767E+01  9.986838E-01 -6.550513E+00  6.897120E-03 8.263030E+01
1.243593E-05 -7.026532E+01  2.820177E-04 8.006172E+01  6.866082E-03 8.248748E+01  9.988792E-01 -6.302452E+00
1.184375E+02  9.981757E-01 -1.174705E+01  3.260734E-03 7.793104E+01  5.358556E-06 -2.984303E+01  1.714953E-05 9.225150E+01
3.265208E-03 7.785690E+01  9.976911E-01 -1.203735E+01  3.355298E-04 8.052319E+01  3.030923E-04 8.349554E+01
1.657840E-05 -4.255378E+01  3.169549E-04 8.272591E+01  9.980032E-01 -6.777887E+00  7.076866E-03 8.219318E+01
1.690644E-05 -1.535061E+01  2.994725E-04 7.874249E+01  7.078664E-03 8.218643E+01  9.982923E-01 -6.532345E+00
1.221250E+02  9.979721E-01 -1.195541E+01  3.294824E-03 7.738885E+01  1.807232E-05 -5.505696E+01  1.071545E-05 -1.492137E+02
3.305592E-03 7.740665E+01  9.972252E-01 -1.233704E+01  3.119382E-04 7.352318E+01  3.131154E-04 7.858259E+01
2.383967E-05 -6.224774E+01  3.301617E-04 7.583655E+01  9.972206E-01 -6.997404E+00  7.288022E-03 8.196983E+01
1.108604E-05 1.490056E+02  3.268466E-04 7.826617E+01  7.281705E-03 8.204302E+01  9.983350E-01 -6.736541E+00
1.258125E+02  9.985454E-01 -1.236325E+01  3.537585E-03 7.818090E+01  1.151347E-05 1.191780E+02  2.217886E-05 -1.091839E+02
3.533125E-03 7.823589E+01  9.985443E-01 -1.273626E+01  3.269784E-04 7.994598E+01  3.170057E-04 7.834691E+01
1.871401E-05 1.403471E+02  3.218521E-04 8.156093E+01  9.977574E-01 -7.162278E+00  7.307745E-03 8.150155E+01
2.347891E-05 -1.745203E+02  3.259009E-04 7.914137E+01  7.303657E-03 8.158921E+01  9.981365E-01 -6.900682E+00
1.295000E+02  9.988112E-01 -1.272980E+01  3.583363E-03 7.562547E+01  2.799050E-06 1.408191E+02  1.322497E-05 -4.389371E+01
3.586627E-03 7.554660E+01  9.983888E-01 -1.314432E+01  3.650558E-04 8.053430E+01  3.329838E-04 7.953735E+01
1.205822E-05 -7.582692E+01  3.602013E-04 7.881094E+01  9.975612E-01 -7.384499E+00  7.435219E-03 8.225364E+01
1.655790E-05 5.211671E+01  3.228144E-04 7.839661E+01  7.451024E-03 8.216067E+01  9.983239E-01 -7.146316E+00
1.331875E+02  9.986831E-01 -1.309244E+01  3.627878E-03 7.680695E+01  2.855911E-05 2.739385E+01  3.675775E-05 9.450700E+01
3.629868E-03 7.700405E+01  9.980643E-01 -1.350825E+01  3.304333E-04 7.677437E+01  3.271798E-04 7.671140E+01
6.557069E-06 2.670301E+01  3.410470E-04 7.575234E+01  9.969697E-01 -7.596366E+00  8.106915E-03 8.546991E+01
2.238927E-05 1.086682E+02  3.260927E-04 7.445821E+01  8.110001E-03 8.554307E+01  9.982206E-01 -7.317762E+00
1.368750E+02  9.980991E-01 -1.343584E+01  3.570725E-03 7.490102E+01  1.134344E-05 -3.483974E+01  2.070237E-05 5.050949E+01
3.573539E-03 7.489894E+01  9.975436E-01 -1.386006E+01  3.851416E-04 7.206979E+01  3.666532E-04 7.466743E+01
1.162512E-05 -7.231468E+01  3.811438E-04 7.177517E+01  9.969601E-01 -7.803499E+00  8.289240E-03 8.439752E+01
2.171998E-05 2.879488E+01  3.768899E-04 7.419742E+01  8.292339E-03 8.432662E+01  9.973094E-01 -7.486968E+00
1.405625E+02  9.980729E-01 -1.382458E+01  3.782288E-03 7.646829E+01  2.553783E-05 -1.177440E+02  2.482159E-06 5.998276E+01
3.788577E-03 7.656284E+01  9.977638E-01 -1.426265E+01  3.426753E-04 7.416924E+01  3.035060E-04 8.165677E+01
1.532413E-05 -1.513405E+02  3.492189E-04 7.596136E+01  9.970560E-01 -8.033728E+00  8.688881E-03 8.066278E+01
1.089563E-05 1.386407E+02  3.017076E-04 7.941627E+01  8.676843E-03 8.064045E+01  9.975349E-01 -7.666026E+00
1.442500E+02  9.972281E-01 -1.416333E+01  3.911739E-03 7.423452E+01  3.353052E-05 -1.642515E+02  2.187464E-05 -1.732182E+02
3.905243E-03 7.416130E+01  9.972346E-01 -1.464141E+01  3.634823E-04 8.245545E+01  3.631316E-04 7.999304E+01
2.403593E-05 -1.695277E+02  3.557378E-04 8.076388E+01  9.969597E-01 -8.240092E+00  9.142544E-03 7.964865E+01
1.724944E-05 -1.105938E+02  3.578617E-04 8.273037E+01  9.135714E-03 7.971765E+01  9.972473E-01 -7.863298E+00
1.479375E+02  9.980419E-01 -1.450667E+01  4.032742E-03 7.681781E+01  4.566645E-05 -9.254245E+01  1.800270E-05 -9.794286E+01
4.023864E-03 7.654992E+01  9.972476E-01 -1.492890E+01  3.917523E-04 7.105221E+01  3.652815E-04 7.187000E+01
4.320843E-05 -1.094757E+02  3.912056E-04 7.314050E+01  9.968570E-01 -8.393647E+00  8.637744E-03 8.041127E+01
8.828902E-06 -1.699064E+02  3.751415E-04 7.309744E+01  8.638022E-03 8.024991E+01  9.974820E-01 -8.030083E+00
1.516250E+02  9.980836E-01 -1.488996E+01  4.089770E-03 7.454898E+01  2.630454E-05 -1.959776E+01  1.804389E-05 -1.276305E+02
4.096289E-03 7.476858E+01  9.974419E-01 -1.533766E+01  3.950723E-04 7.686421E+01  3.877964E-04 7.630599E+01
3.270853E-05 -5.366916E+01  3.960262E-04 7.896800E+01  9.967911E-01 -8.624508E+00  8.783452E-03 7.918565E+01
2.356095E-05 4.339933E+01  3.833947E-04 7.288846E+01  8.787116E-03 7.905612E+01  9.976792E-01 -8.215858E+00
1.553125E+02  9.985694E-01 -1.526599E+01  4.156171E-03 7.458542E+01  2.006792E-05 1.011117E+02  1.369055E-05 4.895412E+01
4.161219E-03 7.455018E+01  9.974986E-01 -1.571129E+01  3.488659E-04 7.112706E+01  3.565494E-04 7.465906E+01
2.265878E-05 -7.097561E+01  3.472547E-04 7.204143E+01  9.966524E-01 -8.847974E+00  9.091115E-03 8.182921E+01
7.900320E-06 -8.032372E+01  3.662641E-04 7.618267E+01  9.095965E-03 8.194972E+01  9.978946E-01 -8.419456E+00
1.590000E+02  9.986152E-01 -1.564356E+01  4.312818E-03 7.417783E+01  8.121587E-06 -1.448278E+02  2.432576E-05 -1.088903E+02
4.288141E-03 7.414529E+01  9.974345E-01 -1.607295E+01  4.197172E-04 8.017867E+01  3.537349E-04 8.093828E+01
2.628619E-05 -1.123244E+02  4.228818E-04 8.203363E+01  9.968553E-01 -9.040866E+00  9.537031E-03 7.949500E+01
3.073759E-05 -6.913180E+01  3.700946E-04 8.143800E+01  9.532470E-03 7.949516E+01  9.974303E-01 -8.576936E+00
1.626875E+02  9.991444E-01 -1.600880E+01  4.396708E-03 7.358714E+01  7.117078E-06 1.376491E+02  4.731301E-06 -1.697367E+02
4.401231E-03 7.328634E+01  9.979406E-01 -1.643800E+01  4.331535E-04 7.608647E+01  3.844042E-04 8.021634E+01
2.426647E-05 -1.522567E+02  4.148327E-04 7.748664E+01  9.977573E-01 -9.244914E+00  9.647579E-03 7.993542E+01
1.478466E-05 -9.882350E+01  3.957009E-04 7.987457E+01  9.621455E-03 8.013881E+01  9.981265E-01 -8.744191E+00
1.663750E+02  9.964337E-01 -1.641466E+01  4.529627E-03 7.333221E+01  9.090859E-06 -1.458529E+02  2.241543E-05 1.658830E+02
4.524878E-03 7.321725E+01  9.962628E-01 -1.684793E+01  4.666896E-04 7.674164E+01  4.242326E-04 7.646023E+01
2.691324E-05 -1.630261E+02  4.591938E-04 7.933653E+01  9.964031E-01 -9.528141E+00  9.825789E-03 7.899070E+01
2.978716E-05 -1.529449E+02  4.168724E-04 7.755177E+01  9.822761E-03 7.890202E+01  9.971251E-01 -8.973413E+00
1.700625E+02  9.971170E-01 -1.667528E+01  4.547441E-03 7.382783E+01  1.921651E-05 -1.221908E+02  1.000044E-05 -1.001781E+02
4.555342E-03 7.362966E+01  9.961017E-01 -1.713569E+01  4.397853E-04 7.884524E+01  4.066947E-04 7.492441E+01
2.567383E-05 -5.819028E+01  4.316034E-04 7.496236E+01  9.955013E-01 -9.742177E+00  9.978836E-03 7.891069E+01
9.520023E-06 -4.199954E+01  4.206928E-04 7.161625E+01  9.968852E-03 7.879919E+01  9.969257E-01 -9.195885E+00
1.737500E+02  9.979284E-01 -1.702686E+01  4.650723E-03 7.221819E+01  2.017011E-05 1.407400E+02  4.897439E-06 5.112848E+00
4.657635E-03 7.208025E+01  9.963385E-01 -1.749158E+01  4.747123E-04 7.479030E+01  4.540919E-04 7.408053E+01
2.345353E-05 -1.768790E+02  4.634800E-04 7.574835E+01  9.956732E-01 -9.911039E+00  9.644197E-03 7.964877E+01
9.656107E-06 -4.372954E+01  4.553214E-04 7.189790E+01  9.624456E-03 7.972202E+01  9.961984E-01 -9.296770E+00
1.774375E+02  9.978265E-01 -1.750586E+01  4.763463E-03 7.236153E+01  3.499401E-05 -9.468109E+01  1.322586E-05 8.973869E+01
4.766546E-03 7.218880E+01  9.961638E-01 -1.800067E+01  4.084036E-04 7.364678E+01  4.109871E-04 7.630369E+01
1.648109E-05 -1.330753E+02  4.010471E-04 7.493030E+01  9.959679E-01 -1.018845E+01  1.026213E-02 8.111485E+01
8.278785E-06 -6.035399E+01  4.174415E-04 7.509539E+01  1.024529E-02 8.120691E+01  9.967564E-01 -9.554953E+00
1.811250E+02  9.981723E-01 -1.779258E+01  4.873881E-03 7.137648E+01  5.160131E-06 7.315264E+01  1.304747E-05 -8.326809E+01
4.891861E-03 7.162928E+01  9.971855E-01 -1.820864E+01  4.240622E-04 7.378656E+01  4.121599E-04 7.182473E+01
1.806648E-05 5.547086E+01  4.412503E-04 7.377969E+01  9.967226E-01 -1.028800E+01  1.101681E-02 8.128483E+01
9.153174E-06 1.274515E+02  4.105935E-04 7.081198E+01  1.100827E-02 8.118612E+01  9.969503E-01 -9.584443E+00
1.848125E+02  9.981064E-01 -1.818152E+01  4.963590E-03 7.158449E+01  2.304441E-05 4.033399E+01  4.282317E-06 -8.388751E+01
4.963004E-03 7.159040E+01  9.973672E-01 -1.860291E+01  4.558901E-04 7.420706E+01  4.667485E-04 7.538691E+01
2.608259E-05 9.263685E+00  4.465304E-04 7.604599E+01  9.968667E-01 -1.053305E+01  1.098056E-02 7.936506E+01
1.978771E-05 -1.788563E+02  4.494159E-04 7.657306E+01  1.098304E-02 7.934806E+01  9.976851E-01 -9.811553E+00
1.885000E+02  9.978674E-01 -1.857433E+01  5.040003E-03 7.138606E+01  2.460208E-05 -4.688418E+01  2.869903E-05 -1.296342E+02
5.036003E-03 7.146786E+01  9.973819E-01 -1.899993E+01  4.450193E-04 7.187495E+01  4.149213E-04 7.827987E+01
2.200963E-05 -6.011607E+01  4.360720E-04 7.479756E+01  9.969332E-01 -1.078203E+01  1.124244E-02 7.800635E+01
3.754934E-06 -5.467925E+01  4.103090E-04 7.798314E+01  1.123670E-02 7.805290E+01  9.972786E-01 -1.000438E+01
1.921875E+02  9.961907E-01 -1.887866E+01  5.118519E-03 7.113795E+01  1.386014E-05 1.552412E+02  1.321195E-05 8.591075E+01
5.126151E-03 7.110839E+01  9.965418E-01 -1.937144E+01  4.874020E-04 7.205600E+01  4.555197E-04 7.716537E+01
1.689712E-05 1.580359E+02  4.821790E-04 7.150393E+01  9.967488E-01 -1.102048E+01  1.137338E-02 7.801220E+01
1.042041E-05 1.066013E+02  4.402456E-04 7.672861E+01  1.136623E-02 7.778632E+01  9.975557E-01 -1.019281E+01
1.958750E+02  9.972258E-01 -1.921096E+01  5.211352E-03 6.971863E+01  4.180087E-05 -1.210429E+02  1.483852E-05 -5.417432E+01
5.228876E-03 6.972567E+01  9.964104E-01 -1.967634E+01  5.232324E-04 7.184752E+01  4.573817E-04 7.371885E+01
2.773036E-05 -1.634274E+02  5.271999E-04 7.162418E+01  9.957666E-01 -1.116644E+01  1.132114E-02 7.874646E+01
1.315124E-05 -1.723478E+02  4.744604E-04 7.396141E+01  1.131039E-02 7.877628E+01  9.965267E-01 -1.036724E+01
1.995625E+02  9.980453E-01 -1.959392E+01  5.293958E-03 6.964971E+01  1.663213E-05 -1.863424E+01  1.209309E-05 -1.173127E+01
5.307519E-03 6.951367E+01  9.966970E-01 -2.010986E+01  4.860280E-04 7.531497E+01  4.773797E-04 7.583734E+01
1.629650E-05 -6.155736E+01  5.045961E-04 7.638334E+01  9.963486E-01 -1.141842E+01  1.163970E-02 7.743433E+01
1.173866E-05 -1.725940E+02  4.585603E-04 7.810756E+01  1.163234E-02 7.742365E+01  9.967819E-01 -1.054452E+01
2.032500E+02  9.978430E-01 -1.997924E+01  5.423791E-03 6.988074E+01  3.674604E-06 6.557677E+01  1.060259E-05 4.482446E+01
5.431983E-03 6.979170E+01  9.962022E-01 -2.048619E+01  4.523651E-04 7.385168E+01  4.519575E-04 7.311840E+01
1.292082E-05 -1.712184E+02  4.582081E-04 7.433587E+01  9.963954E-01 -1.162645E+01  1.202640E-02 7.910819E+01
1.414860E-05 -1.429273E+02  4.497802E-04 7.208776E+01  1.203039E-02 7.923102E+01  9.966440E-01 -1.070473E+01
2.069375E+02  9.978700E-01 -2.038183E+01  5.492432E-03 6.957702E+01  8.288376E-06 -6.672526E+01  1.654720E-05 1.470089E+02
5.509655E-03 6.964140E+01  9.961842E-01 -2.084050E+01  5.046176E-04 7.389950E+01  4.688138E-04 7.305766E+01
1.921017E-05 -1.743027E+02  5.116980E-04 7.354943E+01  9.974208E-01 -1.183601E+01  1.205853E-02 7.714757E+01
1.904313E-05 1.113855E+02  4.885631E-04 7.425186E+01  1.206531E-02 7.718656E+01  9.975035E-01 -1.092746E+01
2.106250E+02  9.977690E-01 -2.063442E+01  5.550708E-03 6.867961E+01  1.679569E-05 1.461256E+02  2.923009E-06 9.889987E+01
5.565482E-03 6.859021E+01  9.984787E-01 -2.116707E+01  5.429068E-04 7.242679E+01  5.053727E-04 7.461720E+01
1.458865E-05 1.465220E+02  5.363463E-04 7.365702E+01  9.975801E-01 -1.193509E+01  1.221275E-02 7.800772E+01
8.669465E-06 -1.710438E+02  4.857686E-04 7.331897E+01  1.220030E-02 7.790132E+01  9.989253E-01 -1.101082E+01
2.143125E+02  9.955109E-01 -2.112465E+01  5.726621E-03 6.881256E+01  1.234053E-05 -6.944705E+01  3.201709E-06 4.518545E+01
5.719991E-03 6.880617E+01  9.961398E-01 -2.153631E+01  5.667845E-04 7.462283E+01  5.031305E-04 7.419608E+01
1.980267E-05 -1.125393E+02  5.366820E-04 7.200048E+01  9.973597E-01 -1.230560E+01  1.255626E-02 7.767688E+01
9.359714E-06 -1.108382E+02  5.031478E-04 7.508045E+01  1.255643E-02 7.761347E+01  9.974167E-01 -1.128651E+01
2.180000E+02  9.966285E-01 -2.138860E+01  5.754293E-03 6.845383E+01  1.153321E-05 -8.886731E+01  6.400167E-06 -1.543974E+02
5.749066E-03 6.850161E+01  9.959822E-01 -2.186623E+01  5.504606E-04 7.265867E+01  5.410918E-04 7.367827E+01
7.516591E-06 1.513031E+02  5.490557E-04 7.275385E+01  9.960820E-01 -1.256443E+01  1.271107E-02 7.753058E+01
9.001217E-06 -1.658359E+02  5.259692E-04 7.340495E+01  1.270831E-02 7.744232E+01  9.968286E-01 -1.153114E+01
2.216875E+02  9.970130E-01 -2.174176E+01  5.877235E-03 6.773605E+01  1.422107E-05 -8.657730E+01  1.168166E-05 -9.009888E+01
5.899639E-03 6.775381E+01  9.965254E-01 -2.224165E+01  5.658871E-04 7.035100E+01  5.272622E-04 7.287608E+01
1.998529E-05 -4.026501E+01  5.518493E-04 7.147900E+01  9.956949E-01 -1.270506E+01  1.286395E-02 7.683744E+01
1.638373E-05 -6.826836E+01  5.154177E-04 7.275158E+01  1.285316E-02 7.688949E+01  9.963749E-01 -1.166643E+01
2.253750E+02  9.984678E-01 -2.212286E+01  5.983403E-03 6.765977E+01  1.875183E-05 -1.319700E+02  1.537400E-05 1.763533E+02
5.992811E-03 6.772430E+01  9.960834E-01 -2.258566E+01  5.227085E-04 7.231454E+01  5.415128E-04 7.362666E+01
2.765524E-05 -1.303353E+02  5.392130E-04 7.167970E+01  9.977229E-01 -1.289092E+01  1.335699E-02 7.766087E+01
7.051836E-07 -1.193891E+02  5.319101E-04 7.220414E+01  1.339722E-02 7.760561E+01  9.980399E-01 -1.182738E+01
2.290625E+02  9.975226E-01 -2.246237E+01  6.054463E-03 6.727665E+01  1.588271E-05 1.619336E+02  1.253794E-05 -9.355563E+01
6.066292E-03 6.734064E+01  9.966351E-01 -2.300380E+01  5.523745E-04 7.142591E+01  5.225414E-04 7.241636E+01
6.975382E-06 1.651892E+02  5.530625E-04 7.167802E+01  9.970707E-01 -1.310312E+01  1.347093E-02 7.630690E+01
1.202822E-05 -1.618919E+02  5.238662E-04 7.229732E+01  1.345140E-02 7.626265E+01  9.976509E-01 -1.203156E+01
2.327500E+02  9.976857E-01 -2.253288E+01  6.147083E-03 6.716836E+01  8.532520E-06 -1.398889E+02  1.266738E-05 -1.346248E+02
6.152826E-03 6.720676E+01  9.965384E-01 -2.307661E+01  5.595578E-04 7.074555E+01  5.571707E-04 7.290384E+01
2.579525E-06 4.689994E+01  5.641561E-04 7.151813E+01  9.969363E-01 -1.301893E+01  1.353628E-02 7.658206E+01
4.758883E-06 -1.006246E+02  5.527966E-04 7.188491E+01  1.352042E-02 7.656899E+01  9.981091E-01 -1.196954E+01
2.364375E+02  9.972673E-01 -2.321397E+01  6.231255E-03 6.661315E+01  2.222782E-05 -9.941343E+01  9.980220E-06 1.154962E+02
6.226731E-03 6.659775E+01  9.960887E-01 -2.372298E+01  5.733736E-04 7.135504E+01  5.794003E-04 7.078615E+01
5.621381E-06 -1.210145E+02  5.680081E-04 7.077566E+01  9.969821E-01 -1.354193E+01  1.354695E-02 7.598540E+01
6.856449E-06 -8.093373E+01  5.883401E-04 7.118044E+01  1.355630E-02 7.596679E+01  9.971164E-01 -1.237496E+01
2.401250E+02  9.958644E-01 -2.351948E+01  6.328553E-03 6.629553E+01  1.207955E-05 1.435286E+02  1.067677E-05 -1.268325E+02
6.346102E-03 6.624407E+01  9.955510E-01 -2.406960E+01  5.765718E-04 6.912502E+01  5.750516E-04 7.259795E+01
5.282322E-06 1.119319E+02  5.742926E-04 6.971772E+01  9.969367E-01 -1.375154E+01  1.391149E-02 7.611576E+01
1.453492E-05 1.670919E+02  5.687448E-04 7.188164E+01  1.390825E-02 7.606042E+01  9.975753E-01 -1.259642E+01
2.438125E+02  9.966340E-01 -2.383655E+01  6.360247E-03 6.591829E+01  1.168656E-05 -1.397625E+02  1.135250E-05 1.397174E+02
6.360655E-03 6.616969E+01  9.955203E-01 -2.442419E+01  5.902525E-04 6.754882E+01  5.701316E-04 6.803979E+01
1.027412E-05 -1.686062E+02  5.898193E-04 6.779563E+01  9.960703E-01 -1.400241E+01  1.418841E-02 7.578946E+01
9.493630E-06 -1.409968E+02  5.528434E-04 6.846612E+01  1.418999E-02 7.574073E+01  9.970888E-01 -1.286327E+01
2.475000E+02  9.970234E-01 -2.423292E+01  6.446417E-03 6.558018E+01  1.103508E-05 1.140316E+02  4.039055E-06 -1.594363E+01
6.453676E-03 6.552408E+01  9.959049E-01 -2.479468E+01  5.665523E-04 7.146859E+01  5.615732E-04 6.974006E+01
9.151926E-06 -1.700997E+02  5.557261E-04 7.052158E+01  9.962744E-01 -1.416927E+01  1.443229E-02 7.574040E+01
5.994676E-06 -1.248457E+02  5.592517E-04 6.985876E+01  1.442766E-02 7.569573E+01  9.964189E-01 -1.301493E+01
2.511875E+02  9.969407E-01 -2.457394E+01  6.532480E-03 6.423610E+01  2.029164E-05 -1.664216E+02  1.515062E-05 -8.917325E+01
6.544204E-03 6.424135E+01  9.955977E-01 -2.516262E+01  5.990095E-04 7.127759E+01  5.629584E-04 7.070132E+01
1.182941E-05 -8.862397E+01  5.980117E-04 7.215594E+01  9.962407E-01 -1.433691E+01  1.453730E-02 7.624364E+01
7.586129E-06 -1.491649E+02  5.786651E-04 7.003773E+01  1.451114E-02 7.629991E+01  9.962487E-01 -1.317364E+01
2.548750E+02  9.967154E-01 -2.494093E+01  6.708893E-03 6.461472E+01  3.120314E-05 -1.600999E+02  1.998711E-05 -1.716469E+02
6.711630E-03 6.468698E+01  9.954280E-01 -2.550648E+01  6.360905E-04 7.100257E+01  6.073158E-04 7.295572E+01
2.294958E-05 -1.752497E+02  6.204133E-04 7.145082E+01  9.964561E-01 -1.454097E+01  1.463685E-02 7.489974E+01
1.656000E-05 -1.043799E+02  6.080108E-04 7.220649E+01  1.463476E-02 7.481994E+01  9.967680E-01 -1.336493E+01
2.585625E+02  9.960969E-01 -2.528897E+01  6.713178E-03 6.439822E+01  2.650619E-05 -1.147944E+02  2.043451E-05 1.682271E+02
