! Matrix data file written by TouchstoneData, EPCOS AG
! FILENAME: "newformat_AA06A_x18y17_WB.s4p"
! COMMENT: "(AA06A_x18y17_WB.s4p) EPCOS AG 03.05.2012 14"
! INFO: nport=4, nfreq=1601
! DATE: "Mon Jun 25 17:54:29 2012"
! USER: "Sergey Rostovtsev"
!
!
!
! port | pin | signal
! -----|-----|--------
!   1  |  3  |  TX in
!   2  |  6  |  Ant in/out
!   3  |  8  |  RX out1
!   4  |  1  |  RX out2
! --------------------
!
!
# MHZ S MA R 50
! freq  magS11 angS11  magS12 angS12  magS13 angS13  magS14 angS14  ...
5.000000E+01  9.984177E-01 -8.044828E+00  2.076360E-03 7.903623E+01  1.105421E-05 -1.167286E+02  4.165341E-05 1.168734E+02 
2.117644E-03 7.830911E+01  9.984524E-01 -7.334902E+00  5.348074E-05 1.203804E+02  1.142563E-04 4.873102E+01 
1.000770E-05 1.063024E+02  7.263959E-05 1.369763E+02  9.981324E-01 -2.692879E+00  2.902081E-02 8.731971E+01 
3.460456E-05 8.029315E+01  1.034116E-04 7.273269E+01  2.894612E-02 8.715564E+01  9.992905E-01 -2.672027E+00 
5.371875E+01  9.987143E-01 -8.740783E+00  2.337659E-03 8.199729E+01  1.954097E-05 1.012223E+02  1.386687E-05 1.559070E+02 
2.337482E-03 8.179163E+01  9.986850E-01 -8.014520E+00  6.358819E-05 1.102745E+02  4.376667E-05 8.304480E+01 
9.518216E-06 7.010512E+01  4.288133E-05 1.159489E+02  9.974798E-01 -2.967376E+00  3.135517E-02 8.718937E+01 
3.097529E-05 9.475600E+01  5.724581E-05 1.061354E+02  3.129435E-02 8.717846E+01  9.985845E-01 -2.956635E+00 
5.743750E+01  9.986733E-01 -9.332238E+00  2.449389E-03 8.206324E+01  3.125986E-05 -8.185455E+01  2.890401E-05 -1.233479E+02 
2.448834E-03 8.197526E+01  9.990493E-01 -8.519408E+00  1.315856E-04 8.535529E+01  9.506061E-05 9.272865E+01 
4.601743E-05 -9.906500E+01  1.169543E-04 8.726215E+01  9.977793E-01 -3.145497E+00  3.331916E-02 8.690630E+01 
2.669633E-05 -1.248493E+02  1.004466E-04 8.689225E+01  3.328540E-02 8.688740E+01  9.987493E-01 -3.127155E+00 
6.115625E+01  9.985709E-01 -9.943742E+00  2.617613E-03 8.115050E+01  4.261993E-05 9.148882E+01  2.192112E-05 1.033059E+02 
2.627999E-03 8.148737E+01  9.987881E-01 -9.104601E+00  9.969035E-05 6.232738E+01  8.378935E-05 5.209712E+01 
4.821226E-05 8.314913E+01  1.067121E-04 6.152198E+01  9.972644E-01 -3.360809E+00  3.562400E-02 8.731920E+01 
3.473452E-05 1.283867E+02  7.804922E-05 6.069765E+01  3.556519E-02 8.729952E+01  9.983192E-01 -3.330764E+00 
6.487500E+01  9.988831E-01 -1.048012E+01  2.811215E-03 8.146400E+01  1.424662E-05 -1.750081E+02  5.155583E-05 -1.203976E+02 
2.825883E-03 8.167727E+01  9.988169E-01 -9.610403E+00  1.145921E-04 1.145841E+02  1.134144E-04 7.834462E+01 
1.482383E-05 -1.474168E+02  1.133447E-04 1.153420E+02  9.974980E-01 -3.534674E+00  3.798878E-02 8.668588E+01 
7.053565E-05 -1.167130E+02  1.105427E-04 7.908844E+01  3.793719E-02 8.664427E+01  9.983939E-01 -3.518224E+00 
6.859375E+01  9.984336E-01 -1.109945E+01  2.914528E-03 7.898511E+01  1.444825E-05 1.335233E+02  5.599548E-06 -8.696640E+01 
2.915525E-03 7.898529E+01  9.990473E-01 -1.015411E+01  1.604559E-04 8.523867E+01  1.060054E-04 8.596837E+01 
1.350815E-05 1.093692E+02  1.658082E-04 8.633507E+01  9.972513E-01 -3.734194E+00  4.008329E-02 8.603460E+01 
1.872103E-06 1.343940E+02  1.188989E-04 8.535384E+01  4.005706E-02 8.601151E+01  9.980642E-01 -3.726976E+00 
7.231250E+01  9.978677E-01 -1.154941E+01  3.124643E-03 7.792647E+01  2.507945E-05 1.267304E+02  3.963724E-05 1.480472E+02 
3.142687E-03 7.809829E+01  9.963951E-01 -1.058683E+01  6.101679E-05 1.445021E+02  4.892728E-05 1.105000E+01 
1.681386E-05 1.465024E+02  6.126715E-05 1.399635E+02  9.962810E-01 -3.947947E+00  4.182086E-02 8.590777E+01 
4.713262E-05 1.500596E+02  4.739853E-05 3.131650E+01  4.176972E-02 8.585970E+01  9.974640E-01 -3.914820E+00 
7.603125E+01  9.983807E-01 -1.217389E+01  3.309839E-03 7.582561E+01  1.910044E-05 -2.958960E+01  3.594865E-05 -3.218587E+00 
3.310505E-03 7.605858E+01  9.990045E-01 -1.122199E+01  8.705541E-05 8.201414E+01  9.893756E-05 5.859513E+01 
1.916437E-05 -6.441362E+01  9.847535E-05 8.321961E+01  9.972840E-01 -4.141931E+00  4.384799E-02 8.590988E+01 
3.691273E-05 2.834721E+01  1.128517E-04 5.937931E+01  4.394636E-02 8.589487E+01  9.985388E-01 -4.129763E+00 
7.975000E+01  9.987224E-01 -1.278210E+01  3.467570E-03 7.833240E+01  2.149053E-05 -1.667864E+02  3.598660E-05 -1.506771E+02 
3.468176E-03 7.842192E+01  9.987614E-01 -1.177086E+01  1.541629E-04 8.695330E+01  1.221752E-04 6.576992E+01 
2.868123E-05 -1.653155E+02  1.719652E-04 8.235453E+01  9.972315E-01 -4.317765E+00  4.629192E-02 8.602823E+01 
3.578600E-05 -1.320897E+02  1.110663E-04 7.572576E+01  4.635407E-02 8.599193E+01  9.979901E-01 -4.321853E+00 
8.346875E+01  9.985481E-01 -1.337337E+01  3.584356E-03 7.658767E+01  1.223552E-05 -9.288003E+00  1.262658E-05 -1.151460E+02 
3.583159E-03 7.648578E+01  9.991156E-01 -1.227560E+01  1.143733E-04 8.227544E+01  1.272916E-04 7.696179E+01 
8.318629E-06 -2.868975E+01  1.208039E-04 8.598240E+01  9.972483E-01 -4.498127E+00  4.853902E-02 8.560905E+01 
1.956823E-05 -1.586883E+02  1.365219E-04 7.552590E+01  4.865117E-02 8.550224E+01  9.980567E-01 -4.485787E+00 
8.718750E+01  9.989120E-01 -1.397587E+01  3.747889E-03 7.501053E+01  2.318381E-05 -7.499996E+01  8.462115E-06 -3.431179E+00 
3.746380E-03 7.512238E+01  9.991613E-01 -1.288518E+01  1.186043E-04 5.945435E+01  1.170498E-04 8.097994E+01 
1.906264E-05 -4.287187E+01  1.057933E-04 6.263997E+01  9.973626E-01 -4.695429E+00  5.064808E-02 8.520350E+01 
2.067706E-05 -4.005567E+01  1.154339E-04 7.767425E+01  5.074781E-02 8.509480E+01  9.977268E-01 -4.741407E+00 
9.090625E+01  9.989742E-01 -1.458736E+01  3.896417E-03 7.629043E+01  3.217117E-05 5.609078E+01  3.965715E-05 8.235057E+01 
3.892646E-03 7.646891E+01  9.990177E-01 -1.334855E+01  1.098249E-04 7.294064E+01  9.306442E-05 5.864765E+01 
3.438217E-05 7.894589E+01  1.173970E-04 7.134593E+01  9.972565E-01 -4.930753E+00  5.279150E-02 8.495234E+01 
4.061714E-05 9.447009E+01  9.438887E-05 5.668507E+01  5.289421E-02 8.490116E+01  9.977650E-01 -4.917361E+00 
9.462500E+01  9.978611E-01 -1.515089E+01  4.041125E-03 7.666993E+01  1.143089E-05 -1.298286E+02  3.349753E-05 -1.403503E+02 
4.054719E-03 7.632212E+01  9.988398E-01 -1.405310E+01  1.225270E-04 8.249483E+01  1.242525E-04 9.579332E+01 
2.500605E-06 -1.538852E+02  1.272927E-04 9.007266E+01  9.965594E-01 -5.148426E+00  5.490538E-02 8.470794E+01 
3.164137E-05 -1.320035E+02  1.047963E-04 9.213603E+01  5.499523E-02 8.462863E+01  9.976399E-01 -5.153500E+00 
9.834375E+01  9.989006E-01 -1.566356E+01  4.205689E-03 7.618962E+01  1.395410E-04 -9.462843E+01  1.508209E-04 -7.641788E+01 
4.201414E-03 7.635324E+01  9.989793E-01 -1.438512E+01  1.080602E-04 6.011694E+01  1.406593E-04 2.239917E+01 
1.333295E-04 -9.200914E+01  9.840860E-05 6.224979E+01  9.967454E-01 -5.257168E+00  5.727270E-02 8.471207E+01 
1.501460E-04 -6.755484E+01  1.433616E-04 1.715947E+01  5.735691E-02 8.462232E+01  9.976511E-01 -5.278540E+00 
1.020625E+02  9.986475E-01 -1.628157E+01  4.314980E-03 7.507616E+01  2.941372E-05 3.831537E+01  2.212207E-05 -8.100210E+01 
4.317099E-03 7.527627E+01  9.993424E-01 -1.497935E+01  1.693839E-04 8.452200E+01  1.573237E-04 9.332002E+01 
3.176377E-05 3.018585E+01  1.788801E-04 8.580743E+01  9.967638E-01 -5.456679E+00  5.914625E-02 8.451592E+01 
1.025224E-05 -1.312899E+02  1.715202E-04 9.426435E+01  5.918357E-02 8.444611E+01  9.979238E-01 -5.485711E+00 
1.057812E+02  9.984646E-01 -1.685206E+01  4.542397E-03 7.328187E+01  9.646280E-05 -4.882038E+01  9.648319E-05 -5.467876E+01 
4.548251E-03 7.353747E+01  9.996405E-01 -1.552365E+01  1.923326E-04 8.383618E+01  1.972681E-04 8.356101E+01 
8.990226E-05 -4.244634E+01  2.086610E-04 8.389494E+01  9.968942E-01 -5.684695E+00  6.124445E-02 8.441069E+01 
1.069518E-04 -5.730990E+01  2.011075E-04 8.537686E+01  6.117595E-02 8.437716E+01  9.975417E-01 -5.690630E+00 
1.095000E+02  9.987596E-01 -1.744476E+01  4.653586E-03 7.425929E+01  2.163892E-05 -5.160616E+01  2.886998E-05 2.997519E+01 
4.649444E-03 7.426869E+01  9.993647E-01 -1.608195E+01  1.413020E-04 7.967065E+01  1.602553E-04 7.191426E+01 
2.617988E-05 -4.462421E+01  1.375850E-04 7.551900E+01  9.966409E-01 -5.870688E+00  6.373994E-02 8.445755E+01 
2.059623E-05 4.827920E+01  1.595609E-04 7.248433E+01  6.371481E-02 8.439603E+01  9.974485E-01 -5.860999E+00 
1.132188E+02  9.989101E-01 -1.801953E+01  4.787439E-03 7.318356E+01  1.858393E-05 1.611977E+02  1.066496E-05 -1.501712E+01 
4.786133E-03 7.321045E+01  9.988740E-01 -1.660539E+01  1.616380E-04 7.309440E+01  1.543572E-04 7.914359E+01 
1.906838E-05 -1.659827E+02  1.782232E-04 7.900859E+01  9.969313E-01 -6.035101E+00  6.616305E-02 8.398117E+01 
9.222698E-06 -6.187000E+01  1.466644E-04 7.109415E+01  6.618440E-02 8.394205E+01  9.977439E-01 -6.063538E+00 
1.169375E+02  9.970095E-01 -1.865251E+01  5.058166E-03 7.232541E+01  7.717480E-05 6.753799E+01  4.323244E-05 4.670405E+01 
5.057101E-03 7.242029E+01  9.988983E-01 -1.718045E+01  1.723478E-04 7.287048E+01  1.834024E-04 7.357364E+01 
6.190016E-05 7.638863E+01  1.633772E-04 8.041199E+01  9.963033E-01 -6.256277E+00  6.794025E-02 8.330189E+01 
4.580723E-05 4.892080E+01  1.883017E-04 7.582780E+01  6.793758E-02 8.327479E+01  9.972635E-01 -6.279382E+00 
1.206562E+02  9.981266E-01 -1.913271E+01  5.130662E-03 7.195645E+01  2.740781E-05 -1.697677E+01  4.069360E-05 -1.354370E+01 
5.117148E-03 7.194494E+01  9.992887E-01 -1.762976E+01  8.776313E-05 8.089166E+01  1.192461E-04 5.581902E+01 
2.353732E-05 -7.415232E+00  9.647094E-05 8.122474E+01  9.961182E-01 -6.453506E+00  6.969807E-02 8.338012E+01 
5.239299E-05 2.465221E+00  1.043699E-04 5.297931E+01  6.967745E-02 8.339857E+01  9.968368E-01 -6.447758E+00 
1.243750E+02  9.983213E-01 -1.974757E+01  5.301472E-03 7.087344E+01  2.519176E-05 1.214722E+02  3.158345E-05 9.990552E+01 
5.294805E-03 7.096637E+01  9.997876E-01 -1.820216E+01  1.744536E-04 7.694668E+01  1.794844E-04 6.894654E+01 
1.277642E-05 8.211912E+01  1.725809E-04 7.367019E+01  9.961234E-01 -6.659560E+00  7.171962E-02 8.360612E+01 
1.746958E-05 5.870874E+01  1.916956E-04 7.682715E+01  7.172116E-02 8.357802E+01  9.971942E-01 -6.647963E+00 
1.280938E+02  9.985100E-01 -2.034899E+01  5.484110E-03 7.054241E+01  2.480665E-05 4.600955E+01  1.045143E-05 1.331553E+02 
5.483574E-03 7.064220E+01  9.995690E-01 -1.874819E+01  1.666797E-04 8.783957E+01  1.519081E-04 9.311004E+01 
6.456628E-06 -9.962720E+01  1.451895E-04 9.166946E+01  9.963516E-01 -6.840296E+00  7.425653E-02 8.350483E+01 
1.637162E-05 5.469761E+01  1.598095E-04 8.968952E+01  7.432081E-02 8.350100E+01  9.968506E-01 -6.826746E+00 
1.318125E+02  9.984292E-01 -2.092785E+01  5.622189E-03 6.968354E+01  1.689720E-05 1.432138E+02  2.995637E-05 -1.199307E+02 
5.620930E-03 6.968107E+01  1.000045E+00 -1.928106E+01  1.880281E-04 6.966350E+01  1.828015E-04 6.947814E+01 
2.077153E-06 1.136292E+02  2.144742E-04 7.240993E+01  9.965706E-01 -7.029267E+00  7.665582E-02 8.301799E+01 
2.023536E-05 -1.147511E+02  1.838740E-04 7.558267E+01  7.670565E-02 8.302229E+01  9.976375E-01 -7.035943E+00 
1.355312E+02  9.981762E-01 -2.153531E+01  5.690906E-03 6.962701E+01  1.913399E-06 -1.018441E+02  1.160910E-05 -1.570465E+02 
5.688587E-03 6.961524E+01  9.996812E-01 -1.980757E+01  1.292499E-04 7.292346E+01  1.290016E-04 6.367292E+01 
4.419376E-06 1.556327E+02  1.452429E-04 7.002942E+01  9.964436E-01 -7.259549E+00  7.883945E-02 8.271032E+01 
5.439216E-06 1.750729E+02  1.282980E-04 6.237705E+01  7.886240E-02 8.271145E+01  9.977495E-01 -7.208399E+00 
1.392500E+02  9.981633E-01 -2.208718E+01  5.846990E-03 6.963667E+01  2.792270E-05 -1.554834E+02  2.813206E-05 4.675477E+01 
5.825709E-03 6.975512E+01  9.997195E-01 -2.036132E+01  2.012678E-04 8.407708E+01  1.976024E-04 7.297191E+01 
1.562888E-05 -1.745628E+02  2.114225E-04 8.188404E+01  9.962816E-01 -7.469036E+00  8.077437E-02 8.244248E+01 
1.490203E-05 1.223881E+01  1.920381E-04 7.921248E+01  8.079552E-02 8.240247E+01  9.974667E-01 -7.405909E+00 
1.429688E+02  9.973741E-01 -2.266983E+01  5.993939E-03 6.747937E+01  2.478385E-05 1.710709E+02  4.326170E-05 -1.796933E+02 
6.008350E-03 6.751914E+01  9.992368E-01 -2.097518E+01  1.831019E-04 7.774776E+01  1.908670E-04 7.547365E+01 
3.485113E-05 1.733694E+02  1.909979E-04 8.146587E+01  9.957720E-01 -7.712346E+00  8.275812E-02 8.220963E+01 
1.355976E-05 -1.630349E+02  1.913135E-04 7.436493E+01  8.276710E-02 8.225133E+01  9.977695E-01 -7.660197E+00 
1.466875E+02  9.974062E-01 -2.321643E+01  6.119156E-03 6.781609E+01  5.708273E-05 -1.013659E+02  2.058471E-05 5.417873E+00 
6.134576E-03 6.763494E+01  9.997082E-01 -2.136431E+01  1.869061E-04 8.448294E+01  1.614737E-04 1.017375E+02 
4.693581E-05 -1.154015E+02  1.861105E-04 7.962223E+01  9.955724E-01 -7.848345E+00  8.487313E-02 8.209928E+01 
2.559680E-05 2.509372E+01  1.775368E-04 1.052677E+02  8.494331E-02 8.208307E+01  9.968625E-01 -7.764943E+00 
1.504062E+02  9.975540E-01 -2.383937E+01  6.306594E-03 6.703437E+01  5.937990E-05 -3.693427E+01  4.655093E-05 -1.197217E+01 
6.302841E-03 6.715195E+01  1.000029E+00 -2.198425E+01  2.172151E-04 8.504256E+01  2.160217E-04 8.691101E+01 
6.306271E-05 -1.419290E+01  1.973634E-04 8.584054E+01  9.958867E-01 -8.108587E+00  8.716180E-02 8.183341E+01 
2.546544E-05 -7.845630E+01  2.121224E-04 8.465874E+01  8.718138E-02 8.184730E+01  9.971783E-01 -7.989895E+00 
1.541250E+02  9.978460E-01 -2.442607E+01  6.632842E-03 6.682302E+01  2.104854E-05 -1.457219E+02  3.836405E-05 1.306287E+02 
6.627316E-03 6.687868E+01  9.997594E-01 -2.253089E+01  2.325062E-04 8.554691E+01  2.132386E-04 8.969619E+01 
2.244958E-05 -1.378964E+02  2.206699E-04 8.776269E+01  9.955674E-01 -8.358649E+00  8.932339E-02 8.176697E+01 
4.000403E-05 1.272411E+02  2.066600E-04 8.880760E+01  8.932635E-02 8.177491E+01  9.969265E-01 -8.198744E+00 
1.578438E+02  9.977395E-01 -2.502995E+01  6.735222E-03 6.572056E+01  2.761432E-05 4.553932E+01  6.114413E-05 8.761951E+01 
6.724312E-03 6.566431E+01  9.996455E-01 -2.305891E+01  2.031943E-04 6.724575E+01  2.014367E-04 7.651595E+01 
1.352567E-05 2.447454E+01  2.035720E-04 6.973293E+01  9.952785E-01 -8.526229E+00  9.175116E-02 8.156539E+01 
4.894968E-05 9.327544E+01  2.046749E-04 8.169739E+01  9.177447E-02 8.157429E+01  9.966694E-01 -8.368759E+00 
1.615625E+02  9.980883E-01 -2.562371E+01  6.762253E-03 6.551507E+01  2.351544E-05 -1.261273E+02  2.552774E-05 -1.702574E+02 
6.730719E-03 6.539854E+01  1.000374E+00 -2.357938E+01  2.205866E-04 7.878551E+01  2.205431E-04 8.421687E+01 
1.706318E-05 -1.656224E+02  2.329783E-04 8.051804E+01  9.954593E-01 -8.710997E+00  9.406375E-02 8.112002E+01 
3.864478E-05 -1.789294E+02  2.367274E-04 8.317270E+01  9.404700E-02 8.110008E+01  9.966576E-01 -8.548728E+00 
1.652812E+02  9.949530E-01 -2.609051E+01  6.854938E-03 6.501032E+01  4.187960E-05 -3.448537E+00  4.169235E-06 1.062282E+02 
6.858086E-03 6.514438E+01  9.984407E-01 -2.420359E+01  2.614453E-04 7.506806E+01  2.324675E-04 7.832997E+01 
2.258234E-05 3.170470E+01  2.465457E-04 7.162805E+01  9.942368E-01 -8.975373E+00  9.537647E-02 8.075679E+01 
1.351089E-05 2.008089E+01  2.269081E-04 7.717624E+01  9.551848E-02 8.074565E+01  9.954060E-01 -8.777324E+00 
1.690000E+02  9.963158E-01 -2.671494E+01  6.983444E-03 6.638689E+01  5.756915E-05 3.612016E+01  4.605568E-05 -1.148422E+02 
6.980346E-03 6.616597E+01  9.988015E-01 -2.461078E+01  2.358394E-04 8.186980E+01  2.562651E-04 9.151366E+01 
5.429279E-05 5.115343E+01  2.313777E-04 7.936063E+01  9.933935E-01 -9.184099E+00  9.698583E-02 8.094525E+01 
6.200264E-05 -9.553477E+01  2.295584E-04 9.238702E+01  9.699907E-02 8.096085E+01  9.947524E-01 -8.978180E+00 
1.727188E+02  9.969500E-01 -2.729262E+01  7.115318E-03 6.419573E+01  2.147065E-05 -5.353040E+01  3.971270E-05 -5.803514E+01 
7.090805E-03 6.425552E+01  9.985804E-01 -2.515441E+01  2.871226E-04 6.528739E+01  2.600584E-04 6.630203E+01 
3.779630E-05 -5.444329E+01  2.740878E-04 6.718878E+01  9.931381E-01 -9.378178E+00  9.973235E-02 8.117497E+01 
4.123801E-05 -4.344860E+01  2.660208E-04 6.774866E+01  9.978330E-02 8.116873E+01  9.941921E-01 -9.120809E+00 
1.764375E+02  9.968713E-01 -2.787666E+01  7.294464E-03 6.442707E+01  2.744986E-05 -1.779394E+01  1.546767E-05 -1.298147E+02 
7.308179E-03 6.441977E+01  9.978270E-01 -2.570271E+01  2.734993E-04 6.860682E+01  2.587342E-04 7.129662E+01 
2.508599E-05 -1.946338E+01  2.874429E-04 7.073127E+01  9.936860E-01 -9.602832E+00  1.025639E-01 8.042094E+01 
2.341655E-05 -1.024679E+02  2.482560E-04 6.900420E+01  1.027155E-01 8.042032E+01  9.951244E-01 -9.298804E+00 
1.801562E+02  9.972393E-01 -2.844669E+01  7.368472E-03 6.318379E+01  3.062243E-05 -2.718547E+01  1.030766E-05 -6.766358E+01 
7.387581E-03 6.325026E+01  9.984718E-01 -2.620471E+01  2.167247E-04 6.885830E+01  2.217106E-04 7.167175E+01 
1.864573E-05 -4.607295E+01  2.085172E-04 6.994244E+01  9.934115E-01 -9.820358E+00  1.043329E-01 8.013051E+01 
1.551140E-05 -4.339639E+01  2.026631E-04 6.999145E+01  1.044030E-01 8.013767E+01  9.946690E-01 -9.490309E+00 
1.838750E+02  9.966313E-01 -2.904110E+01  7.599691E-03 6.222648E+01  2.678730E-05 -1.633226E+01  2.084676E-05 9.523458E+01 
7.594473E-03 6.217955E+01  9.983491E-01 -2.672753E+01  2.542353E-04 7.495303E+01  2.541129E-04 7.020816E+01 
1.130610E-05 -1.717724E+01  2.515707E-04 7.466391E+01  9.934632E-01 -1.002815E+01  1.064813E-01 7.989070E+01 
1.112291E-05 8.006885E+01  2.454034E-04 7.456597E+01  1.065084E-01 7.987914E+01  9.947477E-01 -9.658184E+00 
1.875938E+02  9.963408E-01 -2.963436E+01  7.642788E-03 6.187850E+01  2.514118E-05 1.476241E+02  1.858094E-05 -4.649800E+01 
7.638210E-03 6.198304E+01  9.987587E-01 -2.729470E+01  2.673597E-04 7.426665E+01  2.577438E-04 7.334107E+01 
2.888856E-05 9.490603E+01  2.716673E-04 7.269435E+01  9.932523E-01 -1.027816E+01  1.083494E-01 7.963692E+01 
8.805004E-06 -5.371694E+01  2.589371E-04 7.655099E+01  1.084591E-01 7.967048E+01  9.946259E-01 -9.890469E+00 
1.913125E+02  9.962273E-01 -3.017239E+01  7.785592E-03 6.149538E+01  9.922019E-06 2.951113E+01  1.606448E-05 8.212685E+01 
7.768083E-03 6.157903E+01  9.979121E-01 -2.780460E+01  3.035577E-04 6.924021E+01  2.993151E-04 6.808350E+01 
1.687422E-05 1.866640E+01  3.114589E-04 6.904071E+01  9.918404E-01 -1.052340E+01  1.103439E-01 7.957452E+01 
1.825298E-05 5.450539E+01  3.146709E-04 6.930996E+01  1.103021E-01 7.956815E+01  9.937398E-01 -1.012098E+01 
1.950312E+02  9.953766E-01 -3.067319E+01  7.877353E-03 6.084070E+01  1.371743E-05 9.081487E+01  2.868560E-05 1.408554E+02 
7.883700E-03 6.087485E+01  9.963971E-01 -2.821869E+01  2.592985E-04 7.129360E+01  2.667629E-04 7.839193E+01 
1.524444E-05 7.896498E+01  2.645941E-04 7.418177E+01  9.906423E-01 -1.064519E+01  1.125897E-01 7.939724E+01 
3.182848E-05 1.147185E+02  2.764572E-04 7.514828E+01  1.125806E-01 7.937871E+01  9.918149E-01 -1.020330E+01 
1.987500E+02  9.964753E-01 -3.127117E+01  8.086128E-03 6.061922E+01  7.164724E-06 1.605537E+02  7.854079E-06 -8.360286E+00 
8.074028E-03 6.052018E+01  9.966966E-01 -2.887630E+01  2.456677E-04 7.154942E+01  2.742390E-04 7.081052E+01 
4.745695E-06 -3.795572E+01  2.587457E-04 7.202400E+01  9.914751E-01 -1.092466E+01  1.145233E-01 7.900801E+01 
1.255967E-05 -1.441296E+02  2.701130E-04 7.005687E+01  1.145905E-01 7.902170E+01  9.920819E-01 -1.045314E+01 
2.024688E+02  9.967098E-01 -3.186035E+01  8.239673E-03 5.946614E+01  2.802474E-05 1.417920E+02  9.839529E-06 1.488621E+02 
8.242844E-03 5.954902E+01  9.963284E-01 -2.937686E+01  2.643533E-04 7.016190E+01  2.473298E-04 7.412721E+01 
2.980485E-05 1.097157E+02  2.780433E-04 6.853939E+01  9.908214E-01 -1.113164E+01  1.164598E-01 7.894496E+01 
1.746778E-05 -1.335873E+02  2.481211E-04 7.051337E+01  1.165744E-01 7.896446E+01  9.916060E-01 -1.062211E+01 
2.061875E+02  9.968421E-01 -3.248906E+01  8.307543E-03 5.918105E+01  1.907977E-05 1.001927E+02  1.465490E-05 9.859134E+01 
8.297990E-03 5.929744E+01  9.965083E-01 -2.989310E+01  2.985418E-04 7.240881E+01  2.927773E-04 7.071412E+01 
1.933001E-06 1.208811E+02  3.088835E-04 7.046049E+01  9.905480E-01 -1.132317E+01  1.188774E-01 7.873454E+01 
2.746950E-05 1.338261E+02  2.859407E-04 7.002538E+01  1.189520E-01 7.875985E+01  9.913827E-01 -1.086849E+01 
