! Matrix data file written by TouchstoneData, EPCOS AG
! FILENAME: "ptable_B4402_02_NB.s4p"
! COMMENT: "(B4402_02_NB.s4p) Epcos AG 1/18/2013 10:00:4"
! INFO: nport=4, nfreq=1601
! DATE: "Mon Feb 11 14:00:00 2013"
! USER: "Michael Schemies"
!
! port | pin | signal
! -----|-----|--------
!   1  |  3  |  Tx
!   2  |  6  |  Ant
!   3  |  8  |  Rx
!   4  |  1  |  Rx
! --------------------
!
# MHZ S RI R 50
! freq  reS11 imS11  reS12 imS12  reS13 imS13  reS14 imS14  ...
707  -0.674859344959258 -0.657950520515441  0.00409699510782956 -0.00128409557510167  -0.000165618839673698 6.47462438791992e-05  -0.000347269320627675 0.000100391174782999
0.00413107685744762 -0.00128241081256419  -0.0469666123390197 -0.968176841735838  0.000427176506491379 -0.00053521856898442  -0.00086338439723477 0.00078817503526807
-0.000154630673932843 8.95608391147108e-05  0.000450626452220605 -0.000483041745610536  0.341654866933822 -0.9116553068161  0.0194116998463869 0.00589079735800623
-0.000336420489475132 0.000100745462987107  -0.00086966995149851 0.000778379442635925  0.0193914603441953 0.00591700570657848  0.349828511476516 -0.911545515060424
707.075  -0.675255119800567 -0.6578049659729  0.00409855088219046 -0.00129194534383714  -0.000172196261701174 5.66296366741882e-05  -0.000319646613206715 9.47387961787173e-05
0.00410626968368887 -0.00128980225417763  -0.0476685911417007 -0.96896857023239  0.000461177900433541 -0.00056301715085283  -0.000878007034771146 0.000782648043241354
-0.000181431707460434 4.92600702273195e-05  0.000475192820886151 -0.000544592097867281  0.340644836425781 -0.911736607551574  0.0192774143069982 0.00578310154378413
-0.000328905996866525 9.11351380636917e-05  -0.000884982408024373 0.000802466645836832  0.0192140657454729 0.00578803149983286  0.348665475845336 -0.911625683307646
707.15  -0.675926566123962 -0.657665312290191  0.00411281781271099 -0.00124910695012659  -0.000153783650603146 5.31348305230496e-05  -0.00032411378924735 0.00010667675815057
0.00410399865359067 -0.00125004712026566  -0.0489547960460185 -0.969302594661711  0.000498376030009241 -0.000589396571740509  -0.000929366622585805 0.000821570109110327
-0.000190919090528042 4.5409964513965e-05  0.000486217497382314 -0.000538505613803865  0.339561343193054 -0.911923646926879  0.0191747825592756 0.00569620076566933
-0.000315894256345928 0.000107082239992451  -0.000966551480814817 0.000833517522551121  0.0191435795277357 0.0056965174153447  0.347505569458007 -0.911964714527129
707.225  -0.676459848880767 -0.657275557518004  0.00410553626716136 -0.00122019008267671  -0.000180247370735743 6.12845469731839e-05  -0.000333702540956438 0.000108070751593914
0.00409057969227432 -0.00125626299995929  -0.0500308200716971 -0.969682455062865  0.000514817656949164 -0.000621313985902817  -0.00100646843202412 0.000849495350848885
-0.000168017882970162 4.70901650260203e-05  0.000551838777028025 -0.000644867017399521  0.338550299406051 -0.912479996681212  0.0191271807998418 0.00560538889840244
-0.0003255347837694 0.000133551438921131  -0.000995275098830464 0.000859610445331784  0.0190488211810588 0.00562729779630898  0.346215963363647 -0.912316143512725
707.3  -0.676830530166625 -0.657072484493255  0.0041195205412805 -0.00121910742018372  -0.000160264899022878 5.33203492523172e-05  -0.000332689727656544 8.83045286173002e-05
0.00411886582151054 -0.00122526427730918  -0.0509532056748866 -0.969895541667937  0.000574564561247827 -0.000677747593726964  -0.00103578553535044 0.000911165087018164
-0.00014329057012219 6.5320527937729e-05  0.000557704479433597 -0.000715122558176519  0.337255924940109 -0.912613451480864  0.0190846379846334 0.00546499853953718
-0.000325882167089731 0.000103208927612286  -0.00106081343255937 0.000921632105018946  0.0190458931028843 0.00551926996558903  0.345018237829208 -0.912487447261809
707.375  -0.67745143175125 -0.656838595867156  0.00410951348021626 -0.00123702641576528  -0.000147675862535835 6.07732763455716e-05  -0.000315500947181136 0.000105801889731083
0.00414445204660296 -0.00121426268015057  -0.0520144440233706 -0.969972133636473  0.000612146977800877 -0.000748518214095386  -0.00110607431270182 0.000982235418632629
-0.000143116558319889 3.79350931325462e-05  0.00059110438451171 -0.00073974468978122  0.33584725856781 -0.912726819515227  0.0191056132316589 0.00533469207584857
-0.000337564328219742 9.23771367524752e-05  -0.00110943696927279 0.00094751227879897  0.0190554857254028 0.00534223904833196  0.343860298395156 -0.912690758705138
707.45  -0.677960038185119 -0.656438410282134  0.00412343582138418 -0.00120894145220518  -0.000148747611092404 5.3974294132786e-05  -0.000356576085323469 0.000107325642602518
0.0041005671955645 -0.00124009465798735  -0.0529280304908752 -0.970149993896483  0.000639117497485132 -0.000820554443635048  -0.0011735581792891 0.00105518731288612
-0.000189789876458236 4.58275462733582e-05  0.00065281940624118 -0.000810983299743386  0.334798902273178 -0.912701666355132  0.0191128551959991 0.00511949276551603
-0.00031997318728827 0.000124616490211338  -0.00117723562289029 0.00103172089438885  0.0191164147108793 0.00513877486810087  0.342422246932983 -0.912847161293028
707.525  -0.678373157978057 -0.656356990337371  0.0041391709819436 -0.00122602272313088  -0.000171186067746021 5.39591346750968e-05  -0.000333091389620677 0.00011981675925199
0.00408922927454113 -0.00123668962623924  -0.054000899195671 -0.970165550708769  0.000699159631039949 -0.000922655570320787  -0.00119552901014685 0.00113238696940243
-0.000169442981132307 4.218620233587e-05  0.000710097840055825 -0.000907922920305284  0.333275616168975 -0.912909507751464  0.0191813223063945 0.00488990684971212
-0.0003327697631903 0.000107473199022934  -0.00123529811389744 0.00112940836697817  0.0191215965896845 0.00488064112141727  0.340931564569473 -0.912875115871428
707.6  -0.679016768932342 -0.656167924404143  0.00413235835731029 -0.00119754998013377  -0.000197003973880783 7.465294766007e-05  -0.000350138870999218 0.000152255772263743
0.00411403877660631 -0.00123691849876195  -0.0546597614884376 -0.970165729522704  0.000773346808273347 -0.000989478430710735  -0.0012524127960205 0.00124448002316057
-0.000165933146490716 6.46991975372658e-05  0.000755654298700394 -0.000975891249254348  0.331786423921585 -0.912669718265532  0.0192069355398416 0.00457504810765385
-0.00030939286807552 0.000139391195261851  -0.00125613529235124 0.00126213987823575  0.0191531926393509 0.0046164933592081  0.339811116456985 -0.91279649734497
707.675  -0.679455041885375 -0.655377566814422  0.00412936974316834 -0.0012116456637159  -0.00020158980623819 5.77709397475702e-05  -0.000345389795256779 0.000117946532554925
0.00410213321447372 -0.00120727205649018  -0.0556504651904105 -0.969934463500975  0.000846659939270468 -0.00109990302007645  -0.00133293098770082 0.00134561746381223
-0.000155357294715941 7.16723006917165e-05  0.00085114990361035 -0.00107695930637419  0.33017474412918 -0.912637531757354  0.0192410591989755 0.00418766681104898
-0.000350234302459285 0.000131868102471344  -0.0012995321303606 0.00136353471316397  0.0191951803863048 0.00421464443206786  0.338290512561798 -0.913007616996764
707.75  -0.679883420467376 -0.655190289020537  0.00411287928000092 -0.00119999924208969  -0.000185103795956821 3.30444090650418e-05  -0.000338325509801508 0.000107715255580843
0.0041443915106356 -0.00124134949874133  -0.0568324662744998 -0.969872415065764  0.000847986782900991 -0.00126685202121734  -0.00137966393958777 0.00149093708023429
-0.000163624325068668 3.89290144084954e-05  0.00091920333215967 -0.00127272051759064  0.328896731138229 -0.912193059921263  0.0192454773932695 0.00375304534099995
-0.000328209571307526 0.000112153844384011  -0.00138828228227794 0.00153890228830278  0.019249178469181 0.00381668773479759  0.337234646081924 -0.912758052349089
707.825  -0.680510878562926 -0.654649734497069  0.0041333227418363 -0.00123938114847988  -0.000143439741805196 6.29915884928779e-05  -0.000326911103911699 0.000125690872664564
0.00414163200184702 -0.00123663444537669  -0.0574144423007964 -0.96971571445465  0.000949714914895596 -0.00146004743874073  -0.00139712227974087 0.00166954670567065
-0.000183337746420876 5.27647753187922e-05  0.00094809726579115 -0.00144895282573998  0.327571094036102 -0.911652386188506  0.0193005688488483 0.00323528004810213
-0.000324876455124468 9.85519291134553e-05  -0.0014086845330894 0.00171390490140766  0.0192260406911373 0.00325152953155338  0.335783898830413 -0.912431299686431
707.9  -0.681115329265594 -0.654204964637756  0.00411384552717208 -0.00122024759184569  -0.000187378129339777 5.11541766172742e-05  -0.000322020408930258 0.000120568780403119
0.00411296170204877 -0.00121806852985173  -0.0583740547299384 -0.969543993473052  0.000988455023616554 -0.00168611772824078  -0.00137825892306864 0.00189123372547328
-0.000169746970641427 4.27525155828335e-05  0.00096369377570227 -0.00170337047893554  0.326003313064575 -0.910903096199034  0.0192651432007551 0.0025761667639017
-0.000321091298246757 0.000132638873765245  -0.00139205378945917 0.00192021171096712  0.0192883387207985 0.00261827744543552  0.33426222205162 -0.91205060482025
707.975  -0.681149601936339 -0.653671860694884  0.00413112901151179 -0.00123848160728812  -0.000168835846125149 3.81637255486567e-05  -0.000346203509252519 0.000130410931888037
0.00412527378648519 -0.00121693010441959  -0.0592425428330897 -0.968990743160246  0.00100505142472684 -0.00196124147623777  -0.00137357285711914 0.00215438986197114
-0.000179251117515378 4.53646389360075e-05  0.000998762203380468 -0.00197994010522961  0.324788510799408 -0.910276353359221  0.0191821064800024 0.0017638977151364
-0.000329591013723985 0.000124195357784629  -0.00136085401754826 0.00216057710349559  0.0191932544112205 0.00179863628000021  0.333253473043441 -0.911231577396392
708.05  -0.681789398193358 -0.653339803218841  0.0041869468986988 -0.00122615427244454  -0.000150174586451613 5.49327269254719e-05  -0.000351452676113696 0.000121296106954105
0.00415957067161798 -0.00120083696674555  -0.059699635952711 -0.968933343887328  0.000904322601854803 -0.00230735726654529  -0.00125743017997592 0.00241467868909239
-0.000181100709596649 4.76066088594963e-05  0.000903512001968922 -0.00226589734666049  0.323807179927826 -0.908813536167144  0.0188664961606264 0.000762581592425706
-0.000344070052960888 0.000107631683931686  -0.00122825650032609 0.00238404260016977  0.018839206546545 0.000771806284319611  0.332393497228622 -0.910856127738951
708.125  -0.682286918163299 -0.652957141399383  0.0041548074223101 -0.00121906527783721  -0.000173479711520486 2.64448808593443e-05  -0.000325263739796356 0.0001335650740657
0.00414401479065417 -0.00123721559066325  -0.0602970160543918 -0.968774437904357  0.00069240585435182 -0.00261775753460824  -0.00106903898995369 0.00261425436474382
-0.00018587539670989 4.09923377446831e-05  0.000694881950039418 -0.00261767581105232  0.323285549879074 -0.907708048820494  0.0181753765791654 -0.000319450860843063
-0.000324959779391066 0.000111812580144033  -0.00105911423452198 0.00263592461124062  0.0181791149079799 -0.000239056040300057  0.331843167543411 -0.910323977470397
708.2  -0.682706892490386 -0.652414441108703  0.00415152730420231 -0.00118148128967732  -0.000186571036465466 3.95130846300163e-05  -0.000316168530844153 0.000124882513773628
0.00414457125589251 -0.00121772021520883  -0.0608766898512839 -0.969132661819457  0.000311203475575895 -0.00289318803697824  -0.000791284081060441 0.00280638085678219
-0.000174808708834462 4.42480522906408e-05  0.000355444441083819 -0.00287125655449926  0.323157280683517 -0.906864702701567  0.0171009190380573 -0.0011900617973879
-0.000337359204422683 0.000124893325846643  -0.00080960779450834 0.00273475586436688  0.0171232353895902 -0.0011511055054143  0.33127474784851 -0.910223186016082
708.275  -0.682915747165679 -0.65184849500656  0.00414651539176702 -0.00120475038420409  -0.000189531099749729 5.44618851563429e-05  -0.000328976690070704 0.00010426599328639
0.00413282867521047 -0.00118985201697796  -0.0615064203739165 -0.968803644180296  -7.48362872400322e-05 -0.00300154299475252  -0.000552146695554258 0.0028521129861474
-0.000167137492098846 5.8485362387728e-05  -3.7551570130745e-05 -0.00301318056881427  0.32359966635704 -0.906600117683409  0.0158335380256176 -0.0017490106401965
-0.000327682035276667 0.000117707495519426  -0.000526808958966286 0.0028216429054737  0.015803275629878 -0.00165577384177595  0.330866128206253 -0.910155951976775
708.35  -0.683474004268645 -0.651339888572692  0.00417635450139641 -0.00123239599633962  -0.00017908081645146 5.6052813306451e-05  -0.000312692485749722 0.000131714274175465
0.00413550902158021 -0.00124295172281563  -0.0620479770004748 -0.968992948532103  -0.000415693619288505 -0.00297071691602468  -0.000279521860647947 0.00283994921483099
-0.000175786539330148 4.13153247791343e-05  -0.000410972599638627 -0.00295668514445423  0.323954552412033 -0.906749427318572  0.0145790874958038 -0.00184544979128986
-0.000299997278489173 0.000127695224364288  -0.000306822883430869 0.00284567638300359  0.0145505685359239 -0.00178875005804002  0.330510526895523 -0.910049736499785
708.425  -0.683592438697814 -0.65135234594345  0.00414470583200454 -0.00123394408728927  -0.000186412740731612 3.95505085180049e-05  -0.000327940622810275 0.000139913288876415
0.00415469938889145 -0.00124780496116727  -0.0628203973174094 -0.969046533107756  -0.000641765247564764 -0.0028384574688971  -0.000107299885712564 0.00276436191052198
-0.00016992045857478 6.92981848260389e-05  -0.000654588686302306 -0.00290230708196759  0.323808282613754 -0.907041132450102  0.0135737583041191 -0.00176398351322859
-0.000323634740198032 0.000120150652946905  -7.55525543354453e-05 0.00277789705432951  0.0135969081893563 -0.0017165842000395  0.330082386732101 -0.910681843757628
708.5  -0.683997392654418 -0.650951027870177  0.00412488915026187 -0.00126337201800197  -0.000172775980900042 8.35087703308092e-05  -0.000312705524265767 0.000112295369035565
0.00415588822215795 -0.00126959139015525  -0.0638632401823996 -0.969104290008544  -0.000802405527792873 -0.00279677030630409  3.1531435524812e-05 0.00273263198323547
-0.000193242813111283 7.36116489861162e-05  -0.000849912350531669 -0.00276084174402058  0.323402166366577 -0.907696187496184  0.0127196554094553 -0.00169359147548675
-0.000329336733557285 0.000120237993542105  5.85973757551984e-05 0.00270341197028756  0.0127482861280441 -0.00162149628158658  0.329081892967224 -0.910858392715453
708.575  -0.684199690818786 -0.650461435317992  0.00418862653896212 -0.00123924424406141  -0.000171389532624744 4.09704698540737e-05  -0.000365067913662643 0.000109322871139739
0.00413812370970844 -0.00121926271822303  -0.0642052516341208 -0.968482613563536  -0.000991185428574684 -0.00273164128884672  0.00014386881957762 0.00274855410680174
-0.000167148056789302 5.53293539269363e-05  -0.00100401451345533 -0.00276288320310413  0.322709381580352 -0.907756507396697  0.0119391093030572 -0.00168847548775374
-0.000311004405375571 0.000136765695060604  0.000153540444443934 0.00270909094251692  0.0119378864765167 -0.00157727394253015  0.328298389911651 -0.911503076553344
708.65  -0.684575378894805 -0.650316298007964  0.00413934933021664 -0.00122523005120456  -0.000176850473508239 3.48074390785769e-05  -0.000366428954293952 9.62265694397503e-05
0.00412283092737197 -0.00123915844596922  -0.064917892217636 -0.968864142894744  -0.00111040682531893 -0.00270256912335753  0.000302166066830978 0.00266595347784459
-0.000162467811605893 7.45706638554112e-05  -0.00112524547148496 -0.00271584233269095  0.322217434644699 -0.908136010169982  0.0111241871491074 -0.00163671991322189
-0.000313774711685256 0.000116541079478339  0.000277635583188385 0.00267484248615801  0.0110831735655665 -0.00161839637439698  0.327458620071411 -0.911637127399443
708.725  -0.685058295726775 -0.649984896183013  0.00414601014927029 -0.00125896243844181  -0.000176307425135747 6.50606089038776e-05  -0.000310009112581611 0.000131492372020148
0.00413810787722467 -0.00127127766609192  -0.0656503438949584 -0.968623518943785  -0.00124929251614958 -0.00270122871734201  0.000396635150536896 0.0026451046578586
-0.000188039819477126 5.32886551809498e-05  -0.00128617626614868 -0.00270706741139292  0.321620732545852 -0.908293783664702  0.0102585833519697 -0.00165816652588546
-0.000338835059665144 0.000139804935315624  0.000427396647864954 0.0026120557449758  0.0102322641760111 -0.00162097089923918  0.326763123273849 -0.912529587745665
708.8  -0.685081541538238 -0.649802029132842  0.00412723934277891 -0.00126165966503322  -0.000199179208721035 4.67466597910971e-05  -0.000332077965140343 0.000125151957035996
0.00410758797079324 -0.00128608313389122  -0.0664041712880133 -0.968715608119963  -0.00144188769627362 -0.00267707998864352  0.00054926663869992 0.00258501269854605
-0.000167072401382029 6.17098194197753e-05  -0.00146275933366269 -0.0026674959808588  0.321054458618164 -0.908501863479613  0.00929244607686994 -0.00158643361646682
-0.000298904749797658 0.000124989179312252  0.000526802497915925 0.00255704950541257  0.00925303902477024 -0.00152348261326551  0.325405031442642 -0.912492215633391
708.875  -0.685799419879912 -0.649396240711211  0.00410572253167628 -0.00124057987704873  -0.000182578500243836 6.76694107824006e-05  -0.00034261096152477 0.000128024374134839
0.00411915825679897 -0.00126680498942733  -0.0672409757971762 -0.968703567981719  -0.0016608559526503 -0.00262319645844399  0.000582486740313472 0.00250407005660235
-0.000189846818102524 5.97631224081853e-05  -0.00165568490047007 -0.00263657164759933  0.320621073246002 -0.908987641334532  0.00830551981925962 -0.00133479211945086
-0.000341368635417894 0.000117105526442174  0.000626236433163287 0.00250276271253824  0.00829619728028772 -0.00132062856573611  0.324362874031066 -0.913359880447386
708.95  -0.685966670513152 -0.649085521697997  0.00413957471027969 -0.00122001394629478  -0.000167996899108403 7.55386354285294e-05  -0.000331757735693828 0.000123890640679747
0.00411058263853191 -0.00127979379612952  -0.0677334368228911 -0.968422234058379  -0.00185643439181149 -0.00249119754880666  0.000704147969372572 0.00240486045368015
-0.000177432113559917 4.94111882289872e-05  -0.00182382727507501 -0.00255499337799847  0.319844722747802 -0.909382045269011  0.00738732842728494 -0.00100346142426133
-0.000329773349221796 0.000134472007630393  0.000701671757269652 0.00240880576893687  0.00738015025854109 -0.00102521921508014  0.32270547747612 -0.913842439651488
709.025  -0.686747908592223 -0.648614168167113  0.00411176262423395 -0.00123867997899651  -0.000191401079064236 2.34643139265245e-05  -0.000324521330185235 0.000108003601781093
0.0041014621965587 -0.00127423461526632  -0.0685985460877417 -0.968556463718413  -0.00199948600493371 -0.00243198149837553  0.000732415239326658 0.00234916433691978
-0.000148331353557296 4.66853889520281e-05  -0.0019797240383923 -0.0024392008781433  0.319160491228103 -0.909582078456877  0.00652495492249726 -0.00063115661032498
-0.000350861257174984 0.000114118040073663  0.000700921984389426 0.00231346394866704  0.00657054036855696 -0.000582897977437825  0.321033149957656 -0.913970351219176
709.1  -0.687156260013579 -0.648229241371154  0.00413248687982558 -0.0012272143503651  -0.000153794404468499 3.33002390107141e-05  -0.000330495415255428 0.000108459214970935
0.00409920001402496 -0.00124466978013515  -0.06904698908329 -0.968464374542235  -0.00209589255973696 -0.00226831389591097  0.000724825309589507 0.00228721229359507
-0.000169696242664941 4.84664415125736e-05  -0.0021121921017766 -0.0022983057424426  0.31850466132164 -0.910264372825621  0.00573827093467115 -0.000260755652561784
-0.000340961647452787 0.000130869651911781  0.000746737117879094 0.00226891110651195  0.00577653013169764 -0.000207202479941771  0.319593757390976 -0.914056301116942
