! Matrix data file written by TouchstoneData, EPCOS AG
! FILENAME: "ptable_B4406_02_NB_matched.s4p"
! COMMENT: "S4P matched (B4406_02_NB_matched.s4p)"
! INFO: nport=4, nfreq=1601
! DATE: "Wed Feb 13 20:40:19 2013"
! USER: "Michael Schemies"
!
! port | pin | signal
! -----|-----|--------
!   1  |  3  |  Tx
!   2  |  6  |  Ant
!   3  |  8  |  Rx
!   4  |  1  |  Rx
! --------------------
!
# MHZ S RI R 50
! freq  reS11 imS11  reS12 imS12  reS13 imS13  reS14 imS14  ...
1600  -0.78615313977794 -0.467100977892121  -0.00753828293536826 0.00671988245700293  -0.000147888110674478 -1.72676753783858e-05  -0.000534885281791163 5.99554046620363e-05
-0.00753828293536826 0.00671988245700293  0.409502080129459 -0.769118333146764  -0.000259439231628949 0.000777090016124432  0.00103901862326092 0.000999945409218419
-0.000147888110674478 -1.72676753783858e-05  -0.000259439231628949 0.000777090016124432  0.638107316838149 -0.681943344653578  0.0994184733391471 0.0606927026169811
-0.000534885281791163 5.99554046620363e-05  0.00103901862326092 0.000999945409218419  0.0994184733391471 0.0606927026169811  0.719414792889961 -0.599052680527426
1600.25  -0.786620492861635 -0.465700974223126  -0.00759732074271647 0.00674270392785343  -0.000136712994340663 -1.64155476122417e-05  -0.000531140236829458 3.02877405951166e-05
-0.00759732074271647 0.00674270392785343  0.406758956511521 -0.769561874890836  -0.000297190240351672 0.000783091601520515  0.00106005519712296 0.0010231908140306
-0.000136712994340663 -1.64155476122417e-05  -0.000297190240351672 0.000783091601520515  0.637514617962903 -0.682369784008359  0.0999716959382552 0.0610063162374934
-0.000531140236829458 3.02877405951166e-05  0.00106005519712296 0.0010231908140306  0.0999716959382552 0.0610063162374934  0.718764023375344 -0.599380786590709
1600.5  -0.78697757985494 -0.46395568063437  -0.00763957116207247 0.00683164470215852  -0.000134029999482547 -4.42726420248095e-06  -0.000546532656560716 5.26029667564125e-05
-0.00763957116207247 0.00683164470215852  0.40481904544474 -0.770658096244047  -0.000270533976066912 0.000794438350018626  0.00103928407587518 0.0010197279017862
-0.000134029999482547 -4.42726420248095e-06  -0.000270533976066912 0.000794438350018626  0.636482658144217 -0.682801841680082  0.100651699806166 0.0610952193427564
-0.000546532656560716 5.26029667564125e-05  0.00103928407587518 0.0010197279017862  0.100651699806166 0.0610952193427564  0.718027204650725 -0.59949759965133
1600.75  -0.787275668186956 -0.46261806335285  -0.00766336759948482 0.00683520472244002  -0.000168030402871591 -4.08560861074668e-05  -0.00053122730186437 4.94759188453494e-05
-0.00766336759948482 0.00683520472244002  0.402119012429964 -0.77204951400541  -0.000269917907710623 0.00081310855559071  0.00105312128629014 0.00100466355258444
-0.000168030402871591 -4.08560861074668e-05  -0.000269917907710623 0.00081310855559071  0.635692413108532 -0.683078570183505  0.101415925452936 0.0613219231639427
-0.00053122730186437 4.94759188453494e-05  0.00105312128629014 0.00100466355258444  0.101415925452936 0.0613219231639427  0.717299589827394 -0.59991872152606
1601  -0.787476657022835 -0.461804762001628  -0.00768095519966735 0.00693044414264361  -0.000136411858499054 -2.85988175819215e-05  -0.000526225348019729 5.09580350202516e-05
-0.00768095519966735 0.00693044414264361  0.400108332594659 -0.772880063807064  -0.000263658587836721 0.000812480482425243  0.00101000724586111 0.00100405458710025
-0.000136411858499054 -2.85988175819215e-05  -0.000263658587836721 0.000812480482425243  0.634988654642653 -0.68316990821962  0.102233168304139 0.0610984660935737
-0.000526225348019729 5.09580350202516e-05  0.00101000724586111 0.00100405458710025  0.102233168304139 0.0610984660935737  0.716396071358168 -0.59972383682341
1601.25  -0.787800564687996 -0.460962364223897  -0.00767897859778852 0.00692851479590726  -0.000151655160218849 -1.46425362268759e-05  -0.000520752795315621 3.66785442919505e-05
-0.00767897859778852 0.00692851479590726  0.397633963890421 -0.773880779157101  -0.000227190412099181 0.000814159949001156  0.00105124332518506 0.00104663277644543
-0.000151655160218849 -1.46425362268759e-05  -0.000227190412099181 0.000814159949001156  0.634418975322217 -0.683179389671087  0.102927061708342 0.0607986602761695
-0.000520752795315621 3.66785442919505e-05  0.00105124332518506 0.00104663277644543  0.102927061708342 0.0607986602761695  0.715585061158523 -0.599512591708467
1601.5  -0.788641585222197 -0.459831799618762  -0.00778027825546863 0.0069165226152368  -0.000162142748101279 -3.07479881862852e-06  -0.000534226010692878 4.9940486043022e-05
-0.00778027825546863 0.0069165226152368  0.395369720275825 -0.775059653368549  -0.000230617712220552 0.000823692627189899  0.00103557225667449 0.00103311383994945
-0.000162142748101279 -3.07479881862852e-06  -0.000230617712220552 0.000823692627189899  0.633763584619754 -0.682908540085076  0.103261224400903 0.0603663998799532
-0.000534226010692878 4.9940486043022e-05  0.00103557225667449 0.00103311383994945  0.103261224400903 0.0603663998799532  0.71519005220071 -0.598951196956468
1601.75  -0.78903138963539 -0.458856745877028  -0.00785693692483178 0.00695724674704835  -0.000137186396386431 2.86933362734877e-06  -0.000550481612738227 5.45669612253673e-05
-0.00785693692483178 0.00695724674704835  0.393870385903493 -0.775719258061364  -0.000197349420713025 0.00081230733430383  0.00108953356078591 0.00103768441089292
-0.000137186396386431 2.86933362734877e-06  -0.000197349420713025 0.00081230733430383  0.633412883435583 -0.682882660142854  0.103632346986062 0.0599693917524641
-0.000550481612738227 5.45669612253673e-05  0.00108953356078591 0.00103768441089292  0.103632346986062 0.0599693917524641  0.714894588670823 -0.598345297248725
1602  -0.789826518174584 -0.457851943680546  -0.00787763828064091 0.00698866269217373  -0.000165043488278567 -6.70673310432579e-06  -0.000526976429533018 5.02361951871547e-05
-0.00787763828064091 0.00698866269217373  0.391635772706422 -0.776776595919756  -0.00022372808636856 0.00080412628643393  0.00113162825677291 0.00102858166042814
-0.000165043488278567 -6.70673310432579e-06  -0.00022372808636856 0.00080412628643393  0.633305628533125 -0.68293985262395  0.10376633854585 0.0596578325817166
-0.000526976429533018 5.02361951871547e-05  0.00113162825677291 0.00102858166042814  0.10376633854585 0.0596578325817166  0.715223150264722 -0.598028285372772
1602.25  -0.790567084311174 -0.456792937422438  -0.00796731472356866 0.00700322749777601  -0.000149360787747236 -2.46119017657127e-05  -0.000523800535387075 5.07186097828351e-05
-0.00796731472356866 0.00700322749777601  0.389984743667007 -0.777518211436452  -0.000207556112759268 0.000765337537800167  0.00111572174365362 0.0010260705111943
-0.000149360787747236 -2.46119017657127e-05  -0.000207556112759268 0.000765337537800167  0.632887612384079 -0.683022312046971  0.103653502065449 0.0593819253376642
-0.000523800535387075 5.07186097828351e-05  0.00111572174365362 0.0010260705111943  0.103653502065449 0.0593819253376642  0.715524592907458 -0.597993082743118
1602.5  -0.791114172305175 -0.455563302066506  -0.00802065978510248 0.00700550020155876  -0.000143094491291191 -2.40097386315471e-05  -0.000537502643680572 6.19962968155061e-05
-0.00802065978510248 0.00700550020155876  0.387820092053621 -0.777800532270023  -0.000222161053374074 0.000779334535198724  0.00111469810514856 0.00106178833236536
-0.000143094491291191 -2.40097386315471e-05  -0.000222161053374074 0.000779334535198724  0.632903940713056 -0.683070302687743  0.103407448468768 0.0594793327641557
-0.000537502643680572 6.19962968155061e-05  0.00111469810514856 0.00106178833236536  0.103407448468768 0.0594793327641557  0.715891855281683 -0.598565338895922
1602.75  -0.791690563190888 -0.454130558764211  -0.00814226841484033 0.007067045292284  -0.000162355684044829 -2.6539338133904e-05  -0.00052837589181039 6.05193992354907e-05
-0.00814226841484033 0.007067045292284  0.385938500824625 -0.779225578339758  -0.000133775994185773 0.000790119335557135  0.00111292445102751 0.00100728760742953
-0.000162355684044829 -2.6539338133904e-05  -0.000133775994185773 0.000790119335557135  0.632314537543979 -0.683921452654319  0.103576052976502 0.059981007725937
-0.00052837589181039 6.05193992354907e-05  0.00111292445102751 0.00100728760742953  0.103576052976502 0.059981007725937  0.715766431768235 -0.599437936652435
1603  -0.791891682792026 -0.452961006528436  -0.00815268148204738 0.00707129458177792  -0.000141584266532157 6.56525365170722e-06  -0.000544930399220528 4.87459075722861e-05
-0.00815268148204738 0.00707129458177792  0.383906052045496 -0.779908714401757  -0.00016022323125701 0.000774628238954386  0.00116327449464693 0.000989244109829786
-0.000141584266532157 6.56525365170722e-06  -0.00016022323125701 0.000774628238954386  0.631530295659042 -0.683712114794709  0.104167409310854 0.060119751743624
-0.000544930399220528 4.87459075722861e-05  0.00116327449464693 0.000989244109829786  0.104167409310854 0.060119751743624  0.715648612491263 -0.599731023611068
1603.25  -0.792281591854709 -0.451837969857567  -0.00825983895717666 0.00708208927446603  -0.000141436668666692 -1.39881238684296e-05  -0.000532566976579305 6.96211658889615e-05
-0.00825983895717666 0.00708208927446603  0.381675107431942 -0.781395249590133  -0.000136301412409849 0.000777234200109008  0.00115004235137611 0.000987462680885359
-0.000141436668666692 -1.39881238684296e-05  -0.000136301412409849 0.000777234200109008  0.630892538454643 -0.683039121002755  0.10447742629138 0.0598067477967105
-0.000532566976579305 6.96211658889615e-05  0.00115004235137611 0.000987462680885359  0.10447742629138 0.0598067477967105  0.71520031348888 -0.599906957560426
1603.5  -0.792605947866735 -0.451086617739392  -0.00837428942452224 0.00712813750619578  -0.000150286909669718 -3.65162519172772e-05  -0.000534937879483228 7.39461540524431e-05
-0.00837428942452224 0.00712813750619578  0.379430644006829 -0.782041118873172  -0.000210399427294119 0.000718443866848947  0.00113511806509543 0.000966999990960705
-0.000150286909669718 -3.65162519172772e-05  -0.000210399427294119 0.000718443866848947  0.631197737092183 -0.682048349569821  0.104188320829846 0.0593175669523541
-0.000534937879483228 7.39461540524431e-05  0.00113511806509543 0.000966999990960705  0.104188320829846 0.0593175669523541  0.715279544982665 -0.599537139727475
1603.75  -0.793338361459296 -0.450298045712081  -0.00841740652009205 0.00723285581489855  -0.000148091629723403 -8.01750448184363e-06  -0.000531361996243166 7.64066683854733e-05
-0.00841740652009205 0.00723285581489855  0.376468033727379 -0.782865458176723  -0.000188975134711588 0.000699960098084296  0.001149588088767 0.000947467692304616
-0.000148091629723403 -8.01750448184363e-06  -0.000188975134711588 0.000699960098084296  0.631761051313034 -0.682264238359809  0.103601247289818 0.0595176238113894
-0.000531361996243166 7.64066683854733e-05  0.001149588088767 0.000947467692304616  0.103601247289818 0.0595176238113894  0.715406176249191 -0.600071551347639
1604  -0.794051241163394 -0.449033062779484  -0.00854942436078382 0.00726864641375106  -0.00015626903005971 -6.35263156554553e-06  -0.000531415260956003 6.8391698229198e-05
-0.00854942436078382 0.00726864641375106  0.37461436526391 -0.783903674993017  -0.000180796502570313 0.000727585326760774  0.00109665474787605 0.000944547715290719
-0.00015626903005971 -6.35263156554553e-06  -0.000180796502570313 0.000727585326760774  0.63202135006592 -0.682478679650736  0.103109455344118 0.0601487810320325
-0.000531415260956003 6.8391698229198e-05  0.00109665474787605 0.000944547715290719  0.103109455344118 0.0601487810320325  0.716031102151288 -0.600372010689683
1604.25  -0.794643737975181 -0.447917719961649  -0.00859767248450585 0.00732495868638664  -0.000139241228856436 -7.93424028875797e-06  -0.000544422023961396 7.17914888951841e-05
-0.00859767248450585 0.00732495868638664  0.372583797777705 -0.78484348062066  -0.000221333297343385 0.000662944828367606  0.00114217441699851 0.00098343157962825
-0.000139241228856436 -7.93424028875797e-06  -0.000221333297343385 0.000662944828367606  0.63222118083915 -0.683052599897871  0.102916572813566 0.0608950012693982
-0.000544422023961396 7.17914888951841e-05  0.00114217441699851 0.00098343157962825  0.102916572813566 0.0608950012693982  0.716230492827404 -0.601348197467303
1604.5  -0.795313800382122 -0.446902673360528  -0.00866727030199186 0.00740537409687788  -0.000155028652193448 -3.42418710079196e-05  -0.000531820728311105 7.2428676535306e-05
-0.00866727030199186 0.00740537409687788  0.36947163402418 -0.78532657132884  -0.000213027993539869 0.000669420479571388  0.00112791452825135 0.000948587697598665
-0.000155028652193448 -3.42418710079196e-05  -0.000213027993539869 0.000669420479571388  0.631990932213556 -0.683559708131251  0.102894502855579 0.0616488429937114
-0.000531820728311105 7.2428676535306e-05  0.00112791452825135 0.000948587697598665  0.102894502855579 0.0616488429937114  0.716011641126353 -0.602059003849653
1604.75  -0.795618734979788 -0.445947396411417  -0.00872600065054756 0.00746048208205365  -0.000166515497002888 -2.44605961524107e-05  -0.000541118967625654 8.43248234255896e-05
-0.00872600065054756 0.00746048208205365  0.366819203757902 -0.78713047800439  -0.000226424870472489 0.000680047945027052  0.00115464085065018 0.000928166301216455
-0.000166515497002888 -2.44605961524107e-05  -0.000226424870472489 0.000680047945027052  0.631606356286569 -0.683925687883855  0.102980855200036 0.0625507056627602
-0.000541118967625654 8.43248234255896e-05  0.00115464085065018 0.000928166301216455  0.102980855200036 0.0625507056627602  0.715857229651394 -0.602932049477486
1605  -0.796399213088599 -0.444798836092306  -0.00878806905827169 0.0075289876522045  -0.000174340894383094 -2.12890092421624e-05  -0.000513986346545986 6.43675008487961e-05
-0.00878806905827169 0.0075289876522045  0.364551464550732 -0.786869471761363  -0.000265680113113883 0.000669576438575757  0.00111314113114872 0.000952478384410877
-0.000174340894383094 -2.12890092421624e-05  -0.000265680113113883 0.000669576438575757  0.631871882438964 -0.684602905651978  0.103267808549183 0.0635429793132908
-0.000513986346545986 6.43675008487961e-05  0.00111314113114872 0.000952478384410877  0.103267808549183 0.0635429793132908  0.715789433989474 -0.603763012638261
1605.25  -0.797026068003656 -0.444194954069765  -0.00882043326601009 0.00758406472261165  -0.000144238195668044 -1.901518605923e-05  -0.000526158117484014 7.32154673069037e-05
-0.00882043326601009 0.00758406472261165  0.362405571174103 -0.787267763197206  -0.000234044300696622 0.000683291694548031  0.0011495791465593 0.000954660341199939
-0.000144238195668044 -1.901518605923e-05  -0.000234044300696622 0.000683291694548031  0.631436792948864 -0.685301230474646  0.103857904955483 0.0641883054225446
-0.000526158117484014 7.32154673069037e-05  0.0011495791465593 0.000954660341199939  0.103857904955483 0.0641883054225446  0.715447808048865 -0.604342611852345
1605.5  -0.798035912866206 -0.44311810837858  -0.00883696840113719 0.0076595747817619  -0.000151511008372656 -1.84794817119173e-05  -0.000552142709931363 6.3756187165645e-05
-0.00883696840113719 0.0076595747817619  0.361098052375211 -0.787244584473586  -0.000240583970106991 0.000680679132000951  0.00113020243418154 0.000983325017787167
-0.000151511008372656 -1.84794817119173e-05  -0.000240583970106991 0.000680679132000951  0.631517924126505 -0.686163430092452  0.104024156939546 0.0647436674940231
-0.000552142709931363 6.3756187165645e-05  0.00113020243418154 0.000983325017787167  0.104024156939546 0.0647436674940231  0.715133168823613 -0.605148914571536
1605.75  -0.799219633178606 -0.441950355630703  -0.00888375050231091 0.00769244264779339  -0.000152814111408875 -1.50578780695025e-05  -0.000540511248353091 7.63833803825998e-05
-0.00888375050231091 0.00769244264779339  0.360565627666637 -0.787432160344149  -0.000287256025017876 0.000720784028088116  0.00113578613742775 0.000953071172185978
-0.000152814111408875 -1.50578780695025e-05  -0.000287256025017876 0.000720784028088116  0.63102682572964 -0.686872173587004  0.104259089488344 0.0652896047166889
-0.000540511248353091 7.63833803825998e-05  0.00113578613742775 0.000953071172185978  0.104259089488344 0.0652896047166889  0.714578529199179 -0.605911683074974
1606  -0.80023370820456 -0.440354256604191  -0.00894805726825761 0.00770872448504823  -0.000144032460526963 -6.21173879724877e-07  -0.000543161716888225 7.12173598325966e-05
-0.00894805726825761 0.00770872448504823  0.35822162286055 -0.788452279787968  -0.000228120020901805 0.000671269253767346  0.00110138031493528 0.000961481324867557
-0.000144032460526963 -6.21173879724877e-07  -0.000228120020901805 0.000671269253767346  0.630628804076694 -0.687948500797152  0.104592942625471 0.0660276922449586
-0.000543161716888225 7.12173598325966e-05  0.00110138031493528 0.000961481324867557  0.104592942625471 0.0660276922449586  0.713967452423203 -0.606544509196622
1606.25  -0.800953063995135 -0.43879247866704  -0.00901912308396772 0.00777074280852484  -0.000172799577836195 -1.32024630229647e-05  -0.00053369139537529 7.81768157231765e-05
-0.00901912308396772 0.00777074280852484  0.357103372633548 -0.789134787825245  -0.000284291120710048 0.000712397073994682  0.00115297313597318 0.00096710686785545
-0.000172799577836195 -1.32024630229647e-05  -0.000284291120710048 0.000712397073994682  0.630058910841893 -0.688693312429224  0.104889924475988 0.0667007609100648
-0.00053369139537529 7.81768157231765e-05  0.00115297313597318 0.00096710686785545  0.104889924475988 0.0667007609100648  0.713648264922599 -0.60730214639253
1606.5  -0.801449312480453 -0.437134938095607  -0.00908020048796379 0.00787015005336506  -0.0001350027098104 -2.18407625290145e-05  -0.000539956418913332 0.000101038392311293
-0.00908020048796379 0.00787015005336506  0.354758125190847 -0.790346762699839  -0.00022722681995306 0.000701593973059817  0.00113380493211526 0.000965728702197005
-0.0001350027098104 -2.18407625290145e-05  -0.00022722681995306 0.000701593973059817  0.629334462888122 -0.689426874633278  0.105459941177284 0.0672334031500244
-0.000539956418913332 0.000101038392311293  0.00113380493211526 0.000965728702197005  0.105459941177284 0.0672334031500244  0.713065788768485 -0.607719436296732
1606.75  -0.801623300081028 -0.435637314998902  -0.00906634641087537 0.00790133467979349  -0.000126674199264424 -3.01607625037385e-05  -0.000571136529818856 8.59949784985428e-05
-0.00906634641087537 0.00790133467979349  0.352531012996964 -0.788936915825451  -0.000274293390817918 0.000700716908141668  0.00115387427054587 0.000933006287274228
-0.000126674199264424 -3.01607625037385e-05  -0.000274293390817918 0.000700716908141668  0.628746127259166 -0.690077517171513  0.105870160293346 0.0675964553184645
-0.000571136529818856 8.59949784985428e-05  0.00115387427054587 0.000933006287274228  0.105870160293346 0.0675964553184645  0.71232559957381 -0.608256904768225
1607  -0.801821560686485 -0.434741326653424  -0.00907627200318582 0.00789096759569353  -0.000144925750337226 6.92908542897923e-06  -0.000537337463049423 5.82701008657135e-05
-0.00907627200318582 0.00789096759569353  0.352163350725663 -0.790170750138072  -0.000247776629738947 0.000696818825029476  0.00113524726234916 0.000950019615941024
-0.000144925750337226 6.92908542897923e-06  -0.000247776629738947 0.000696818825029476  0.628307166840674 -0.6906485037574  0.106238182613417 0.0680553834065186
-0.000537337463049423 5.82701008657135e-05  0.00113524726234916 0.000950019615941024  0.106238182613417 0.0680553834065186  0.711862526823733 -0.608530579255546
1607.25  -0.802634241648902 -0.43353564873391  -0.00914937810555233 0.00790196316855753  -0.000148372207902971 -2.29103683592736e-05  -0.000545633970925338 7.99612213754718e-05
