! Matrix data file written by TouchstoneData, EPCOS AG
! FILENAME: "newformat_LZ54B_1_NB.s4p"
! COMMENT: "(LZ54B_1_NB.s4p) EPCOS AG 31.05.2012 14:23:2"
! INFO: nport=4, nfreq=1601
! DATE: "Fri Jun  1 15:21:18 2012"
! USER: "Sergey Rostovtsev"
!
!
! port | pin | signal
! -----|-----|--------
!   1  |  3  |  TX in
!   2  |  6  |  Ant in/out
!   3  |  8  |  RX out1
!   4  |  1  |  RX out2
! --------------------
! 
# MHZ S MA R 50
! freq  magS11 angS11  magS12 angS12  magS13 angS13  magS14 angS14  ...
1.800000E+03  9.343144E-01 -1.593069E+02  4.924928E-03 1.230893E+02  1.543652E-03 1.389946E+02  1.429923E-03 1.408430E+02 
4.900976E-03 1.233478E+02  9.595575E-01 -1.169840E+02  2.331890E-03 1.541626E+02  2.276786E-03 1.528423E+02 
1.508523E-03 1.394361E+02  2.302071E-03 1.527694E+02  9.511446E-01 -9.884649E+01  2.690973E-02 1.667895E+02 
1.454381E-03 1.393445E+02  2.276435E-03 1.536691E+02  2.692322E-02 1.668124E+02  9.571533E-01 -9.642858E+01 
1.800312E+03  9.341389E-01 -1.593056E+02  4.918690E-03 1.231150E+02  1.524844E-03 1.387695E+02  1.475736E-03 1.399822E+02 
4.927423E-03 1.229094E+02  9.597655E-01 -1.169810E+02  2.273881E-03 1.535748E+02  2.284045E-03 1.527193E+02 
1.519747E-03 1.394588E+02  2.276176E-03 1.537247E+02  9.514472E-01 -9.883816E+01  2.691124E-02 1.668121E+02 
1.434261E-03 1.406291E+02  2.289485E-03 1.518168E+02  2.700565E-02 1.668264E+02  9.573068E-01 -9.644919E+01 
1.800625E+03  9.344452E-01 -1.594115E+02  4.995859E-03 1.236918E+02  1.534139E-03 1.383773E+02  1.425253E-03 1.418455E+02 
4.966967E-03 1.235328E+02  9.601194E-01 -1.169797E+02  2.269608E-03 1.527424E+02  2.259241E-03 1.538398E+02 
1.535710E-03 1.383739E+02  2.322209E-03 1.525897E+02  9.512453E-01 -9.884315E+01  2.698666E-02 1.667357E+02 
1.457419E-03 1.400830E+02  2.232542E-03 1.521512E+02  2.701781E-02 1.666805E+02  9.568027E-01 -9.647651E+01 
1.800938E+03  9.347077E-01 -1.594846E+02  4.990593E-03 1.231236E+02  1.507287E-03 1.379318E+02  1.444642E-03 1.411383E+02 
5.005365E-03 1.232289E+02  9.603436E-01 -1.170319E+02  2.249758E-03 1.523855E+02  2.285717E-03 1.522339E+02 
1.518499E-03 1.392900E+02  2.230154E-03 1.535618E+02  9.513268E-01 -9.883811E+01  2.696529E-02 1.666534E+02 
1.440215E-03 1.395691E+02  2.259164E-03 1.529703E+02  2.701016E-02 1.666247E+02  9.573043E-01 -9.648758E+01 
1.801250E+03  9.346541E-01 -1.595902E+02  5.000411E-03 1.232299E+02  1.528013E-03 1.397698E+02  1.416459E-03 1.404678E+02 
5.044326E-03 1.233486E+02  9.604130E-01 -1.170845E+02  2.225764E-03 1.529011E+02  2.270357E-03 1.532112E+02 
1.552452E-03 1.385049E+02  2.261817E-03 1.526697E+02  9.513011E-01 -9.884176E+01  2.697190E-02 1.667678E+02 
1.425091E-03 1.397916E+02  2.267015E-03 1.529197E+02  2.701471E-02 1.666820E+02  9.570984E-01 -9.651457E+01 
1.801562E+03  9.349939E-01 -1.596642E+02  5.065490E-03 1.234032E+02  1.554223E-03 1.376222E+02  1.437936E-03 1.400028E+02 
5.026699E-03 1.232355E+02  9.603527E-01 -1.171087E+02  2.185462E-03 1.531903E+02  2.298613E-03 1.524787E+02 
1.529890E-03 1.381507E+02  2.228243E-03 1.538172E+02  9.514850E-01 -9.884863E+01  2.701355E-02 1.668263E+02 
1.446266E-03 1.387970E+02  2.259858E-03 1.522206E+02  2.703497E-02 1.668675E+02  9.569402E-01 -9.654829E+01 
1.801875E+03  9.352861E-01 -1.597514E+02  5.074809E-03 1.231954E+02  1.527709E-03 1.387659E+02  1.455727E-03 1.400023E+02 
5.058605E-03 1.235876E+02  9.607236E-01 -1.171509E+02  2.200210E-03 1.536190E+02  2.254632E-03 1.524817E+02 
1.521801E-03 1.373194E+02  2.217322E-03 1.531749E+02  9.515474E-01 -9.886800E+01  2.713546E-02 1.667727E+02 
1.416540E-03 1.399755E+02  2.283778E-03 1.526072E+02  2.714654E-02 1.668133E+02  9.570210E-01 -9.656023E+01 
1.802188E+03  9.359359E-01 -1.598630E+02  5.091919E-03 1.232611E+02  1.535457E-03 1.378567E+02  1.441684E-03 1.399547E+02 
5.104193E-03 1.234562E+02  9.606315E-01 -1.171611E+02  2.220471E-03 1.529777E+02  2.307743E-03 1.529868E+02 
1.527617E-03 1.377305E+02  2.210346E-03 1.537133E+02  9.515061E-01 -9.888935E+01  2.711135E-02 1.667122E+02 
1.471809E-03 1.393427E+02  2.299095E-03 1.528887E+02  2.712657E-02 1.666571E+02  9.569577E-01 -9.659542E+01 
1.802500E+03  9.357126E-01 -1.599870E+02  5.139799E-03 1.234250E+02  1.522323E-03 1.382923E+02  1.455393E-03 1.397904E+02 
5.109392E-03 1.236279E+02  9.606454E-01 -1.172056E+02  2.235911E-03 1.534436E+02  2.296120E-03 1.531314E+02 
1.492949E-03 1.383431E+02  2.200982E-03 1.531124E+02  9.515049E-01 -9.889752E+01  2.705977E-02 1.667455E+02 
1.467708E-03 1.405695E+02  2.295324E-03 1.534077E+02  2.711743E-02 1.667582E+02  9.574139E-01 -9.661558E+01 
1.802812E+03  9.359884E-01 -1.600814E+02  5.138488E-03 1.235279E+02  1.518562E-03 1.390675E+02  1.434841E-03 1.385235E+02 
5.116241E-03 1.234008E+02  9.605141E-01 -1.172360E+02  2.207865E-03 1.529363E+02  2.273470E-03 1.523644E+02 
1.534736E-03 1.384128E+02  2.193557E-03 1.526251E+02  9.513598E-01 -9.891038E+01  2.713855E-02 1.669275E+02 
1.452613E-03 1.403884E+02  2.278754E-03 1.523056E+02  2.709070E-02 1.668858E+02  9.570789E-01 -9.661707E+01 
1.803125E+03  9.354776E-01 -1.601880E+02  5.210295E-03 1.229796E+02  1.540156E-03 1.382681E+02  1.465188E-03 1.400981E+02 
5.136453E-03 1.232910E+02  9.607807E-01 -1.172549E+02  2.205030E-03 1.531966E+02  2.300524E-03 1.526065E+02 
1.524039E-03 1.379972E+02  2.175041E-03 1.530547E+02  9.513980E-01 -9.895282E+01  2.721505E-02 1.669053E+02 
1.464283E-03 1.375443E+02  2.280749E-03 1.519596E+02  2.720239E-02 1.669150E+02  9.568890E-01 -9.663345E+01 
1.803438E+03  9.359644E-01 -1.602844E+02  5.178804E-03 1.238029E+02  1.514142E-03 1.389581E+02  1.442807E-03 1.394468E+02 
5.178441E-03 1.233246E+02  9.605716E-01 -1.172828E+02  2.203959E-03 1.544101E+02  2.302323E-03 1.521733E+02 
1.514094E-03 1.381074E+02  2.226761E-03 1.531096E+02  9.513615E-01 -9.896354E+01  2.720181E-02 1.667866E+02 
1.446095E-03 1.385820E+02  2.299126E-03 1.528588E+02  2.724933E-02 1.667619E+02  9.568346E-01 -9.667003E+01 
1.803750E+03  9.359194E-01 -1.604147E+02  5.197071E-03 1.234487E+02  1.529600E-03 1.374654E+02  1.450942E-03 1.404557E+02 
5.212816E-03 1.232946E+02  9.603973E-01 -1.173016E+02  2.207877E-03 1.529042E+02  2.297886E-03 1.537348E+02 
1.517253E-03 1.383345E+02  2.198655E-03 1.536231E+02  9.513903E-01 -9.897859E+01  2.721665E-02 1.668874E+02 
1.445447E-03 1.393723E+02  2.287772E-03 1.526237E+02  2.720311E-02 1.668829E+02  9.565086E-01 -9.667602E+01 
1.804062E+03  9.360387E-01 -1.605481E+02  5.244810E-03 1.232184E+02  1.498908E-03 1.373314E+02  1.478060E-03 1.390916E+02 
5.239171E-03 1.232006E+02  9.598923E-01 -1.173233E+02  2.237351E-03 1.532198E+02  2.291696E-03 1.522257E+02 
1.539155E-03 1.377927E+02  2.223967E-03 1.535744E+02  9.518572E-01 -9.900535E+01  2.727371E-02 1.670547E+02 
1.442582E-03 1.386719E+02  2.287187E-03 1.525696E+02  2.729283E-02 1.670715E+02  9.568754E-01 -9.669708E+01 
1.804375E+03  9.355552E-01 -1.606476E+02  5.244450E-03 1.232783E+02  1.533418E-03 1.384017E+02  1.400999E-03 1.398823E+02 
5.268125E-03 1.230870E+02  9.603677E-01 -1.173470E+02  2.198945E-03 1.525890E+02  2.313287E-03 1.518840E+02 
1.553564E-03 1.375619E+02  2.219637E-03 1.524144E+02  9.519081E-01 -9.902731E+01  2.736179E-02 1.671125E+02 
1.439291E-03 1.394352E+02  2.303986E-03 1.529688E+02  2.738074E-02 1.671284E+02  9.570272E-01 -9.671289E+01 
1.804688E+03  9.349544E-01 -1.607419E+02  5.282119E-03 1.230718E+02  1.500804E-03 1.380907E+02  1.433012E-03 1.384873E+02 
5.263591E-03 1.228431E+02  9.600568E-01 -1.173774E+02  2.191809E-03 1.526128E+02  2.270178E-03 1.524860E+02 
1.553072E-03 1.381340E+02  2.165218E-03 1.529414E+02  9.521393E-01 -9.907001E+01  2.744495E-02 1.670351E+02 
1.427409E-03 1.383808E+02  2.279183E-03 1.522860E+02  2.744810E-02 1.670011E+02  9.569672E-01 -9.672878E+01 
1.805000E+03  9.346271E-01 -1.608448E+02  5.331420E-03 1.233361E+02  1.531673E-03 1.392970E+02  1.442716E-03 1.390091E+02 
5.323813E-03 1.227452E+02  9.597656E-01 -1.173858E+02  2.197955E-03 1.527139E+02  2.310376E-03 1.526679E+02 
1.490086E-03 1.376446E+02  2.173597E-03 1.542101E+02  9.520131E-01 -9.911362E+01  2.746981E-02 1.670877E+02 
1.443311E-03 1.384465E+02  2.263201E-03 1.525549E+02  2.747442E-02 1.670491E+02  9.567181E-01 -9.673806E+01 
1.805312E+03  9.346407E-01 -1.609659E+02  5.342491E-03 1.231794E+02  1.551022E-03 1.385862E+02  1.444999E-03 1.389978E+02 
5.345382E-03 1.231591E+02  9.598207E-01 -1.174102E+02  2.157353E-03 1.527311E+02  2.302331E-03 1.527905E+02 
1.516036E-03 1.375141E+02  2.148067E-03 1.524697E+02  9.521638E-01 -9.915519E+01  2.750331E-02 1.669649E+02 
1.443216E-03 1.399975E+02  2.302042E-03 1.527726E+02  2.751588E-02 1.671083E+02  9.566203E-01 -9.677163E+01 
1.805625E+03  9.343639E-01 -1.610761E+02  5.391918E-03 1.228520E+02  1.571294E-03 1.371959E+02  1.432387E-03 1.393782E+02 
5.357076E-03 1.226648E+02  9.596667E-01 -1.174457E+02  2.138772E-03 1.520653E+02  2.304913E-03 1.521934E+02 
1.542679E-03 1.383041E+02  2.154923E-03 1.534185E+02  9.522236E-01 -9.916417E+01  2.754727E-02 1.670728E+02 
1.442087E-03 1.393449E+02  2.299347E-03 1.522854E+02  2.751895E-02 1.672975E+02  9.563610E-01 -9.677629E+01 
1.805938E+03  9.337573E-01 -1.611424E+02  5.413871E-03 1.227241E+02  1.539408E-03 1.377712E+02  1.458731E-03 1.401113E+02 
5.366124E-03 1.225193E+02  9.594042E-01 -1.174636E+02  2.139401E-03 1.541935E+02  2.275369E-03 1.523707E+02 
1.543346E-03 1.380096E+02  2.130343E-03 1.529377E+02  9.521433E-01 -9.915739E+01  2.761051E-02 1.672079E+02 
1.420018E-03 1.380416E+02  2.296263E-03 1.527362E+02  2.760612E-02 1.672881E+02  9.568443E-01 -9.679231E+01 
1.806250E+03  9.335142E-01 -1.612202E+02  5.389931E-03 1.229266E+02  1.532296E-03 1.375176E+02  1.459396E-03 1.380912E+02 
5.363659E-03 1.227489E+02  9.596914E-01 -1.174912E+02  2.140527E-03 1.541523E+02  2.281165E-03 1.532878E+02 
1.532196E-03 1.370961E+02  2.117940E-03 1.532887E+02  9.524190E-01 -9.918148E+01  2.769338E-02 1.672660E+02 
1.381519E-03 1.392571E+02  2.307111E-03 1.529320E+02  2.776320E-02 1.673413E+02  9.570576E-01 -9.683471E+01 
1.806562E+03  9.336096E-01 -1.613111E+02  5.399891E-03 1.231360E+02  1.547625E-03 1.360301E+02  1.462497E-03 1.370926E+02 
5.418942E-03 1.226851E+02  9.596121E-01 -1.174989E+02  2.142026E-03 1.544014E+02  2.338513E-03 1.527807E+02 
1.536109E-03 1.374290E+02  2.113322E-03 1.535937E+02  9.521517E-01 -9.921111E+01  2.773728E-02 1.672069E+02 
1.429003E-03 1.396747E+02  2.311427E-03 1.529820E+02  2.781468E-02 1.673189E+02  9.574074E-01 -9.687391E+01 
1.806875E+03  9.336728E-01 -1.614004E+02  5.415037E-03 1.223504E+02  1.571935E-03 1.372515E+02  1.472423E-03 1.385859E+02 
5.424199E-03 1.228872E+02  9.593661E-01 -1.175028E+02  2.140284E-03 1.540612E+02  2.311020E-03 1.521835E+02 
1.550009E-03 1.370567E+02  2.119157E-03 1.558269E+02  9.522890E-01 -9.925103E+01  2.780790E-02 1.671891E+02 
1.443513E-03 1.392581E+02  2.311998E-03 1.521601E+02  2.785734E-02 1.672270E+02  9.574554E-01 -9.689961E+01 
1.807188E+03  9.336424E-01 -1.614803E+02  5.438477E-03 1.225544E+02  1.521322E-03 1.376031E+02  1.417523E-03 1.383779E+02 
5.462458E-03 1.228062E+02  9.601321E-01 -1.175478E+02  2.183478E-03 1.551948E+02  2.317616E-03 1.521114E+02 
1.543871E-03 1.369386E+02  2.149431E-03 1.537589E+02  9.522129E-01 -9.925336E+01  2.787681E-02 1.672038E+02 
1.442801E-03 1.392295E+02  2.354566E-03 1.529212E+02  2.793513E-02 1.672283E+02  9.574664E-01 -9.693557E+01 
1.807500E+03  9.339689E-01 -1.615939E+02  5.487483E-03 1.226407E+02  1.537135E-03 1.371375E+02  1.439540E-03 1.388512E+02 
5.446342E-03 1.226486E+02  9.598965E-01 -1.175710E+02  2.177712E-03 1.552133E+02  2.317825E-03 1.513931E+02 
1.537817E-03 1.374717E+02  2.144638E-03 1.546781E+02  9.522953E-01 -9.927694E+01  2.790042E-02 1.673195E+02 
1.425767E-03 1.385185E+02  2.337544E-03 1.524000E+02  2.797748E-02 1.673381E+02  9.572635E-01 -9.696088E+01 
1.807812E+03  9.338045E-01 -1.616876E+02  5.458526E-03 1.227137E+02  1.500524E-03 1.363523E+02  1.438322E-03 1.382947E+02 
5.468170E-03 1.223178E+02  9.602813E-01 -1.176044E+02  2.124828E-03 1.557525E+02  2.363484E-03 1.525690E+02 
1.492811E-03 1.368448E+02  2.149996E-03 1.542752E+02  9.526026E-01 -9.929039E+01  2.796133E-02 1.673715E+02 
1.447970E-03 1.386666E+02  2.363329E-03 1.527825E+02  2.805910E-02 1.673548E+02  9.576020E-01 -9.698911E+01 
1.808125E+03  9.336238E-01 -1.618113E+02  5.452097E-03 1.227458E+02  1.550536E-03 1.367247E+02  1.448456E-03 1.388914E+02 
5.526070E-03 1.228364E+02  9.601763E-01 -1.176152E+02  2.173955E-03 1.552691E+02  2.379344E-03 1.520906E+02 
1.565453E-03 1.380283E+02  2.143970E-03 1.555021E+02  9.522457E-01 -9.930021E+01  2.800182E-02 1.673436E+02 
1.424823E-03 1.403263E+02  2.380227E-03 1.527570E+02  2.813070E-02 1.672730E+02  9.578506E-01 -9.700854E+01 
1.808438E+03  9.337011E-01 -1.618917E+02  5.527401E-03 1.227454E+02  1.515680E-03 1.366436E+02  1.422686E-03 1.392115E+02 
5.534449E-03 1.225122E+02  9.602929E-01 -1.176479E+02  2.172138E-03 1.553370E+02  2.396134E-03 1.516764E+02 
1.530226E-03 1.364478E+02  2.190182E-03 1.552950E+02  9.522080E-01 -9.934152E+01  2.807520E-02 1.673890E+02 
1.461161E-03 1.378559E+02  2.356482E-03 1.525770E+02  2.817092E-02 1.674809E+02  9.575791E-01 -9.703415E+01 
1.808750E+03  9.336928E-01 -1.619929E+02  5.592380E-03 1.228226E+02  1.535667E-03 1.373276E+02  1.447372E-03 1.390457E+02 
5.547730E-03 1.224059E+02  9.605719E-01 -1.176728E+02  2.214751E-03 1.556273E+02  2.387432E-03 1.517313E+02 
1.546791E-03 1.368698E+02  2.189440E-03 1.550606E+02  9.522742E-01 -9.935825E+01  2.820836E-02 1.675063E+02 
1.432915E-03 1.390778E+02  2.352636E-03 1.522868E+02  2.832207E-02 1.675684E+02  9.576932E-01 -9.704035E+01 
1.809062E+03  9.333176E-01 -1.620797E+02  5.563265E-03 1.224062E+02  1.528606E-03 1.371388E+02  1.448686E-03 1.384244E+02 
5.577821E-03 1.223774E+02  9.603479E-01 -1.177089E+02  2.183962E-03 1.553295E+02  2.329804E-03 1.516443E+02 
1.520038E-03 1.358381E+02  2.198236E-03 1.549799E+02  9.520417E-01 -9.938288E+01  2.834305E-02 1.674330E+02 
1.448038E-03 1.382529E+02  2.348615E-03 1.522073E+02  2.847078E-02 1.674375E+02  9.574187E-01 -9.705210E+01 
1.809375E+03  9.335856E-01 -1.622091E+02  5.595203E-03 1.221517E+02  1.531702E-03 1.373481E+02  1.430592E-03 1.395825E+02 
5.584834E-03 1.221488E+02  9.603204E-01 -1.177448E+02  2.200040E-03 1.549097E+02  2.352718E-03 1.526482E+02 
1.526209E-03 1.367875E+02  2.181699E-03 1.545111E+02  9.521454E-01 -9.939791E+01  2.844334E-02 1.673153E+02 
1.453644E-03 1.379761E+02  2.347856E-03 1.520600E+02  2.855383E-02 1.673096E+02  9.573940E-01 -9.704693E+01 
1.809688E+03  9.335837E-01 -1.623052E+02  5.614657E-03 1.218971E+02  1.524412E-03 1.363494E+02  1.447740E-03 1.370008E+02 
5.627724E-03 1.226569E+02  9.604100E-01 -1.177762E+02  2.207814E-03 1.558475E+02  2.385316E-03 1.520506E+02 
1.582303E-03 1.366809E+02  2.198058E-03 1.545021E+02  9.522048E-01 -9.942826E+01  2.849216E-02 1.672768E+02 
1.450468E-03 1.376348E+02  2.360957E-03 1.522488E+02  2.856461E-02 1.672939E+02  9.574171E-01 -9.705894E+01 
1.810000E+03  9.336792E-01 -1.624349E+02  5.603273E-03 1.223408E+02  1.528402E-03 1.371956E+02  1.468684E-03 1.380131E+02 
5.618416E-03 1.225744E+02  9.603273E-01 -1.178045E+02  2.199453E-03 1.549434E+02  2.412785E-03 1.518024E+02 
1.547717E-03 1.365891E+02  2.207037E-03 1.546999E+02  9.522035E-01 -9.944070E+01  2.860102E-02 1.672962E+02 
1.446715E-03 1.379384E+02  2.413231E-03 1.512185E+02  2.870568E-02 1.672810E+02  9.576553E-01 -9.705622E+01 
1.810312E+03  9.337475E-01 -1.625504E+02  5.622496E-03 1.221459E+02  1.520310E-03 1.369698E+02  1.500637E-03 1.376419E+02 
5.604880E-03 1.224930E+02  9.602767E-01 -1.178225E+02  2.209123E-03 1.541862E+02  2.382817E-03 1.509754E+02 
1.524220E-03 1.362909E+02  2.231795E-03 1.541817E+02  9.521915E-01 -9.946135E+01  2.876235E-02 1.671206E+02 
1.439356E-03 1.382915E+02  2.378430E-03 1.512195E+02  2.882457E-02 1.671361E+02  9.574031E-01 -9.709491E+01 
1.810625E+03  9.336725E-01 -1.626280E+02  5.640002E-03 1.225615E+02  1.554436E-03 1.369112E+02  1.460385E-03 1.390466E+02 
5.659868E-03 1.222183E+02  9.604161E-01 -1.178632E+02  2.230164E-03 1.549693E+02  2.401956E-03 1.518692E+02 
1.531901E-03 1.380655E+02  2.229607E-03 1.547095E+02  9.523146E-01 -9.950778E+01  2.876045E-02 1.669445E+02 
1.451885E-03 1.375276E+02  2.404197E-03 1.511139E+02  2.883841E-02 1.669301E+02  9.574990E-01 -9.711084E+01 
1.810938E+03  9.343060E-01 -1.627408E+02  5.638998E-03 1.226276E+02  1.545789E-03 1.358493E+02  1.458374E-03 1.374076E+02 
5.706861E-03 1.226749E+02  9.604365E-01 -1.178728E+02  2.207981E-03 1.542336E+02  2.413884E-03 1.515520E+02 
1.559720E-03 1.355558E+02  2.204823E-03 1.546233E+02  9.523304E-01 -9.953013E+01  2.887411E-02 1.669771E+02 
1.464609E-03 1.376372E+02  2.392804E-03 1.522161E+02  2.891305E-02 1.669939E+02  9.574033E-01 -9.714142E+01 
1.811250E+03  9.346640E-01 -1.628588E+02  5.720691E-03 1.226223E+02  1.540430E-03 1.361361E+02  1.456971E-03 1.372057E+02 
5.715497E-03 1.224964E+02  9.607922E-01 -1.179465E+02  2.208867E-03 1.538011E+02  2.400986E-03 1.517587E+02 
1.517395E-03 1.377986E+02  2.208689E-03 1.542124E+02  9.525045E-01 -9.956974E+01  2.890918E-02 1.668260E+02 
1.454430E-03 1.380084E+02  2.450350E-03 1.520176E+02  2.899021E-02 1.668334E+02  9.573888E-01 -9.717027E+01 
1.811562E+03  9.343185E-01 -1.629995E+02  5.767891E-03 1.225870E+02  1.523499E-03 1.358717E+02  1.437731E-03 1.365811E+02 
5.756003E-03 1.225446E+02  9.605465E-01 -1.179583E+02  2.220944E-03 1.551515E+02  2.407563E-03 1.508659E+02 
1.540989E-03 1.364938E+02  2.182642E-03 1.538335E+02  9.526725E-01 -9.960768E+01  2.895671E-02 1.666703E+02 
1.437013E-03 1.368850E+02  2.443331E-03 1.512707E+02  2.899513E-02 1.666620E+02  9.569874E-01 -9.723549E+01 
1.811875E+03  9.341663E-01 -1.631337E+02  5.779083E-03 1.224943E+02  1.526749E-03 1.370752E+02  1.439056E-03 1.389820E+02 
5.747351E-03 1.227564E+02  9.607963E-01 -1.179823E+02  2.213291E-03 1.538965E+02  2.434795E-03 1.504213E+02 
1.549820E-03 1.359671E+02  2.208900E-03 1.533843E+02  9.526900E-01 -9.961825E+01  2.895231E-02 1.665640E+02 
1.445353E-03 1.379382E+02  2.417865E-03 1.514121E+02  2.902278E-02 1.665119E+02  9.566821E-01 -9.724617E+01 
1.812188E+03  9.337683E-01 -1.632583E+02  5.809665E-03 1.222502E+02  1.503510E-03 1.361946E+02  1.457944E-03 1.379292E+02 
5.816936E-03 1.227188E+02  9.609409E-01 -1.180405E+02  2.203129E-03 1.542157E+02  2.409849E-03 1.498085E+02 
1.525124E-03 1.357230E+02  2.186940E-03 1.555394E+02  9.527434E-01 -9.964522E+01  2.894349E-02 1.665230E+02 
1.434137E-03 1.375641E+02  2.396540E-03 1.512132E+02  2.896251E-02 1.664942E+02  9.567640E-01 -9.728597E+01 
1.812500E+03  9.337911E-01 -1.634213E+02  5.833013E-03 1.224396E+02  1.539776E-03 1.356532E+02  1.449427E-03 1.367120E+02 
5.857371E-03 1.227715E+02  9.609136E-01 -1.180777E+02  2.231703E-03 1.552826E+02  2.397042E-03 1.513198E+02 
1.540007E-03 1.348717E+02  2.179446E-03 1.552843E+02  9.527688E-01 -9.966931E+01  2.902696E-02 1.665601E+02 
1.441414E-03 1.372402E+02  2.392537E-03 1.511060E+02  2.907398E-02 1.665406E+02  9.566296E-01 -9.730211E+01 
1.812812E+03  9.334055E-01 -1.635542E+02  5.882121E-03 1.223864E+02  1.532547E-03 1.360126E+02  1.420425E-03 1.368316E+02 
5.864912E-03 1.224753E+02  9.610852E-01 -1.181251E+02  2.202003E-03 1.549046E+02  2.380426E-03 1.511885E+02 
1.525474E-03 1.370197E+02  2.198284E-03 1.554044E+02  9.526779E-01 -9.969453E+01  2.901830E-02 1.664067E+02 
1.461811E-03 1.371709E+02  2.399446E-03 1.500703E+02  2.911431E-02 1.664573E+02  9.564882E-01 -9.733539E+01 
1.813125E+03  9.328852E-01 -1.636910E+02  5.870247E-03 1.222370E+02  1.535543E-03 1.351934E+02  1.406688E-03 1.371593E+02 
5.852572E-03 1.220422E+02  9.612362E-01 -1.181562E+02  2.214580E-03 1.546952E+02  2.387722E-03 1.507550E+02 
1.530060E-03 1.359420E+02  2.217256E-03 1.541603E+02  9.530986E-01 -9.970373E+01  2.911339E-02 1.665181E+02 
1.473088E-03 1.357188E+02  2.420359E-03 1.507067E+02  2.914447E-02 1.664663E+02  9.563197E-01 -9.738778E+01 
1.813438E+03  9.326276E-01 -1.638227E+02  5.925929E-03 1.219148E+02  1.503850E-03 1.369512E+02  1.458500E-03 1.380360E+02 
