! Matrix data file written by TouchstoneData, EPCOS AG
! FILENAME: "B4414_NB.s2p"
! COMMENT: "measurement on PCB, narrowband, matched"
! INFO: nport=3, nfreq=1601
! DATE: "Tue Jun 24 14:51:05 2014"
! USER: "Daniel Harbusch"
!
! port | pin | signal
! -----|-----|--------
!   1  |  3  |  TX
!   2  |  6  |  Antenna
!   3  |  1  |  RX
! --------------------
! 
# MHZ S MA R 50
! freq  magS11 angS11  magS12 angS12  magS13 angS13  ...
6.000000000E+02  9.467991E-01 -3.089010E+01  1.667245E-02 9.224955E+01  3.057224E-04 -1.315944E+02 
 1.667245E-02 9.224955E+01  9.668952E-01 2.892316E+01  4.298567E-04 7.389936E+01 
 3.057224E-04 -1.315944E+02  4.298567E-04 7.389936E+01  9.432839E-01 -4.707012E+01 
6.001875000E+02  9.466087E-01 -3.096320E+01  1.669459E-02 9.201926E+01  2.952382E-04 -1.311555E+02 
 1.669459E-02 9.201926E+01  9.668121E-01 2.882623E+01  4.407587E-04 7.474478E+01 
 2.952382E-04 -1.311555E+02  4.407587E-04 7.474478E+01  9.419545E-01 -4.708353E+01 
6.003750000E+02  9.465764E-01 -3.103057E+01  1.672498E-02 9.184461E+01  2.910547E-04 -1.434875E+02 
 1.672498E-02 9.184461E+01  9.665924E-01 2.873948E+01  4.198839E-04 7.749151E+01 
 2.910547E-04 -1.434875E+02  4.198839E-04 7.749151E+01  9.413356E-01 -4.701628E+01 
6.005625000E+02  9.472758E-01 -3.110322E+01  1.671791E-02 9.171340E+01  2.724753E-04 -1.429898E+02 
 1.671791E-02 9.171340E+01  9.665416E-01 2.866344E+01  4.154193E-04 8.067010E+01 
 2.724753E-04 -1.429898E+02  4.154193E-04 8.067010E+01  9.420520E-01 -4.698777E+01 
6.007500000E+02  9.474075E-01 -3.120182E+01  1.668756E-02 9.149024E+01  2.561864E-04 -1.438859E+02 
 1.668756E-02 9.149024E+01  9.664337E-01 2.855239E+01  4.148808E-04 8.218376E+01 
 2.561864E-04 -1.438859E+02  4.148808E-04 8.218376E+01  9.434861E-01 -4.700542E+01 
6.009375000E+02  9.477098E-01 -3.129392E+01  1.665703E-02 9.131191E+01  2.405666E-04 -1.387477E+02 
 1.665703E-02 9.131191E+01  9.660855E-01 2.845489E+01  4.601841E-04 8.607446E+01 
 2.405666E-04 -1.387477E+02  4.601841E-04 8.607446E+01  9.436275E-01 -4.705491E+01 
6.011250000E+02  9.473728E-01 -3.137960E+01  1.661077E-02 9.130798E+01  2.251657E-04 -1.350990E+02 
 1.661077E-02 9.130798E+01  9.664781E-01 2.836249E+01  4.809247E-04 8.247442E+01 
 2.251657E-04 -1.350990E+02  4.809247E-04 8.247442E+01  9.440594E-01 -4.708079E+01 
6.013125000E+02  9.479143E-01 -3.148881E+01  1.659790E-02 9.131647E+01  2.377991E-04 -1.353694E+02 
 1.659790E-02 9.131647E+01  9.666541E-01 2.825220E+01  4.751478E-04 8.207628E+01 
 2.377991E-04 -1.353694E+02  4.751478E-04 8.207628E+01  9.443051E-01 -4.708805E+01 
6.015000000E+02  9.482500E-01 -3.161999E+01  1.660171E-02 9.130540E+01  2.189558E-04 -1.306785E+02 
 1.660171E-02 9.130540E+01  9.661649E-01 2.815091E+01  4.826942E-04 8.072270E+01 
 2.189558E-04 -1.306785E+02  4.826942E-04 8.072270E+01  9.453130E-01 -4.714537E+01 
6.016875000E+02  9.476560E-01 -3.173443E+01  1.659126E-02 9.103395E+01  2.704056E-04 -1.315782E+02 
 1.659126E-02 9.103395E+01  9.660153E-01 2.805785E+01  4.777700E-04 8.083814E+01 
 2.704056E-04 -1.315782E+02  4.777700E-04 8.083814E+01  9.462842E-01 -4.719635E+01 
6.018750000E+02  9.468115E-01 -3.184292E+01  1.651406E-02 9.118666E+01  2.610474E-04 -1.301334E+02 
 1.651406E-02 9.118666E+01  9.661327E-01 2.795642E+01  5.057635E-04 8.014890E+01 
 2.610474E-04 -1.301334E+02  5.057635E-04 8.014890E+01  9.468975E-01 -4.731835E+01 
6.020625000E+02  9.455526E-01 -3.196060E+01  1.652156E-02 9.129308E+01  3.102429E-04 -1.389325E+02 
 1.652156E-02 9.129308E+01  9.658967E-01 2.782997E+01  4.990518E-04 8.426231E+01 
 3.102429E-04 -1.389325E+02  4.990518E-04 8.426231E+01  9.471803E-01 -4.742616E+01 
6.022500000E+02  9.441921E-01 -3.202018E+01  1.659916E-02 9.146054E+01  2.682619E-04 -1.296397E+02 
 1.659916E-02 9.146054E+01  9.661920E-01 2.772545E+01  5.182752E-04 8.203846E+01 
 2.682619E-04 -1.296397E+02  5.182752E-04 8.203846E+01  9.475359E-01 -4.751407E+01 
6.024375000E+02  9.441780E-01 -3.206441E+01  1.665123E-02 9.134207E+01  2.937868E-04 -1.323133E+02 
 1.665123E-02 9.134207E+01  9.663289E-01 2.759068E+01  5.394553E-04 7.964139E+01 
 2.937868E-04 -1.323133E+02  5.394553E-04 7.964139E+01  9.474454E-01 -4.760720E+01 
6.026250000E+02  9.435664E-01 -3.210630E+01  1.671361E-02 9.107404E+01  2.903120E-04 -1.343280E+02 
 1.671361E-02 9.107404E+01  9.658549E-01 2.745357E+01  5.385569E-04 7.373472E+01 
 2.903120E-04 -1.343280E+02  5.385569E-04 7.373472E+01  9.477026E-01 -4.768147E+01 
6.028125000E+02  9.435195E-01 -3.217993E+01  1.673885E-02 9.073275E+01  3.069213E-04 -1.374569E+02 
 1.673885E-02 9.073275E+01  9.653832E-01 2.735376E+01  4.829459E-04 7.151467E+01 
 3.069213E-04 -1.374569E+02  4.829459E-04 7.151467E+01  9.489382E-01 -4.773173E+01 
6.030000000E+02  9.435119E-01 -3.223665E+01  1.670210E-02 9.054418E+01  2.731819E-04 -1.448192E+02 
 1.670210E-02 9.054418E+01  9.652624E-01 2.724683E+01  4.939532E-04 7.300857E+01 
 2.731819E-04 -1.448192E+02  4.939532E-04 7.300857E+01  9.499511E-01 -4.783442E+01 
6.031875000E+02  9.439179E-01 -3.234414E+01  1.664399E-02 9.034628E+01  2.417673E-04 -1.448596E+02 
 1.664399E-02 9.034628E+01  9.648561E-01 2.713216E+01  4.821831E-04 7.527976E+01 
 2.417673E-04 -1.448596E+02  4.821831E-04 7.527976E+01  9.506973E-01 -4.797532E+01 
6.033750000E+02  9.441311E-01 -3.243534E+01  1.663765E-02 9.017864E+01  2.341243E-04 -1.517845E+02 
 1.663765E-02 9.017864E+01  9.648823E-01 2.700514E+01  4.416179E-04 7.474168E+01 
 2.341243E-04 -1.517845E+02  4.416179E-04 7.474168E+01  9.509477E-01 -4.807889E+01 
6.035625000E+02  9.438152E-01 -3.253631E+01  1.661464E-02 9.013453E+01  2.378010E-04 -1.318072E+02 
 1.661464E-02 9.013453E+01  9.644211E-01 2.690006E+01  4.836989E-04 7.743321E+01 
 2.378010E-04 -1.318072E+02  4.836989E-04 7.743321E+01  9.513160E-01 -4.820736E+01 
6.037500000E+02  9.432269E-01 -3.262895E+01  1.660614E-02 8.991106E+01  2.419970E-04 -1.303591E+02 
 1.660614E-02 8.991106E+01  9.639500E-01 2.679208E+01  5.096863E-04 7.672962E+01 
 2.419970E-04 -1.303591E+02  5.096863E-04 7.672962E+01  9.516943E-01 -4.831058E+01 
6.039375000E+02  9.435159E-01 -3.274902E+01  1.653759E-02 8.982282E+01  2.652518E-04 -1.241930E+02 
 1.653759E-02 8.982282E+01  9.637898E-01 2.665657E+01  5.320930E-04 7.707006E+01 
 2.652518E-04 -1.241930E+02  5.320930E-04 7.707006E+01  9.519183E-01 -4.843772E+01 
6.041250000E+02  9.433172E-01 -3.282545E+01  1.651193E-02 8.983340E+01  2.847643E-04 -1.326233E+02 
 1.651193E-02 8.983340E+01  9.637093E-01 2.655144E+01  4.929765E-04 7.479571E+01 
 2.847643E-04 -1.326233E+02  4.929765E-04 7.479571E+01  9.522615E-01 -4.853888E+01 
6.043125000E+02  9.441085E-01 -3.294608E+01  1.655930E-02 8.987626E+01  2.824519E-04 -1.311778E+02 
 1.655930E-02 8.987626E+01  9.638041E-01 2.643222E+01  4.910598E-04 7.321365E+01 
 2.824519E-04 -1.311778E+02  4.910598E-04 7.321365E+01  9.528632E-01 -4.863124E+01 
6.045000000E+02  9.435689E-01 -3.306145E+01  1.651296E-02 8.992101E+01  2.741924E-04 -1.341268E+02 
 1.651296E-02 8.992101E+01  9.632273E-01 2.632822E+01  4.903966E-04 7.577439E+01 
 2.741924E-04 -1.341268E+02  4.903966E-04 7.577439E+01  9.527521E-01 -4.871376E+01 
6.046875000E+02  9.430905E-01 -3.316879E+01  1.651104E-02 8.988714E+01  2.879385E-04 -1.395173E+02 
 1.651104E-02 8.988714E+01  9.630665E-01 2.624353E+01  4.910662E-04 7.371625E+01 
 2.879385E-04 -1.395173E+02  4.910662E-04 7.371625E+01  9.527713E-01 -4.879930E+01 
6.048750000E+02  9.421546E-01 -3.325678E+01  1.652325E-02 9.004445E+01  3.100496E-04 -1.421902E+02 
 1.652325E-02 9.004445E+01  9.627036E-01 2.613293E+01  4.871972E-04 7.817030E+01 
 3.100496E-04 -1.421902E+02  4.871972E-04 7.817030E+01  9.526991E-01 -4.889961E+01 
6.050625000E+02  9.413822E-01 -3.329940E+01  1.659079E-02 9.005755E+01  2.973123E-04 -1.382031E+02 
 1.659079E-02 9.005755E+01  9.626297E-01 2.605586E+01  4.961691E-04 7.332739E+01 
 2.973123E-04 -1.382031E+02  4.961691E-04 7.332739E+01  9.528068E-01 -4.899289E+01 
6.052500000E+02  9.416297E-01 -3.330002E+01  1.664664E-02 8.988763E+01  2.997038E-04 -1.373993E+02 
 1.664664E-02 8.988763E+01  9.624708E-01 2.595862E+01  5.085442E-04 7.322914E+01 
 2.997038E-04 -1.373993E+02  5.085442E-04 7.322914E+01  9.526590E-01 -4.911132E+01 
6.054375000E+02  9.427421E-01 -3.334457E+01  1.666500E-02 8.954762E+01  3.025787E-04 -1.421245E+02 
 1.666500E-02 8.954762E+01  9.619982E-01 2.588933E+01  5.012391E-04 7.654723E+01 
 3.025787E-04 -1.421245E+02  5.012391E-04 7.654723E+01  9.526326E-01 -4.918758E+01 
6.056250000E+02  9.439680E-01 -3.344769E+01  1.659994E-02 8.944860E+01  2.786040E-04 -1.444360E+02 
 1.659994E-02 8.944860E+01  9.618980E-01 2.581598E+01  5.356020E-04 7.147109E+01 
 2.786040E-04 -1.444360E+02  5.356020E-04 7.147109E+01  9.521991E-01 -4.931886E+01 
6.058125000E+02  9.445940E-01 -3.360208E+01  1.658656E-02 8.944368E+01  2.393130E-04 -1.408729E+02 
 1.658656E-02 8.944368E+01  9.617853E-01 2.575308E+01  4.841935E-04 7.474372E+01 
 2.393130E-04 -1.408729E+02  4.841935E-04 7.474372E+01  9.520658E-01 -4.938851E+01 
6.060000000E+02  9.448977E-01 -3.374559E+01  1.656285E-02 8.946233E+01  2.913967E-04 -1.407189E+02 
 1.656285E-02 8.946233E+01  9.623885E-01 2.566825E+01  5.059049E-04 7.363155E+01 
 2.913967E-04 -1.407189E+02  5.059049E-04 7.363155E+01  9.514897E-01 -4.950137E+01 
6.061875000E+02  9.445930E-01 -3.390573E+01  1.656525E-02 8.947056E+01  2.651339E-04 -1.412437E+02 
 1.656525E-02 8.947056E+01  9.625848E-01 2.557663E+01  4.786991E-04 7.820478E+01 
 2.651339E-04 -1.412437E+02  4.786991E-04 7.820478E+01  9.513865E-01 -4.958655E+01 
6.063750000E+02  9.440338E-01 -3.402038E+01  1.659684E-02 8.943969E+01  2.487961E-04 -1.336268E+02 
 1.659684E-02 8.943969E+01  9.624122E-01 2.548763E+01  4.744373E-04 7.430674E+01 
 2.487961E-04 -1.336268E+02  4.744373E-04 7.430674E+01  9.508590E-01 -4.965364E+01 
6.065625000E+02  9.434763E-01 -3.417050E+01  1.661120E-02 8.922727E+01  2.536336E-04 -1.342491E+02 
 1.661120E-02 8.922727E+01  9.624614E-01 2.532065E+01  5.069575E-04 7.904854E+01 
 2.536336E-04 -1.342491E+02  5.069575E-04 7.904854E+01  9.502582E-01 -4.972688E+01 
6.067500000E+02  9.421676E-01 -3.431563E+01  1.661330E-02 8.916082E+01  2.617043E-04 -1.279750E+02 
 1.661330E-02 8.916082E+01  9.616264E-01 2.518866E+01  5.410687E-04 7.747786E+01 
 2.617043E-04 -1.279750E+02  5.410687E-04 7.747786E+01  9.497924E-01 -4.984077E+01 
6.069375000E+02  9.409631E-01 -3.436118E+01  1.659636E-02 8.896518E+01  2.660111E-04 -1.305739E+02 
 1.659636E-02 8.896518E+01  9.603498E-01 2.506743E+01  5.443258E-04 7.335381E+01 
 2.660111E-04 -1.305739E+02  5.443258E-04 7.335381E+01  9.493363E-01 -4.993495E+01 
6.071250000E+02  9.404085E-01 -3.444907E+01  1.660500E-02 8.913917E+01  3.244164E-04 -1.291523E+02 
 1.660500E-02 8.913917E+01  9.589157E-01 2.495649E+01  5.810012E-04 7.219694E+01 
 3.244164E-04 -1.291523E+02  5.810012E-04 7.219694E+01  9.486660E-01 -5.000647E+01 
6.073125000E+02  9.397074E-01 -3.450716E+01  1.664599E-02 8.897662E+01  3.447617E-04 -1.308488E+02 
 1.664599E-02 8.897662E+01  9.565457E-01 2.482475E+01  5.262386E-04 7.035096E+01 
 3.447617E-04 -1.308488E+02  5.262386E-04 7.035096E+01  9.485355E-01 -5.009057E+01 
6.075000000E+02  9.394631E-01 -3.453302E+01  1.660461E-02 8.902057E+01  3.108593E-04 -1.439942E+02 
 1.660461E-02 8.902057E+01  9.520394E-01 2.487096E+01  5.653616E-04 6.920010E+01 
 3.108593E-04 -1.439942E+02  5.653616E-04 6.920010E+01  9.484721E-01 -5.015382E+01 
6.076875000E+02  9.396745E-01 -3.456984E+01  1.664068E-02 8.907497E+01  3.213358E-04 -1.449813E+02 
 1.664068E-02 8.907497E+01  9.529418E-01 2.517398E+01  5.327654E-04 6.521716E+01 
 3.213358E-04 -1.449813E+02  5.327654E-04 6.521716E+01  9.475770E-01 -5.022891E+01 
6.078750000E+02  9.400232E-01 -3.460328E+01  1.667717E-02 8.875923E+01  2.958113E-04 -1.454052E+02 
 1.667717E-02 8.875923E+01  9.567729E-01 2.516726E+01  4.915144E-04 6.724228E+01 
 2.958113E-04 -1.454052E+02  4.915144E-04 6.724228E+01  9.472810E-01 -5.030282E+01 
6.080625000E+02  9.406203E-01 -3.467539E+01  1.666401E-02 8.854298E+01  2.552389E-04 -1.421630E+02 
 1.666401E-02 8.854298E+01  9.583695E-01 2.504245E+01  4.869309E-04 6.661849E+01 
 2.552389E-04 -1.421630E+02  4.869309E-04 6.661849E+01  9.467371E-01 -5.035775E+01 
6.082500000E+02  9.412988E-01 -3.476112E+01  1.668325E-02 8.867188E+01  2.482098E-04 -1.442720E+02 
 1.668325E-02 8.867188E+01  9.592023E-01 2.492921E+01  4.925844E-04 6.476188E+01 
 2.482098E-04 -1.442720E+02  4.925844E-04 6.476188E+01  9.463227E-01 -5.043117E+01 
6.084375000E+02  9.415398E-01 -3.483808E+01  1.671099E-02 8.863751E+01  2.610537E-04 -1.438464E+02 
 1.671099E-02 8.863751E+01  9.601405E-01 2.483969E+01  4.786415E-04 6.493677E+01 
 2.610537E-04 -1.438464E+02  4.786415E-04 6.493677E+01  9.459907E-01 -5.048683E+01 
6.086250000E+02  9.424223E-01 -3.491121E+01  1.673375E-02 8.837134E+01  2.430596E-04 -1.436495E+02 
 1.673375E-02 8.837134E+01  9.607974E-01 2.475569E+01  4.533187E-04 6.102815E+01 
 2.430596E-04 -1.436495E+02  4.533187E-04 6.102815E+01  9.458288E-01 -5.054270E+01 
6.088125000E+02  9.432533E-01 -3.501740E+01  1.669900E-02 8.823321E+01  2.951423E-04 -1.305491E+02 
 1.669900E-02 8.823321E+01  9.615297E-01 2.464704E+01  4.462101E-04 6.546142E+01 
 2.951423E-04 -1.305491E+02  4.462101E-04 6.546142E+01  9.456017E-01 -5.062944E+01 
6.090000000E+02  9.428125E-01 -3.513339E+01  1.671713E-02 8.823201E+01  3.129399E-04 -1.340381E+02 
 1.671713E-02 8.823201E+01  9.623358E-01 2.456243E+01  4.574648E-04 6.803202E+01 
 3.129399E-04 -1.340381E+02  4.574648E-04 6.803202E+01  9.453805E-01 -5.070527E+01 
6.091875000E+02  9.427100E-01 -3.526150E+01  1.672929E-02 8.799600E+01  2.805632E-04 -1.375500E+02 
 1.672929E-02 8.799600E+01  9.627513E-01 2.442902E+01  4.447953E-04 7.393013E+01 
 2.805632E-04 -1.375500E+02  4.447953E-04 7.393013E+01  9.444756E-01 -5.080755E+01 
6.093750000E+02  9.429264E-01 -3.534029E+01  1.671379E-02 8.802145E+01  3.001129E-04 -1.393188E+02 
 1.671379E-02 8.802145E+01  9.631865E-01 2.435436E+01  4.585629E-04 7.141050E+01 
 3.001129E-04 -1.393188E+02  4.585629E-04 7.141050E+01  9.437923E-01 -5.086391E+01 
6.095625000E+02  9.426697E-01 -3.540808E+01  1.674706E-02 8.793131E+01  2.940049E-04 -1.407669E+02 
 1.674706E-02 8.793131E+01  9.635540E-01 2.421132E+01  4.479618E-04 6.696730E+01 
 2.940049E-04 -1.407669E+02  4.479618E-04 6.696730E+01  9.425509E-01 -5.088843E+01 
6.097500000E+02  9.431266E-01 -3.554868E+01  1.679479E-02 8.789583E+01  3.115508E-04 -1.451634E+02 
 1.679479E-02 8.789583E+01  9.644517E-01 2.408275E+01  4.074216E-04 7.020778E+01 
 3.115508E-04 -1.451634E+02  4.074216E-04 7.020778E+01  9.418484E-01 -5.086070E+01 
6.099375000E+02  9.425126E-01 -3.565731E+01  1.675092E-02 8.763027E+01  3.011402E-04 -1.346396E+02 
 1.675092E-02 8.763027E+01  9.635369E-01 2.398257E+01  4.267455E-04 7.511342E+01 
 3.011402E-04 -1.346396E+02  4.267455E-04 7.511342E+01  9.423935E-01 -5.084993E+01 
6.101250000E+02  9.431286E-01 -3.569668E+01  1.680724E-02 8.740881E+01  2.611774E-04 -1.385508E+02 
 1.680724E-02 8.740881E+01  9.641406E-01 2.385444E+01  3.974503E-04 8.188511E+01 
 2.611774E-04 -1.385508E+02  3.974503E-04 8.188511E+01  9.431012E-01 -5.092181E+01 
6.103125000E+02  9.439871E-01 -3.580923E+01  1.677590E-02 8.729083E+01  2.780160E-04 -1.402490E+02 
 1.677590E-02 8.729083E+01  9.644080E-01 2.377463E+01  4.494110E-04 8.351985E+01 
 2.780160E-04 -1.402490E+02  4.494110E-04 8.351985E+01  9.432341E-01 -5.098108E+01 
6.105000000E+02  9.446013E-01 -3.594425E+01  1.675346E-02 8.719405E+01  2.603236E-04 -1.480560E+02 
 1.675346E-02 8.719405E+01  9.647601E-01 2.365133E+01  4.517010E-04 8.105585E+01 
 2.603236E-04 -1.480560E+02  4.517010E-04 8.105585E+01  9.432380E-01 -5.107112E+01 
6.106875000E+02  9.448164E-01 -3.611460E+01  1.672669E-02 8.705259E+01  2.502167E-04 -1.375772E+02 
 1.672669E-02 8.705259E+01  9.651130E-01 2.351137E+01  5.131464E-04 8.028598E+01 
 2.502167E-04 -1.375772E+02  5.131464E-04 8.028598E+01  9.425162E-01 -5.113122E+01 
6.108750000E+02  9.444987E-01 -3.628091E+01  1.671722E-02 8.689553E+01  2.424660E-04 -1.312753E+02 
 1.671722E-02 8.689553E+01  9.651463E-01 2.336348E+01  5.102081E-04 7.656410E+01 
 2.424660E-04 -1.312753E+02  5.102081E-04 7.656410E+01  9.420039E-01 -5.112696E+01 
6.110625000E+02  9.439937E-01 -3.638092E+01  1.668432E-02 8.673762E+01  3.011174E-04 -1.377254E+02 
 1.668432E-02 8.673762E+01  9.649262E-01 2.326061E+01  4.812497E-04 7.084993E+01 
 3.011174E-04 -1.377254E+02  4.812497E-04 7.084993E+01  9.422869E-01 -5.114898E+01 
6.112500000E+02  9.440388E-01 -3.646103E+01  1.671145E-02 8.673392E+01  2.758621E-04 -1.386855E+02 
 1.671145E-02 8.673392E+01  9.649458E-01 2.314150E+01  4.522436E-04 7.079876E+01 
 2.758621E-04 -1.386855E+02  4.522436E-04 7.079876E+01  9.429295E-01 -5.119842E+01 
6.114375000E+02  9.438645E-01 -3.654565E+01  1.667124E-02 8.665962E+01  2.855593E-04 -1.305992E+02 
 1.667124E-02 8.665962E+01  9.644660E-01 2.301028E+01  4.502138E-04 7.733862E+01 
 2.855593E-04 -1.305992E+02  4.502138E-04 7.733862E+01  9.427266E-01 -5.119270E+01 
6.116250000E+02  9.452717E-01 -3.666687E+01  1.670595E-02 8.661484E+01  3.157897E-04 -1.362625E+02 
 1.670595E-02 8.661484E+01  9.648854E-01 2.290173E+01  4.691756E-04 7.596510E+01 
 3.157897E-04 -1.362625E+02  4.691756E-04 7.596510E+01  9.437745E-01 -5.124547E+01 
6.118125000E+02  9.462891E-01 -3.682195E+01  1.670743E-02 8.656088E+01  2.881220E-04 -1.421393E+02 
 1.670743E-02 8.656088E+01  9.645286E-01 2.274901E+01  5.010450E-04 7.264116E+01 
 2.881220E-04 -1.421393E+02  5.010450E-04 7.264116E+01  9.442358E-01 -5.126877E+01 
6.120000000E+02  9.464900E-01 -3.700978E+01  1.671239E-02 8.624782E+01  2.615749E-04 -1.373619E+02 
 1.671239E-02 8.624782E+01  9.641774E-01 2.263944E+01  4.951508E-04 7.982562E+01 
 2.615749E-04 -1.373619E+02  4.951508E-04 7.982562E+01  9.446747E-01 -5.130462E+01 
6.121875000E+02  9.464228E-01 -3.714184E+01  1.666784E-02 8.616298E+01  2.981841E-04 -1.365493E+02 
 1.666784E-02 8.616298E+01  9.641902E-01 2.254034E+01  5.045328E-04 7.708253E+01 
 2.981841E-04 -1.365493E+02  5.045328E-04 7.708253E+01  9.455975E-01 -5.137334E+01 
6.123750000E+02  9.464125E-01 -3.727906E+01  1.662635E-02 8.602777E+01  2.992673E-04 -1.346305E+02 
 1.662635E-02 8.602777E+01  9.636023E-01 2.242469E+01  5.124149E-04 8.014899E+01 
 2.992673E-04 -1.346305E+02  5.124149E-04 8.014899E+01  9.460485E-01 -5.142568E+01 
6.125625000E+02  9.470054E-01 -3.740626E+01  1.666405E-02 8.601654E+01  3.475093E-04 -1.402543E+02 
 1.666405E-02 8.601654E+01  9.631136E-01 2.233935E+01  5.291282E-04 7.634031E+01 
 3.475093E-04 -1.402543E+02  5.291282E-04 7.634031E+01  9.466301E-01 -5.154809E+01 
6.127500000E+02  9.476716E-01 -3.758934E+01  1.665594E-02 8.596465E+01  3.240074E-04 -1.398387E+02 
 1.665594E-02 8.596465E+01  9.631774E-01 2.221906E+01  5.186782E-04 7.735360E+01 
 3.240074E-04 -1.398387E+02  5.186782E-04 7.735360E+01  9.468580E-01 -5.161566E+01 
6.129375000E+02  9.472117E-01 -3.772935E+01  1.665883E-02 8.585837E+01  2.867052E-04 -1.458698E+02 
 1.665883E-02 8.585837E+01  9.629434E-01 2.212882E+01  5.173180E-04 7.680258E+01 
 2.867052E-04 -1.458698E+02  5.173180E-04 7.680258E+01  9.478407E-01 -5.170184E+01 
6.131250000E+02  9.466540E-01 -3.788350E+01  1.667169E-02 8.572474E+01  2.855495E-04 -1.426130E+02 
 1.667169E-02 8.572474E+01  9.626771E-01 2.203286E+01  5.306318E-04 7.383927E+01 
 2.855495E-04 -1.426130E+02  5.306318E-04 7.383927E+01  9.478771E-01 -5.180454E+01 
6.133125000E+02  9.469062E-01 -3.802941E+01  1.670668E-02 8.567056E+01  3.069068E-04 -1.469099E+02 
 1.670668E-02 8.567056E+01  9.624625E-01 2.196480E+01  5.282920E-04 7.585321E+01 
 3.069068E-04 -1.469099E+02  5.282920E-04 7.585321E+01  9.480217E-01 -5.190747E+01 
6.135000000E+02  9.466295E-01 -3.816527E+01  1.668396E-02 8.553323E+01  2.980273E-04 -1.465323E+02 
 1.668396E-02 8.553323E+01  9.627551E-01 2.186072E+01  5.239183E-04 7.435766E+01 
 2.980273E-04 -1.465323E+02  5.239183E-04 7.435766E+01  9.484555E-01 -5.203273E+01 
6.136875000E+02  9.458952E-01 -3.829028E+01  1.666674E-02 8.541817E+01  2.751102E-04 -1.456178E+02 
