! Matrix data file written by TouchstoneData, EPCOS AG
! FILENAME: "B4414_WB.s3p"
! COMMENT: "measurement on PCB, wideband, matched"
! INFO: nport=3, nfreq=1601
! DATE: "Tue Jun 24 14:51:02 2014"
! USER: "Daniel Harbusch"
!
! port | pin | signal
! -----|-----|--------
!   1  |  3  |  TX
!   2  |  6  |  Antenna
!   3  |  1  |  RX
! --------------------
! 
# MHZ S MA R 50
! freq  magS11 angS11  magS12 angS12  magS13 angS13  ...
5.000000000E+01  9.999704E-01 1.655601E+02  1.493717E-05 -9.851532E+01  8.288061E-07 1.544078E+02 
 1.493717E-05 -9.851532E+01  9.999996E-01 1.716965E+02  8.171683E-07 -5.623408E+01 
 8.288061E-07 1.544078E+02  8.171683E-07 -5.623408E+01  9.999413E-01 1.619526E+02 
5.371875000E+01  9.999742E-01 1.644790E+02  1.789312E-05 -1.029464E+02  1.382141E-06 1.559971E+02 
 1.789312E-05 -1.029464E+02  9.999940E-01 1.710746E+02  3.897537E-07 -1.332251E+02 
 1.382141E-06 1.559971E+02  3.897537E-07 -1.332251E+02  9.999029E-01 1.606052E+02 
5.743750000E+01  9.999712E-01 1.633975E+02  2.193848E-05 -1.003989E+02  1.189497E-06 -9.831513E+01 
 2.193848E-05 -1.003989E+02  9.999929E-01 1.704517E+02  6.206028E-07 -8.199017E+01 
 1.189497E-06 -9.831513E+01  6.206028E-07 -8.199017E+01  9.999179E-01 1.592543E+02 
6.115625000E+01  9.999510E-01 1.623142E+02  2.763395E-05 -1.056056E+02  8.027005E-07 6.463421E+01 
 2.763395E-05 -1.056056E+02  9.999910E-01 1.698283E+02  5.072803E-07 -1.021050E+02 
 8.027005E-07 6.463421E+01  5.072803E-07 -1.021050E+02  9.998952E-01 1.578985E+02 
6.487500000E+01  9.999644E-01 1.612304E+02  3.202305E-05 -1.031460E+02  8.643278E-07 -1.920218E+01 
 3.202305E-05 -1.031460E+02  9.999925E-01 1.692042E+02  1.283672E-06 -1.710151E+02 
 8.643278E-07 -1.920218E+01  1.283672E-06 -1.710151E+02  9.999172E-01 1.565454E+02 
6.859375000E+01  9.999112E-01 1.601410E+02  3.627128E-05 -1.064427E+02  1.532256E-06 -1.702654E+01 
 3.627128E-05 -1.064427E+02  9.999955E-01 1.685793E+02  8.445007E-07 -7.269135E+01 
 1.532256E-06 -1.702654E+01  8.445007E-07 -7.269135E+01  9.998866E-01 1.551836E+02 
7.231250000E+01  9.999156E-01 1.590571E+02  4.395500E-05 -1.049531E+02  1.509731E-06 1.772511E+02 
 4.395500E-05 -1.049531E+02  9.999878E-01 1.679539E+02  7.169337E-07 1.321325E+02 
 1.509731E-06 1.772511E+02  7.169337E-07 1.321325E+02  9.998396E-01 1.538321E+02 
7.603125000E+01  9.999143E-01 1.579670E+02  5.106715E-05 -1.080160E+02  1.606901E-06 1.283062E+02 
 5.106715E-05 -1.080160E+02  9.999921E-01 1.673256E+02  8.213231E-07 1.684867E+02 
 1.606901E-06 1.283062E+02  8.213231E-07 1.684867E+02  9.997919E-01 1.524681E+02 
7.975000000E+01  9.998976E-01 1.568737E+02  5.700764E-05 -1.090961E+02  5.520181E-06 -3.021728E+01 
 5.700764E-05 -1.090961E+02  1.000001E+00 1.666966E+02  1.774794E-06 -1.272196E+02 
 5.520181E-06 -3.021728E+01  1.774794E-06 -1.272196E+02  9.997924E-01 1.511049E+02 
8.346875000E+01  9.998970E-01 1.557775E+02  6.505812E-05 -1.072421E+02  2.471659E-06 -1.427434E+02 
 6.505812E-05 -1.072421E+02  9.999861E-01 1.660662E+02  3.545092E-06 -1.353987E+02 
 2.471659E-06 -1.427434E+02  3.545092E-06 -1.353987E+02  9.998493E-01 1.497365E+02 
8.718750000E+01  9.998685E-01 1.546869E+02  7.632644E-05 -1.099886E+02  7.098172E-06 -1.768407E+01 
 7.632644E-05 -1.099886E+02  9.999863E-01 1.654354E+02  2.084777E-06 -1.095227E+02 
 7.098172E-06 -1.768407E+01  2.084777E-06 -1.095227E+02  9.998243E-01 1.483716E+02 
9.090625000E+01  9.998777E-01 1.535858E+02  8.927893E-05 -1.102665E+02  4.610046E-06 -4.014114E+01 
 8.927893E-05 -1.102665E+02  9.999778E-01 1.648019E+02  8.115881E-07 -1.296919E+02 
 4.610046E-06 -4.014114E+01  8.115881E-07 -1.296919E+02  9.997441E-01 1.469963E+02 
9.462500000E+01  9.998335E-01 1.524871E+02  1.033265E-04 -1.106303E+02  6.587561E-07 6.379650E+01 
 1.033265E-04 -1.106303E+02  9.999564E-01 1.641687E+02  3.606696E-06 1.151121E+02 
 6.587561E-07 6.379650E+01  3.606696E-06 1.151121E+02  9.994845E-01 1.456240E+02 
9.834375000E+01  9.998482E-01 1.513812E+02  1.127217E-04 -1.122064E+02  4.804629E-06 8.751431E+01 
 1.127217E-04 -1.122064E+02  9.999669E-01 1.635329E+02  1.233223E-06 1.243005E+02 
 4.804629E-06 8.751431E+01  1.233223E-06 1.243005E+02  9.997072E-01 1.442607E+02 
1.020625000E+02  9.997968E-01 1.502807E+02  1.276193E-04 -1.144152E+02  2.953947E-06 -9.488137E+01 
 1.276193E-04 -1.144152E+02  9.999807E-01 1.628949E+02  2.920662E-06 -1.101846E+02 
 2.953947E-06 -9.488137E+01  2.920662E-06 -1.101846E+02  9.996082E-01 1.428726E+02 
1.057812500E+02  9.998041E-01 1.491669E+02  1.403859E-04 -1.141055E+02  1.910832E-06 -1.688016E+02 
 1.403859E-04 -1.141055E+02  9.999840E-01 1.622556E+02  3.290195E-06 -1.060927E+02 
 1.910832E-06 -1.688016E+02  3.290195E-06 -1.060927E+02  9.996396E-01 1.414929E+02 
1.095000000E+02  9.998279E-01 1.480581E+02  1.587196E-04 -1.143035E+02  7.321435E-07 -9.803177E+00 
 1.587196E-04 -1.143035E+02  9.999615E-01 1.616149E+02  2.576335E-06 -1.322519E+02 
 7.321435E-07 -9.803177E+00  2.576335E-06 -1.322519E+02  9.995983E-01 1.401078E+02 
1.132187500E+02  9.998426E-01 1.469439E+02  1.701461E-04 -1.157320E+02  8.770682E-07 -1.409896E+02 
 1.701461E-04 -1.157320E+02  9.999540E-01 1.609729E+02  2.327735E-06 -1.309852E+02 
 8.770682E-07 -1.409896E+02  2.327735E-06 -1.309852E+02  9.994993E-01 1.387312E+02 
1.169375000E+02  9.996202E-01 1.458408E+02  1.906749E-04 -1.164324E+02  2.063403E-06 -4.819526E-01 
 1.906749E-04 -1.164324E+02  9.999446E-01 1.603299E+02  3.780834E-06 -1.189102E+02 
 2.063403E-06 -4.819526E-01  3.780834E-06 -1.189102E+02  9.995234E-01 1.373334E+02 
1.206562500E+02  9.995847E-01 1.447171E+02  2.054813E-04 -1.159717E+02  3.488624E-06 1.145651E+02 
 2.054813E-04 -1.159717E+02  9.999499E-01 1.596838E+02  4.611493E-06 -9.420137E+01 
 3.488624E-06 1.145651E+02  4.611493E-06 -9.420137E+01  9.994852E-01 1.359495E+02 
1.243750000E+02  9.997138E-01 1.435936E+02  2.334442E-04 -1.173735E+02  7.153343E-06 8.775002E+00 
 2.334442E-04 -1.173735E+02  9.999746E-01 1.590353E+02  3.386168E-06 -1.230424E+02 
 7.153343E-06 8.775002E+00  3.386168E-06 -1.230424E+02  9.992268E-01 1.345575E+02 
1.280937500E+02  9.995942E-01 1.424713E+02  2.496565E-04 -1.188509E+02  9.106291E-06 -5.066280E+01 
 2.496565E-04 -1.188509E+02  9.999666E-01 1.583862E+02  7.607523E-06 -1.492611E+02 
 9.106291E-06 -5.066280E+01  7.607523E-06 -1.492611E+02  9.993405E-01 1.331451E+02 
1.318125000E+02  9.996589E-01 1.413416E+02  2.751932E-04 -1.203715E+02  1.343059E-05 8.407722E+01 
 2.751932E-04 -1.203715E+02  9.999502E-01 1.577335E+02  6.460399E-06 -1.331075E+02 
 1.343059E-05 8.407722E+01  6.460399E-06 -1.331075E+02  9.990541E-01 1.317383E+02 
1.355312500E+02  9.995665E-01 1.402087E+02  2.957968E-04 -1.226217E+02  1.573478E-05 -1.410787E+02 
 2.957968E-04 -1.226217E+02  9.999095E-01 1.570771E+02  4.903803E-06 -1.794712E+02 
 1.573478E-05 -1.410787E+02  4.903803E-06 -1.794712E+02  9.993133E-01 1.303492E+02 
1.392500000E+02  9.993733E-01 1.390709E+02  3.171753E-04 -1.201385E+02  7.022598E-06 9.818242E+01 
 3.171753E-04 -1.201385E+02  9.999316E-01 1.564215E+02  8.036412E-06 -1.252545E+02 
 7.022598E-06 9.818242E+01  8.036412E-06 -1.252545E+02  9.993124E-01 1.289273E+02 
1.429687500E+02  9.995009E-01 1.379391E+02  3.512003E-04 -1.222739E+02  1.960682E-05 3.417496E+01 
 3.512003E-04 -1.222739E+02  9.999183E-01 1.557637E+02  1.474245E-05 -1.345765E+02 
 1.960682E-05 3.417496E+01  1.474245E-05 -1.345765E+02  9.989609E-01 1.275314E+02 
1.466875000E+02  9.994706E-01 1.367975E+02  3.629930E-04 -1.230413E+02  2.678334E-05 1.459526E+02 
 3.629930E-04 -1.230413E+02  9.999583E-01 1.551034E+02  2.912270E-06 -1.188517E+02 
 2.678334E-05 1.459526E+02  2.912270E-06 -1.188517E+02  9.989820E-01 1.261205E+02 
1.504062500E+02  9.993714E-01 1.356577E+02  3.943146E-04 -1.224327E+02  9.559343E-06 -2.383813E+00 
 3.943146E-04 -1.224327E+02  9.999109E-01 1.544403E+02  1.004737E-05 -1.337567E+02 
 9.559343E-06 -2.383813E+00  1.004737E-05 -1.337567E+02  9.991563E-01 1.246838E+02 
1.541250000E+02  9.994342E-01 1.345036E+02  4.298734E-04 -1.247901E+02  6.666409E-06 1.752392E+02 
 4.298734E-04 -1.247901E+02  9.999202E-01 1.537734E+02  7.497097E-06 -1.348869E+02 
 6.666409E-06 1.752392E+02  7.497097E-06 -1.348869E+02  9.989892E-01 1.232780E+02 
1.578437500E+02  9.993202E-01 1.333528E+02  4.683728E-04 -1.267082E+02  1.412068E-06 -1.036781E+02 
 4.683728E-04 -1.267082E+02  9.998934E-01 1.531042E+02  5.586845E-06 -1.328236E+02 
 1.412068E-06 -1.036781E+02  5.586845E-06 -1.328236E+02  9.990078E-01 1.218389E+02 
1.615625000E+02  9.989319E-01 1.321906E+02  5.028937E-04 -1.273725E+02  2.493531E-06 -1.790876E+02 
 5.028937E-04 -1.273725E+02  9.998801E-01 1.524306E+02  1.014707E-05 -1.292579E+02 
 2.493531E-06 -1.790876E+02  1.014707E-05 -1.292579E+02  9.988324E-01 1.204079E+02 
1.652812500E+02  9.990974E-01 1.310536E+02  5.345295E-04 -1.283235E+02  9.556462E-06 1.389541E+02 
 5.345295E-04 -1.283235E+02  9.998172E-01 1.517649E+02  1.176259E-05 -1.672247E+02 
 9.556462E-06 1.389541E+02  1.176259E-05 -1.672247E+02  9.984498E-01 1.189887E+02 
1.690000000E+02  9.993030E-01 1.298981E+02  5.715667E-04 -1.290227E+02  1.731258E-06 -2.999802E+01 
 5.715667E-04 -1.290227E+02  9.998420E-01 1.510898E+02  1.156489E-05 -1.470485E+02 
 1.731258E-06 -2.999802E+01  1.156489E-05 -1.470485E+02  9.985311E-01 1.175690E+02 
1.727187500E+02  9.991230E-01 1.287215E+02  6.176195E-04 -1.302657E+02  2.623025E-06 -4.157221E+01 
 6.176195E-04 -1.302657E+02  9.998223E-01 1.504086E+02  1.520283E-05 -1.507041E+02 
 2.623025E-06 -4.157221E+01  1.520283E-05 -1.507041E+02  9.983079E-01 1.161419E+02 
1.764375000E+02  9.992046E-01 1.275630E+02  6.573306E-04 -1.314439E+02  1.226983E-05 3.871368E+01 
 6.573306E-04 -1.314439E+02  9.998426E-01 1.497272E+02  1.272861E-05 -1.674737E+02 
 1.226983E-05 3.871368E+01  1.272861E-05 -1.674737E+02  9.981340E-01 1.146918E+02 
1.801562500E+02  9.990159E-01 1.263850E+02  6.898843E-04 -1.318967E+02  6.030475E-06 -3.345248E+00 
 6.898843E-04 -1.318967E+02  9.997941E-01 1.490418E+02  1.633272E-05 -1.548888E+02 
 6.030475E-06 -3.345248E+00  1.633272E-05 -1.548888E+02  9.980510E-01 1.132483E+02 
1.838750000E+02  9.990055E-01 1.251967E+02  7.415291E-04 -1.332802E+02  8.837045E-06 -5.330533E+01 
 7.415291E-04 -1.332802E+02  9.997835E-01 1.483515E+02  1.643371E-05 -1.386761E+02 
 8.837045E-06 -5.330533E+01  1.643371E-05 -1.386761E+02  9.982091E-01 1.117972E+02 
1.875937500E+02  9.988983E-01 1.240259E+02  7.880758E-04 -1.338366E+02  8.345631E-06 1.658055E+02 
 7.880758E-04 -1.338366E+02  9.997583E-01 1.476655E+02  3.645202E-05 -1.346340E+02 
 8.345631E-06 1.658055E+02  3.645202E-05 -1.346340E+02  9.976921E-01 1.103158E+02 
1.913125000E+02  9.990620E-01 1.228551E+02  8.457241E-04 -1.361967E+02  3.245006E-05 1.377402E+01 
 8.457241E-04 -1.361967E+02  9.997585E-01 1.469654E+02  3.077242E-05 -1.526329E+02 
 3.245006E-05 1.377402E+01  3.077242E-05 -1.526329E+02  9.972023E-01 1.088957E+02 
1.950312500E+02  9.987406E-01 1.216556E+02  8.874535E-04 -1.336296E+02  1.056882E-05 -8.402167E+01 
 8.874535E-04 -1.336296E+02  9.996909E-01 1.462695E+02  1.300760E-05 -1.610146E+02 
 1.056882E-05 -8.402167E+01  1.300760E-05 -1.610146E+02  9.974369E-01 1.074630E+02 
1.987500000E+02  9.983368E-01 1.204510E+02  9.358552E-04 -1.366731E+02  6.434381E-06 -1.751791E+02 
 9.358552E-04 -1.366731E+02  9.997424E-01 1.455760E+02  2.439513E-05 -1.227038E+02 
 6.434381E-06 -1.751791E+02  2.439513E-05 -1.227038E+02  9.974188E-01 1.059847E+02 
2.024687500E+02  9.985260E-01 1.192515E+02  9.775433E-04 -1.376563E+02  1.145221E-05 1.754889E+02 
 9.775433E-04 -1.376563E+02  9.995921E-01 1.448655E+02  2.373564E-05 -1.657947E+02 
 1.145221E-05 1.754889E+02  2.373564E-05 -1.657947E+02  9.973100E-01 1.045028E+02 
2.061875000E+02  9.981293E-01 1.180565E+02  1.050762E-03 -1.386123E+02  6.807450E-06 -1.002908E+02 
 1.050762E-03 -1.386123E+02  9.995150E-01 1.441606E+02  2.775158E-05 -1.347049E+02 
 6.807450E-06 -1.002908E+02  2.775158E-05 -1.347049E+02  9.973013E-01 1.030343E+02 
2.099062500E+02  9.984849E-01 1.168941E+02  1.107572E-03 -1.400233E+02  1.043524E-05 4.462722E+01 
 1.107572E-03 -1.400233E+02  9.993274E-01 1.434574E+02  2.417125E-05 -1.410369E+02 
 1.043524E-05 4.462722E+01  2.417125E-05 -1.410369E+02  9.968169E-01 1.015719E+02 
2.136250000E+02  9.982480E-01 1.156727E+02  1.165181E-03 -1.407236E+02  7.911409E-06 -8.807737E+01 
 1.165181E-03 -1.407236E+02  9.994521E-01 1.427368E+02  4.958883E-05 -1.689139E+02 
 7.911409E-06 -8.807737E+01  4.958883E-05 -1.689139E+02  9.959015E-01 1.001468E+02 
2.173437500E+02  9.981295E-01 1.144587E+02  1.242305E-03 -1.417772E+02  1.587823E-05 4.963368E+01 
 1.242305E-03 -1.417772E+02  9.995012E-01 1.420262E+02  2.470074E-05 -1.558341E+02 
 1.587823E-05 4.963368E+01  2.470074E-05 -1.558341E+02  9.965575E-01 9.865299E+01 
2.210625000E+02  9.980767E-01 1.132297E+02  1.290794E-03 -1.425143E+02  2.165609E-05 1.105499E+02 
 1.290794E-03 -1.425143E+02  9.995239E-01 1.413023E+02  3.115760E-05 1.786963E+02 
 2.165609E-05 1.105499E+02  3.115760E-05 1.786963E+02  9.958073E-01 9.718892E+01 
2.247812500E+02  9.981340E-01 1.120369E+02  1.360643E-03 -1.427509E+02  7.900169E-06 -9.377316E+01 
 1.360643E-03 -1.427509E+02  9.994359E-01 1.405804E+02  2.835520E-05 -1.539177E+02 
 7.900169E-06 -9.377316E+01  2.835520E-05 -1.539177E+02  9.960683E-01 9.574607E+01 
2.285000000E+02  9.980288E-01 1.107794E+02  1.432964E-03 -1.442143E+02  1.505486E-05 -4.849190E+01 
 1.432964E-03 -1.442143E+02  9.994075E-01 1.398536E+02  3.920646E-05 -1.543359E+02 
 1.505486E-05 -4.849190E+01  3.920646E-05 -1.543359E+02  9.962116E-01 9.420814E+01 
2.322187500E+02  9.971406E-01 1.094732E+02  1.517008E-03 -1.453276E+02  1.645181E-05 1.090253E+02 
 1.517008E-03 -1.453276E+02  9.994417E-01 1.390872E+02  3.327313E-05 -1.395407E+02 
 1.645181E-05 1.090253E+02  3.327313E-05 -1.395407E+02  9.962046E-01 9.265208E+01 
2.359375000E+02  9.971116E-01 1.083275E+02  1.567436E-03 -1.458267E+02  2.903110E-05 2.618459E+01 
 1.567436E-03 -1.458267E+02  9.992136E-01 1.383823E+02  2.038734E-05 -1.592616E+02 
 2.903110E-05 2.618459E+01  2.038734E-05 -1.592616E+02  9.950291E-01 9.124684E+01 
2.396562500E+02  9.972654E-01 1.071024E+02  1.643970E-03 -1.476246E+02  4.440734E-05 2.007176E+01 
 1.643970E-03 -1.476246E+02  9.993499E-01 1.376413E+02  4.107121E-05 -1.458212E+02 
 4.440734E-05 2.007176E+01  4.107121E-05 -1.458212E+02  9.952605E-01 8.978665E+01 
2.433750000E+02  9.971448E-01 1.058556E+02  1.742074E-03 -1.478353E+02  3.227500E-05 4.607829E+01 
 1.742074E-03 -1.478353E+02  9.993088E-01 1.368975E+02  3.384424E-05 -1.573559E+02 
 3.227500E-05 4.607829E+01  3.384424E-05 -1.573559E+02  9.951601E-01 8.826884E+01 
2.470937500E+02  9.975321E-01 1.045990E+02  1.807245E-03 -1.488416E+02  2.156749E-05 -1.746746E+02 
 1.807245E-03 -1.488416E+02  9.992411E-01 1.361508E+02  4.280562E-05 -1.497640E+02 
 2.156749E-05 -1.746746E+02  4.280562E-05 -1.497640E+02  9.954228E-01 8.678170E+01 
2.508125000E+02  9.974488E-01 1.033423E+02  1.898998E-03 -1.503309E+02  3.685963E-06 3.294723E+01 
 1.898998E-03 -1.503309E+02  9.992399E-01 1.353962E+02  4.215810E-05 -1.521783E+02 
 3.685963E-06 3.294723E+01  4.215810E-05 -1.521783E+02  9.954228E-01 8.529138E+01 
2.545312500E+02  9.964404E-01 1.021193E+02  2.004264E-03 -1.511965E+02  2.466692E-05 -7.715992E+01 
 2.004264E-03 -1.511965E+02  9.990842E-01 1.346352E+02  3.387385E-05 -1.529814E+02 
 2.466692E-05 -7.715992E+01  3.387385E-05 -1.529814E+02  9.956170E-01 8.378963E+01 
2.582500000E+02  9.965972E-01 1.008560E+02  2.040412E-03 -1.529049E+02  1.694983E-05 1.449287E+02 
 2.040412E-03 -1.529049E+02  9.988608E-01 1.338826E+02  3.731695E-05 -1.306167E+02 
 1.694983E-05 1.449287E+02  3.731695E-05 -1.306167E+02  9.930894E-01 8.227362E+01 
2.619687500E+02  9.967874E-01 9.960497E+01  2.136704E-03 -1.526139E+02  1.743928E-05 9.719870E-01 
 2.136704E-03 -1.526139E+02  9.991506E-01 1.331100E+02  4.679857E-05 1.592955E+02 
 1.743928E-05 9.719870E-01  4.679857E-05 1.592955E+02  9.935704E-01 8.080803E+01 
2.656875000E+02  9.969208E-01 9.828426E+01  2.234098E-03 -1.539990E+02  2.900888E-05 -1.653442E+02 
 2.234098E-03 -1.539990E+02  9.991704E-01 1.323393E+02  4.360684E-05 -1.584151E+02 
 2.900888E-05 -1.653442E+02  4.360684E-05 -1.584151E+02  9.944698E-01 7.933073E+01 
2.694062500E+02  9.962815E-01 9.703007E+01  2.338685E-03 -1.547600E+02  5.406177E-05 1.636009E+02 
 2.338685E-03 -1.547600E+02  9.989513E-01 1.315607E+02  4.819171E-05 -1.619702E+02 
 5.406177E-05 1.636009E+02  4.819171E-05 -1.619702E+02  9.943028E-01 7.782642E+01 
2.731250000E+02  9.968832E-01 9.575867E+01  2.415747E-03 -1.561649E+02  3.166816E-05 7.369890E+01 
 2.415747E-03 -1.561649E+02  9.991727E-01 1.307792E+02  7.437692E-05 -1.474162E+02 
 3.166816E-05 7.369890E+01  7.437692E-05 -1.474162E+02  9.944503E-01 7.630050E+01 
2.768437500E+02  9.961540E-01 9.442948E+01  2.529743E-03 -1.571203E+02  2.173268E-05 3.859664E+01 
 2.529743E-03 -1.571203E+02  9.991121E-01 1.299887E+02  5.787842E-05 -1.558896E+02 
 2.173268E-05 3.859664E+01  5.787842E-05 -1.558896E+02  9.940863E-01 7.473902E+01 
2.805625000E+02  9.951028E-01 9.320173E+01  2.662299E-03 -1.582829E+02  4.494197E-05 -3.659844E+01 
 2.662299E-03 -1.582829E+02  9.987283E-01 1.291892E+02  5.102996E-05 -1.743596E+02 
 4.494197E-05 -3.659844E+01  5.102996E-05 -1.743596E+02  9.930849E-01 7.319659E+01 
2.842812500E+02  9.957631E-01 9.194543E+01  2.737120E-03 -1.590590E+02  1.049083E-05 -1.149001E+02 
 2.737120E-03 -1.590590E+02  9.987624E-01 1.284069E+02  4.394531E-05 1.774833E+02 
 1.049083E-05 -1.149001E+02  4.394531E-05 1.774833E+02  9.918725E-01 7.170994E+01 
2.880000000E+02  9.956838E-01 9.063449E+01  2.853537E-03 -1.603494E+02  4.556412E-06 1.763915E+02 
 2.853537E-03 -1.603494E+02  9.986657E-01 1.275976E+02  6.065690E-05 1.750027E+02 
 4.556412E-06 1.763915E+02  6.065690E-05 1.750027E+02  9.920796E-01 7.026066E+01 
2.917187500E+02  9.957760E-01 8.930740E+01  2.967460E-03 -1.611686E+02  1.366499E-05 -3.410148E+01 
 2.967460E-03 -1.611686E+02  9.986956E-01 1.268001E+02  6.447000E-05 -1.706049E+02 
 1.366499E-05 -3.410148E+01  6.447000E-05 -1.706049E+02  9.927009E-01 6.879418E+01 
2.954375000E+02  9.953253E-01 8.803772E+01  3.082917E-03 -1.626429E+02  4.311245E-05 1.113997E+01 
 3.082917E-03 -1.626429E+02  9.983721E-01 1.259733E+02  7.951557E-05 -1.741081E+02 
 4.311245E-05 1.113997E+01  7.951557E-05 -1.741081E+02  9.929915E-01 6.722700E+01 
2.991562500E+02  9.947170E-01 8.665437E+01  3.202243E-03 -1.638178E+02  3.003593E-05 3.356526E+01 
 3.202243E-03 -1.638178E+02  9.985566E-01 1.251589E+02  6.701684E-05 -1.646118E+02 
 3.003593E-05 3.356526E+01  6.701684E-05 -1.646118E+02  9.911195E-01 6.571393E+01 
3.028750000E+02  9.939589E-01 8.540073E+01  3.337071E-03 -1.648636E+02  3.143804E-05 2.337469E+01 
 3.337071E-03 -1.648636E+02  9.978700E-01 1.243175E+02  8.203617E-05 1.786474E+02 
 3.143804E-05 2.337469E+01  8.203617E-05 1.786474E+02  9.912023E-01 6.416711E+01 
3.065937500E+02  9.941480E-01 8.411980E+01  3.402751E-03 -1.656497E+02  3.668658E-06 1.624889E+01 
 3.402751E-03 -1.656497E+02  9.982119E-01 1.235034E+02  7.071803E-05 -1.716162E+02 
 3.668658E-06 1.624889E+01  7.071803E-05 -1.716162E+02  9.901540E-01 6.277277E+01 
3.103125000E+02  9.941261E-01 8.275873E+01  3.550059E-03 -1.667685E+02  2.481231E-05 -3.509574E+01 
 3.550059E-03 -1.667685E+02  9.981623E-01 1.226609E+02  8.898551E-05 -1.670946E+02 
 2.481231E-05 -3.509574E+01  8.898551E-05 -1.670946E+02  9.901404E-01 6.123028E+01 
3.140312500E+02  9.942632E-01 8.140801E+01  3.671724E-03 -1.676168E+02  1.958812E-05 -1.525638E+02 
 3.671724E-03 -1.676168E+02  9.979011E-01 1.218211E+02  6.873719E-05 -1.435491E+02 
 1.958812E-05 -1.525638E+02  6.873719E-05 -1.435491E+02  9.909846E-01 5.966543E+01 
3.177500000E+02  9.935934E-01 8.009221E+01  3.823452E-03 -1.691897E+02  4.415134E-05 -4.914256E+01 
 3.823452E-03 -1.691897E+02  9.979881E-01 1.209764E+02  1.023065E-04 1.730021E+02 
 4.415134E-05 -4.914256E+01  1.023065E-04 1.730021E+02  9.906588E-01 5.818696E+01 
3.214687500E+02  9.927852E-01 7.873216E+01  3.970739E-03 -1.698040E+02  4.746269E-05 3.852324E+01 
