! Matrix data file written by TouchstoneData, EPCOS AG
! FILENAME: "X3403_NB.s6p"
! COMMENT: "(X3403_NB.s6p)"
! INFO: nport=6, nfreq=1601
! DATE: "Tue May 10 10:57:56 2011"
! USER: "Mohamed El Hakiki"
!
! port | pin | signal
! -----|-----|--------
!   1  |  10  | input
!   2  |  12  | input balanced
!   3  |  6  |  Output TDM1
!   4  |  8  |  Output TDM1, balanced
!   5  |  4 |   Output TDM2
!   6  |  3  |  Output TDM2, balanced
! --------------------
! 
# MHZ S RI R 50
! freq  reS11 imS11  reS12 imS12  reS13 imS13  reS14 imS14  ...
50  0.00702 -0.277808  0.946551 0.0229915  -0.001032 0.0001795  0.0006115 0.0020275 
 0.000558 0.001693  -0.000845 0.000152 
 0.946551 0.0229915  0.019584 -0.278161  -0.0010275 0.001172  0.0020145 0.0013315 
 0.001614 0.001351  -0.000869 0.000505 
 -0.001032 0.0001795  -0.0010275 0.001172  0.203339 -0.44884  0.7799915 0.25678 
 0 0  0 0 
 0.0006115 0.0020275  0.0020145 0.0013315  0.7799915 0.25678  0.192564 -0.449232 
 0 0  0 0 
 0.000558 0.001693  0.001614 0.001351  0 0  0 0 
 0.333221 -0.565057  0.620869 0.360006 
 -0.000845 0.000152  -0.000869 0.000505  0 0  0 0 
 0.620869 0.360006  0.379644 -0.543506 
50.034375  0.006756 -0.277333  0.946394 0.0225815  -0.00099 0.00015  0.000545 0.0020935 
 0.000511 0.001784  -0.000796 0.000138 
 0.946394 0.0225815  0.019595 -0.27791  -0.0010575 0.0011425  0.002065 0.0013575 
 0.001614 0.001407  -0.000894 0.000481 
 -0.00099 0.00015  -0.0010575 0.0011425  0.202314 -0.447329  0.781309 0.25568 
 0 0  0 0 
 0.000545 0.0020935  0.002065 0.0013575  0.781309 0.25568  0.191307 -0.448041 
 0 0  0 0 
 0.000511 0.001784  0.001614 0.001407  0 0  0 0 
 0.332117 -0.564391  0.622023 0.3595065 
 -0.000796 0.000138  -0.000894 0.000481  0 0  0 0 
 0.622023 0.3595065  0.3787 -0.543107 
50.06875  0.007038 -0.277101  0.9462795 0.0221305  -0.001014 0.0001045  0.00057 0.002137 
 0.000569 0.001846  -0.000806 3.101875e-05 
 0.9462795 0.0221305  0.01983 -0.277845  -0.001165 0.00116  0.0021635 0.0013265 
 0.001764 0.001424  -0.000968 0.000487 
 -0.001014 0.0001045  -0.001165 0.00116  0.201337 -0.446486  0.782156 0.254329 
 0 0  0 0 
 0.00057 0.002137  0.0021635 0.0013265  0.782156 0.254329  0.190312 -0.446616 
 0 0  0 0 
 0.000569 0.001846  0.001764 0.001424  0 0  0 0 
 0.331195 -0.564065  0.622746 0.3588925 
 -0.000806 3.101875e-05  -0.000968 0.000487  0 0  0 0 
 0.622746 0.3588925  0.377976 -0.542756 
50.103125  0.006686 -0.27701  0.946074 0.021796  -0.0010645 4.2412795e-05  0.0006115 0.002219 
 0.00066 0.001896  -0.000863 -2.120107e-05 
 0.946074 0.021796  0.020026 -0.277604  -0.001208 0.001182  0.0022215 0.0012955 
 0.001835 0.00144  -0.001028 0.000517 
 -0.0010645 4.2412795e-05  -0.001208 0.001182  0.200343 -0.445436  0.7831025 0.2528655 
 0 0  0 0 
 0.0006115 0.002219  0.0022215 0.0012955  0.7831025 0.2528655  0.189478 -0.44556 
 0 0  0 0 
 0.00066 0.001896  0.001835 0.00144  0 0  0 0 
 0.330066 -0.563318  0.623648 0.3580645 
 -0.000863 -2.120107e-05  -0.001028 0.000517  0 0  0 0 
 0.623648 0.3580645  0.377115 -0.542293 
50.1375  0.006909 -0.276722  0.9462625 0.0216185  -0.0011315 1.3060204e-05  0.000689 0.0022475 
 0.000725 0.001861  -0.000977 -2.959934e-05 
 0.9462625 0.0216185  0.019815 -0.27772  -0.001272 0.0012905  0.0022995 0.00124 
 0.001938 0.001374  -0.001156 0.000566 
 -0.0011315 1.3060204e-05  -0.001272 0.0012905  0.198925 -0.444856  0.784249 0.252085 
 0 0  0 0 
 0.000689 0.0022475  0.0022995 0.00124  0.784249 0.252085  0.188462 -0.44444 
 0 0  0 0 
 0.000725 0.001861  0.001938 0.001374  0 0  0 0 
 0.329319 -0.562994  0.624467 0.357755 
 -0.000977 -2.959934e-05  -0.001156 0.000566  0 0  0 0 
 0.624467 0.357755  0.376165 -0.541851 
50.171875  0.006576 -0.276647  0.946086 0.0213745  -0.0012455 4.578087e-05  0.000762 0.002259 
 0.000796 0.001828  -0.000993 3.215277e-05 
 0.946086 0.0213745  0.019629 -0.277487  -0.0012825 0.001406  0.002328 0.0011345 
 0.002037 0.001286  -0.001165 0.000708 
 -0.0012455 4.578087e-05  -0.0012825 0.001406  0.197651 -0.443734  0.7855415 0.251069 
 0 0  0 0 
 0.000762 0.002259  0.002328 0.0011345  0.7855415 0.251069  0.187072 -0.443674 
 0 0  0 0 
 0.000796 0.001828  0.002037 0.001286  0 0  0 0 
 0.328295 -0.562706  0.625605 0.3572655 
 -0.000993 3.215277e-05  -0.001165 0.000708  0 0  0 0 
 0.625605 0.3572655  0.374987 -0.541779 
50.20625  0.006388 -0.276147  0.9461085 0.020804  -0.0013055 0.0001365  0.0008855 0.0022185 
 0.000874 0.001745  -0.001097 7.691484e-05 
 0.9461085 0.020804  0.019665 -0.277435  -0.0012135 0.001565  0.002299 0.0010525 
 0.002123 0.001167  -0.001158 0.000848 
 -0.0013055 0.0001365  -0.0012135 0.001565  0.196243 -0.442472  0.786899 0.249849 
 0 0  0 0 
 0.0008855 0.0022185  0.002299 0.0010525  0.786899 0.249849  0.185955 -0.442604 
 0 0  0 0 
 0.000874 0.001745  0.002123 0.001167  0 0  0 0 
 0.326986 -0.562417  0.626696 0.356729 
 -0.001097 7.691484e-05  -0.001158 0.000848  0 0  0 0 
 0.626696 0.356729  0.374144 -0.541184 
50.240625  0.006559 -0.27601  0.946422 0.020501  -0.0013425 0.0002535  0.0009435 0.002169 
 0.000898 0.001631  -0.001128 0.000195 
 0.946422 0.020501  0.019618 -0.277272  -0.0011085 0.001651  0.0022745 0.000992 
 0.002067 0.00101  -0.001021 0.000959 
 -0.0013425 0.0002535  -0.0011085 0.001651  0.194734 -0.441416  0.7880655 0.248841 
 0 0  0 0 
 0.0009435 0.002169  0.0022745 0.000992  0.7880655 0.248841  0.18434 -0.441555 
 0 0  0 0 
 0.000898 0.001631  0.002067 0.00101  0 0  0 0 
 0.325824 -0.561964  0.627476 0.356257 
 -0.001128 0.000195  -0.001021 0.000959  0 0  0 0 
 0.627476 0.356257  0.373147 -0.540854 
50.275  0.006465 -0.275659  0.946297 0.020124  -0.0013195 0.0003295  0.0009525 0.002118 
 0.00088 0.001537  -0.001098 0.000286 
 0.946297 0.020124  0.019505 -0.277264  -0.0009935 0.001673  0.0022425 0.0009285 
 0.002027 0.000899  -0.000955 0.000979 
 -0.0013195 0.0003295  -0.0009935 0.001673  0.193445 -0.440265  0.789269 0.247339 
 0 0  0 0 
 0.0009525 0.002118  0.0022425 0.0009285  0.789269 0.247339  0.18305 -0.440388 
 0 0  0 0 
 0.00088 0.001537  0.002027 0.000899  0 0  0 0 
 0.32476 -0.561319  0.6282785 0.355483 
 -0.001098 0.000286  -0.000955 0.000979  0 0  0 0 
 0.6282785 0.355483  0.372436 -0.540272 
50.309375  0.006662 -0.275328  0.946742 0.0195625  -0.0012585 0.0004035  0.001028 0.0020375 
 0.000867 0.001439  -0.001049 0.00037 
 0.946742 0.0195625  0.019504 -0.277004  -0.000886 0.001704  0.0021845 0.000835 
 0.001943 0.000824  -0.000872 0.001019 
 -0.0012585 0.0004035  -0.000886 0.001704  0.192315 -0.439082  0.790322 0.2458325 
 0 0  0 0 
 0.001028 0.0020375  0.0021845 0.000835  0.790322 0.2458325  0.182023 -0.439077 
 0 0  0 0 
 0.000867 0.001439  0.001943 0.000824  0 0  0 0 
 0.323844 -0.560858  0.629054 0.354611 
 -0.001049 0.00037  -0.000872 0.001019  0 0  0 0 
 0.629054 0.354611  0.371724 -0.539628 
50.34375  0.006467 -0.27501  0.946726 0.019561  -0.001233 0.0004445  0.0010335 0.0019895 
 0.0008 0.001357  -0.000954 0.000402 
 0.946726 0.019561  0.019362 -0.276651  -0.0007885 0.0016825  0.002078 0.000831 
 0.001806 0.000735  -0.000797 0.001018 
 -0.001233 0.0004445  -0.0007885 0.0016825  0.19129 -0.437527  0.791536 0.244666 
 0 0  0 0 
 0.0010335 0.0019895  0.002078 0.000831  0.791536 0.244666  0.180467 -0.438004 
 0 0  0 0 
 0.0008 0.001357  0.001806 0.000735  0 0  0 0 
 0.32289 -0.559783  0.6298555 0.3540815 
 -0.000954 0.000402  -0.000797 0.001018  0 0  0 0 
 0.6298555 0.3540815  0.370864 -0.539479 
50.378125  0.006544 -0.275017  0.9466975 0.019189  -0.0012235 0.000501  0.0010825 0.0018985 
 0.000731 0.001354  -0.000827 0.000467 
 0.9466975 0.019189  0.019144 -0.276594  -0.0006755 0.001652  0.0020295 0.0008145 
 0.001678 0.000732  -0.000663 0.000989 
 -0.0012235 0.000501  -0.0006755 0.001652  0.190291 -0.436658  0.7928525 0.243296 
 0 0  0 0 
 0.0010825 0.0018985  0.0020295 0.0008145  0.7928525 0.243296  0.17964 -0.436576 
 0 0  0 0 
 0.000731 0.001354  0.001678 0.000732  0 0  0 0 
 0.322067 -0.559249  0.630708 0.353185 
 -0.000827 0.000467  -0.000663 0.000989  0 0  0 0 
 0.630708 0.353185  0.370386 -0.538927 
50.4125  0.006676 -0.274964  0.9468455 0.018649  -0.001155 0.0005825  0.0010745 0.001798 
 0.00059 0.001315  -0.000726 0.000445 
 0.9468455 0.018649  0.018761 -0.276379  -0.0005935 0.001606  0.0019705 0.0008165 
 0.001535 0.000801  -0.000585 0.000904 
 -0.001155 0.0005825  -0.0005935 0.001606  0.188974 -0.435445  0.793899 0.2420735 
 0 0  0 0 
 0.0010745 0.001798  0.0019705 0.0008165  0.793899 0.2420735  0.178246 -0.435411 
 0 0  0 0 
 0.00059 0.001315  0.001535 0.000801  0 0  0 0 
 0.321255 -0.558477  0.6311065 0.352719 
 -0.000726 0.000445  -0.000585 0.000904  0 0  0 0 
 0.6311065 0.352719  0.369801 -0.538655 
50.446875  0.006357 -0.275093  0.9465375 0.018416  -0.0010655 0.000662  0.001007 0.0016995 
 0.000466 0.001344  -0.000614 0.000364 
 0.9465375 0.018416  0.018606 -0.276427  -0.000517 0.001534  0.001936 0.000817 
 0.001463 0.000928  -0.000524 0.000798 
 -0.0010655 0.000662  -0.000517 0.001534  0.187759 -0.434467  0.7950865 0.2406685 
 0 0  0 0 
 0.001007 0.0016995  0.001936 0.000817  0.7950865 0.2406685  0.177287 -0.434141 
 0 0  0 0 
 0.000466 0.001344  0.001463 0.000928  0 0  0 0 
 0.320726 -0.557527  0.6314855 0.351889 
 -0.000614 0.000364  -0.000524 0.000798  0 0  0 0 
 0.6314855 0.351889  0.369348 -0.538354 
50.48125  0.006166 -0.274934  0.946962 0.0179955  -0.000957 0.0006685  0.000965 0.0016325 
 0.00037 0.001506  -0.000598 0.000295 
 0.946962 0.0179955  0.018601 -0.276064  -0.000452 0.001493  0.0018465 0.00083 
 0.001466 0.001122  -0.000571 0.000697 
 -0.000957 0.0006685  -0.000452 0.001493  0.186782 -0.433319  0.7962185 0.239338 
 0 0  0 0 
 0.000965 0.0016325  0.0018465 0.00083  0.7962185 0.239338  0.176219 -0.432725 
 0 0  0 0 
 0.00037 0.001506  0.001466 0.001122  0 0  0 0 
 0.320798 -0.55652  0.6315385 0.351225 
 -0.000598 0.000295  -0.000571 0.000697  0 0  0 0 
 0.6315385 0.351225  0.369175 -0.538091 
50.515625  0.006057 -0.274679  0.946967 0.0176105  -0.0008235 0.00065  0.0008705 0.001566 
 0.000419 0.001629  -0.000622 0.000192 
 0.946967 0.0176105  0.018098 -0.275862  -0.000358 0.0013735  0.001807 0.000847 
 0.001556 0.001212  -0.000709 0.000606 
 -0.0008235 0.00065  -0.000358 0.0013735  0.185522 -0.432121  0.7971505 0.2381975 
 0 0  0 0 
 0.0008705 0.001566  0.001807 0.000847  0.7971505 0.2381975  0.174947 -0.431514 
 0 0  0 0 
 0.000419 0.001629  0.001556 0.001212  0 0  0 0 
 0.321091 -0.556631  0.6315515 0.351741 
 -0.000622 0.000192  -0.000709 0.000606  0 0  0 0 
 0.6315515 0.351741  0.368554 -0.538902 
50.55  0.005695 -0.274545  0.9471515 0.0170445  -0.0007615 0.0005965  0.0007805 0.001552 
 0.000468 0.001663  -0.000648 0.000156 
 0.9471515 0.0170445  0.018037 -0.27543  -0.0003855 0.0012705  0.001711 0.0008845 
 0.001679 0.001205  -0.000733 0.000644 
 -0.0007615 0.0005965  -0.0003855 0.0012705  0.184346 -0.430876  0.798166 0.236933 
 0 0  0 0 
 0.0007805 0.001552  0.001711 0.0008845  0.798166 0.236933  0.173687 -0.430258 
 0 0  0 0 
 0.000468 0.001663  0.001679 0.001205  0 0  0 0 
 0.320708 -0.557267  0.632219 0.35211 
 -0.000648 0.000156  -0.000733 0.000644  0 0  0 0 
 0.632219 0.35211  0.367388 -0.539463 
50.584375  0.00525 -0.274489  0.9470635 0.016611  -0.000687 0.000531  0.0006735 0.001564 
 0.000527 0.0017  -0.000651 0.000111 
 0.9470635 0.016611  0.01789 -0.275189  -0.0003755 0.0011885  0.0016245 0.0009585 
 0.001732 0.001249  -0.000777 0.000661 
 -0.000687 0.000531  -0.0003755 0.0011885  0.183257 -0.429971  0.7994865 0.2355035 
 0 0  0 0 
 0.0006735 0.001564  0.0016245 0.0009585  0.7994865 0.2355035  0.172779 -0.428962 
 0 0  0 0 
 0.000527 0.0017  0.001732 0.001249  0 0  0 0 
 0.319841 -0.557662  0.633359 0.352152 
 -0.000651 0.000111  -0.000777 0.000661  0 0  0 0 
 0.633359 0.352152  0.366314 -0.539205 
50.61875  0.005377 -0.274362  0.9472475 0.0162995  -0.0006055 0.0004495  0.000559 0.0016115 
 0.000572 0.001693  -0.000738 7.729129e-05 
 0.9472475 0.0162995  0.018058 -0.274968  -0.00038 0.0010365  0.001582 0.0011315 
 0.001836 0.001229  -0.000877 0.000681 
 -0.0006055 0.0004495  -0.00038 0.0010365  0.182239 -0.428967  0.800454 0.234433 
 0 0  0 0 
 0.000559 0.0016115  0.001582 0.0011315  0.800454 0.234433  0.171892 -0.427595 
 0 0  0 0 
 0.000572 0.001693  0.001836 0.001229  0 0  0 0 
 0.319102 -0.557625  0.6342145 0.352314 
 -0.000738 7.729129e-05  -0.000877 0.000681  0 0  0 0 
 0.6342145 0.352314  0.365292 -0.539176 
50.653125  0.005018 -0.273929  0.9474475 0.015975  -0.0006035 0.000312  0.0005095 0.0017725 
 0.000606 0.001715  -0.000756 0.000102 
 0.9474475 0.015975  0.017943 -0.274497  -0.0005005 0.0009315  0.001717 0.001266 
 0.001883 0.001116  -0.000905 0.000718 
 -0.0006035 0.000312  -0.0005005 0.0009315  0.180758 -0.427982  0.801457 0.233159 
 0 0  0 0 
 0.0005095 0.0017725  0.001717 0.001266  0.801457 0.233159  0.170742 -0.426564 
 0 0  0 0 
 0.000606 0.001715  0.001883 0.001116  0 0  0 0 
 0.317937 -0.557867  0.6353995 0.3523915 
 -0.000756 0.000102  -0.000905 0.000718  0 0  0 0 
 0.6353995 0.3523915  0.364103 -0.539633 
50.6875  0.004899 -0.273826  0.9473925 0.015079  -0.0006765 0.0001985  0.000575 0.001857 
 0.000628 0.001671  -0.000776 0.000107 
 0.9473925 0.015079  0.017456 -0.274336  -0.0006195 0.0009085  0.001838 0.0012865 
 0.001873 0.001056  -0.000926 0.000789 
 -0.0006765 0.0001985  -0.0006195 0.0009085  0.179532 -0.427364  0.802921 0.2319285 
 0 0  0 0 
 0.000575 0.001857  0.001838 0.0012865  0.802921 0.2319285  0.169895 -0.425539 
 0 0  0 0 
 0.000628 0.001671  0.001873 0.001056  0 0  0 0 
 0.316939 -0.558174  0.6366185 0.352239 
 -0.000776 0.000107  -0.000926 0.000789  0 0  0 0 
 0.6366185 0.352239  0.362859 -0.539218 
50.721875  0.004441 -0.273405  0.94751 0.014925  -0.000705 0.000206  0.0006525 0.0018665 
 0.00061 0.001637  -0.000816 0.000114 
 0.94751 0.014925  0.017384 -0.273906  -0.0006845 0.0009985  0.0019285 0.0012535 
 0.00188 0.001031  -0.000902 0.000798 
 -0.000705 0.000206  -0.0006845 0.0009985  0.177982 -0.426135  0.804304 0.2309545 
 0 0  0 0 
 0.0006525 0.0018665  0.0019285 0.0012535  0.804304 0.2309545  0.168597 -0.42476 
 0 0  0 0 
 0.00061 0.001637  0.00188 0.001031  0 0  0 0 
 0.315668 -0.557986  0.6379765 0.352056 
 -0.000816 0.000114  -0.000902 0.000798  0 0  0 0 
 0.6379765 0.352056  0.361434 -0.539304 
50.75625  0.004617 -0.273158  0.9477555 0.0145575  -0.000771 0.0002015  0.000672 0.0018425 
 0.00062 0.001664  -0.000814 9.884238e-05 
 0.9477555 0.0145575  0.017467 -0.273737  -0.000671 0.0010155  0.001957 0.0011775 
 0.001898 0.00101  -0.000915 0.000844 
 -0.000771 0.0002015  -0.000671 0.0010155  0.17638 -0.425347  0.805445 0.229737 
 0 0  0 0 
 0.000672 0.0018425  0.001957 0.0011775  0.805445 0.229737  0.167448 -0.423487 
 0 0  0 0 
 0.00062 0.001664  0.001898 0.00101  0 0  0 0 
 0.314672 -0.558207  0.6390695 0.3517815 
 -0.000814 9.884238e-05  -0.000915 0.000844  0 0  0 0 
 0.6390695 0.3517815  0.360316 -0.538762 
50.790625  0.004214 -0.272945  0.9479515 0.014097  -0.0007385 0.000189  0.0006865 0.0018485 
 0.000628 0.001734  -0.00084 0.000115 
 0.9479515 0.014097  0.017291 -0.273414  -0.0006825 0.0010265  0.0019745 0.001144 
 0.001907 0.001007  -0.000926 0.000863 
 -0.0007385 0.000189  -0.0006825 0.0010265  0.174877 -0.424004  0.807152 0.2283255 
 0 0  0 0 
 0.0006865 0.0018485  0.0019745 0.001144  0.807152 0.2283255  0.166136 -0.422321 
 0 0  0 0 
 0.000628 0.001734  0.001907 0.001007  0 0  0 0 
 0.313393 -0.558004  0.640531 0.351394 
 -0.00084 0.000115  -0.000926 0.000863  0 0  0 0 
 0.640531 0.351394  0.359148 -0.538297 
50.825  0.00415 -0.272697  0.9478665 0.01388  -0.0007635 0.0001535  0.000722 0.0018575 
 0.000656 0.00179  -0.000859 8.248216e-05 
 0.9478665 0.01388  0.01712 -0.273282  -0.0006905 0.001047  0.0020195 0.0011465 
 0.001954 0.000974  -0.000889 0.000924 
 -0.0007635 0.0001535  -0.0006905 0.001047  0.173167 -0.42275  0.808432 0.2270795 
 0 0  0 0 
 0.000722 0.0018575  0.0020195 0.0011465  0.808432 0.2270795  0.164598 -0.421142 
 0 0  0 0 
 0.000656 0.00179  0.001954 0.000974  0 0  0 0 
 0.312307 -0.557897  0.641373 0.351067 
 -0.000859 8.248216e-05  -0.000889 0.000924  0 0  0 0 
 0.641373 0.351067  0.357993 -0.538083 
50.859375  0.003794 -0.272385  0.947703 0.013141  -0.0008005 0.0001275  0.000739 0.0018155 
 0.000746 0.001785  -0.000893 7.059193e-05 
 0.947703 0.013141  0.0171 -0.272939  -0.000698 0.0010565  0.0020105 0.001079 
 0.001984 0.000923  -0.000862 0.000995 
 -0.0008005 0.0001275  -0.000698 0.0010565  0.171745 -0.421375  0.809905 0.225473 
 0 0  0 0 
 0.000739 0.0018155  0.0020105 0.001079  0.809905 0.225473  0.163452 -0.419945 
 0 0  0 0 
 0.000746 0.001785  0.001984 0.000923  0 0  0 0 
 0.310901 -0.557653  0.64283 0.350585 
 -0.000893 7.059193e-05  -0.000862 0.000995  0 0  0 0 
 0.64283 0.350585  0.356981 -0.53788 
50.89375  0.00371 -0.271754  0.9479895 0.0128435  -0.0007985 0.000148  0.00076 0.0018185 
 0.000841 0.001748  -0.000958 0.000115 
 0.9479895 0.0128435  0.01713 -0.272707  -0.0006565 0.00104  0.001999 0.001025 
 0.001995 0.000841  -0.000832 0.001029 
 -0.0007985 0.000148  -0.0006565 0.00104  0.170209 -0.419831  0.811365 0.223873 
 0 0  0 0 
 0.00076 0.0018185  0.001999 0.001025  0.811365 0.223873  0.162195 -0.418679 
 0 0  0 0 
 0.000841 0.001748  0.001995 0.000841  0 0  0 0 
 0.309807 -0.557552  0.644022 0.350107 
 -0.000958 0.000115  -0.000832 0.001029  0 0  0 0 
 0.644022 0.350107  0.35589 -0.537439 
50.928125  0.003655 -0.271423  0.9482155 0.012097  -0.000791 0.000169  0.000766 0.001774 
 0.000884 0.001699  -0.001 0.000209 
 0.9482155 0.012097  0.017014 -0.272305  -0.0006425 0.001039  0.0019385 0.001013 
 0.001933 0.000677  -0.000799 0.001087 
 -0.000791 0.000169  -0.0006425 0.001039  0.168809 -0.418414  0.8128635 0.2225075 
 0 0  0 0 
 0.000766 0.001774  0.0019385 0.001013  0.8128635 0.2225075  0.160846 -0.417621 
 0 0  0 0 
 0.000884 0.001699  0.001933 0.000677  0 0  0 0 
 0.308699 -0.55751  0.6453175 0.34971 
 -0.001 0.000209  -0.000799 0.001087  0 0  0 0 
 0.6453175 0.34971  0.354559 -0.537188 
50.9625  0.003297 -0.271358  0.9481745 0.0119335  -0.000777 0.000175  0.0007395 0.001747 
 0.000921 0.001625  -0.000933 0.000295 
 0.9481745 0.0119335  0.017001 -0.272175  -0.0006565 0.001012  0.001934 0.000991 
 0.001842 0.000611  -0.000674 0.001119 
 -0.000777 0.000175  -0.0006565 0.001012  0.167238 -0.416961  0.8143675 0.2210355 
 0 0  0 0 
 0.0007395 0.001747  0.001934 0.000991  0.8143675 0.2210355  0.159045 -0.416454 
 0 0  0 0 
 0.000921 0.001625  0.001842 0.000611  0 0  0 0 
 0.307488 -0.557463  0.6464665 0.3495965 
 -0.000933 0.000295  -0.000674 0.001119  0 0  0 0 
 0.6464665 0.3495965  0.353398 -0.536908 
50.996875  0.003402 -0.271275  0.948466 0.0110145  -0.0007775 0.000145  0.000742 0.001738 
 0.000879 0.001563  -0.000911 0.000269 
 0.948466 0.0110145  0.017065 -0.272029  -0.00064 0.0009865  0.001956 0.000946 
 0.00169 0.000609  -0.000591 0.001085 
 -0.0007775 0.000145  -0.00064 0.0009865  0.165948 -0.415239  0.8157465 0.2192485 
 0 0  0 0 
 0.000742 0.001738  0.001956 0.000946  0.8157465 0.2192485  0.157604 -0.414898 
 0 0  0 0 
 0.000879 0.001563  0.00169 0.000609  0 0  0 0 
 0.30609 -0.557455  0.6476145 0.348813 
 -0.000911 0.000269  -0.000591 0.001085  0 0  0 0 
 0.6476145 0.348813  0.35221 -0.536158 
51.03125  0.003239 -0.270785  0.948448 0.010726  -0.0007795 0.000131  0.0007495 0.0017035 
 0.000878 0.00154  -0.000846 0.000305 
 0.948448 0.010726  0.016914 -0.271703  -0.0006115 0.0009735  0.0018535 0.0008915 
 0.001575 0.000632  -0.000514 0.001024 
 -0.0007795 0.000131  -0.0006115 0.0009735  0.164573 -0.413763  0.8170805 0.217581 
 0 0  0 0 
 0.0007495 0.0017035  0.0018535 0.0008915  0.8170805 0.217581  0.156034 -0.413272 
 0 0  0 0 
 0.000878 0.00154  0.001575 0.000632  0 0  0 0 
 0.304501 -0.55711  0.6491325 0.3484185 
 -0.000846 0.000305  -0.000514 0.001024  0 0  0 0 
 0.6491325 0.3484185  0.351074 -0.536091 
51.065625  0.003428 -0.270741  0.948342 0.0100075  -0.000772 0.000167  0.000723 0.0016295 
 0.000831 0.001482  -0.000829 0.000287 
 0.948342 0.0100075  0.016558 -0.27146  -0.000585 0.000925  0.001777 0.0008635 
